!Keysight Technologies,E5080B,MY59205177,A.15.75.32
!Date: Friday, February 23, 2024 02:45:55
!Correction: S11(Cdelta 2-Port  ) 
!S21(Cdelta 2-Port  ) 
!S12(Cdelta 2-Port  ) 
!S22(Cdelta 2-Port  ) 
!S2P File: Measurements: S11, S21, S12, S22:
# Hz S  dB   R 50
10000000 -38.702217 -3.3283396 -0.075873457 -2.0606365 -0.078925222 -2.1104994 -51.423275 -39.951492
10999000 -38.34938 -4.4001703 -0.076362923 -2.2728977 -0.078973725 -2.3282905 -49.891384 -44.353264
11998000 -37.909607 -5.8548203 -0.077183127 -2.500526 -0.078896485 -2.5436866 -48.913631 -43.522152
12997000 -37.55801 -8.8139887 -0.076371618 -2.6790812 -0.078374319 -2.7098546 -47.854389 -47.620869
13996000 -37.42931 -11.058923 -0.075498626 -2.8533862 -0.078220919 -2.8818078 -46.91341 -49.155975
14995000 -37.274014 -13.501748 -0.077599481 -3.0685058 -0.078421757 -3.091465 -46.343956 -50.236565
15994000 -37.217899 -15.854886 -0.0787175 -3.2887754 -0.080513746 -3.3117595 -45.788235 -50.070843
16993000 -37.249294 -18.354628 -0.077705421 -3.4828148 -0.080007464 -3.4943233 -45.606144 -55.388851
17992000 -37.392586 -21.168358 -0.078223556 -3.6852052 -0.080483943 -3.6906888 -45.346291 -59.343819
18991000 -37.61908 -23.672911 -0.080092102 -3.8965833 -0.081916608 -3.8963182 -44.96212 -63.52039
19990000 -37.635574 -27.057386 -0.082246616 -4.1043558 -0.083832927 -4.1015615 -44.717289 -68.28199
20989000 -37.61269 -28.922915 -0.084269181 -4.3098803 -0.086266287 -4.3008804 -44.277809 -71.908997
21988000 -37.704689 -31.939974 -0.084909268 -4.5071139 -0.086506054 -4.4962325 -44.061485 -72.756317
22987000 -37.674828 -35.187767 -0.086921975 -4.7075772 -0.087545015 -4.6952114 -43.783627 -74.114059
23986000 -37.79686 -37.589668 -0.086125813 -4.9009962 -0.086601116 -4.9023919 -43.711765 -74.548004
24985000 -37.683979 -39.783802 -0.087646708 -5.113111 -0.087276667 -5.1108313 -43.188858 -73.753609
25984000 -37.600029 -41.763054 -0.088213056 -5.3190022 -0.087494306 -5.321137 -42.76527 -74.614212
26983000 -37.444077 -43.404236 -0.088432059 -5.5174313 -0.088631526 -5.5370798 -42.564495 -74.2901
27982000 -37.405167 -44.389606 -0.090233646 -5.7153788 -0.090085112 -5.7537293 -42.145741 -74.736267
28981000 -37.442387 -45.68198 -0.088581853 -5.9211416 -0.090478919 -5.9440365 -41.848793 -75.016724
29980000 -37.211796 -47.609184 -0.088879347 -6.1102252 -0.091247067 -6.1180167 -41.506573 -75.859268
30979000 -36.907143 -47.596527 -0.085648179 -6.4683337 -0.085693859 -6.4585328 -41.102097 -78.758308
31978000 -36.836666 -48.909126 -0.084946223 -6.6631098 -0.086614318 -6.6544666 -40.80447 -79.375679
32977000 -36.753067 -50.329998 -0.086036034 -6.8781929 -0.087433293 -6.8665881 -40.596729 -80.368004
33976000 -36.680977 -51.380455 -0.086688265 -7.0741167 -0.088007532 -7.0679383 -40.249947 -80.955605
34975000 -36.505043 -52.766922 -0.086333618 -7.2746124 -0.089045539 -7.2738409 -40.010178 -81.808533
35974000 -36.366783 -53.600643 -0.08621823 -7.4688382 -0.088973939 -7.4757047 -39.640709 -82.154938
36973000 -36.21339 -54.762596 -0.086309589 -7.6721816 -0.089721739 -7.6736798 -39.316788 -82.203598
37972000 -36.071377 -55.003956 -0.086018614 -7.8843794 -0.089168407 -7.8920574 -39.042412 -82.209518
38971000 -35.799332 -55.527283 -0.087455481 -8.0847187 -0.089882679 -8.0937672 -38.734489 -81.388695
39970000 -35.567833 -56.430756 -0.085787848 -8.2793989 -0.087585695 -8.2941036 -38.431297 -81.96743
40969000 -35.32896 -56.832802 -0.085736893 -8.4707451 -0.089412563 -8.4944868 -38.045395 -81.207565
41968000 -35.051933 -57.662758 -0.08587762 -8.6778421 -0.088708669 -8.6937437 -37.775131 -80.667961
42967000 -34.854408 -58.169559 -0.086581312 -8.8942938 -0.089565292 -8.9058962 -37.448299 -79.555389
43966000 -34.659462 -59.303024 -0.087163106 -9.0941162 -0.091154546 -9.1109505 -37.149811 -79.68338
44965000 -34.494247 -60.456409 -0.088087313 -9.2919521 -0.090635128 -9.3109436 -36.903595 -80.072876
45964000 -34.331444 -61.720997 -0.088326648 -9.496644 -0.092078283 -9.5170126 -36.679943 -80.567307
46963000 -34.245529 -63.646202 -0.089787535 -9.6894226 -0.092769228 -9.7133684 -36.51025 -81.293732
47962000 -34.169491 -65.092033 -0.091017611 -9.8917503 -0.09357138 -9.9096937 -36.330467 -82.033966
48961000 -34.048325 -66.650421 -0.092994019 -10.088384 -0.095661938 -10.112783 -36.120777 -82.745926
49960000 -33.902317 -68.1259 -0.094633996 -10.287815 -0.096718714 -10.309805 -36.012699 -83.235336
50959000 -33.766521 -69.620667 -0.095580705 -10.501795 -0.09798041 -10.510548 -35.858006 -83.999016
51958000 -33.638088 -70.948616 -0.097215302 -10.701356 -0.099648222 -10.713789 -35.719456 -85.059441
52957000 -33.492905 -72.223976 -0.098549955 -10.902578 -0.10025746 -10.906543 -35.55595 -85.210838
53956000 -33.364895 -73.197502 -0.1000874 -11.102795 -0.10143036 -11.102789 -35.418304 -85.54055
54955000 -33.259861 -73.819328 -0.10068239 -11.303809 -0.10238677 -11.302703 -35.271317 -85.922722
55954000 -33.138149 -74.816757 -0.10281322 -11.503947 -0.10243606 -11.505805 -35.142742 -85.818184
56953000 -33.01997 -75.126274 -0.10170832 -11.701391 -0.10120195 -11.692598 -35.107109 -86.215134
57952000 -32.899445 -75.949486 -0.10328612 -11.902749 -0.10292561 -11.888675 -34.997158 -86.49279
58951000 -32.798061 -76.478142 -0.10469928 -12.110345 -0.10386776 -12.092754 -34.84959 -87.050873
59950000 -32.686474 -76.967278 -0.105253 -12.31146 -0.10532647 -12.290349 -34.804993 -87.386116
60949000 -32.612217 -77.742775 -0.10513896 -12.509675 -0.10478387 -12.491356 -34.724045 -87.931686
61948000 -32.568439 -78.12925 -0.10645138 -12.712456 -0.10538056 -12.691202 -34.640862 -88.134163
62947000 -32.486912 -78.437408 -0.10634368 -12.919268 -0.10625349 -12.900976 -34.513515 -88.663139
63946000 -32.434875 -79.18988 -0.10703 -13.119403 -0.10703266 -13.104821 -34.422371 -89.03997
64945000 -32.347546 -79.530098 -0.10820845 -13.321743 -0.10808053 -13.305021 -34.341423 -89.796791
65944000 -32.252201 -79.896523 -0.1095125 -13.521736 -0.10856275 -13.504589 -34.269745 -90.412537
66943000 -32.128448 -80.503647 -0.10638905 -13.726419 -0.10649277 -13.70649 -34.18927 -90.851929
67942000 -32.063133 -80.601608 -0.10870369 -13.919925 -0.10933464 -13.90812 -34.06152 -91.358589
68941000 -31.964437 -80.907028 -0.10877191 -14.112155 -0.10806673 -14.105591 -33.956272 -91.493179
69940000 -31.867115 -81.016464 -0.10843324 -14.316294 -0.10881835 -14.300925 -33.837032 -92.10421
70939000 -31.757429 -81.164734 -0.10918254 -14.511367 -0.10906707 -14.501689 -33.674446 -92.167885
71938000 -31.609137 -80.972 -0.10828143 -14.701914 -0.10878517 -14.699339 -33.528084 -92.253372
72937000 -31.451296 -81.103889 -0.10774536 -14.90606 -0.10831195 -14.902744 -33.380562 -92.205811
73936000 -31.315668 -81.006668 -0.10843297 -15.10541 -0.10767318 -15.094977 -33.25248 -92.199547
74935000 -31.194433 -81.324547 -0.107942 -15.300698 -0.10766151 -15.29827 -33.079697 -92.044617
75934000 -31.078014 -81.908112 -0.10789026 -15.510399 -0.10734256 -15.504777 -32.988071 -92.147339
76933000 -30.974293 -82.404175 -0.10902885 -15.705865 -0.10855825 -15.69608 -32.829563 -92.832138
77932000 -30.892279 -83.242912 -0.11072268 -15.899549 -0.11089848 -15.892076 -32.723785 -92.979042
78931000 -30.841421 -84.009697 -0.1091451 -16.10257 -0.11017331 -16.094488 -32.614223 -92.964745
79930000 -30.761732 -84.876526 -0.11240284 -16.291904 -0.11281887 -16.293331 -32.533562 -93.487671
80929000 -30.660315 -85.931984 -0.113511 -16.489586 -0.11399436 -16.489126 -32.447952 -94.05024
81928000 -30.603615 -86.843491 -0.11359895 -16.680794 -0.11492191 -16.676144 -32.331566 -94.264786
82927000 -30.530056 -87.636375 -0.11529139 -16.881872 -0.11603814 -16.879551 -32.233898 -94.760605
83926000 -30.43947 -88.378708 -0.11693129 -17.079062 -0.11677493 -17.077333 -32.131691 -95.116898
84925000 -30.347122 -89.013489 -0.11811934 -17.279453 -0.11715601 -17.273937 -32.030544 -95.452728
85924000 -30.277752 -89.55938 -0.11941786 -17.479666 -0.11853804 -17.479408 -31.938274 -95.540237
86923000 -30.189022 -90.192772 -0.11885621 -17.677935 -0.11894827 -17.670794 -31.836382 -95.685844
87922000 -30.088284 -90.704269 -0.11938221 -17.88475 -0.11866999 -17.873522 -31.741253 -95.929398
88921000 -30.021057 -91.13279 -0.12023133 -18.083092 -0.12011317 -18.076265 -31.653223 -95.999352
89920000 -29.94001 -91.743622 -0.12165348 -18.279297 -0.11989363 -18.274801 -31.603666 -96.207657
90919000 -29.851477 -92.160507 -0.12194659 -18.476336 -0.12101088 -18.473747 -31.529583 -96.541748
91918000 -29.765331 -92.643723 -0.12323694 -18.675983 -0.12130529 -18.671047 -31.458595 -96.741814
92917000 -29.685892 -93.108215 -0.12407243 -18.875225 -0.12299913 -18.874229 -31.390394 -96.901741
93916000 -29.605305 -93.604195 -0.12374349 -19.069284 -0.1228777 -19.065546 -31.315334 -97.67849
94915000 -29.553026 -94.287361 -0.12518065 -19.272209 -0.12417579 -19.265625 -31.243029 -97.576736
95914000 -29.489082 -94.58638 -0.12559016 -19.465746 -0.12479007 -19.464359 -31.163624 -97.991371
96913000 -29.414351 -94.831619 -0.12689678 -19.666241 -0.12662892 -19.664379 -31.106207 -98.463043
97912000 -29.346167 -95.446037 -0.12830858 -19.86355 -0.12647115 -19.864346 -31.020025 -98.831665
98911000 -29.244644 -95.736115 -0.12838751 -20.065294 -0.12789828 -20.061171 -30.996775 -99.059807
99910000 -29.179441 -96.004562 -0.12934721 -20.259169 -0.12782763 -20.265432 -30.886669 -99.512466
100909000 -29.090673 -96.342804 -0.12948321 -20.471252 -0.12706071 -20.466709 -30.800592 -99.840706
101908000 -29.008245 -96.667892 -0.12992328 -20.671276 -0.12898399 -20.669233 -30.665922 -99.665771
102907000 -28.876448 -96.851288 -0.13069096 -20.871546 -0.12864535 -20.871014 -30.585798 -99.695686
103906000 -28.773043 -97.001785 -0.13085237 -21.078524 -0.12802464 -21.069603 -30.425526 -99.851807
104905000 -28.630358 -97.133682 -0.13155805 -21.273001 -0.12890372 -21.273829 -30.275188 -99.670311
105904000 -28.491108 -97.336205 -0.13189079 -21.478403 -0.12841177 -21.469751 -30.154177 -99.694832
106903000 -28.383627 -97.578125 -0.13162075 -21.682575 -0.12902105 -21.680595 -30.004116 -99.717041
107902000 -28.226612 -98.060524 -0.13279253 -21.885002 -0.13038607 -21.874727 -29.86515 -99.823364
108901000 -28.122011 -98.435837 -0.13398734 -22.087202 -0.13133393 -22.076824 -29.715103 -99.916801
109900000 -28.004618 -99.040924 -0.1347245 -22.286434 -0.13303488 -22.277325 -29.553461 -100.20112
110899000 -27.896145 -99.754829 -0.1363643 -22.484579 -0.13353911 -22.474924 -29.433399 -100.61295
111898000 -27.821692 -100.47688 -0.13753282 -22.685867 -0.13473599 -22.680252 -29.298422 -100.92876
112897000 -27.703485 -101.2037 -0.13921911 -22.886553 -0.13619548 -22.873672 -29.168686 -101.27768
113896000 -27.613184 -101.85703 -0.14024937 -23.088873 -0.13741311 -23.076996 -29.056044 -101.55495
114895000 -27.510963 -102.54014 -0.1407095 -23.285501 -0.13880642 -23.270166 -28.938772 -101.7738
115894000 -27.396286 -103.00385 -0.14227319 -23.487125 -0.14062662 -23.471273 -28.870165 -102.08932
116893000 -27.32091 -103.67285 -0.14283948 -23.681114 -0.14106113 -23.663471 -28.73381 -102.38001
117892000 -27.251017 -104.24037 -0.14301792 -23.878927 -0.14169279 -23.863581 -28.657814 -102.69552
118891000 -27.188927 -104.66606 -0.14430436 -24.080524 -0.14226249 -24.066177 -28.565889 -102.95052
119890000 -27.105951 -105.12674 -0.14443496 -24.284485 -0.1425174 -24.268139 -28.553034 -103.13976
120889000 -27.049454 -105.64721 -0.14568383 -24.483301 -0.1433534 -24.467445 -28.461611 -103.21247
121888000 -27.012575 -106.02789 -0.14632204 -24.680143 -0.14425032 -24.66436 -28.408817 -103.56586
122887000 -26.969561 -106.28758 -0.14708087 -24.87805 -0.14440285 -24.865778 -28.362034 -103.65067
123886000 -26.912588 -106.78181 -0.14740944 -25.083912 -0.14489153 -25.067225 -28.342804 -103.87263
124885000 -26.881712 -107.31199 -0.14809398 -25.28042 -0.14496219 -25.263741 -28.319937 -103.93192
125884000 -26.822029 -107.53926 -0.14922386 -25.479134 -0.14587791 -25.464348 -28.287951 -104.16962
126883000 -26.807169 -107.90466 -0.14959922 -25.681118 -0.1465871 -25.669336 -28.242788 -104.27656
127882000 -26.757343 -108.23255 -0.15011851 -25.88129 -0.14725921 -25.86488 -28.202066 -104.45287
128881000 -26.722439 -108.61467 -0.15021123 -26.083637 -0.14748603 -26.066545 -28.1542 -104.60434
129880000 -26.668398 -108.97093 -0.15091068 -26.284401 -0.14778598 -26.267368 -28.103594 -104.63083
130879000 -26.6059 -109.15527 -0.15070164 -26.484699 -0.14857638 -26.468542 -28.022165 -104.72194
131878000 -26.538845 -109.47182 -0.15147436 -26.686651 -0.14895624 -26.669405 -27.956455 -104.69186
132877000 -26.467346 -109.59213 -0.15111223 -26.889675 -0.14907598 -26.867538 -27.861095 -104.80964
133876000 -26.386625 -109.83119 -0.15180835 -27.090599 -0.14864764 -27.067059 -27.759645 -104.77789
134875000 -26.286636 -110.07094 -0.15226597 -27.288832 -0.1497892 -27.271685 -27.650131 -104.71377
135874000 -26.204285 -110.12655 -0.15182094 -27.490694 -0.14928281 -27.469555 -27.535908 -104.73884
136873000 -26.09215 -110.14427 -0.15304485 -27.69529 -0.14911805 -27.672604 -27.44437 -104.82727
137872000 -26.011351 -110.32035 -0.15220833 -27.890179 -0.14941651 -27.881348 -27.333427 -104.86925
138871000 -25.938038 -110.60227 -0.15313549 -28.09441 -0.15023588 -28.080221 -27.233814 -105.14406
139870000 -25.842089 -110.93775 -0.15380725 -28.295034 -0.15160328 -28.274679 -27.150284 -105.33981
140869000 -25.762266 -111.45418 -0.15537244 -28.48646 -0.15250163 -28.472393 -27.038574 -105.55511
141868000 -25.680424 -112.01444 -0.15626593 -28.681593 -0.15346023 -28.665707 -26.978889 -106.01182
142867000 -25.604736 -112.30602 -0.15429138 -28.88274 -0.15307489 -28.863991 -26.894161 -106.21351
143866000 -25.539642 -112.84597 -0.15674226 -29.07642 -0.15417524 -29.058483 -26.831409 -106.82591
144865000 -25.487644 -113.40112 -0.15823898 -29.276726 -0.1555412 -29.260384 -26.782743 -107.19591
145864000 -25.436466 -113.751 -0.15869941 -29.478251 -0.15670899 -29.465061 -26.752691 -107.49046
146863000 -25.396547 -114.20747 -0.15913548 -29.677279 -0.15729623 -29.660633 -26.712154 -107.87263
147862000 -25.36363 -114.56914 -0.15998167 -29.871918 -0.15747741 -29.861301 -26.681517 -108.24632
148861000 -25.331951 -115.14695 -0.16090646 -30.075161 -0.15869485 -30.057859 -26.660948 -108.48978
149860000 -25.320232 -115.35112 -0.16147706 -30.268684 -0.15889569 -30.257626 -26.632977 -108.70253
150859000 -25.302736 -115.74391 -0.16150044 -30.469881 -0.15974425 -30.454311 -26.63718 -108.93987
151858000 -25.287605 -116.08424 -0.1618524 -30.668079 -0.15956056 -30.654371 -26.633745 -109.29081
152857000 -25.270689 -116.36983 -0.16210364 -30.868292 -0.15999132 -30.85647 -26.622768 -109.41529
153856000 -25.264717 -116.65591 -0.16273165 -31.069216 -0.15966529 -31.049765 -26.649534 -109.70675
154855000 -25.263142 -116.82528 -0.16263974 -31.260195 -0.16076919 -31.249615 -26.644575 -109.94477
155854000 -25.270401 -117.06297 -0.16335356 -31.465668 -0.16106549 -31.448641 -26.638445 -110.20062
156853000 -25.262365 -117.75935 -0.16054408 -31.653252 -0.16002248 -31.642925 -26.641239 -110.50343
157852000 -25.265106 -118.03007 -0.16224203 -31.854414 -0.16182795 -31.842739 -26.643112 -110.89996
158851000 -25.25938 -118.28257 -0.16320519 -32.052284 -0.1619897 -32.039974 -26.62945 -111.19597
159850000 -25.24539 -118.39943 -0.16384277 -32.248676 -0.16232532 -32.240166 -26.629541 -111.30128
160849000 -25.221573 -118.54452 -0.16425058 -32.448929 -0.16326164 -32.442238 -26.604836 -111.65409
161848000 -25.201658 -118.64891 -0.16454363 -32.651802 -0.16371778 -32.640049 -26.559261 -111.78428
162847000 -25.162243 -118.86789 -0.16463262 -32.850483 -0.16407181 -32.841618 -26.542887 -112.01953
163846000 -25.119555 -119.15842 -0.16520587 -33.048378 -0.16347183 -33.039986 -26.451715 -112.11495
164845000 -25.055725 -119.21799 -0.16501522 -33.249165 -0.16479258 -33.235947 -26.388824 -112.24187
165844000 -25.001247 -119.3373 -0.16544788 -33.447792 -0.16483723 -33.43605 -26.303854 -112.45215
166843000 -24.935362 -119.4874 -0.16551295 -33.647697 -0.16587923 -33.641815 -26.225414 -112.67593
167842000 -24.875858 -119.66224 -0.16565199 -33.846092 -0.16463073 -33.83828 -26.142366 -112.68141
168841000 -24.803789 -119.92403 -0.16622026 -34.041737 -0.16548929 -34.039314 -26.065372 -112.80432
169840000 -24.733248 -120.2163 -0.16645318 -34.239662 -0.16658121 -34.233627 -25.966562 -113.07712
170839000 -24.682463 -120.52258 -0.16758087 -34.437119 -0.16654114 -34.438133 -25.885166 -113.34912
171838000 -24.623529 -120.97729 -0.1675927 -34.634129 -0.16775468 -34.629486 -25.82094 -113.63843
172837000 -24.558025 -121.39264 -0.16981639 -34.832451 -0.16840315 -34.826733 -25.751467 -113.93259
173836000 -24.497793 -121.86275 -0.17052521 -35.032829 -0.16950603 -35.030209 -25.70929 -114.23363
174835000 -24.447826 -122.33433 -0.17116062 -35.227871 -0.17033029 -35.225525 -25.662235 -114.61769
175834000 -24.396921 -122.76045 -0.17154785 -35.429482 -0.17145306 -35.4217 -25.604982 -114.97048
176833000 -24.351875 -123.18687 -0.17305128 -35.627594 -0.17187828 -35.622059 -25.553791 -115.18901
177832000 -24.311234 -123.65093 -0.17321506 -35.818974 -0.17232077 -35.821396 -25.532249 -115.39613
178831000 -24.267267 -124.05498 -0.17324954 -36.019398 -0.17307714 -36.015881 -25.491713 -115.66017
179830000 -24.234867 -124.5386 -0.17396027 -36.216175 -0.1737 -36.21487 -25.468525 -115.87759
180829000 -24.195696 -124.75291 -0.17434451 -36.412579 -0.17475788 -36.409649 -25.436365 -116.03368
181828000 -24.173613 -125.14355 -0.17522413 -36.609379 -0.17389533 -36.610905 -25.41927 -116.20436
182827000 -24.147953 -125.51892 -0.17538773 -36.803036 -0.17493413 -36.804626 -25.404842 -116.32168
183826000 -24.110071 -125.85005 -0.17653094 -37.005001 -0.17512602 -36.999737 -25.395628 -116.45281
184825000 -24.113573 -126.18668 -0.17624976 -37.197426 -0.17549418 -37.198471 -25.376772 -116.54556
185824000 -24.081366 -126.54794 -0.17656869 -37.394978 -0.17588772 -37.394169 -25.378212 -116.64312
186823000 -24.06727 -126.89776 -0.17597048 -37.596329 -0.17614813 -37.594795 -25.365988 -116.61382
187822000 -24.048645 -127.24991 -0.17743742 -37.787666 -0.17678544 -37.787365 -25.330082 -116.67347
188821000 -24.021244 -127.49383 -0.17660993 -37.98711 -0.17788912 -37.990528 -25.315002 -116.84584
189820000 -24.004713 -127.7971 -0.17748946 -38.188873 -0.17744416 -38.185555 -25.303316 -116.98266
190819000 -23.973051 -128.07298 -0.17889515 -38.387474 -0.17837431 -38.383732 -25.266304 -116.99593
191818000 -23.938734 -128.26842 -0.17972039 -38.581501 -0.1792596 -38.580929 -25.224613 -116.87089
192817000 -23.869274 -128.55302 -0.18126822 -38.767757 -0.18026811 -38.769089 -25.149466 -117.02278
193816000 -23.829546 -128.91382 -0.17977272 -38.961765 -0.17939232 -38.959213 -25.087704 -117.30859
194815000 -23.773954 -129.4236 -0.17989413 -39.155277 -0.17965563 -39.157909 -25.015778 -117.46812
195814000 -23.718634 -129.65817 -0.18022762 -39.355614 -0.17998587 -39.357674 -24.965851 -117.61584
196813000 -23.663691 -130.04869 -0.180498 -39.546761 -0.17993461 -39.550446 -24.881332 -117.8689
197812000 -23.606779 -130.31332 -0.18063347 -39.746712 -0.18029617 -39.747704 -24.805792 -117.9958
198811000 -23.54845 -130.53227 -0.18047857 -39.948017 -0.18034852 -39.948948 -24.732153 -118.25317
199810000 -23.484865 -130.94576 -0.18090226 -40.138256 -0.1803183 -40.13905 -24.648977 -118.40575
200809000 -23.424887 -131.26485 -0.18140262 -40.340935 -0.18083398 -40.341377 -24.563486 -118.65159
201808000 -23.364466 -131.50722 -0.18271939 -40.535568 -0.18175566 -40.539661 -24.489672 -118.76952
202807000 -23.307812 -131.92146 -0.18313573 -40.737305 -0.18308632 -40.738136 -24.42977 -119.04037
203806000 -23.259779 -132.40646 -0.1844001 -40.940151 -0.18258171 -40.939114 -24.363182 -119.26003
204805000 -23.206694 -132.78142 -0.18509914 -41.139912 -0.18443115 -41.140255 -24.305616 -119.51309
