!Keysight Technologies,E5080B,MY59205177,A.15.75.32
!Date: Friday, February 23, 2024 03:25:20
!Correction: S11(Cdelta 2-Port  ) 
!S21(Cdelta 2-Port  ) 
!S12(Cdelta 2-Port  ) 
!S22(Cdelta 2-Port  ) 
!S2P File: Measurements: S11, S21, S12, S22:
# Hz S  dB   R 50
10000000 -45.896786 -0.34188855 -0.017732836 -2.060632 -0.020399643 -2.1169276 -46.287086 -159.83435
10999000 -45.071732 -1.9832791 -0.018073864 -2.2811809 -0.019815287 -2.3354132 -46.294842 -153.09305
11998000 -44.151474 -5.1464915 -0.018557377 -2.5064187 -0.020184303 -2.5467577 -46.542622 -149.31422
12997000 -43.404724 -10.671302 -0.018570116 -2.6875114 -0.019356854 -2.7192237 -46.191376 -143.15015
13996000 -43.194321 -14.392648 -0.017417306 -2.8673756 -0.019622598 -2.8904784 -46.045418 -137.48524
14995000 -42.780212 -19.016644 -0.019490764 -3.0796399 -0.019323312 -3.1017473 -45.702545 -133.93822
15994000 -42.652939 -22.952105 -0.021257726 -3.3003056 -0.022146942 -3.3209758 -45.655594 -130.5498
16993000 -42.612595 -27.61841 -0.01989408 -3.4971037 -0.021157838 -3.5073264 -44.734909 -129.99825
17992000 -42.716682 -32.83112 -0.020610051 -3.6959162 -0.022301752 -3.6972442 -44.195351 -129.56523
18991000 -42.99955 -37.436974 -0.021689564 -3.911737 -0.022933286 -3.9059567 -43.519005 -128.64751
19990000 -42.820263 -43.700836 -0.02408782 -4.1186895 -0.025315827 -4.1143432 -42.863007 -129.433
20989000 -42.70153 -46.452572 -0.026169673 -4.3274956 -0.026973939 -4.3134537 -42.296116 -128.75034
21988000 -42.566563 -51.751522 -0.027178934 -4.5244703 -0.027707491 -4.5126734 -42.020897 -127.97878
22987000 -42.356518 -56.739002 -0.027909135 -4.7252378 -0.028890656 -4.7151923 -41.771538 -127.44669
23986000 -42.273819 -60.995941 -0.027906269 -4.9191852 -0.027828893 -4.9142942 -41.70509 -127.03701
24985000 -41.947674 -63.692928 -0.028746294 -5.1276321 -0.028800234 -5.1256466 -41.476795 -124.5667
25984000 -41.577751 -65.999992 -0.030542314 -5.3339424 -0.029714713 -5.3329887 -41.174389 -122.59564
26983000 -41.286041 -67.899139 -0.030897643 -5.5348215 -0.029609937 -5.5506911 -41.061459 -121.94438
27982000 -41.142197 -68.733185 -0.032710202 -5.7321911 -0.032126013 -5.7690563 -40.755909 -120.6134
28981000 -41.082455 -70.357552 -0.030251918 -5.9348106 -0.031797178 -5.9592929 -40.562042 -119.73257
29980000 -40.65295 -72.071693 -0.030630948 -6.1301093 -0.0319805 -6.1417799 -40.28651 -118.84038
30979000 -40.273872 -70.851151 -0.028188691 -6.4841752 -0.027188312 -6.4784055 -39.786705 -119.02422
31978000 -40.071632 -71.809593 -0.027360236 -6.6783171 -0.028256694 -6.670691 -39.513313 -118.53674
32977000 -39.866135 -73.582939 -0.027268803 -6.8924031 -0.028810397 -6.8886142 -39.281467 -118.60098
33976000 -39.716904 -74.587334 -0.028129809 -7.0950336 -0.029186694 -7.0865693 -38.985802 -118.03769
34975000 -39.413097 -75.497948 -0.028546173 -7.2943807 -0.030029573 -7.2957783 -38.737778 -117.65148
35974000 -39.222076 -76.096542 -0.02762595 -7.4895449 -0.029816622 -7.4955854 -38.468494 -116.67223
36973000 -38.978504 -76.909821 -0.028046956 -7.6897721 -0.030636683 -7.6949058 -38.185478 -115.64483
37972000 -38.805325 -76.65715 -0.02793649 -7.9031277 -0.030756865 -7.9148703 -37.965965 -114.92274
38971000 -38.449696 -76.114227 -0.028889615 -8.1011009 -0.030910939 -8.1157856 -37.792976 -113.28867
39970000 -38.129765 -76.446159 -0.027639497 -8.3021822 -0.029797856 -8.3116369 -37.525452 -112.56502
40969000 -37.82056 -76.268349 -0.027740056 -8.493865 -0.02964825 -8.5186977 -37.265476 -111.05545
41968000 -37.453114 -76.144646 -0.028371077 -8.6978769 -0.029794207 -8.7185059 -37.072903 -109.83445
42967000 -37.180168 -76.340073 -0.028641021 -8.9119864 -0.030012369 -8.9331102 -36.861115 -107.79767
43966000 -36.891205 -76.986656 -0.02868115 -9.1162987 -0.032047518 -9.1353617 -36.573914 -107.02616
44965000 -36.635452 -77.778404 -0.029948771 -9.3195696 -0.032242324 -9.3396044 -36.352898 -106.80415
45964000 -36.410225 -78.894028 -0.031162791 -9.5177994 -0.033484638 -9.5394592 -36.109459 -106.46466
46963000 -36.203465 -80.989716 -0.031713735 -9.7159595 -0.034556396 -9.7333899 -35.92252 -106.58504
47962000 -36.075542 -82.333412 -0.03275976 -9.9181137 -0.035793629 -9.9332237 -35.715611 -106.72786
48961000 -35.847393 -83.827736 -0.035598926 -10.114901 -0.037145309 -10.136652 -35.484375 -106.79947
49960000 -35.59713 -85.18367 -0.036195852 -10.314455 -0.037991822 -10.339076 -35.33651 -106.8507
50959000 -35.395061 -86.513779 -0.037118938 -10.531034 -0.038979806 -10.54407 -35.164387 -107.23589
51958000 -35.195564 -87.551834 -0.039276529 -10.730001 -0.040225614 -10.741807 -34.988091 -107.5882
52957000 -34.980156 -88.698509 -0.040683642 -10.931257 -0.041699421 -10.93831 -34.81435 -107.2964
53956000 -34.797756 -89.358322 -0.04166466 -11.134955 -0.042624459 -11.138097 -34.682903 -107.24059
54955000 -34.650616 -89.891571 -0.043372687 -11.333191 -0.043284316 -11.332673 -34.517479 -107.23396
55954000 -34.472179 -90.701767 -0.044531364 -11.533709 -0.044289194 -11.533648 -34.436836 -106.78071
56953000 -34.359783 -90.810959 -0.043378703 -11.738053 -0.043182351 -11.726861 -34.352413 -107.02001
57952000 -34.181908 -91.342995 -0.044628128 -11.935602 -0.045031954 -11.927882 -34.255993 -107.11786
58951000 -34.058193 -91.651253 -0.045699764 -12.138167 -0.045945935 -12.122101 -34.097458 -107.16689
59950000 -33.94091 -92.039383 -0.046729274 -12.342898 -0.046274532 -12.320628 -34.021503 -107.37493
60949000 -33.821602 -92.643959 -0.047152136 -12.544979 -0.046432037 -12.519989 -33.937378 -107.65455
61948000 -33.763302 -92.836685 -0.047438953 -12.745446 -0.047005594 -12.726627 -33.862507 -107.73186
62947000 -33.668461 -93.124031 -0.048124667 -12.957153 -0.04761456 -12.935967 -33.72543 -108.08745
63946000 -33.608322 -93.847267 -0.04864531 -13.154042 -0.048481703 -13.135825 -33.611706 -108.14963
64945000 -33.49773 -94.012566 -0.049561094 -13.359936 -0.049045581 -13.337614 -33.495884 -108.65744
65944000 -33.402412 -94.267502 -0.050183252 -13.557436 -0.049160514 -13.543007 -33.391109 -109.12645
66943000 -33.25185 -94.629822 -0.048662849 -13.760965 -0.048209738 -13.744559 -33.296841 -109.42648
67942000 -33.185951 -94.580841 -0.05056062 -13.955467 -0.049936052 -13.946435 -33.173901 -109.65388
68941000 -33.076756 -94.772697 -0.049917985 -14.14563 -0.049149517 -14.145359 -33.071125 -109.62096
69940000 -32.980015 -94.683502 -0.050377823 -14.349946 -0.050791088 -14.340554 -32.928265 -109.94878
70939000 -32.865135 -94.618896 -0.050529193 -14.546049 -0.050279882 -14.542701 -32.798191 -109.89071
71938000 -32.711231 -94.240158 -0.049707726 -14.746237 -0.049514752 -14.737185 -32.642056 -109.73093
72937000 -32.553547 -93.95504 -0.049728673 -14.948303 -0.049922701 -14.935051 -32.509396 -109.41978
73936000 -32.39772 -93.675026 -0.050114904 -15.143961 -0.050128784 -15.135576 -32.387196 -109.25937
74935000 -32.281303 -93.933098 -0.049100559 -15.338105 -0.048107132 -15.339239 -32.227367 -108.84186
75934000 -32.148983 -94.149277 -0.049302414 -15.549665 -0.048846357 -15.541365 -32.125641 -108.79243
76933000 -32.019455 -94.548248 -0.051200204 -15.744084 -0.049738359 -15.737262 -31.940538 -109.16374
77932000 -31.91427 -95.307465 -0.051600188 -15.94054 -0.051966678 -15.937378 -31.846857 -109.06767
78931000 -31.836048 -96.078445 -0.051395345 -16.141397 -0.050445911 -16.135679 -31.731525 -108.94379
79930000 -31.719086 -96.911476 -0.053266797 -16.338409 -0.053522043 -16.335512 -31.643068 -109.2691
80929000 -31.617111 -97.717728 -0.055215605 -16.533266 -0.054988571 -16.52932 -31.533667 -109.43095
81928000 -31.508152 -98.496704 -0.055529959 -16.722967 -0.055561163 -16.723936 -31.386894 -109.46931
82927000 -31.40523 -99.271965 -0.057167388 -16.924076 -0.057084505 -16.924166 -31.279518 -109.76416
83926000 -31.284918 -99.895279 -0.058717798 -17.120625 -0.058131672 -17.124996 -31.165581 -109.91911
84925000 -31.177427 -100.41381 -0.059323944 -17.32457 -0.05834103 -17.318075 -31.059544 -109.97506
85924000 -31.086023 -100.77987 -0.060848873 -17.521915 -0.059316859 -17.52355 -30.967976 -109.9393
86923000 -30.975985 -101.2822 -0.060507096 -17.721821 -0.059114277 -17.720345 -30.872681 -109.78167
87922000 -30.862646 -101.64297 -0.060572982 -17.929346 -0.059700273 -17.921902 -30.788422 -109.77006
88921000 -30.788692 -101.92052 -0.06180216 -18.129181 -0.060572717 -18.126585 -30.687338 -109.67139
89920000 -30.682322 -102.47449 -0.06293188 -18.329502 -0.061922941 -18.320953 -30.635782 -109.86136
90919000 -30.580519 -102.72668 -0.063747711 -18.526573 -0.062540829 -18.520872 -30.536119 -110.06433
91918000 -30.481049 -103.05893 -0.064538732 -18.728254 -0.06273438 -18.72299 -30.470358 -109.98141
92917000 -30.389612 -103.39951 -0.065733552 -18.928911 -0.063807607 -18.920372 -30.416491 -110.10497
93916000 -30.310511 -103.7855 -0.065412156 -19.117661 -0.063903488 -19.114172 -30.328266 -110.74869
94915000 -30.223782 -104.46077 -0.06704963 -19.321554 -0.065689407 -19.3188 -30.27058 -110.59846
95914000 -30.162899 -104.58287 -0.067442141 -19.515127 -0.066347256 -19.514467 -30.178308 -110.78537
96913000 -30.077042 -104.78395 -0.068631448 -19.720722 -0.067653261 -19.715233 -30.106901 -111.19555
97912000 -30.002398 -105.24429 -0.069725595 -19.912958 -0.067668252 -19.912483 -30.03779 -111.43607
98911000 -29.886915 -105.43687 -0.07042747 -20.11677 -0.068225421 -20.117292 -29.995161 -111.6647
99910000 -29.821125 -105.58503 -0.071202345 -20.317596 -0.069815822 -20.316658 -29.884548 -111.97883
100909000 -29.726652 -105.89964 -0.07003101 -20.52705 -0.069288954 -20.520788 -29.802839 -112.20107
101908000 -29.643171 -106.13261 -0.072008938 -20.727442 -0.070289083 -20.722652 -29.688282 -111.9673
102907000 -29.504074 -106.08875 -0.072653793 -20.923864 -0.070042849 -20.922329 -29.611986 -111.95411
103906000 -29.397696 -106.16286 -0.072781727 -21.127045 -0.069660097 -21.128061 -29.471451 -111.8958
104905000 -29.258162 -106.02302 -0.073772915 -21.33007 -0.070789762 -21.331694 -29.343384 -111.60068
105904000 -29.113426 -106.15741 -0.07366997 -21.532331 -0.070472457 -21.527205 -29.218838 -111.54118
106903000 -29.000177 -106.24361 -0.073688924 -21.741102 -0.070772924 -21.733788 -29.092081 -111.41927
107902000 -28.841022 -106.55431 -0.074986346 -21.943256 -0.071737863 -21.933184 -28.952509 -111.32372
108901000 -28.724567 -106.79249 -0.075806022 -22.142076 -0.072937034 -22.139446 -28.82189 -111.27595
109900000 -28.598883 -107.26596 -0.076176934 -22.34411 -0.074205793 -22.334349 -28.669733 -111.36977
110899000 -28.48131 -107.90668 -0.078313164 -22.542498 -0.074961856 -22.536797 -28.543188 -111.62686
111898000 -28.395687 -108.58571 -0.079477511 -22.74651 -0.076286525 -22.735077 -28.418041 -111.79982
112897000 -28.271858 -109.12272 -0.08119151 -22.943403 -0.077556789 -22.933542 -28.286034 -111.92429
113896000 -28.165051 -109.69338 -0.082160883 -23.144016 -0.07878314 -23.133045 -28.171764 -112.07278
114895000 -28.059519 -110.34738 -0.083154477 -23.3424 -0.080095001 -23.327833 -28.060482 -112.15301
115894000 -27.936478 -110.75484 -0.084051974 -23.546562 -0.081246898 -23.531364 -27.991518 -112.34866
116893000 -27.869507 -111.22791 -0.08543539 -23.743584 -0.082671903 -23.729612 -27.874866 -112.38369
117892000 -27.772516 -111.69734 -0.084627353 -23.939289 -0.082636021 -23.926743 -27.793287 -112.55661
118891000 -27.728209 -112.16116 -0.085605673 -24.1418 -0.083096698 -24.123783 -27.695255 -112.68327
119890000 -27.634058 -112.50434 -0.086395144 -24.343464 -0.084586702 -24.32815 -27.679176 -112.81657
120889000 -27.582956 -113.01013 -0.0869468 -24.54364 -0.084383734 -24.525902 -27.608149 -112.71802
121888000 -27.543669 -113.34679 -0.087771647 -24.74243 -0.085050754 -24.727608 -27.547806 -113.02652
122887000 -27.508652 -113.52222 -0.088555433 -24.944366 -0.08580263 -24.929682 -27.500654 -113.02375
123886000 -27.451235 -113.96168 -0.089464881 -25.145521 -0.085706793 -25.129402 -27.488659 -113.1552
124885000 -27.414925 -114.46027 -0.090011112 -25.344442 -0.086452447 -25.329397 -27.459557 -113.16954
125884000 -27.367163 -114.67387 -0.091194458 -25.541687 -0.086827964 -25.530993 -27.430216 -113.40327
126883000 -27.339609 -115.03165 -0.091852218 -25.750807 -0.087371223 -25.735317 -27.393703 -113.39823
127882000 -27.295 -115.35178 -0.091683544 -25.945379 -0.088156521 -25.933254 -27.34494 -113.49055
128881000 -27.262848 -115.68343 -0.092149936 -26.152195 -0.088569701 -26.13485 -27.30328 -113.61917
129880000 -27.202745 -115.99971 -0.09271846 -26.353678 -0.08858978 -26.332705 -27.264017 -113.56283
130879000 -27.138781 -116.1356 -0.092744641 -26.552586 -0.089867346 -26.537657 -27.191975 -113.59251
131878000 -27.077251 -116.35977 -0.093048498 -26.757172 -0.089940287 -26.739834 -27.128128 -113.46807
132877000 -27.002245 -116.47087 -0.092963867 -26.960224 -0.090961307 -26.940374 -27.039049 -113.4814
133876000 -26.911861 -116.66393 -0.093156666 -27.160524 -0.090236552 -27.138515 -26.955141 -113.37345
134875000 -26.814171 -116.7724 -0.09290833 -27.35899 -0.091537602 -27.344076 -26.855148 -113.20815
135874000 -26.728739 -116.80828 -0.094093792 -27.561483 -0.091223538 -27.542713 -26.747421 -113.18843
136873000 -26.61771 -116.73988 -0.094395101 -27.768351 -0.091210321 -27.752237 -26.661079 -113.13438
137872000 -26.53566 -116.89172 -0.094217062 -27.965015 -0.091260284 -27.949463 -26.551067 -113.10081
138871000 -26.453485 -117.0617 -0.094900683 -28.163143 -0.091796435 -28.151541 -26.451979 -113.24615
139870000 -26.352697 -117.34619 -0.095804572 -28.362782 -0.092404306 -28.348736 -26.36912 -113.44129
140869000 -26.27269 -117.95334 -0.096641429 -28.564526 -0.093117259 -28.543655 -26.267916 -113.64247
141868000 -26.190578 -118.34412 -0.097128212 -28.762272 -0.094556741 -28.746746 -26.218718 -113.86428
142867000 -26.109619 -118.54366 -0.095877089 -28.961229 -0.093642265 -28.942192 -26.131628 -114.01853
143866000 -26.0359 -119.05516 -0.098331235 -29.159086 -0.095185377 -29.142376 -26.057354 -114.48937
144865000 -25.981976 -119.56851 -0.099406146 -29.356922 -0.096759744 -29.344734 -25.997717 -114.79694
145864000 -25.928762 -119.87173 -0.10000157 -29.556999 -0.097827904 -29.54814 -25.962337 -115.04537
146863000 -25.87723 -120.24113 -0.10106789 -29.756109 -0.098718107 -29.74155 -25.91613 -115.30894
147862000 -25.843029 -120.57932 -0.1020698 -29.955379 -0.099448785 -29.94194 -25.879396 -115.59617
148861000 -25.804655 -121.08946 -0.1035255 -30.156654 -0.10057668 -30.137585 -25.867895 -115.7769
149860000 -25.78178 -121.2017 -0.10472023 -30.351162 -0.10062093 -30.337248 -25.813444 -115.85455
150859000 -25.74946 -121.68684 -0.10395075 -30.545303 -0.10106868 -30.533077 -25.787327 -116.19498
151858000 -25.743031 -122.03816 -0.10396586 -30.749174 -0.10164102 -30.731449 -25.778103 -116.51231
152857000 -25.726311 -122.35269 -0.10447362 -30.94463 -0.10144758 -30.930641 -25.770403 -116.67821
153856000 -25.722364 -122.57902 -0.10390727 -31.146793 -0.10030303 -31.130589 -25.789791 -116.99669
154855000 -25.722645 -122.73692 -0.10407033 -31.346323 -0.10089805 -31.332632 -25.784784 -117.19388
155854000 -25.74151 -122.99223 -0.10454681 -31.543518 -0.10087739 -31.536671 -25.767365 -117.45303
156853000 -25.737345 -123.68771 -0.1028119 -31.73295 -0.10117413 -31.725533 -25.770704 -117.77084
157852000 -25.745794 -123.88452 -0.10357958 -31.933218 -0.10242069 -31.925058 -25.766544 -118.11796
158851000 -25.741247 -124.07716 -0.10406688 -32.133324 -0.10297306 -32.123821 -25.750662 -118.40717
159850000 -25.733696 -124.21643 -0.10514612 -32.332718 -0.10260621 -32.326019 -25.752455 -118.57576
160849000 -25.716339 -124.30287 -0.10494617 -32.533966 -0.10370366 -32.528439 -25.724333 -118.87411
161848000 -25.699471 -124.40514 -0.10600414 -32.733696 -0.10338977 -32.728172 -25.686506 -118.95927
162847000 -25.666653 -124.58847 -0.10588292 -32.935688 -0.1043771 -32.926605 -25.66177 -119.22845
163846000 -25.622299 -124.79002 -0.10594738 -33.133762 -0.10378319 -33.129482 -25.58164 -119.24532
164845000 -25.563288 -124.75335 -0.10655139 -33.334736 -0.10483637 -33.328838 -25.524385 -119.37187
165844000 -25.508024 -124.83066 -0.10667714 -33.533367 -0.10467939 -33.528126 -25.44216 -119.51157
166843000 -25.449823 -124.85434 -0.10708837 -33.735897 -0.10536784 -33.725403 -25.374544 -119.69198
167842000 -25.388741 -124.97169 -0.1069849 -33.929932 -0.10555509 -33.927429 -25.295656 -119.60413
168841000 -25.310778 -125.14711 -0.1080309 -34.136162 -0.10575454 -34.129837 -25.221825 -119.68729
169840000 -25.246294 -125.39692 -0.10729852 -34.329048 -0.10670182 -34.327404 -25.135443 -119.88814
170839000 -25.192163 -125.64182 -0.10915944 -34.530788 -0.10708837 -34.522556 -25.045856 -120.07124
171838000 -25.129591 -126.02539 -0.10852242 -34.731274 -0.10825091 -34.723789 -24.987991 -120.31174
172837000 -25.059492 -126.39364 -0.11059628 -34.926453 -0.109521 -34.919487 -24.913855 -120.50285
173836000 -24.982628 -126.78049 -0.1113372 -35.125305 -0.11023092 -35.123959 -24.873741 -120.75093
174835000 -24.933805 -127.1821 -0.11189203 -35.320755 -0.11072906 -35.322086 -24.8242 -121.05231
175834000 -24.885225 -127.56011 -0.11303513 -35.520866 -0.11185458 -35.519321 -24.764822 -121.33834
176833000 -24.834024 -127.9053 -0.11424311 -35.72139 -0.11249927 -35.718575 -24.714136 -121.49819
177832000 -24.783682 -128.38002 -0.11516219 -35.921471 -0.11338266 -35.921444 -24.690397 -121.61421
178831000 -24.747421 -128.65382 -0.11577042 -36.11824 -0.11487246 -36.116131 -24.655645 -121.76498
179830000 -24.69132 -128.96806 -0.11808503 -36.310246 -0.11671936 -36.316776 -24.610584 -121.72403
180829000 -24.619192 -129.26044 -0.11820898 -36.498947 -0.11708819 -36.499142 -24.54446 -121.95847
181828000 -24.591047 -129.70381 -0.11748286 -36.6945 -0.11536582 -36.69241 -24.522789 -122.21958
182827000 -24.56543 -130.13124 -0.11705043 -36.892544 -0.1156056 -36.892601 -24.510023 -122.35708
183826000 -24.525219 -130.4751 -0.11786851 -37.090714 -0.11553382 -37.09227 -24.501324 -122.52006
184825000 -24.527708 -130.7942 -0.11727249 -37.28957 -0.11623994 -37.289616 -24.478058 -122.6526
185824000 -24.498133 -131.18336 -0.11728179 -37.488716 -0.11629153 -37.487503 -24.470284 -122.71165
186823000 -24.476553 -131.53285 -0.11777808 -37.689159 -0.11630908 -37.684326 -24.464659 -122.7111
187822000 -24.451555 -131.86705 -0.11846887 -37.881603 -0.11742887 -37.878742 -24.424273 -122.82574
188821000 -24.423733 -132.12999 -0.11854681 -38.080563 -0.1176528 -38.082176 -24.401094 -122.92571
189820000 -24.407797 -132.41075 -0.1186785 -38.280067 -0.11767329 -38.277443 -24.384932 -123.15408
190819000 -24.370909 -132.70059 -0.1189448 -38.476685 -0.11776371 -38.477367 -24.345665 -123.17604
191818000 -24.33626 -132.99741 -0.11939871 -38.674934 -0.11892539 -38.673977 -24.312737 -123.23215
192817000 -24.289154 -133.28954 -0.11989763 -38.874069 -0.11879636 -38.874569 -24.265224 -123.3334
193816000 -24.260298 -133.53746 -0.12029893 -39.06839 -0.11856118 -39.067028 -24.216982 -123.49944
194815000 -24.193907 -133.92122 -0.12031144 -39.264118 -0.11962647 -39.26894 -24.145361 -123.56609
195814000 -24.140865 -134.13213 -0.1215619 -39.463139 -0.1193862 -39.465523 -24.089987 -123.67898
196813000 -24.080936 -134.47182 -0.12105135 -39.654503 -0.11995723 -39.657391 -24.011765 -123.83449
197812000 -24.02355 -134.68275 -0.12090389 -39.857391 -0.12033486 -39.853214 -23.938078 -123.94288
198811000 -23.966543 -134.84329 -0.12154274 -40.05048 -0.11988512 -40.056538 -23.865911 -124.12108
199810000 -23.898209 -135.21022 -0.12199691 -40.248039 -0.12001871 -40.24374 -23.783703 -124.21777
200809000 -23.836689 -135.48811 -0.12212204 -40.443256 -0.12038755 -40.442963 -23.705589 -124.4393
201808000 -23.780499 -135.69994 -0.12259331 -40.646332 -0.12223812 -40.647633 -23.634212 -124.47598
202807000 -23.720068 -136.0403 -0.12396056 -40.846111 -0.12232891 -40.847858 -23.581575 -124.669
203806000 -23.66399 -136.44229 -0.12600185 -41.044765 -0.12291817 -41.047615 -23.515409 -124.83818
