!Keysight Technologies,E5080B,MY59205177,A.15.75.32
!Date: Friday, February 23, 2024 02:46:55
!Correction: S11(Cdelta 2-Port  ) 
!S21(Cdelta 2-Port  ) 
!S12(Cdelta 2-Port  ) 
!S22(Cdelta 2-Port  ) 
!S2P File: Measurements: S11, S21, S12, S22:
# Hz S  dB   R 50
10000000 -39.618019 -3.3992586 -0.066059977 -2.05564 -0.068613827 -2.1082613 -54.019386 -63.287201
10999000 -39.224949 -4.4793658 -0.067602523 -2.2718883 -0.068782143 -2.3297858 -51.918133 -63.809334
11998000 -38.742268 -6.2885041 -0.068327449 -2.4975455 -0.067951694 -2.5374727 -50.787674 -60.375095
12997000 -38.335094 -9.318121 -0.06673076 -2.6750977 -0.067463174 -2.7065361 -49.314224 -62.617661
13996000 -38.186695 -11.538101 -0.066002943 -2.8578043 -0.068496279 -2.8772397 -48.197689 -62.086838
14995000 -38.017513 -14.197478 -0.068129443 -3.0680456 -0.067725569 -3.0859313 -47.460613 -63.064095
15994000 -37.951065 -16.986389 -0.069020681 -3.2889655 -0.07032802 -3.3041217 -46.877186 -61.803268
16993000 -38.00647 -19.456602 -0.068624347 -3.4837174 -0.069439933 -3.4916534 -46.434013 -67.541367
17992000 -38.096149 -22.724602 -0.068998329 -3.6797547 -0.070244886 -3.685957 -46.123993 -71.950661
18991000 -38.375973 -25.432138 -0.069517002 -3.8920381 -0.071055777 -3.8908532 -45.532539 -74.926529
19990000 -38.352379 -28.824875 -0.072637998 -4.1037979 -0.073180281 -4.0975046 -45.148949 -80.226997
20989000 -38.368511 -31.115355 -0.074536271 -4.3078089 -0.075334005 -4.297297 -44.573574 -82.708092
21988000 -38.415764 -34.186447 -0.075688802 -4.5044494 -0.075893745 -4.4918575 -44.260479 -83.741829
22987000 -38.391396 -37.789173 -0.076878794 -4.7023535 -0.077313036 -4.6928468 -43.970623 -84.50631
23986000 -38.478294 -40.440536 -0.075950645 -4.8980293 -0.076594241 -4.898684 -43.859333 -85.083565
24985000 -38.348904 -42.889034 -0.077492222 -5.1089063 -0.077245839 -5.1025786 -43.3251 -83.964706
25984000 -38.262848 -44.689926 -0.078502148 -5.3128357 -0.077430822 -5.3158665 -42.930058 -84.047905
26983000 -38.079739 -46.619011 -0.07920175 -5.5134482 -0.078665309 -5.5308094 -42.71693 -83.632149
27982000 -38.039635 -47.514366 -0.080663003 -5.7124653 -0.079733513 -5.7466435 -42.282658 -83.152115
28981000 -38.046131 -48.823559 -0.078499779 -5.91399 -0.080085248 -5.9365144 -42.00267 -83.647629
29980000 -37.789631 -50.565002 -0.077834025 -6.101459 -0.080672756 -6.1110835 -41.589195 -83.956032
30979000 -37.500488 -50.559761 -0.076381892 -6.4640222 -0.075299501 -6.4477773 -41.186626 -86.745583
31978000 -37.37196 -51.987606 -0.075678535 -6.6556768 -0.076027036 -6.6483254 -40.862694 -86.57
32977000 -37.292683 -53.42934 -0.076188259 -6.8682585 -0.076782621 -6.8629656 -40.623688 -87.930595
33976000 -37.206627 -54.520535 -0.076325782 -7.0670018 -0.077231877 -7.060884 -40.277599 -88.251289
34975000 -37.015545 -55.853703 -0.076642454 -7.2675195 -0.078391187 -7.2674956 -40.009602 -88.606705
35974000 -36.877911 -56.859749 -0.075861342 -7.4620714 -0.078382485 -7.466886 -39.646324 -88.826775
36973000 -36.699768 -57.891941 -0.076513886 -7.6629548 -0.078786567 -7.6674867 -39.303757 -88.773514
37972000 -36.543701 -58.069225 -0.075989634 -7.8735905 -0.078812137 -7.8823152 -39.028564 -88.636162
38971000 -36.262085 -58.446915 -0.077481419 -8.0758152 -0.078925744 -8.0890474 -38.707619 -87.546066
39970000 -36.021965 -59.329216 -0.075545251 -8.2700415 -0.078205369 -8.2815857 -38.414001 -87.482132
40969000 -35.762619 -59.650131 -0.076270983 -8.464344 -0.07676971 -8.4885149 -38.06591 -86.839485
41968000 -35.460621 -60.320148 -0.076298647 -8.6738033 -0.077973701 -8.6857595 -37.785461 -86.106888
42967000 -35.275364 -60.939091 -0.075736217 -8.8813562 -0.078608111 -8.9014091 -37.470802 -84.768776
43966000 -35.043636 -62.061291 -0.0772129 -9.0787611 -0.079814717 -9.0989981 -37.14748 -84.843719
44965000 -34.868275 -63.072933 -0.07727509 -9.2825441 -0.079393938 -9.3046818 -36.924591 -85.086555
45964000 -34.707413 -64.406792 -0.078087822 -9.489645 -0.081031159 -9.5089817 -36.681557 -85.507286
46963000 -34.615273 -66.232872 -0.078946576 -9.6817036 -0.082109705 -9.7044621 -36.517776 -86.160561
47962000 -34.51413 -67.740868 -0.081280656 -9.8839321 -0.083189838 -9.9016199 -36.329731 -86.533493
48961000 -34.384327 -69.367126 -0.082874 -10.082555 -0.084594622 -10.100567 -36.105316 -87.333382
49960000 -34.221725 -70.866852 -0.084019773 -10.278991 -0.086394355 -10.304682 -35.981407 -87.735649
50959000 -34.073128 -72.371658 -0.084885769 -10.492228 -0.087464988 -10.501688 -35.82954 -88.429161
51958000 -33.935184 -73.689423 -0.087064855 -10.69496 -0.088542752 -10.701518 -35.684063 -89.351631
52957000 -33.77467 -74.918495 -0.088479877 -10.896194 -0.090626933 -10.896988 -35.504448 -89.430702
53956000 -33.65303 -75.817268 -0.089644834 -11.094121 -0.090653628 -11.095221 -35.375061 -89.585075
54955000 -33.515339 -76.449928 -0.090789489 -11.295414 -0.091494776 -11.294788 -35.223339 -89.961227
55954000 -33.390316 -77.538475 -0.091515929 -11.497428 -0.091939203 -11.493583 -35.108482 -89.97139
56953000 -33.286877 -77.724831 -0.091079995 -11.693046 -0.091059908 -11.685183 -35.044579 -90.281113
57952000 -33.141315 -78.53746 -0.093189724 -11.898058 -0.092445031 -11.884501 -34.948292 -90.548653
58951000 -33.05341 -79.002228 -0.093977928 -12.098441 -0.093633801 -12.079711 -34.79665 -90.995377
59950000 -32.940857 -79.610672 -0.094717599 -12.300404 -0.094370231 -12.278255 -34.723061 -91.361137
60949000 -32.85487 -80.257088 -0.094770245 -12.507084 -0.094760455 -12.478703 -34.660885 -91.657593
61948000 -32.806656 -80.634369 -0.096293382 -12.699092 -0.094510712 -12.680011 -34.581474 -92.040962
62947000 -32.725201 -80.923424 -0.096118174 -12.911212 -0.095623307 -12.888786 -34.447361 -92.524574
63946000 -32.670849 -81.655357 -0.096766628 -13.107265 -0.096099123 -13.091386 -34.342438 -92.803421
64945000 -32.572868 -81.976624 -0.097513914 -13.313269 -0.097158387 -13.290976 -34.242962 -93.517853
65944000 -32.479385 -82.367836 -0.098291256 -13.512012 -0.09703768 -13.493521 -34.1651 -94.062286
66943000 -32.353577 -82.957603 -0.096446887 -13.713949 -0.09593875 -13.695173 -34.071598 -94.496452
67942000 -32.284477 -83.011757 -0.098633103 -13.90866 -0.097978815 -13.899177 -33.96051 -94.971657
68941000 -32.170322 -83.236427 -0.097974584 -14.101542 -0.097031586 -14.095655 -33.849514 -95.092972
69940000 -32.080494 -83.361092 -0.098558433 -14.301037 -0.097956575 -14.29341 -33.724735 -95.572357
70939000 -31.973759 -83.452377 -0.098536983 -14.499532 -0.097150974 -14.491626 -33.570591 -95.626129
71938000 -31.821251 -83.199173 -0.097813606 -14.695215 -0.098037601 -14.689048 -33.415524 -95.646133
72937000 -31.661505 -83.275215 -0.097459115 -14.899057 -0.097916335 -14.884133 -33.270882 -95.592537
73936000 -31.523067 -83.125893 -0.097568981 -15.093713 -0.096833594 -15.087455 -33.149521 -95.394806
74935000 -31.395485 -83.531754 -0.097330458 -15.28949 -0.095428281 -15.28582 -32.970249 -95.363106
75934000 -31.283535 -83.965118 -0.097443499 -15.495039 -0.096093297 -15.495773 -32.879826 -95.354286
76933000 -31.163443 -84.392769 -0.098799936 -15.690874 -0.097675674 -15.683352 -32.723804 -96.003784
77932000 -31.085676 -85.330933 -0.099305503 -15.89217 -0.099749409 -15.881754 -32.611504 -96.063904
78931000 -31.045481 -86.090225 -0.09825895 -16.09094 -0.098610066 -16.08256 -32.513348 -96.045158
79930000 -30.946661 -87.005585 -0.10077247 -16.283607 -0.10192616 -16.280592 -32.421604 -96.473671
80929000 -30.841362 -87.985466 -0.10291872 -16.478369 -0.10274643 -16.474243 -32.324821 -97.039215
81928000 -30.780676 -88.815315 -0.10294762 -16.669811 -0.10313449 -16.665815 -32.203648 -97.214989
82927000 -30.703632 -89.64463 -0.10488464 -16.865318 -0.10411381 -16.866808 -32.103703 -97.708832
83926000 -30.607988 -90.518326 -0.10599273 -17.070196 -0.10577178 -17.064531 -31.994404 -98.111526
84925000 -30.515938 -91.032974 -0.10704831 -17.26796 -0.10656492 -17.259521 -31.903553 -98.295341
85924000 -30.431093 -91.593239 -0.10779711 -17.465452 -0.10775332 -17.463749 -31.809526 -98.398842
86923000 -30.343161 -92.183441 -0.10863495 -17.668009 -0.10729454 -17.661158 -31.701942 -98.491791
87922000 -30.247026 -92.764267 -0.10869971 -17.872232 -0.10730594 -17.861885 -31.626776 -98.629219
88921000 -30.17721 -93.059441 -0.1098555 -18.066238 -0.10838068 -18.066204 -31.523605 -98.713051
89920000 -30.090685 -93.727669 -0.1103058 -18.267258 -0.10895532 -18.257763 -31.487951 -98.983253
90919000 -29.998707 -94.09922 -0.11104374 -18.46434 -0.10977214 -18.461033 -31.385151 -99.308807
91918000 -29.914576 -94.566032 -0.11214437 -18.66588 -0.11048954 -18.658365 -31.319544 -99.389969
92917000 -29.835524 -95.012138 -0.11271738 -18.859806 -0.11184661 -18.858181 -31.263636 -99.556084
93916000 -29.752962 -95.482933 -0.11236724 -19.056936 -0.11139536 -19.057117 -31.18511 -100.30715
94915000 -29.690557 -96.144844 -0.11430848 -19.262127 -0.11227427 -19.251717 -31.112776 -100.23765
95914000 -29.628304 -96.428368 -0.11534242 -19.452061 -0.11413441 -19.447636 -31.029381 -100.6377
96913000 -29.545172 -96.749115 -0.11620697 -19.652111 -0.11449106 -19.65106 -30.971819 -101.0132
97912000 -29.482105 -97.308357 -0.11753392 -19.847069 -0.11488283 -19.852766 -30.881067 -101.3825
98911000 -29.380863 -97.510101 -0.11761424 -20.054119 -0.11598125 -20.052031 -30.851349 -101.61673
99910000 -29.311775 -97.766212 -0.11875033 -20.253942 -0.1165654 -20.249372 -30.742693 -102.03468
100909000 -29.229889 -98.108948 -0.11814461 -20.456957 -0.11616231 -20.44795 -30.664791 -102.32151
101908000 -29.139717 -98.403763 -0.11948837 -20.655146 -0.11746211 -20.656263 -30.526712 -102.12606
102907000 -29.001877 -98.533875 -0.12003201 -20.857647 -0.11734988 -20.858673 -30.449499 -102.18877
103906000 -28.908195 -98.696472 -0.12046739 -21.064795 -0.11750174 -21.060015 -30.287306 -102.21138
104905000 -28.76301 -98.725685 -0.12079316 -21.263384 -0.11762222 -21.260525 -30.142273 -101.99591
105904000 -28.624598 -98.943939 -0.12096857 -21.465078 -0.11720467 -21.458059 -30.019451 -101.94009
106903000 -28.516191 -99.159805 -0.12066807 -21.672321 -0.11806534 -21.661917 -29.884285 -101.96499
107902000 -28.358782 -99.64724 -0.12150866 -21.87146 -0.11859842 -21.861864 -29.733313 -102.03805
108901000 -28.254215 -99.975143 -0.12265562 -22.068436 -0.11997639 -22.067471 -29.59029 -102.11566
109900000 -28.13509 -100.51661 -0.12345745 -22.276165 -0.12139925 -22.265406 -29.434284 -102.32713
110899000 -28.022512 -101.24535 -0.12534796 -22.469481 -0.12193993 -22.461874 -29.304987 -102.72723
111898000 -27.938051 -101.96808 -0.1263936 -22.668207 -0.1231693 -22.665207 -29.187475 -103.00103
112897000 -27.824129 -102.63223 -0.12836617 -22.869741 -0.12422906 -22.859074 -29.049534 -103.3334
113896000 -27.736828 -103.31285 -0.1291232 -23.071415 -0.12604289 -23.057539 -28.93812 -103.53636
114895000 -27.639561 -103.9645 -0.13014759 -23.27076 -0.12753598 -23.257196 -28.824684 -103.77888
115894000 -27.511248 -104.43559 -0.13159861 -23.467941 -0.12805051 -23.456718 -28.749439 -104.02763
116893000 -27.433813 -105.08829 -0.13186437 -23.665293 -0.12980805 -23.648544 -28.620535 -104.30123
117892000 -27.363136 -105.60362 -0.13222328 -23.862238 -0.13015506 -23.849802 -28.549877 -104.6048
118891000 -27.309614 -106.07823 -0.13303676 -24.067106 -0.13013586 -24.044485 -28.445599 -104.85799
119890000 -27.217754 -106.54566 -0.13427781 -24.263161 -0.13156685 -24.249355 -28.436413 -105.03813
120889000 -27.175785 -107.06828 -0.1347464 -24.461142 -0.13141744 -24.452324 -28.354849 -105.02263
121888000 -27.127783 -107.46024 -0.13544177 -24.66066 -0.13220087 -24.648581 -28.298939 -105.43864
122887000 -27.083187 -107.65771 -0.13521691 -24.863607 -0.13289796 -24.85132 -28.247156 -105.46511
123886000 -27.032558 -108.11032 -0.13586161 -25.068419 -0.13329968 -25.048147 -28.233494 -105.71877
124885000 -26.993046 -108.64153 -0.13699552 -25.267456 -0.13354819 -25.251459 -28.203192 -105.79929
125884000 -26.94898 -108.86241 -0.13834567 -25.459579 -0.13392033 -25.44652 -28.173424 -106.01515
126883000 -26.922407 -109.29234 -0.13821205 -25.666708 -0.13481209 -25.652201 -28.122074 -106.06647
127882000 -26.869509 -109.58788 -0.13865782 -25.864563 -0.13552669 -25.847679 -28.084213 -106.29619
128881000 -26.836546 -109.91814 -0.13920841 -26.067099 -0.13521771 -26.05065 -28.038225 -106.4417
129880000 -26.783604 -110.32973 -0.14026006 -26.267422 -0.1357943 -26.250296 -27.992294 -106.44118
130879000 -26.719685 -110.4828 -0.13909641 -26.472219 -0.13635787 -26.450914 -27.909031 -106.51197
131878000 -26.656723 -110.75713 -0.14007933 -26.67417 -0.13708049 -26.652081 -27.839285 -106.47141
132877000 -26.578434 -110.86555 -0.1395535 -26.870422 -0.13702706 -26.856586 -27.743839 -106.51742
133876000 -26.492819 -111.1191 -0.14007933 -27.071693 -0.13694878 -27.054005 -27.643427 -106.5042
134875000 -26.404778 -111.29724 -0.14004725 -27.275223 -0.1374083 -27.25345 -27.531418 -106.3828
135874000 -26.315695 -111.36299 -0.13993925 -27.474533 -0.13726483 -27.456247 -27.424028 -106.43925
136873000 -26.194923 -111.39209 -0.14067662 -27.675198 -0.13766293 -27.658087 -27.332296 -106.50004
137872000 -26.119625 -111.52567 -0.14055336 -27.880026 -0.13713713 -27.864735 -27.222744 -106.48911
138871000 -26.052385 -111.77333 -0.14116302 -28.078117 -0.13865462 -28.060411 -27.128113 -106.73093
139870000 -25.947239 -112.11131 -0.14248022 -28.27569 -0.13964893 -28.259081 -27.035257 -106.95424
140869000 -25.867767 -112.61287 -0.14408495 -28.471802 -0.14037289 -28.454418 -26.932379 -107.14313
141868000 -25.777767 -113.12136 -0.14415023 -28.664005 -0.14145905 -28.649321 -26.866911 -107.52264
142867000 -25.70364 -113.43615 -0.1430016 -28.866196 -0.14019081 -28.84569 -26.791813 -107.82398
143866000 -25.638533 -113.99629 -0.14531256 -29.058378 -0.14183909 -29.045441 -26.716368 -108.32008
144865000 -25.5872 -114.52259 -0.14651081 -29.257122 -0.14322017 -29.242704 -26.67193 -108.68771
145864000 -25.530472 -114.89945 -0.14678712 -29.458858 -0.14410688 -29.449467 -26.635998 -109.00192
146863000 -25.491747 -115.28907 -0.14761966 -29.660086 -0.14472239 -29.644178 -26.588533 -109.35959
147862000 -25.453066 -115.72077 -0.14865513 -29.855017 -0.14576468 -29.840725 -26.561157 -109.78827
148861000 -25.425308 -116.26291 -0.14962602 -30.054476 -0.14612849 -30.037178 -26.541801 -110.01189
149860000 -25.413887 -116.43325 -0.14987494 -30.251884 -0.14609984 -30.242067 -26.512442 -110.20911
150859000 -25.394926 -116.85738 -0.15058051 -30.45134 -0.14665887 -30.440327 -26.51408 -110.48119
151858000 -25.377203 -117.19987 -0.15010244 -30.651615 -0.14755726 -30.634071 -26.509228 -110.75713
152857000 -25.365461 -117.52398 -0.1507086 -30.848396 -0.14756931 -30.835855 -26.497406 -110.94299
153856000 -25.353594 -117.72356 -0.15062955 -31.052065 -0.14678524 -31.033901 -26.516129 -111.21697
154855000 -25.348757 -117.93271 -0.15047893 -31.246677 -0.14771125 -31.238035 -26.507542 -111.4381
155854000 -25.363565 -118.16256 -0.15085708 -31.444586 -0.14837228 -31.433771 -26.505596 -111.71698
156853000 -25.352949 -118.92896 -0.14949501 -31.635658 -0.14730366 -31.627615 -26.512022 -112.04165
157852000 -25.355837 -119.12097 -0.15094312 -31.83806 -0.14885819 -31.82266 -26.505169 -112.38539
158851000 -25.351288 -119.34368 -0.15156201 -32.034729 -0.14979991 -32.024899 -26.490454 -112.6524
159850000 -25.334263 -119.49823 -0.15198876 -32.231758 -0.14951536 -32.22393 -26.496035 -112.81898
160849000 -25.319139 -119.64713 -0.15235658 -32.431293 -0.1503077 -32.426575 -26.463705 -113.10784
161848000 -25.2903 -119.76196 -0.15269977 -32.631355 -0.15029536 -32.624104 -26.42761 -113.23766
162847000 -25.247547 -119.98492 -0.1532079 -32.831829 -0.15150678 -32.824146 -26.394945 -113.53321
163846000 -25.209276 -120.25491 -0.15277162 -33.031208 -0.15099752 -33.024155 -26.315325 -113.54689
164845000 -25.148392 -120.2719 -0.15327734 -33.228603 -0.15154432 -33.225941 -26.245192 -113.7038
165844000 -25.092113 -120.40417 -0.15328592 -33.429733 -0.15221396 -33.424473 -26.164164 -113.86928
166843000 -25.026865 -120.52473 -0.15360236 -33.624683 -0.15170729 -33.623238 -26.0919 -114.07813
167842000 -24.969465 -120.69382 -0.15309313 -33.827774 -0.15225148 -33.821423 -26.010504 -114.05344
168841000 -24.890812 -120.92883 -0.15379384 -34.022598 -0.15229814 -34.023232 -25.923697 -114.19324
169840000 -24.823183 -121.18237 -0.15487479 -34.219296 -0.15324624 -34.216682 -25.833834 -114.42741
170839000 -24.764397 -121.50391 -0.15565281 -34.414066 -0.15392259 -34.412617 -25.743738 -114.71259
171838000 -24.711397 -121.96144 -0.15498799 -34.621433 -0.15479727 -34.613132 -25.681562 -115.00065
172837000 -24.642653 -122.34435 -0.1568896 -34.811935 -0.15627344 -34.807011 -25.607294 -115.24174
173836000 -24.581873 -122.8214 -0.15850475 -35.014118 -0.15703695 -35.0116 -25.565203 -115.54049
174835000 -24.527456 -123.28381 -0.15832435 -35.208485 -0.15808058 -35.2094 -25.528587 -115.91628
175834000 -24.481606 -123.71696 -0.15929174 -35.406742 -0.15830556 -35.402676 -25.459946 -116.25724
176833000 -24.43211 -124.11631 -0.16007002 -35.605312 -0.15930437 -35.603886 -25.411217 -116.49392
177832000 -24.388605 -124.60898 -0.16049197 -35.801018 -0.15966582 -35.802078 -25.387617 -116.70195
178831000 -24.34914 -124.99633 -0.16109209 -35.999489 -0.16023573 -35.997028 -25.35001 -116.94084
179830000 -24.31505 -125.46532 -0.16221139 -36.19733 -0.16072837 -36.199768 -25.31883 -117.10906
180829000 -24.278101 -125.72713 -0.16257094 -36.391537 -0.16169469 -36.393669 -25.294363 -117.35217
181828000 -24.250278 -126.07355 -0.16293105 -36.588821 -0.16152892 -36.58865 -25.276817 -117.44701
182827000 -24.226833 -126.44041 -0.16297325 -36.787407 -0.16193059 -36.780994 -25.260576 -117.54178
183826000 -24.188532 -126.79084 -0.16396186 -36.98267 -0.16225465 -36.981003 -25.257044 -117.70991
184825000 -24.194386 -127.11002 -0.16402127 -37.179333 -0.1625516 -37.182255 -25.233934 -117.80711
185824000 -24.163469 -127.48167 -0.16390514 -37.374893 -0.16242583 -37.37767 -25.231812 -117.87483
186823000 -24.145491 -127.82759 -0.16413444 -37.573978 -0.16318342 -37.577576 -25.228018 -117.84407
187822000 -24.128647 -128.14758 -0.16437344 -37.771282 -0.16376482 -37.768776 -25.189934 -117.95132
188821000 -24.101358 -128.42039 -0.16484234 -37.969456 -0.16369869 -37.972435 -25.171398 -118.05692
189820000 -24.087303 -128.71756 -0.16559416 -38.169296 -0.164203 -38.169895 -25.164734 -118.25381
190819000 -24.055456 -128.93071 -0.16682278 -38.366493 -0.16536129 -38.365833 -25.128819 -118.21223
191818000 -24.020763 -129.14034 -0.16806544 -38.562725 -0.16672432 -38.561062 -25.087978 -118.11941
192817000 -23.948193 -129.45154 -0.16863242 -38.748741 -0.1672774 -38.746792 -25.012949 -118.20383
193816000 -23.910719 -129.81448 -0.16769172 -38.938179 -0.16592845 -38.939167 -24.953552 -118.47949
194815000 -23.855255 -130.29214 -0.16777727 -39.132965 -0.16663179 -39.139759 -24.887377 -118.66683
195814000 -23.801012 -130.53514 -0.16822661 -39.334202 -0.16673777 -39.338596 -24.83156 -118.80158
196813000 -23.748821 -130.91391 -0.1682764 -39.526466 -0.16632435 -39.53334 -24.748825 -118.9838
197812000 -23.688797 -131.15967 -0.16805172 -39.726696 -0.16680367 -39.724541 -24.674011 -119.14336
198811000 -23.634237 -131.38205 -0.16827209 -39.927238 -0.1661627 -39.924412 -24.59868 -119.35423
199810000 -23.562513 -131.75548 -0.16854523 -40.116982 -0.16696587 -40.120636 -24.51676 -119.50558
200809000 -23.507568 -132.07393 -0.1684497 -40.31905 -0.16726018 -40.318771 -24.435219 -119.74338
201808000 -23.449627 -132.32564 -0.16944978 -40.519524 -0.16864857 -40.521076 -24.36236 -119.85254
202807000 -23.39303 -132.73247 -0.17014265 -40.717842 -0.1689699 -40.723827 -24.306143 -120.12359
203806000 -23.344221 -133.17587 -0.1721274 -40.919724 -0.16936122 -40.919521 -24.240395 -120.30145
204805000 -23.294851 -133.58067 -0.17300951 -41.118038 -0.17051201 -41.116669 -24.178755 -120.55953
