!Keysight Technologies,E5080B,MY59205177,A.15.75.32
!Date: Friday, February 23, 2024 03:26:15
!Correction: S11(Cdelta 2-Port  ) 
!S21(Cdelta 2-Port  ) 
!S12(Cdelta 2-Port  ) 
!S22(Cdelta 2-Port  ) 
!S2P File: Measurements: S11, S21, S12, S22:
# Hz S  dB   R 50
10000000 -45.894142 -0.3293021 -0.016535036 -2.0600293 -0.019552389 -2.1139195 -46.251286 -159.73125
10999000 -45.119183 -2.0356169 -0.018303135 -2.2784345 -0.019348793 -2.3341179 -46.19305 -153.04906
11998000 -44.246433 -5.3080902 -0.017778063 -2.505214 -0.018507725 -2.5478837 -46.470703 -149.1757
12997000 -43.546459 -10.751948 -0.017419387 -2.6861036 -0.019052906 -2.7183745 -46.116508 -143.17883
13996000 -43.190449 -14.457947 -0.016910532 -2.8647139 -0.019283529 -2.8883674 -45.957832 -137.29996
14995000 -42.785336 -19.039923 -0.019177966 -3.0767012 -0.019132985 -3.0998421 -45.582542 -133.94775
15994000 -42.729008 -23.419786 -0.019884458 -3.2960718 -0.021230152 -3.3180358 -45.515263 -130.24883
16993000 -42.642757 -27.94138 -0.019322271 -3.4949024 -0.020928675 -3.5057516 -44.685429 -129.94135
17992000 -42.760437 -33.252434 -0.019706849 -3.6977384 -0.021724945 -3.6978631 -44.14735 -129.74242
18991000 -43.036274 -38.283192 -0.021316515 -3.9059632 -0.022068627 -3.9040697 -43.505337 -128.49181
19990000 -42.872677 -43.80975 -0.023590676 -4.118084 -0.024368692 -4.1087747 -42.732731 -129.29578
20989000 -42.696747 -47.20166 -0.025511371 -4.3198543 -0.026603041 -4.3133831 -42.217579 -128.7238
21988000 -42.543182 -52.381233 -0.025499653 -4.5211029 -0.027351119 -4.5093069 -41.982738 -127.75333
22987000 -42.247711 -57.569492 -0.02770202 -4.7187567 -0.028492497 -4.711194 -41.720512 -127.30103
23986000 -42.285732 -61.638935 -0.027274795 -4.9155598 -0.027629336 -4.9144797 -41.615017 -127.40174
24985000 -41.859196 -64.265244 -0.027775746 -5.12363 -0.028359091 -5.1220746 -41.415581 -124.7242
25984000 -41.559433 -66.381294 -0.029521063 -5.3286057 -0.028879972 -5.3281889 -41.087646 -122.73351
26983000 -41.235451 -68.388329 -0.030393725 -5.5336609 -0.029386844 -5.5529342 -40.972233 -121.90224
27982000 -41.089092 -69.176872 -0.030733662 -5.7316747 -0.03090729 -5.7671332 -40.715721 -120.60118
28981000 -41.064247 -71.123909 -0.029698031 -5.9309301 -0.03129863 -5.9549518 -40.495602 -120.03013
29980000 -40.632404 -71.910591 -0.029211713 -6.124146 -0.031080665 -6.129283 -40.231865 -119.20739
30979000 -40.255245 -71.280045 -0.027504813 -6.483911 -0.026226968 -6.4710784 -39.684151 -119.42387
31978000 -40.073288 -72.288582 -0.026556421 -6.6740093 -0.027193522 -6.665699 -39.450806 -118.61366
32977000 -39.872253 -73.834373 -0.026878085 -6.8883204 -0.028193381 -6.8834944 -39.226326 -118.66261
33976000 -39.681763 -75.063438 -0.02775725 -7.088098 -0.028167065 -7.0859828 -38.919033 -118.00687
34975000 -39.388306 -75.841988 -0.027417285 -7.2906728 -0.029238295 -7.2894034 -38.700333 -117.74113
35974000 -39.199535 -76.309616 -0.026563713 -7.4847231 -0.029197639 -7.4897466 -38.398994 -116.66818
36973000 -38.952644 -77.199661 -0.027576452 -7.6877394 -0.030465672 -7.6923733 -38.125416 -115.72534
37972000 -38.768875 -76.997993 -0.026808541 -7.8963065 -0.029961282 -7.9086633 -37.916119 -114.96664
38971000 -38.448399 -76.449448 -0.028971439 -8.0992575 -0.030853845 -8.1093702 -37.738697 -113.2595
39970000 -38.1115 -76.798775 -0.026535586 -8.29529 -0.029567717 -8.3126392 -37.469864 -112.66509
40969000 -37.806126 -76.384964 -0.027168516 -8.4944611 -0.029780133 -8.5094328 -37.219021 -111.21703
41968000 -37.444565 -76.459305 -0.027497258 -8.6996174 -0.030391118 -8.7169523 -37.01664 -109.90726
42967000 -37.182415 -76.523224 -0.026540533 -8.9111423 -0.030295972 -8.9303255 -36.818516 -107.75308
43966000 -36.879139 -77.334587 -0.028056856 -9.1072989 -0.031183129 -9.1269922 -36.534317 -107.10504
44965000 -36.625519 -78.064583 -0.029404566 -9.3158321 -0.031957552 -9.3303013 -36.31847 -106.83086
45964000 -36.399719 -79.187859 -0.030591844 -9.5165787 -0.033199262 -9.5328836 -36.077866 -106.56658
46963000 -36.202652 -81.182716 -0.030655714 -9.7091169 -0.033381857 -9.732913 -35.895832 -106.76334
47962000 -36.052574 -82.550415 -0.032289788 -9.9141922 -0.034386534 -9.9309998 -35.696068 -106.78877
48961000 -35.831562 -83.997871 -0.034315042 -10.111592 -0.036371004 -10.135946 -35.44471 -107.01696
49960000 -35.60112 -85.394707 -0.035710894 -10.308786 -0.037921578 -10.332106 -35.3181 -107.02786
50959000 -35.388062 -86.76413 -0.036120154 -10.523418 -0.038592733 -10.536444 -35.122871 -107.39684
51958000 -35.180161 -87.79718 -0.038345672 -10.725593 -0.039734457 -10.73438 -34.96207 -107.6587
52957000 -34.962845 -88.932777 -0.040247824 -10.923379 -0.041223515 -10.933846 -34.794731 -107.44862
53956000 -34.795086 -89.621674 -0.040729892 -11.125968 -0.042337175 -11.129543 -34.663868 -107.35659
54955000 -34.626343 -90.059921 -0.042063504 -11.331267 -0.042923789 -11.327552 -34.505306 -107.42426
55954000 -34.465691 -90.946587 -0.043633893 -11.529833 -0.043479364 -11.529482 -34.40382 -107.07107
56953000 -34.33997 -91.011963 -0.043339223 -11.733061 -0.042029787 -11.71719 -34.329342 -107.21231
57952000 -34.169849 -91.515656 -0.044572424 -11.927568 -0.044184331 -11.918396 -34.230217 -107.31181
58951000 -34.053383 -91.897331 -0.044483766 -12.131575 -0.045049481 -12.114482 -34.076355 -107.32481
59950000 -33.923992 -92.199516 -0.045829255 -12.332096 -0.04557446 -12.313521 -34.009819 -107.60854
60949000 -33.806511 -92.817085 -0.045944102 -12.53912 -0.046455324 -12.518661 -33.903282 -107.79198
61948000 -33.745071 -93.073875 -0.047114193 -12.735517 -0.046675894 -12.721229 -33.820385 -108.03003
62947000 -33.654209 -93.335091 -0.046933111 -12.948488 -0.046637431 -12.93117 -33.67944 -108.1698
63946000 -33.586826 -94.056244 -0.048450291 -13.147412 -0.04770904 -13.128454 -33.573437 -108.38026
64945000 -33.461525 -94.234283 -0.048955262 -13.353309 -0.04846181 -13.331531 -33.451416 -108.83439
65944000 -33.385544 -94.527306 -0.04961032 -13.550122 -0.048811801 -13.535571 -33.361153 -109.25497
66943000 -33.227596 -94.901749 -0.047582109 -13.752363 -0.047181185 -13.738073 -33.251133 -109.53214
67942000 -33.171436 -94.83606 -0.049779732 -13.950268 -0.04960718 -13.939279 -33.141777 -109.80499
68941000 -33.057114 -94.951233 -0.049486477 -14.141588 -0.048881177 -14.13749 -33.020763 -109.78902
69940000 -32.95295 -94.927345 -0.049999163 -14.343868 -0.049187481 -14.333225 -32.880058 -110.09153
70939000 -32.844261 -94.856422 -0.049710341 -14.539279 -0.048961021 -14.534545 -32.745399 -109.97876
71938000 -32.699825 -94.422989 -0.049539365 -14.736771 -0.049601156 -14.734162 -32.609482 -109.83637
72937000 -32.524426 -94.276062 -0.049633626 -14.93817 -0.0491236 -14.932077 -32.476757 -109.4793
73936000 -32.388702 -93.885094 -0.049779467 -15.138805 -0.048676461 -15.130278 -32.357609 -109.28285
74935000 -32.266754 -94.108017 -0.049136426 -15.334468 -0.047844872 -15.334435 -32.189533 -108.96291
75934000 -32.133816 -94.332382 -0.049468148 -15.542562 -0.047686793 -15.53999 -32.096233 -108.88136
76933000 -31.99984 -94.713989 -0.050110452 -15.738189 -0.049308177 -15.731488 -31.915361 -109.18572
77932000 -31.897911 -95.522461 -0.051736146 -15.934471 -0.050885376 -15.929125 -31.817598 -109.13626
78931000 -31.819178 -96.265823 -0.049809318 -16.13661 -0.049840741 -16.134274 -31.703184 -109.05968
79930000 -31.70952 -97.156456 -0.052600969 -16.329535 -0.052514505 -16.329454 -31.611616 -109.35081
80929000 -31.585661 -97.902252 -0.054389842 -16.527014 -0.054085791 -16.5235 -31.505774 -109.61532
81928000 -31.488375 -98.682869 -0.054744508 -16.719 -0.054557867 -16.71397 -31.37002 -109.56089
82927000 -31.394712 -99.451111 -0.056642577 -16.917961 -0.055350363 -16.916315 -31.271776 -109.86219
83926000 -31.267645 -100.11154 -0.057877727 -17.118572 -0.056767154 -17.118048 -31.145958 -110.05472
84925000 -31.170542 -100.5853 -0.058914065 -17.317366 -0.057392962 -17.313995 -31.04493 -110.15009
85924000 -31.071869 -100.97313 -0.059422616 -17.520241 -0.058662698 -17.514353 -30.958847 -110.06386
86923000 -30.970596 -101.48653 -0.060235687 -17.717812 -0.058876541 -17.708496 -30.851402 -109.91348
87922000 -30.848557 -101.883 -0.059914954 -17.923689 -0.059142616 -17.913898 -30.762373 -109.88771
88921000 -30.779146 -102.14486 -0.061182801 -18.119532 -0.059411068 -18.11998 -30.663841 -109.88849
89920000 -30.672125 -102.58521 -0.062005654 -18.318781 -0.060846772 -18.319155 -30.61005 -110.07733
90919000 -30.569901 -102.93409 -0.062308684 -18.516527 -0.061112441 -18.512934 -30.523228 -110.17423
91918000 -30.473602 -103.28782 -0.063531786 -18.718082 -0.061692931 -18.716106 -30.45014 -110.18953
92917000 -30.376698 -103.59529 -0.064832479 -18.919718 -0.063415423 -18.914667 -30.387283 -110.3291
93916000 -30.29203 -103.93519 -0.064200081 -19.109957 -0.062720202 -19.108889 -30.298916 -110.88683
94915000 -30.218723 -104.60826 -0.065587439 -19.314327 -0.064424179 -19.309208 -30.240122 -110.78598
95914000 -30.15155 -104.7494 -0.067246541 -19.507832 -0.065707535 -19.505451 -30.147526 -111.07044
96913000 -30.058798 -104.95312 -0.067775786 -19.710604 -0.066264197 -19.709642 -30.08812 -111.38081
97912000 -29.987394 -105.47666 -0.069722436 -19.906361 -0.066907674 -19.909184 -30.008816 -111.52969
98911000 -29.869223 -105.62217 -0.069700606 -20.11018 -0.067911461 -20.108816 -29.962776 -111.84708
99910000 -29.798096 -105.76382 -0.070103355 -20.306704 -0.068153374 -20.30615 -29.855486 -112.11774
100909000 -29.715685 -106.01403 -0.070017852 -20.519146 -0.067418218 -20.513821 -29.769733 -112.3335
101908000 -29.627977 -106.23257 -0.070916317 -20.717554 -0.069254763 -20.713697 -29.655706 -112.07883
102907000 -29.486639 -106.27588 -0.071455754 -20.920984 -0.069340773 -20.918224 -29.585976 -112.07771
103906000 -29.391954 -106.33135 -0.071505226 -21.124203 -0.068511002 -21.119591 -29.432472 -112.02039
104905000 -29.248407 -106.22355 -0.071906559 -21.323893 -0.068995699 -21.320667 -29.307751 -111.74706
105904000 -29.094969 -106.31319 -0.0721808 -21.523914 -0.069826871 -21.519621 -29.190678 -111.56828
106903000 -28.985977 -106.39426 -0.072938614 -21.730341 -0.070051529 -21.726768 -29.063402 -111.45705
107902000 -28.818451 -106.77662 -0.073196076 -21.933758 -0.070128083 -21.925255 -28.919315 -111.45201
108901000 -28.704866 -106.93977 -0.074868359 -22.134199 -0.071632072 -22.123289 -28.791521 -111.36768
109900000 -28.57654 -107.45343 -0.075466491 -22.334515 -0.073042072 -22.328243 -28.641369 -111.52391
110899000 -28.463039 -108.05389 -0.077228978 -22.534822 -0.073715255 -22.524839 -28.510185 -111.72386
111898000 -28.370676 -108.74128 -0.078380115 -22.7383 -0.075619794 -22.731081 -28.392834 -111.86993
112897000 -28.24585 -109.32694 -0.080030926 -22.935295 -0.076425627 -22.923035 -28.262691 -112.006
113896000 -28.147713 -109.84045 -0.080874242 -23.136181 -0.077288531 -23.125315 -28.147045 -112.18549
114895000 -28.040176 -110.53687 -0.082029775 -23.333462 -0.078408055 -23.321522 -28.035738 -112.24072
115894000 -27.918013 -110.88008 -0.083018325 -23.537216 -0.079948664 -23.524971 -27.966398 -112.47536
116893000 -27.847378 -111.34287 -0.084194228 -23.738092 -0.081325233 -23.718267 -27.848389 -112.47688
117892000 -27.766582 -111.86556 -0.084048539 -23.92979 -0.081430212 -23.918579 -27.77038 -112.71465
118891000 -27.701101 -112.28192 -0.084366314 -24.13397 -0.082379848 -24.119608 -27.669832 -112.77668
119890000 -27.612034 -112.59921 -0.086148523 -24.332926 -0.083266094 -24.318886 -27.666016 -112.96307
120889000 -27.565565 -113.12556 -0.086788088 -24.535965 -0.083887294 -24.520443 -27.583952 -112.88955
121888000 -27.524151 -113.4688 -0.087230712 -24.734924 -0.083631836 -24.718039 -27.525204 -113.16798
122887000 -27.483675 -113.63996 -0.087853797 -24.936489 -0.084627092 -24.921146 -27.480591 -113.15894
123886000 -27.43177 -114.09811 -0.088803783 -25.141298 -0.085877091 -25.12022 -27.462866 -113.33968
124885000 -27.39749 -114.58234 -0.088946722 -25.337599 -0.085361995 -25.321131 -27.432526 -113.32616
125884000 -27.345444 -114.76852 -0.089686327 -25.536127 -0.085473932 -25.522549 -27.402822 -113.49964
126883000 -27.328342 -115.18147 -0.089960635 -25.741787 -0.086718105 -25.725367 -27.364134 -113.54901
127882000 -27.276461 -115.48802 -0.090403855 -25.939692 -0.087411366 -25.921997 -27.324093 -113.63992
128881000 -27.244606 -115.7974 -0.090804555 -26.1434 -0.086883418 -26.122623 -27.281 -113.75898
129880000 -27.185707 -116.09838 -0.092026725 -26.345287 -0.08757513 -26.324965 -27.240059 -113.72353
130879000 -27.130926 -116.30098 -0.091289103 -26.543484 -0.088636279 -26.528679 -27.166862 -113.72738
131878000 -27.056273 -116.51516 -0.091934182 -26.746395 -0.089302637 -26.727818 -27.101976 -113.62283
132877000 -26.989601 -116.58935 -0.091494247 -26.949055 -0.089183994 -26.934046 -27.01582 -113.58828
133876000 -26.900526 -116.77054 -0.09203624 -27.151611 -0.08937715 -27.131187 -26.925776 -113.48898
134875000 -26.803652 -116.90374 -0.092471734 -27.349909 -0.089426033 -27.331934 -26.826023 -113.32622
135874000 -26.72261 -116.96113 -0.092240632 -27.551378 -0.089810267 -27.534853 -26.722321 -113.30645
136873000 -26.60495 -116.84387 -0.093487002 -27.755058 -0.089349404 -27.739187 -26.644413 -113.24689
137872000 -26.525951 -116.99811 -0.093594387 -27.954561 -0.089562126 -27.942133 -26.531874 -113.21739
138871000 -26.443398 -117.18909 -0.093620308 -28.155245 -0.090307645 -28.139011 -26.435333 -113.33713
139870000 -26.349028 -117.52744 -0.094506212 -28.357176 -0.091948457 -28.33761 -26.350214 -113.51572
140869000 -26.267637 -118.0587 -0.095318735 -28.554482 -0.092143327 -28.534838 -26.248976 -113.71253
141868000 -26.17935 -118.4677 -0.096235417 -28.750168 -0.093474574 -28.737469 -26.197388 -114.00773
142867000 -26.101843 -118.6759 -0.09531609 -28.950632 -0.093346827 -28.934837 -26.117126 -114.1179
143866000 -26.028114 -119.20411 -0.097288892 -29.147228 -0.094316535 -29.132465 -26.03964 -114.58505
144865000 -25.971977 -119.68488 -0.098354012 -29.348274 -0.095580436 -29.331629 -25.982214 -114.85954
145864000 -25.911528 -120.00647 -0.099208035 -29.546511 -0.096733801 -29.535419 -25.943232 -115.09462
146863000 -25.870348 -120.3726 -0.10054966 -29.749262 -0.096779332 -29.735416 -25.898037 -115.43105
147862000 -25.832272 -120.71454 -0.10145765 -29.946375 -0.097781837 -29.932901 -25.870007 -115.7039
148861000 -25.799635 -121.17432 -0.10208888 -30.142868 -0.099453814 -30.132019 -25.850248 -115.88838
149860000 -25.763914 -121.36383 -0.10370233 -30.339588 -0.10042754 -30.327038 -25.798275 -115.95223
150859000 -25.741665 -121.79272 -0.10301388 -30.539112 -0.09952718 -30.523153 -25.773424 -116.33633
151858000 -25.731728 -122.13001 -0.10253412 -30.735462 -0.10020024 -30.723093 -25.767221 -116.67159
152857000 -25.720634 -122.45935 -0.10273397 -30.930368 -0.099567175 -30.925219 -25.751532 -116.80473
153856000 -25.716591 -122.69427 -0.1021803 -31.136026 -0.099355288 -31.117151 -25.771082 -117.10058
154855000 -25.710369 -122.85695 -0.1031162 -31.334766 -0.099680804 -31.325489 -25.761061 -117.36608
155854000 -25.733969 -123.08083 -0.10301468 -31.536207 -0.099865951 -31.519766 -25.751268 -117.62753
156853000 -25.723629 -123.78195 -0.1010443 -31.721741 -0.099362709 -31.71484 -25.750683 -117.96024
157852000 -25.728205 -123.97215 -0.10222165 -31.925825 -0.10085619 -31.917286 -25.742376 -118.28779
158851000 -25.729919 -124.19823 -0.10319891 -32.125374 -0.10180955 -32.11356 -25.731421 -118.54377
159850000 -25.718458 -124.30872 -0.10386485 -32.324028 -0.1013922 -32.315945 -25.729053 -118.70255
160849000 -25.70248 -124.41127 -0.10418513 -32.523972 -0.10218534 -32.520424 -25.701242 -119.02098
161848000 -25.688423 -124.49957 -0.10446248 -32.724335 -0.10206608 -32.717712 -25.661974 -119.131
162847000 -25.643625 -124.67586 -0.10465075 -32.924362 -0.10274033 -32.917866 -25.6364 -119.38335
163846000 -25.604876 -124.89911 -0.10496049 -33.12619 -0.1033903 -33.114643 -25.558207 -119.40899
164845000 -25.548656 -124.88264 -0.10543202 -33.324257 -0.10284 -33.322292 -25.493555 -119.50105
165844000 -25.49202 -124.91772 -0.1050777 -33.525272 -0.10401598 -33.517693 -25.415831 -119.66318
166843000 -25.430597 -124.96663 -0.10540762 -33.724796 -0.10419097 -33.721416 -25.354273 -119.7623
167842000 -25.376663 -125.0808 -0.1053933 -33.928608 -0.10459984 -33.918011 -25.271305 -119.72224
168841000 -25.296158 -125.24369 -0.10622483 -34.123535 -0.10485945 -34.115227 -25.190638 -119.8119
169840000 -25.230652 -125.50999 -0.10640469 -34.320705 -0.10555402 -34.317627 -25.113531 -120.00555
170839000 -25.168125 -125.75339 -0.10678884 -34.517033 -0.10606541 -34.515495 -25.023123 -120.1786
171838000 -25.107695 -126.17364 -0.10713932 -34.720005 -0.1063405 -34.712704 -24.962044 -120.40173
172837000 -25.039392 -126.48102 -0.10909467 -34.915909 -0.10782391 -34.909584 -24.894398 -120.60789
173836000 -24.967493 -126.90453 -0.11012021 -35.114113 -0.10913927 -35.111481 -24.851749 -120.8429
174835000 -24.91794 -127.32895 -0.11030421 -35.313709 -0.10912759 -35.312454 -24.802116 -121.18465
175834000 -24.863813 -127.68655 -0.11171168 -35.511127 -0.11034005 -35.507137 -24.743912 -121.45181
176833000 -24.813095 -128.02051 -0.11263024 -35.711166 -0.11136694 -35.709599 -24.692247 -121.58987
177832000 -24.765875 -128.49365 -0.11324662 -35.909065 -0.11159322 -35.911842 -24.672581 -121.70911
178831000 -24.729809 -128.73782 -0.11479858 -36.107548 -0.11346874 -36.105492 -24.633848 -121.83868
179830000 -24.667543 -129.03775 -0.11705203 -36.300507 -0.11479485 -36.300545 -24.583113 -121.81992
180829000 -24.600714 -129.37799 -0.1164601 -36.485485 -0.11481399 -36.486755 -24.522322 -122.10399
181828000 -24.579119 -129.84756 -0.11515529 -36.686054 -0.11397257 -36.68045 -24.500767 -122.34307
182827000 -24.552277 -130.24852 -0.11499473 -36.882347 -0.11435791 -36.885269 -24.482183 -122.46849
183826000 -24.514961 -130.59212 -0.11609823 -37.081326 -0.11449026 -37.080486 -24.481689 -122.61485
184825000 -24.514793 -130.94705 -0.11624287 -37.28429 -0.11492881 -37.280521 -24.456276 -122.74122
185824000 -24.485453 -131.2542 -0.11618358 -37.479443 -0.11487672 -37.473583 -24.448559 -122.81717
186823000 -24.467617 -131.66779 -0.1157994 -37.678261 -0.11397894 -37.674507 -24.444527 -122.79194
187822000 -24.443766 -131.94904 -0.11645558 -37.870216 -0.11547268 -37.871555 -24.404116 -122.90076
188821000 -24.415289 -132.24817 -0.11611764 -38.066235 -0.11535199 -38.071861 -24.386654 -123.05877
189820000 -24.396824 -132.54305 -0.11731105 -38.26712 -0.11547215 -38.26807 -24.368176 -123.24839
190819000 -24.359241 -132.84032 -0.11729935 -38.469379 -0.11633194 -38.463219 -24.327265 -123.26417
191818000 -24.328371 -133.14342 -0.11776026 -38.666683 -0.11625855 -38.665142 -24.29207 -123.29678
192817000 -24.278072 -133.40358 -0.11784936 -38.860481 -0.1169898 -38.861107 -24.255003 -123.40298
193816000 -24.253454 -133.68324 -0.11841328 -39.056583 -0.11711798 -39.056557 -24.198517 -123.55326
194815000 -24.188923 -134.06168 -0.11864418 -39.251369 -0.11834624 -39.255032 -24.132469 -123.63552
195814000 -24.133125 -134.25226 -0.11937635 -39.45166 -0.11868196 -39.450562 -24.076887 -123.74226
196813000 -24.074583 -134.58231 -0.11958735 -39.642231 -0.11804752 -39.648117 -23.995018 -123.91727
197812000 -24.016506 -134.82025 -0.11941095 -39.845131 -0.11959401 -39.838627 -23.924311 -123.99651
198811000 -23.962559 -134.97377 -0.11955516 -40.039562 -0.11889346 -40.040524 -23.850708 -124.20867
199810000 -23.893724 -135.34166 -0.11991492 -40.233986 -0.11940137 -40.237816 -23.773558 -124.25744
200809000 -23.834124 -135.58887 -0.12106998 -40.43375 -0.11935028 -40.434551 -23.697367 -124.47198
201808000 -23.772497 -135.79019 -0.12088685 -40.635662 -0.12001126 -40.636028 -23.626438 -124.55062
202807000 -23.716438 -136.16151 -0.12216198 -40.837196 -0.12060685 -40.837234 -23.570778 -124.75402
203806000 -23.659575 -136.55577 -0.1233725 -41.035099 -0.1213138 -41.036884 -23.503675 -124.9106
