!Keysight Technologies,E5080B,MY59205177,A.15.75.32
!Date: Friday, February 23, 2024 02:57:27
!Correction: S11(Cdelta 2-Port  ) 
!S21(Cdelta 2-Port  ) 
!S12(Cdelta 2-Port  ) 
!S22(Cdelta 2-Port  ) 
!S2P File: Measurements: S11, S21, S12, S22:
# Hz S  dB   R 50
10000000 -44.027905 -3.7577555 -0.028453674 -2.0400202 -0.031220151 -2.0949185 -48.241398 -149.63245
10999000 -43.400936 -5.5784039 -0.029966494 -2.2569795 -0.031669147 -2.311446 -47.998528 -141.25531
11998000 -42.601097 -7.9553709 -0.030243317 -2.4814467 -0.030874701 -2.5250373 -48.096027 -135.82248
12997000 -41.978756 -12.613684 -0.029239075 -2.6604431 -0.030333508 -2.6909299 -47.422695 -129.9126
13996000 -41.75153 -15.747935 -0.0284469 -2.8414197 -0.030409627 -2.8610959 -46.928543 -124.30299
14995000 -41.422043 -19.453342 -0.030652585 -3.0485263 -0.031074146 -3.0717885 -46.528057 -120.99396
15994000 -41.34486 -23.440855 -0.031242052 -3.2660651 -0.032717504 -3.2910564 -46.349106 -117.32774
16993000 -41.307663 -27.035126 -0.031138806 -3.4619203 -0.032707594 -3.4692702 -45.327694 -117.83302
17992000 -41.377781 -31.743263 -0.031509828 -3.6629632 -0.033308558 -3.6666927 -44.764229 -118.79813
18991000 -41.631191 -36.302246 -0.03253546 -3.8716688 -0.034120146 -3.8711612 -44.03635 -118.60657
19990000 -41.501034 -40.993542 -0.035445727 -4.07796 -0.035717156 -4.0788321 -43.35804 -120.4227
20989000 -41.44281 -44.020668 -0.036852904 -4.2823572 -0.037593611 -4.2755289 -42.788239 -120.26524
21988000 -41.394821 -48.484589 -0.037452091 -4.4801693 -0.037913483 -4.4669895 -42.478821 -119.51627
22987000 -41.123985 -52.920177 -0.03893305 -4.6772676 -0.039582159 -4.6715269 -42.197479 -119.22901
23986000 -41.151367 -56.541023 -0.038670041 -4.8707676 -0.03860971 -4.8739681 -42.081699 -119.24634
24985000 -40.87624 -59.38316 -0.040159516 -5.0831227 -0.038615715 -5.0763001 -41.789021 -116.95026
25984000 -40.644775 -61.542545 -0.040739823 -5.2884803 -0.038983982 -5.2886038 -41.477139 -115.38001
26983000 -40.340431 -63.336872 -0.041656557 -5.4836721 -0.039540362 -5.5069919 -41.303093 -114.53838
27982000 -40.22974 -64.438721 -0.042432066 -5.6826267 -0.041530062 -5.7173266 -41.049484 -113.30152
28981000 -40.179787 -66.060226 -0.040357556 -5.8845267 -0.041394163 -5.9079471 -40.788483 -112.43452
29980000 -39.842514 -67.422546 -0.040652025 -6.0745544 -0.041477796 -6.0794554 -40.423641 -111.88363
30979000 -39.459522 -66.867935 -0.038376227 -6.4312482 -0.036829147 -6.4206553 -39.942707 -112.70261
31978000 -39.26326 -67.864105 -0.036920261 -6.623446 -0.037935156 -6.6117182 -39.676739 -112.0573
32977000 -39.094418 -69.420013 -0.037677426 -6.8336148 -0.038426369 -6.826757 -39.421036 -112.28165
33976000 -38.935116 -70.747955 -0.038061023 -7.0319729 -0.038616501 -7.0251369 -39.102291 -111.8284
34975000 -38.68959 -71.761612 -0.038093142 -7.2326589 -0.039366387 -7.2326546 -38.845348 -111.67651
35974000 -38.488731 -72.330574 -0.037143219 -7.4281383 -0.039178837 -7.4316411 -38.568039 -110.83781
36973000 -38.252491 -73.130562 -0.037852377 -7.626029 -0.039755881 -7.6292319 -38.25531 -109.97844
37972000 -38.081387 -73.054893 -0.037586559 -7.8350673 -0.039383627 -7.8449326 -38.022556 -109.3852
38971000 -37.78981 -72.827034 -0.038525872 -8.0399313 -0.039787751 -8.0482187 -37.828796 -107.89438
39970000 -37.457596 -73.297081 -0.03671167 -8.2365246 -0.039641459 -8.2475767 -37.553215 -107.4958
40969000 -37.173092 -73.315536 -0.03725601 -8.4250603 -0.03853371 -8.4460058 -37.29073 -106.1909
41968000 -36.842609 -73.366867 -0.037529901 -8.6289959 -0.038492706 -8.6506519 -37.074757 -105.08206
42967000 -36.584396 -73.686813 -0.037665416 -8.8407202 -0.039726358 -8.8603172 -36.832813 -103.18813
43966000 -36.304527 -74.550232 -0.037409011 -9.0445738 -0.040520336 -9.060317 -36.557228 -102.65698
44965000 -36.069805 -75.578186 -0.038996 -9.2442255 -0.04073564 -9.2614994 -36.329842 -102.54613
45964000 -35.857952 -76.655029 -0.039809436 -9.4451656 -0.041983783 -9.4626093 -36.089947 -102.52127
46963000 -35.70219 -78.645103 -0.039848622 -9.6380396 -0.041987967 -9.6602554 -35.917919 -102.80709
47962000 -35.551048 -80.178749 -0.041544177 -9.8371105 -0.043428641 -9.856883 -35.710514 -102.96732
48961000 -35.369034 -81.622101 -0.043664485 -10.034706 -0.045028295 -10.056398 -35.478378 -103.3083
49960000 -35.151276 -83.01152 -0.044750791 -10.234577 -0.046412677 -10.258526 -35.348091 -103.4871
50959000 -34.940804 -84.400803 -0.045020185 -10.448557 -0.047642563 -10.459423 -35.164639 -103.9026
51958000 -34.755421 -85.524368 -0.047548085 -10.647813 -0.048704211 -10.653929 -34.986851 -104.48066
52957000 -34.570007 -86.665344 -0.049372584 -10.846636 -0.049490403 -10.852228 -34.835716 -104.27153
53956000 -34.412579 -87.462204 -0.049937103 -11.04748 -0.050616663 -11.047481 -34.68853 -104.35381
54955000 -34.246677 -87.998497 -0.050812304 -11.248472 -0.05163005 -11.247533 -34.54361 -104.39874
55954000 -34.089062 -88.893974 -0.051661488 -11.44873 -0.051741123 -11.44368 -34.420979 -104.10141
56953000 -33.975483 -88.974014 -0.051391155 -11.642521 -0.050782185 -11.638314 -34.356197 -104.36314
57952000 -33.823578 -89.699509 -0.052997675 -11.8408 -0.052301232 -11.834298 -34.256458 -104.53858
58951000 -33.694317 -89.979942 -0.053137079 -12.049334 -0.052821588 -12.026636 -34.092258 -104.61745
59950000 -33.574085 -90.422966 -0.054045167 -12.247429 -0.053691342 -12.225741 -34.03772 -105.00906
60949000 -33.481525 -90.900513 -0.054343708 -12.449031 -0.053944521 -12.427197 -33.933846 -105.16119
61948000 -33.409908 -91.335121 -0.054838095 -12.647155 -0.05369344 -12.628977 -33.855858 -105.31919
62947000 -33.327606 -91.463646 -0.055032875 -12.858309 -0.054651711 -12.839071 -33.708508 -105.6049
63946000 -33.265587 -92.271027 -0.056243703 -13.055621 -0.056147724 -13.034479 -33.606522 -105.81116
64945000 -33.147171 -92.36721 -0.056055948 -13.2597 -0.056342043 -13.236672 -33.485043 -106.25701
65944000 -33.057835 -92.687973 -0.05742234 -13.456779 -0.056455594 -13.436727 -33.411137 -106.76897
66943000 -32.9132 -93.115891 -0.055513181 -13.658694 -0.054900747 -13.639665 -33.308022 -107.00631
67942000 -32.853554 -93.116776 -0.057733972 -13.853737 -0.056746695 -13.84172 -33.183189 -107.30066
68941000 -32.736942 -93.211708 -0.056722831 -14.046569 -0.055112835 -14.03721 -33.069214 -107.3402
69940000 -32.648003 -93.275566 -0.056876782 -14.245755 -0.056638382 -14.236963 -32.93206 -107.59991
70939000 -32.535339 -93.22998 -0.056800984 -14.441981 -0.05601006 -14.433558 -32.798618 -107.45879
71938000 -32.397678 -92.809311 -0.056757186 -14.636225 -0.05582913 -14.630513 -32.660545 -107.42441
72937000 -32.235287 -92.644272 -0.056120716 -14.837808 -0.055570602 -14.826666 -32.52536 -107.1482
73936000 -32.09708 -92.378799 -0.055786654 -15.036421 -0.055349052 -15.023363 -32.407097 -106.98489
74935000 -31.979084 -92.578468 -0.055473328 -15.226797 -0.054111216 -15.225595 -32.251438 -106.59776
75934000 -31.862041 -92.912636 -0.055149801 -15.441879 -0.054428898 -15.433294 -32.173531 -106.55659
76933000 -31.725815 -93.293266 -0.056633923 -15.630359 -0.056626055 -15.624088 -31.989866 -106.94781
77932000 -31.635067 -94.037056 -0.057771485 -15.828361 -0.057157423 -15.825559 -31.904118 -106.97335
78931000 -31.574492 -94.908081 -0.056664083 -16.030539 -0.057043329 -16.020683 -31.805843 -106.87101
79930000 -31.461445 -95.650497 -0.059513155 -16.220501 -0.059447546 -16.215727 -31.712818 -107.21542
80929000 -31.335402 -96.600662 -0.060928941 -16.418024 -0.061194088 -16.41218 -31.603521 -107.49988
81928000 -31.253361 -97.449608 -0.060596082 -16.609699 -0.061175711 -16.604954 -31.484947 -107.60517
82927000 -31.162474 -98.24305 -0.062311836 -16.806747 -0.062288202 -16.807102 -31.383251 -107.97716
83926000 -31.05382 -98.978531 -0.06367337 -17.003323 -0.06339021 -17.004852 -31.269106 -108.18941
84925000 -30.944723 -99.444687 -0.064125471 -17.204569 -0.063347921 -17.200201 -31.176062 -108.34377
85924000 -30.853271 -99.884262 -0.064916566 -17.403803 -0.065237664 -17.400059 -31.086897 -108.32791
86923000 -30.755745 -100.43891 -0.065566942 -17.602505 -0.064741574 -17.593048 -30.981138 -108.22273
87922000 -30.650091 -100.84582 -0.065281287 -17.804947 -0.064803317 -17.794598 -30.909357 -108.31114
88921000 -30.590906 -101.14285 -0.066873498 -17.999039 -0.065747224 -18.001337 -30.816023 -108.31489
89920000 -30.477245 -101.70633 -0.066935539 -18.200325 -0.066397198 -18.195963 -30.764372 -108.47944
90919000 -30.388273 -102.0565 -0.067971937 -18.398481 -0.066588551 -18.395111 -30.679596 -108.63558
91918000 -30.298485 -102.39362 -0.069298163 -18.599661 -0.067009412 -18.594917 -30.607527 -108.73971
92917000 -30.206879 -102.76411 -0.069971025 -18.794657 -0.068542823 -18.789808 -30.547064 -108.77521
93916000 -30.131718 -103.06209 -0.069252923 -18.98831 -0.067914881 -18.984325 -30.460283 -109.44817
94915000 -30.047441 -103.7743 -0.071015254 -19.192177 -0.069201104 -19.184727 -30.405073 -109.34215
95914000 -29.993105 -103.99546 -0.071875237 -19.382259 -0.070496663 -19.382742 -30.307512 -109.60486
96913000 -29.902658 -104.22366 -0.073302172 -19.584715 -0.071058407 -19.581938 -30.2509 -109.92921
97912000 -29.836613 -104.71613 -0.073964335 -19.778236 -0.072102107 -19.781073 -30.161793 -110.20315
98911000 -29.720966 -104.92416 -0.074512832 -19.98214 -0.072496913 -19.978788 -30.129354 -110.41093
99910000 -29.664484 -105.05227 -0.075024799 -20.175095 -0.072680116 -20.179108 -30.022629 -110.69902
100909000 -29.584753 -105.30865 -0.074818321 -20.3888 -0.072389521 -20.379425 -29.929506 -110.92657
101908000 -29.487341 -105.58589 -0.075525492 -20.588516 -0.073638901 -20.586716 -29.81756 -110.70174
102907000 -29.352615 -105.57704 -0.076369248 -20.784176 -0.0741871 -20.780867 -29.745481 -110.64273
103906000 -29.260798 -105.67075 -0.075862132 -20.993166 -0.073673651 -20.987965 -29.596849 -110.57561
104905000 -29.12006 -105.59884 -0.076908566 -21.188581 -0.07408151 -21.190582 -29.469053 -110.28046
105904000 -28.979862 -105.67673 -0.077012911 -21.395561 -0.074689277 -21.386852 -29.350992 -110.10635
106903000 -28.867588 -105.75495 -0.077020019 -21.596001 -0.07444068 -21.592323 -29.226154 -110.04956
107902000 -28.701479 -106.16461 -0.077639535 -21.797354 -0.074815422 -21.786457 -29.086 -109.9881
108901000 -28.589975 -106.37685 -0.079146393 -21.996536 -0.076826364 -21.98699 -28.955061 -109.93796
109900000 -28.467737 -106.85726 -0.080059931 -22.197819 -0.077625833 -22.187759 -28.807522 -110.08092
110899000 -28.353388 -107.52888 -0.081014544 -22.395937 -0.077691451 -22.385292 -28.684654 -110.38234
111898000 -28.261936 -108.1904 -0.082406491 -22.596149 -0.07900615 -22.590836 -28.568375 -110.47844
112897000 -28.14184 -108.78263 -0.084086016 -22.795498 -0.080010101 -22.781765 -28.426535 -110.7159
113896000 -28.033484 -109.44323 -0.084608085 -22.997299 -0.081456847 -22.983189 -28.321587 -110.83163
114895000 -27.930426 -110.05659 -0.085688576 -23.193316 -0.083474293 -23.178753 -28.212952 -110.93432
115894000 -27.807695 -110.39979 -0.087290667 -23.396763 -0.0837432 -23.378775 -28.141167 -111.10763
116893000 -27.725662 -111.01858 -0.08768712 -23.592684 -0.084462389 -23.573214 -28.007103 -111.27196
117892000 -27.643784 -111.4522 -0.087249205 -23.782909 -0.084689386 -23.773211 -27.938133 -111.48619
118891000 -27.585817 -111.89586 -0.088861115 -23.985439 -0.085563958 -23.968626 -27.840872 -111.61951
119890000 -27.49851 -112.29353 -0.088525318 -24.187794 -0.085867845 -24.168085 -27.828297 -111.79527
120889000 -27.437077 -112.77313 -0.090063974 -24.387449 -0.086546458 -24.373796 -27.751148 -111.7583
121888000 -27.400963 -113.16117 -0.090192154 -24.582455 -0.086842753 -24.568922 -27.687962 -112.02771
122887000 -27.355135 -113.33968 -0.09096501 -24.788675 -0.087760024 -24.771 -27.64407 -112.08406
123886000 -27.298923 -113.72344 -0.091800399 -24.988972 -0.087920368 -24.971367 -27.625973 -112.25801
124885000 -27.270098 -114.26393 -0.09153311 -25.185421 -0.088219397 -25.170639 -27.602037 -112.32098
125884000 -27.216347 -114.48349 -0.092788272 -25.382784 -0.088377371 -25.366955 -27.570236 -112.52617
126883000 -27.193659 -114.84692 -0.093113028 -25.586197 -0.089131415 -25.572147 -27.529156 -112.57247
127882000 -27.142717 -115.12821 -0.093451031 -25.785677 -0.089669146 -25.769295 -27.478901 -112.76759
128881000 -27.110802 -115.48298 -0.093320906 -25.986656 -0.089690551 -25.970762 -27.444212 -112.82063
129880000 -27.057837 -115.7537 -0.094109662 -26.186867 -0.089616559 -26.167425 -27.399607 -112.80958
130879000 -26.993044 -115.94268 -0.093926877 -26.38854 -0.090528868 -26.368557 -27.323229 -112.908
131878000 -26.926981 -116.14005 -0.094614156 -26.589367 -0.090493985 -26.569862 -27.25873 -112.81805
132877000 -26.861897 -116.24264 -0.094424203 -26.79413 -0.090562701 -26.771875 -27.175486 -112.77864
133876000 -26.773829 -116.38346 -0.094019726 -26.990032 -0.091592066 -26.975227 -27.082291 -112.69351
134875000 -26.675188 -116.4883 -0.095282748 -27.188322 -0.091460146 -27.171614 -26.978247 -112.54066
135874000 -26.596573 -116.54688 -0.095140398 -27.390417 -0.091341972 -27.376228 -26.881508 -112.53938
136873000 -26.48498 -116.47546 -0.095565885 -27.592607 -0.091225125 -27.576752 -26.791166 -112.52245
137872000 -26.409428 -116.55708 -0.095350221 -27.79451 -0.091465957 -27.777216 -26.689537 -112.49831
138871000 -26.334902 -116.77857 -0.096137494 -27.994383 -0.092172146 -27.977446 -26.587591 -112.59661
139870000 -26.237402 -117.04697 -0.096092239 -28.196932 -0.09330795 -28.174652 -26.51137 -112.78921
140869000 -26.149206 -117.52448 -0.09782102 -28.390562 -0.094162568 -28.369406 -26.406258 -112.97333
141868000 -26.054329 -117.98617 -0.097992323 -28.578369 -0.095279574 -28.565401 -26.338285 -113.24477
142867000 -25.980604 -118.26579 -0.096855827 -28.780796 -0.093746476 -28.7626 -26.258036 -113.48593
143866000 -25.908819 -118.74361 -0.098630987 -28.974995 -0.095082186 -28.961166 -26.181938 -113.99596
144865000 -25.856873 -119.29438 -0.099892177 -29.174856 -0.096553288 -29.163128 -26.129057 -114.30272
145864000 -25.794214 -119.58929 -0.10045402 -29.37652 -0.097974315 -29.363024 -26.096874 -114.55806
146863000 -25.753933 -119.98835 -0.10116354 -29.575157 -0.097570308 -29.55958 -26.044037 -114.87392
147862000 -25.709602 -120.34687 -0.10146507 -29.769844 -0.098241478 -29.756979 -26.009342 -115.19233
148861000 -25.681061 -120.88566 -0.1026534 -29.970242 -0.099203274 -29.95315 -25.986713 -115.46905
149860000 -25.670103 -121.06287 -0.10267831 -30.167524 -0.099647164 -30.157522 -25.958809 -115.63677
150859000 -25.644871 -121.46773 -0.10283655 -30.368128 -0.099934556 -30.352114 -25.952896 -115.86415
151858000 -25.629581 -121.75909 -0.10300699 -30.565718 -0.1005033 -30.550268 -25.940208 -116.18596
152857000 -25.618227 -122.09113 -0.10357958 -30.763237 -0.10002223 -30.750834 -25.920002 -116.2806
153856000 -25.606554 -122.30068 -0.10290361 -30.962337 -0.10027018 -30.946962 -25.941328 -116.61843
154855000 -25.608732 -122.48816 -0.10337333 -31.160376 -0.10013534 -31.149157 -25.928158 -116.81236
155854000 -25.615244 -122.73107 -0.10343537 -31.359083 -0.10085248 -31.345467 -25.922115 -117.04468
156853000 -25.596987 -123.44745 -0.10112538 -31.546526 -0.10002621 -31.537962 -25.914373 -117.37572
157852000 -25.603024 -123.64405 -0.10296855 -31.748417 -0.10172687 -31.737362 -25.905251 -117.71296
158851000 -25.596348 -123.92098 -0.10358965 -31.94902 -0.10211909 -31.937992 -25.889858 -117.9819
159850000 -25.583429 -124.0191 -0.10420422 -32.145882 -0.10224842 -32.13549 -25.886909 -118.13871
160849000 -25.568171 -124.1439 -0.10457279 -32.343536 -0.10313847 -32.339584 -25.864382 -118.45687
161848000 -25.540052 -124.19112 -0.10478095 -32.546547 -0.10276154 -32.533558 -25.819292 -118.52708
162847000 -25.500801 -124.45624 -0.10481782 -32.740204 -0.10326464 -32.735428 -25.789944 -118.80968
163846000 -25.458761 -124.63777 -0.10475947 -32.944427 -0.10336114 -32.933846 -25.71084 -118.80837
164845000 -25.399427 -124.66606 -0.10549621 -33.139435 -0.10294762 -33.130642 -25.643169 -118.90646
165844000 -25.344851 -124.72849 -0.10491116 -33.336792 -0.10353611 -33.331738 -25.563356 -119.03241
166843000 -25.280703 -124.80548 -0.1054246 -33.539352 -0.1039481 -33.534786 -25.490278 -119.20933
167842000 -25.223022 -124.93872 -0.10572961 -33.737263 -0.10366442 -33.728462 -25.414104 -119.14104
168841000 -25.147461 -125.13718 -0.10646067 -33.934235 -0.10455184 -33.92659 -25.334099 -119.18493
169840000 -25.082705 -125.41743 -0.10629699 -34.13113 -0.10492309 -34.125027 -25.247896 -119.40276
170839000 -25.022329 -125.66081 -0.10760844 -34.324986 -0.1049451 -34.325752 -25.162848 -119.59554
171838000 -24.962307 -126.09764 -0.10698119 -34.52581 -0.10630575 -34.519535 -25.096405 -119.83949
172837000 -24.899464 -126.45715 -0.10904689 -34.720867 -0.10690053 -34.716743 -25.025919 -120.0844
173836000 -24.829773 -126.88038 -0.10991604 -34.923149 -0.10799906 -34.919098 -24.984816 -120.31432
174835000 -24.771906 -127.29563 -0.1103066 -35.115376 -0.10905751 -35.118176 -24.935772 -120.64602
175834000 -24.72197 -127.70242 -0.11128116 -35.314213 -0.10941455 -35.31076 -24.877483 -120.95305
176833000 -24.669552 -128.09158 -0.11190186 -35.511906 -0.1102288 -35.51059 -24.822992 -121.10118
177832000 -24.628372 -128.53519 -0.11228543 -35.706711 -0.11058088 -35.710339 -24.798897 -121.28248
178831000 -24.586243 -128.94949 -0.11189894 -35.907078 -0.11117387 -35.900986 -24.763496 -121.50303
179830000 -24.549036 -129.36487 -0.11350594 -36.10173 -0.11157782 -36.106243 -24.736862 -121.66025
180829000 -24.51053 -129.57452 -0.1137621 -36.296227 -0.11234918 -36.297096 -24.711315 -121.80814
181828000 -24.484974 -129.94887 -0.11297296 -36.49609 -0.11226311 -36.491325 -24.688877 -121.92683
182827000 -24.460791 -130.24861 -0.11385804 -36.692406 -0.11213455 -36.688705 -24.674994 -121.99415
183826000 -24.421242 -130.60446 -0.11431406 -36.889454 -0.11223283 -36.890224 -24.66745 -122.13302
184825000 -24.424006 -130.92271 -0.11448256 -37.084641 -0.11294851 -37.087852 -24.653522 -122.24615
185824000 -24.40119 -131.29051 -0.11483605 -37.279694 -0.11320411 -37.278709 -24.647223 -122.30671
186823000 -24.383896 -131.64075 -0.11460136 -37.481155 -0.11343181 -37.47662 -24.645411 -122.26038
187822000 -24.362223 -131.95412 -0.11572629 -37.67466 -0.11381312 -37.675602 -24.610664 -122.34654
188821000 -24.34598 -132.2009 -0.11530866 -37.869225 -0.11427393 -37.875713 -24.59499 -122.42083
189820000 -24.326618 -132.4581 -0.11566914 -38.076275 -0.11374669 -38.071228 -24.585339 -122.61144
190819000 -24.299625 -132.72324 -0.11673292 -38.270782 -0.11521057 -38.267879 -24.55735 -122.56428
191818000 -24.26576 -132.92488 -0.11794697 -38.465004 -0.11656327 -38.465137 -24.523222 -122.42871
192817000 -24.191589 -133.14507 -0.11855799 -38.649551 -0.11690098 -38.652187 -24.448139 -122.50526
193816000 -24.151957 -133.52643 -0.11779031 -38.84396 -0.11546417 -38.843933 -24.392506 -122.78155
194815000 -24.101002 -133.97495 -0.11813423 -39.039665 -0.11583555 -39.04137 -24.330427 -122.88087
195814000 -24.048355 -134.17345 -0.11804885 -39.237873 -0.11549767 -39.237312 -24.277237 -123.02953
196813000 -23.993797 -134.52669 -0.11734429 -39.430801 -0.11589325 -39.435261 -24.200581 -123.18138
197812000 -23.935474 -134.74124 -0.11768073 -39.633419 -0.11626228 -39.626957 -24.126698 -123.25902
198811000 -23.885792 -134.92714 -0.11726744 -39.823952 -0.11601821 -39.827702 -24.063499 -123.44363
199810000 -23.812889 -135.30524 -0.11831485 -40.019146 -0.11599959 -40.024239 -23.981665 -123.57063
200809000 -23.754736 -135.59155 -0.11829889 -40.218311 -0.11612349 -40.220695 -23.907022 -123.76191
201808000 -23.701723 -135.83336 -0.1193556 -40.42239 -0.11740573 -40.422035 -23.834347 -123.82225
202807000 -23.641338 -136.16624 -0.11997932 -40.617474 -0.11792437 -40.622009 -23.779339 -124.02446
203806000 -23.592438 -136.62305 -0.12096564 -40.81942 -0.11851649 -40.819897 -23.715702 -124.22247
