!Keysight Technologies,E5080B,MY59205177,A.15.75.32
!Date: Friday, February 23, 2024 03:35:40
!Correction: S11(Cdelta 2-Port  ) 
!S21(Cdelta 2-Port  ) 
!S12(Cdelta 2-Port  ) 
!S22(Cdelta 2-Port  ) 
!S2P File: Measurements: S11, S21, S12, S22:
# Hz S  dB   R 50
10000000 -46.11462 -2.6631815 -0.014749474 -2.0455692 -0.018353308 -2.1012132 -45.893864 -157.97086
10999000 -45.321136 -4.652297 -0.016010437 -2.265198 -0.017708665 -2.3180919 -45.832855 -151.52235
11998000 -44.427296 -7.5279365 -0.016530359 -2.4876568 -0.017086208 -2.5302927 -46.033092 -147.61812
12997000 -43.578026 -13.27313 -0.01637991 -2.6687677 -0.017132986 -2.700037 -45.673721 -141.41461
13996000 -43.325626 -17.15773 -0.014988702 -2.8478611 -0.017086986 -2.8678095 -45.442791 -136.35558
14995000 -42.919582 -21.514618 -0.016934959 -3.0590503 -0.017007984 -3.082597 -45.125252 -133.33301
15994000 -42.733067 -26.147278 -0.017742975 -3.2764196 -0.019708669 -3.2993684 -44.964367 -129.66833
16993000 -42.695175 -30.882025 -0.017201595 -3.4740644 -0.018427655 -3.4798872 -44.148579 -129.40465
17992000 -42.738995 -36.130043 -0.018502004 -3.6738994 -0.019832708 -3.6743243 -43.571926 -129.08977
18991000 -42.975502 -41.50182 -0.018836852 -3.8861835 -0.019268969 -3.8818126 -42.933891 -128.1013
19990000 -42.728493 -46.998421 -0.021397417 -4.0966892 -0.02241624 -4.0908699 -42.246197 -128.96265
20989000 -42.552853 -50.339375 -0.022955926 -4.3043351 -0.024085218 -4.290112 -41.724064 -128.15579
21988000 -42.364853 -55.712414 -0.024098754 -4.4993057 -0.024188036 -4.4814034 -41.500134 -127.39651
22987000 -42.026722 -60.453289 -0.025647294 -4.6940804 -0.02622176 -4.6863837 -41.219757 -126.86186
23986000 -42.001797 -64.438622 -0.024989592 -4.8866744 -0.024573045 -4.8848395 -41.084606 -126.70655
24985000 -41.573265 -67.123459 -0.025781659 -5.0973907 -0.025379619 -5.0885935 -40.93203 -124.52154
25984000 -41.205658 -69.646553 -0.026998162 -5.3037267 -0.025909256 -5.3036208 -40.56744 -122.65977
26983000 -40.92477 -71.061096 -0.027457923 -5.503252 -0.026374372 -5.5199423 -40.443943 -122.23517
27982000 -40.756351 -72.128616 -0.029044928 -5.7034502 -0.028398436 -5.7324204 -40.208675 -120.51325
28981000 -40.685829 -73.546654 -0.026762178 -5.9022136 -0.028851829 -5.9246006 -39.963669 -119.84269
29980000 -40.30759 -74.965668 -0.027227646 -6.0949473 -0.028812742 -6.1015859 -39.711304 -119.0283
30979000 -39.939529 -73.700172 -0.024350991 -6.449173 -0.023261188 -6.4419408 -39.188534 -119.33529
31978000 -39.707832 -74.745522 -0.023428792 -6.6449924 -0.024769338 -6.6340342 -38.957649 -118.56211
32977000 -39.512489 -76.210648 -0.023996197 -6.8560929 -0.024746168 -6.8507571 -38.701534 -118.74483
33976000 -39.357544 -77.439087 -0.024551177 -7.0547943 -0.0251268 -7.0527501 -38.449055 -118.18245
34975000 -39.068111 -78.140312 -0.025526473 -7.2533073 -0.026343901 -7.2540145 -38.231106 -117.95029
35974000 -38.883041 -78.944695 -0.024111247 -7.450192 -0.025272865 -7.4517708 -37.94054 -116.9771
36973000 -38.643242 -79.522964 -0.024864104 -7.649694 -0.026971854 -7.6560922 -37.67828 -116.0764
37972000 -38.464764 -79.186684 -0.023783801 -7.8582582 -0.026253792 -7.8697071 -37.461689 -115.27399
38971000 -38.169895 -78.713951 -0.025691822 -8.059679 -0.026824169 -8.0749388 -37.306137 -113.72759
39970000 -37.816822 -79.094635 -0.023895204 -8.2554111 -0.025719162 -8.2751322 -37.04734 -113.20911
40969000 -37.554054 -78.622505 -0.023935288 -8.4492788 -0.025111958 -8.4735813 -36.792439 -111.60078
41968000 -37.202995 -78.691414 -0.024837809 -8.6591225 -0.026356662 -8.6732159 -36.619125 -110.52204
42967000 -36.920719 -78.7836 -0.024053982 -8.8729925 -0.026178788 -8.8870764 -36.423077 -108.63981
43966000 -36.632839 -79.432755 -0.025004951 -9.0691786 -0.027623083 -9.0863514 -36.132961 -107.82677
44965000 -36.387573 -80.19902 -0.025716819 -9.2697144 -0.028006053 -9.2905903 -35.927219 -107.67487
45964000 -36.162807 -81.257881 -0.025946757 -9.4737167 -0.028935738 -9.4888325 -35.711388 -107.43803
46963000 -35.963318 -83.090195 -0.026292074 -9.6663923 -0.029966235 -9.6838303 -35.515743 -107.48019
47962000 -35.795429 -84.575401 -0.028128505 -9.8676233 -0.030497476 -9.885664 -35.31966 -107.59
48961000 -35.58976 -85.93576 -0.030347325 -10.067981 -0.03195703 -10.086352 -35.091396 -107.80273
49960000 -35.345413 -87.260834 -0.03184516 -10.2662 -0.033616897 -10.289019 -34.937721 -107.84757
50959000 -35.121761 -88.57917 -0.03207203 -10.478969 -0.034514125 -10.490264 -34.77507 -108.16225
51958000 -34.909115 -89.686272 -0.034449417 -10.679726 -0.036463674 -10.684724 -34.595043 -108.51619
52957000 -34.687675 -90.574379 -0.035959892 -10.876908 -0.036688175 -10.886274 -34.446705 -108.35257
53956000 -34.537075 -91.27446 -0.036479075 -11.083089 -0.037948735 -11.079967 -34.298199 -108.27541
54955000 -34.360489 -91.794441 -0.037665676 -11.280726 -0.038386937 -11.277263 -34.161282 -108.2143
55954000 -34.189907 -92.532219 -0.038427416 -11.484503 -0.039116148 -11.476038 -34.051617 -107.92309
56953000 -34.075642 -92.566109 -0.038605008 -11.67807 -0.03836317 -11.671984 -33.972996 -108.0765
57952000 -33.890835 -93.098686 -0.039389636 -11.878378 -0.039171003 -11.873228 -33.864231 -108.21539
58951000 -33.779659 -93.407852 -0.04046024 -12.08322 -0.039377883 -12.065431 -33.722122 -108.24501
59950000 -33.652233 -93.837013 -0.040540978 -12.281909 -0.04014175 -12.261172 -33.637638 -108.49474
60949000 -33.529743 -94.369804 -0.041427616 -12.485319 -0.040688869 -12.46519 -33.543602 -108.75894
61948000 -33.471706 -94.697762 -0.041737579 -12.683543 -0.041123427 -12.663631 -33.47089 -108.88206
62947000 -33.382736 -94.9272 -0.042372204 -12.894326 -0.041681908 -12.877011 -33.335316 -109.15403
63946000 -33.315624 -95.687485 -0.043269675 -13.094961 -0.04245533 -13.076789 -33.21059 -109.29932
64945000 -33.194645 -95.852188 -0.043772999 -13.294397 -0.04342106 -13.274696 -33.108292 -109.738
65944000 -33.109268 -96.101616 -0.044359282 -13.496741 -0.043926753 -13.479391 -32.993744 -110.22347
66943000 -32.963806 -96.49131 -0.042527217 -13.699059 -0.042192366 -13.680764 -32.901447 -110.37754
67942000 -32.906868 -96.426186 -0.044128105 -13.893442 -0.044043381 -13.884423 -32.77393 -110.70904
68941000 -32.78603 -96.566658 -0.044270627 -14.087664 -0.042923529 -14.080317 -32.66819 -110.72239
69940000 -32.694962 -96.580948 -0.044228263 -14.285161 -0.043744758 -14.279697 -32.521595 -111.00858
70939000 -32.592049 -96.615456 -0.043831047 -14.482974 -0.043808039 -14.479865 -32.402298 -110.88673
71938000 -32.44429 -96.150978 -0.044064298 -14.679477 -0.043271244 -14.675286 -32.266029 -110.8176
72937000 -32.297737 -95.939842 -0.043734562 -14.87985 -0.042683542 -14.877891 -32.130314 -110.45158
73936000 -32.155632 -95.568199 -0.042954899 -15.0769 -0.043066792 -15.0686 -32.005848 -110.35263
74935000 -32.018143 -95.838463 -0.042709421 -15.275788 -0.04206429 -15.273686 -31.851458 -109.94019
75934000 -31.911036 -96.048637 -0.043003004 -15.482739 -0.042166751 -15.476806 -31.779209 -109.82781
76933000 -31.770813 -96.424721 -0.043847259 -15.673541 -0.043059211 -15.671156 -31.594166 -110.21329
77932000 -31.660706 -97.186447 -0.045319155 -15.872165 -0.044775899 -15.870954 -31.501751 -110.1895
78931000 -31.583839 -97.958374 -0.043654289 -16.071772 -0.044466242 -16.066719 -31.3957 -109.96764
79930000 -31.481609 -98.749855 -0.046461344 -16.26812 -0.046433084 -16.265562 -31.299097 -110.31799
80929000 -31.360062 -99.565178 -0.048054524 -16.465244 -0.047985684 -16.463861 -31.200521 -110.60047
81928000 -31.257521 -100.25809 -0.048257113 -16.656954 -0.04896364 -16.652269 -31.072247 -110.53199
82927000 -31.158226 -101.00642 -0.050144494 -16.853907 -0.049903583 -16.852186 -30.968672 -110.80145
83926000 -31.043327 -101.72244 -0.050973639 -17.053629 -0.051080503 -17.054256 -30.846815 -110.97798
84925000 -30.94298 -102.12452 -0.052380357 -17.252689 -0.050901089 -17.249815 -30.744078 -111.03049
85924000 -30.848778 -102.53364 -0.05333231 -17.453562 -0.052661229 -17.449755 -30.665783 -110.9768
86923000 -30.731937 -102.99941 -0.053163022 -17.652145 -0.052576337 -17.646564 -30.558512 -110.86536
87922000 -30.630241 -103.25827 -0.053004224 -17.856642 -0.052706823 -17.848927 -30.468426 -110.91325
88921000 -30.552666 -103.58905 -0.054086316 -18.059643 -0.053920671 -18.049004 -30.380018 -110.89101
89920000 -30.45866 -104.06288 -0.054716982 -18.256163 -0.053658847 -18.245914 -30.333954 -110.99116
90919000 -30.360611 -104.39532 -0.055625923 -18.449329 -0.054547906 -18.444149 -30.246841 -111.20412
91918000 -30.259167 -104.68114 -0.055960499 -18.655212 -0.054263238 -18.646559 -30.17477 -111.18685
92917000 -30.164482 -104.95554 -0.056975134 -18.849506 -0.055770658 -18.847641 -30.115303 -111.33153
93916000 -30.084883 -105.31152 -0.056351218 -19.045469 -0.056015301 -19.041311 -30.020115 -111.86217
94915000 -30.004808 -105.94685 -0.058212478 -19.246878 -0.056885175 -19.241869 -29.968685 -111.78555
95914000 -29.938343 -106.18556 -0.059204809 -19.44158 -0.058096781 -19.438156 -29.874285 -112.02131
96913000 -29.854126 -106.3899 -0.060062721 -19.641018 -0.058568243 -19.640457 -29.808155 -112.3761
97912000 -29.774664 -106.82289 -0.061078053 -19.837374 -0.05952365 -19.841003 -29.731932 -112.64719
98911000 -29.668961 -107.00643 -0.061943687 -20.039438 -0.060372438 -20.037374 -29.691484 -112.85572
99910000 -29.60198 -107.14259 -0.062725715 -20.236311 -0.061075952 -20.239784 -29.579292 -113.13255
100909000 -29.510384 -107.40101 -0.061553776 -20.447231 -0.059966397 -20.440397 -29.491653 -113.35712
101908000 -29.424044 -107.63702 -0.063182704 -20.644451 -0.061565064 -20.641918 -29.388813 -113.09251
102907000 -29.287756 -107.64374 -0.06303037 -20.845963 -0.06152463 -20.841591 -29.311333 -113.16377
103906000 -29.196157 -107.69778 -0.062876992 -21.054039 -0.060933404 -21.047466 -29.169344 -113.09814
104905000 -29.044867 -107.58043 -0.064211376 -21.250811 -0.061439827 -21.24765 -29.04096 -112.81438
105904000 -28.910341 -107.71236 -0.064333282 -21.454617 -0.061478421 -21.445814 -28.939091 -112.65683
106903000 -28.797016 -107.78793 -0.064855866 -21.658768 -0.06201642 -21.653435 -28.805008 -112.53708
107902000 -28.633223 -108.10244 -0.065304153 -21.861347 -0.062482528 -21.851173 -28.672258 -112.48905
108901000 -28.523251 -108.31704 -0.066969715 -22.063295 -0.064115748 -22.056931 -28.542797 -112.42586
109900000 -28.393959 -108.80061 -0.067366421 -22.260044 -0.065261841 -22.253225 -28.39263 -112.49522
110899000 -28.275015 -109.40333 -0.068254352 -22.460032 -0.065798208 -22.451511 -28.264296 -112.82216
111898000 -28.188055 -110.03619 -0.069948144 -22.66157 -0.066858254 -22.655937 -28.149961 -112.9255
112897000 -28.062862 -110.56081 -0.071400493 -22.860407 -0.067786567 -22.850431 -28.013134 -113.05477
113896000 -27.9538 -111.13755 -0.072651953 -23.060532 -0.069234513 -23.04987 -27.905134 -113.21818
114895000 -27.861244 -111.78027 -0.073458023 -23.257854 -0.070483245 -23.247982 -27.798988 -113.26358
115894000 -27.735865 -112.08773 -0.07463292 -23.462374 -0.071562596 -23.447531 -27.727371 -113.47556
116893000 -27.650412 -112.58447 -0.075051926 -23.658245 -0.072789624 -23.642691 -27.606588 -113.50823
117892000 -27.57452 -113.08434 -0.075648241 -23.854252 -0.072868064 -23.841139 -27.529936 -113.70595
118891000 -27.508873 -113.48814 -0.076209597 -24.056957 -0.072872803 -24.043682 -27.436319 -113.80806
119890000 -27.425936 -113.85174 -0.076271772 -24.257126 -0.073804773 -24.241142 -27.428175 -113.95298
120889000 -27.374668 -114.34737 -0.077871971 -24.456556 -0.074475966 -24.442774 -27.355946 -113.91353
121888000 -27.331425 -114.6284 -0.077736512 -24.65526 -0.075039022 -24.641394 -27.293734 -114.16164
122887000 -27.302954 -114.83999 -0.078437313 -24.857176 -0.075349018 -24.843935 -27.248165 -114.13212
123886000 -27.243484 -115.28133 -0.07916221 -25.059393 -0.075694077 -25.040813 -27.233692 -114.33057
124885000 -27.210331 -115.80875 -0.079416871 -25.259466 -0.076779991 -25.242777 -27.21175 -114.32004
125884000 -27.165154 -115.94887 -0.080112405 -25.453432 -0.076890647 -25.445625 -27.178019 -114.49198
126883000 -27.14608 -116.32281 -0.080213659 -25.659145 -0.077522792 -25.647186 -27.140184 -114.53335
127882000 -27.100931 -116.66727 -0.080958106 -25.85911 -0.077785529 -25.843056 -27.104162 -114.64852
128881000 -27.0662 -116.99046 -0.081279337 -26.061769 -0.077802926 -26.045931 -27.060194 -114.72372
129880000 -27.015594 -117.3094 -0.082112081 -26.262022 -0.077620558 -26.243036 -27.024693 -114.69101
130879000 -26.95241 -117.48277 -0.081573166 -26.460243 -0.078358501 -26.444704 -26.950747 -114.71254
131878000 -26.893232 -117.70203 -0.081999704 -26.665836 -0.079140857 -26.646292 -26.892151 -114.63322
132877000 -26.826267 -117.77884 -0.081527799 -26.86701 -0.07895527 -26.849972 -26.813099 -114.62937
133876000 -26.746771 -117.92916 -0.082088076 -27.070877 -0.078977153 -27.051262 -26.726717 -114.45752
134875000 -26.650068 -118.09766 -0.082245037 -27.269215 -0.080219194 -27.25176 -26.628202 -114.28851
135874000 -26.567402 -118.09349 -0.081896558 -27.466879 -0.079584554 -27.450708 -26.537123 -114.24722
136873000 -26.45845 -118.00577 -0.082711212 -27.672579 -0.079179868 -27.65354 -26.454203 -114.24075
137872000 -26.378668 -118.16102 -0.082421266 -27.875839 -0.079180397 -27.85788 -26.347321 -114.16782
138871000 -26.30089 -118.38589 -0.082406752 -28.070807 -0.080439642 -28.057766 -26.254011 -114.34537
139870000 -26.200455 -118.65154 -0.083720244 -28.273081 -0.081251383 -28.254721 -26.17231 -114.45887
140869000 -26.120285 -119.18913 -0.084617063 -28.467831 -0.081362158 -28.451357 -26.071829 -114.68666
141868000 -26.03978 -119.55692 -0.085353553 -28.668692 -0.082928881 -28.653173 -26.026272 -114.93645
142867000 -25.96155 -119.78944 -0.084065437 -28.867573 -0.082606733 -28.847666 -25.944761 -115.03291
143866000 -25.886282 -120.26297 -0.085523039 -29.062496 -0.084174171 -29.046598 -25.872463 -115.52471
144865000 -25.828348 -120.80893 -0.087015733 -29.262089 -0.085582703 -29.244299 -25.810492 -115.82871
145864000 -25.772165 -121.10493 -0.088088632 -29.464067 -0.086622506 -29.451584 -25.778849 -116.04915
146863000 -25.728638 -121.47733 -0.088593483 -29.666189 -0.087104999 -29.647041 -25.729782 -116.34365
147862000 -25.68713 -121.77524 -0.089227855 -29.862312 -0.087193474 -29.847301 -25.698328 -116.66637
148861000 -25.652918 -122.22137 -0.090575129 -30.061865 -0.088809066 -30.044493 -25.675076 -116.83416
149860000 -25.617842 -122.36861 -0.091538399 -30.251751 -0.088935889 -30.241571 -25.62171 -116.90355
150859000 -25.597139 -122.84811 -0.090629049 -30.448742 -0.08903233 -30.432344 -25.607286 -117.24931
151858000 -25.585184 -123.19297 -0.090667374 -30.651897 -0.087908477 -30.634033 -25.593401 -117.60909
152857000 -25.574402 -123.52708 -0.091929421 -30.847588 -0.088809066 -30.835785 -25.573318 -117.80417
153856000 -25.571079 -123.7253 -0.091209263 -31.050755 -0.088233136 -31.034382 -25.594238 -118.12569
154855000 -25.567106 -123.90746 -0.091223538 -31.248478 -0.088576041 -31.237072 -25.583376 -118.35161
155854000 -25.582754 -124.1096 -0.091583073 -31.447548 -0.089347027 -31.436226 -25.567261 -118.64414
156853000 -25.56802 -124.82131 -0.089110807 -31.639868 -0.088609859 -31.629576 -25.562834 -118.94997
157852000 -25.582716 -124.99961 -0.090266414 -31.83667 -0.089892715 -31.829041 -25.556683 -119.307
158851000 -25.576225 -125.25123 -0.091256849 -32.036892 -0.089886114 -32.028992 -25.535448 -119.58475
159850000 -25.561394 -125.35047 -0.092000812 -32.235603 -0.090299457 -32.229671 -25.538765 -119.74241
160849000 -25.54563 -125.47116 -0.092240103 -32.43475 -0.091431856 -32.429794 -25.509226 -120.03876
161848000 -25.527864 -125.5369 -0.092317313 -32.637047 -0.09104114 -32.630379 -25.469496 -120.15813
162847000 -25.487547 -125.71247 -0.092789859 -32.833687 -0.091687769 -32.830093 -25.440617 -120.41499
163846000 -25.446529 -125.89973 -0.09253335 -33.03442 -0.091438204 -33.027782 -25.366779 -120.4054
164845000 -25.388983 -125.90527 -0.092800699 -33.237194 -0.091925196 -33.228504 -25.302513 -120.53255
165844000 -25.333134 -125.93342 -0.093188137 -33.431171 -0.092579886 -33.42791 -25.222095 -120.63893
166843000 -25.281172 -126.01878 -0.092588618 -33.6339 -0.091867551 -33.630028 -25.161135 -120.82363
167842000 -25.217209 -126.1304 -0.093448915 -33.835827 -0.092458777 -33.826725 -25.082342 -120.743
168841000 -25.140863 -126.28039 -0.094005972 -34.0322 -0.092263103 -34.026661 -25.004444 -120.81983
169840000 -25.075851 -126.50502 -0.093716592 -34.230827 -0.093788274 -34.224239 -24.921118 -120.9821
170839000 -25.014854 -126.74259 -0.094986938 -34.425812 -0.093575872 -34.423244 -24.839674 -121.14211
171838000 -24.957561 -127.14634 -0.095264755 -34.626148 -0.09464696 -34.621304 -24.77965 -121.37366
172837000 -24.885096 -127.46331 -0.096872769 -34.823837 -0.096163169 -34.82 -24.710592 -121.5722
173836000 -24.819382 -127.86642 -0.097882979 -35.027012 -0.096588492 -35.020428 -24.668449 -121.80084
174835000 -24.763626 -128.28331 -0.097963989 -35.221088 -0.097365133 -35.218834 -24.625702 -122.10198
175834000 -24.715464 -128.63045 -0.098955914 -35.421879 -0.098808147 -35.415253 -24.56077 -122.37141
176833000 -24.666687 -128.98016 -0.1000874 -35.619484 -0.098337062 -35.617546 -24.517431 -122.47991
177832000 -24.616768 -129.39589 -0.10127164 -35.817307 -0.099713117 -35.817341 -24.497044 -122.60112
178831000 -24.574854 -129.62636 -0.10242387 -36.015938 -0.1016956 -36.012238 -24.458519 -122.6657
179830000 -24.50667 -130.041 -0.10321666 -36.197998 -0.10257017 -36.200768 -24.390608 -122.76672
180829000 -24.452 -130.38693 -0.10245991 -36.394817 -0.10164738 -36.39325 -24.352791 -123.05075
181828000 -24.429472 -130.82613 -0.10229559 -36.594711 -0.10112538 -36.592285 -24.334936 -123.31183
182827000 -24.410412 -131.17818 -0.10135722 -36.789513 -0.10192165 -36.789806 -24.317186 -123.39487
183826000 -24.368364 -131.50645 -0.10190363 -36.986801 -0.10124779 -36.986927 -24.313147 -123.54385
184825000 -24.376055 -131.84944 -0.10270402 -37.187054 -0.10144652 -37.185478 -24.290619 -123.66626
185824000 -24.344843 -132.20209 -0.10226882 -37.380909 -0.10167282 -37.384644 -24.286247 -123.74529
186823000 -24.330269 -132.58948 -0.10178412 -37.583931 -0.10200937 -37.580597 -24.283068 -123.71373
187822000 -24.303959 -132.91367 -0.10281561 -37.777756 -0.10291316 -37.775749 -24.244947 -123.82842
188821000 -24.282949 -133.16858 -0.10348468 -37.972847 -0.10271754 -37.977047 -24.225811 -123.97707
189820000 -24.265404 -133.46828 -0.1029667 -38.173954 -0.10281773 -38.171532 -24.207264 -124.16671
190819000 -24.230509 -133.77118 -0.10366707 -38.369362 -0.10336167 -38.369503 -24.172915 -124.17072
191818000 -24.201864 -134.0549 -0.10352974 -38.567459 -0.1030995 -38.56567 -24.144432 -124.19955
192817000 -24.15819 -134.34885 -0.10395075 -38.766075 -0.10395261 -38.764862 -24.098742 -124.29055
193816000 -24.123739 -134.59053 -0.10440574 -38.961575 -0.10325298 -38.958714 -24.051434 -124.45504
194815000 -24.066845 -135.01483 -0.10446699 -39.154854 -0.10441104 -39.15657 -23.981998 -124.52939
195814000 -24.013611 -135.17505 -0.10562219 -39.353867 -0.1048751 -39.356873 -23.927076 -124.60164
196813000 -23.957685 -135.51198 -0.10561556 -39.545971 -0.10450332 -39.549702 -23.847527 -124.75894
197812000 -23.895979 -135.72983 -0.10574605 -39.745522 -0.10505649 -39.744545 -23.778446 -124.83712
198811000 -23.842587 -135.8914 -0.10567338 -39.943211 -0.1039306 -39.944618 -23.71336 -125.01996
199810000 -23.777683 -136.26593 -0.10559275 -40.136341 -0.10414483 -40.135792 -23.634083 -125.12669
200809000 -23.718916 -136.49719 -0.10601077 -40.334236 -0.10454442 -40.333359 -23.557131 -125.30052
201808000 -23.659088 -136.70517 -0.10659278 -40.53532 -0.10594685 -40.533428 -23.488352 -125.36047
202807000 -23.602018 -137.06013 -0.10739245 -40.733917 -0.10617364 -40.735699 -23.434242 -125.53634
