!Keysight Technologies,E5080B,MY59205177,A.15.75.32
!Date: Friday, February 23, 2024 02:57:33
!Correction: S11(Cdelta 2-Port  ) 
!S21(Cdelta 2-Port  ) 
!S12(Cdelta 2-Port  ) 
!S22(Cdelta 2-Port  ) 
!S2P File: Measurements: S11, S21, S12, S22:
# Hz S  dB   R 50
10000000 -44.016953 -3.844053 -0.028610535 -2.0402112 -0.030992022 -2.0960381 -48.23185 -149.73163
10999000 -43.366108 -5.7033176 -0.029620102 -2.2596793 -0.031492099 -2.3101056 -47.986721 -142.11537
11998000 -42.650993 -7.7841215 -0.029807761 -2.4818721 -0.030768074 -2.5316365 -48.144115 -136.11726
12997000 -41.983681 -12.574424 -0.029241683 -2.6618247 -0.030249832 -2.6950657 -47.40205 -130.19109
13996000 -41.769905 -15.555843 -0.028542787 -2.8412418 -0.030929189 -2.8615401 -47.069569 -124.32597
14995000 -41.457668 -19.395645 -0.031183649 -3.0481722 -0.029637564 -3.0743053 -46.519524 -120.90984
15994000 -41.348362 -22.988874 -0.031673059 -3.2690182 -0.032944944 -3.2916114 -46.283527 -117.11022
16993000 -41.313175 -27.145702 -0.031138284 -3.4632962 -0.031585447 -3.4712763 -45.341347 -118.02101
17992000 -41.403782 -31.80699 -0.03137242 -3.6608768 -0.032457218 -3.666683 -44.737938 -119.07766
18991000 -41.65136 -35.973 -0.03173225 -3.8699429 -0.033140048 -3.8738973 -44.009899 -118.70151
19990000 -41.508781 -41.380543 -0.034719739 -4.0812421 -0.035960935 -4.0763359 -43.336067 -120.23871
20989000 -41.405361 -43.853546 -0.036784504 -4.2842035 -0.037331726 -4.2757211 -42.73032 -120.17905
21988000 -41.348785 -48.76305 -0.037642177 -4.4803071 -0.038126308 -4.466661 -42.483311 -119.31336
22987000 -41.152393 -53.069408 -0.038730893 -4.6775599 -0.039361686 -4.6714859 -42.197735 -119.34317
23986000 -41.160225 -56.621628 -0.037707455 -4.8712678 -0.037872747 -4.8736362 -41.997646 -119.28125
24985000 -40.863743 -59.573101 -0.039208092 -5.0806112 -0.038880292 -5.0782518 -41.818684 -116.78384
25984000 -40.591755 -61.64114 -0.039307877 -5.287313 -0.038678136 -5.29217 -41.453342 -115.56228
26983000 -40.334572 -63.627026 -0.040896866 -5.483839 -0.040219344 -5.5040007 -41.328773 -114.67251
27982000 -40.188843 -64.493637 -0.041949023 -5.6841183 -0.041422129 -5.7180915 -41.004753 -112.93233
28981000 -40.203529 -65.920082 -0.039713297 -5.8800831 -0.04201515 -5.9055586 -40.78487 -112.61772
29980000 -39.804363 -67.721016 -0.040336654 -6.0711961 -0.042280193 -6.0841513 -40.481731 -111.73709
30979000 -39.428947 -66.790176 -0.037924971 -6.4267206 -0.036320623 -6.4201121 -39.915569 -112.69958
31978000 -39.256081 -67.742867 -0.036853425 -6.6264415 -0.037277155 -6.6119971 -39.661133 -112.02589
32977000 -39.113262 -69.392288 -0.036376748 -6.8327475 -0.038071208 -6.8279643 -39.418461 -112.3085
33976000 -38.969669 -70.524971 -0.03733068 -7.0362992 -0.038787309 -7.0261769 -39.101963 -111.87165
34975000 -38.669323 -71.589882 -0.037536427 -7.2350769 -0.038876895 -7.2306099 -38.871059 -111.66823
35974000 -38.501862 -72.382759 -0.036823142 -7.4250236 -0.038899098 -7.4288197 -38.566715 -110.91644
36973000 -38.26553 -73.125153 -0.037601966 -7.6261725 -0.039936401 -7.6287956 -38.254227 -110.02827
37972000 -38.097332 -73.048759 -0.037069593 -7.8349142 -0.039214361 -7.8462586 -38.031967 -109.4621
38971000 -37.768295 -72.813416 -0.038316164 -8.0361357 -0.039463039 -8.0491896 -37.829113 -107.94244
39970000 -37.43428 -73.386635 -0.036151476 -8.2317648 -0.038792793 -8.2433462 -37.532131 -107.50487
40969000 -37.177441 -73.129005 -0.036479857 -8.4270983 -0.038538933 -8.4433956 -37.300442 -106.19114
41968000 -36.854702 -73.543259 -0.037159145 -8.6324749 -0.038772423 -8.6443539 -37.07225 -105.07492
42967000 -36.569256 -73.693077 -0.037069332 -8.8433123 -0.039347582 -8.8627481 -36.828724 -103.19106
43966000 -36.288532 -74.708939 -0.037638783 -9.0448494 -0.040276039 -9.0584126 -36.546574 -102.72281
44965000 -36.074657 -75.454643 -0.038841113 -9.2417374 -0.040599767 -9.2606688 -36.329391 -102.72212
45964000 -35.884407 -76.754616 -0.039825894 -9.4437714 -0.041942488 -9.4585886 -36.088459 -102.42461
46963000 -35.701756 -78.76844 -0.039883107 -9.6370649 -0.041896224 -9.657424 -35.916641 -102.80276
47962000 -35.557625 -80.226425 -0.041406449 -9.8381701 -0.042736348 -9.8559055 -35.716461 -102.96739
48961000 -35.363304 -81.66188 -0.042152897 -10.034675 -0.044581577 -10.055676 -35.476643 -103.41044
49960000 -35.139225 -83.209038 -0.043433085 -10.235376 -0.045892041 -10.255139 -35.345032 -103.56767
50959000 -34.940376 -84.448822 -0.044983566 -10.446652 -0.047201071 -10.456101 -35.1661 -104.03618
51958000 -34.751522 -85.619514 -0.047278535 -10.649542 -0.047838856 -10.656215 -34.991417 -104.51324
52957000 -34.548866 -86.726967 -0.048518348 -10.847887 -0.049639385 -10.854033 -34.824951 -104.30058
53956000 -34.401825 -87.526466 -0.049002908 -11.04601 -0.050351113 -11.045892 -34.678905 -104.36152
54955000 -34.228447 -88.039482 -0.051028382 -11.248041 -0.051193394 -11.24401 -34.531212 -104.43362
55954000 -34.075203 -88.823555 -0.051791944 -11.447426 -0.051763128 -11.443032 -34.421574 -104.15753
56953000 -33.953629 -88.977188 -0.051773082 -11.651574 -0.050500646 -11.635249 -34.331814 -104.38713
57952000 -33.808109 -89.564171 -0.052767873 -11.837225 -0.052030075 -11.836339 -34.243614 -104.51955
58951000 -33.701084 -90.000977 -0.053712573 -12.048268 -0.052478608 -12.021737 -34.084553 -104.71858
59950000 -33.57745 -90.400383 -0.054117244 -12.248475 -0.053047199 -12.225836 -34.019226 -104.94199
60949000 -33.461227 -90.913925 -0.053933773 -12.450812 -0.053967323 -12.429262 -33.93623 -105.2764
61948000 -33.413647 -91.329536 -0.055428755 -12.648772 -0.053815309 -12.624668 -33.853279 -105.33931
62947000 -33.338688 -91.459953 -0.054878727 -12.86067 -0.054161802 -12.837239 -33.702091 -105.55927
63946000 -33.257362 -92.160431 -0.056005076 -13.058379 -0.055268042 -13.034976 -33.603729 -105.76402
64945000 -33.15308 -92.330528 -0.055999044 -13.258985 -0.056053065 -13.237162 -33.479218 -106.30051
65944000 -33.052818 -92.625313 -0.05662632 -13.457407 -0.056063291 -13.439566 -33.404289 -106.69565
66943000 -32.906769 -93.143066 -0.054871388 -13.656743 -0.054959994 -13.640759 -33.304382 -106.97966
67942000 -32.865387 -93.101402 -0.056810427 -13.851822 -0.056855012 -13.84142 -33.172413 -107.31445
68941000 -32.752815 -93.176346 -0.056393441 -14.046946 -0.055845913 -14.038307 -33.071926 -107.30342
69940000 -32.652634 -93.193825 -0.055594724 -14.247523 -0.056883339 -14.232984 -32.928005 -107.65602
70939000 -32.540108 -93.200218 -0.05592379 -14.439821 -0.055673119 -14.433317 -32.792088 -107.50971
71938000 -32.397579 -92.824684 -0.056206729 -14.6373 -0.056893304 -14.629041 -32.66573 -107.4051
72937000 -32.243572 -92.706352 -0.055493254 -14.837888 -0.05573998 -14.83147 -32.52779 -107.18106
73936000 -32.100056 -92.456154 -0.055936113 -15.033332 -0.055375271 -15.023767 -32.400761 -107.00436
74935000 -31.966524 -92.62571 -0.055370551 -15.228877 -0.05419378 -15.223909 -32.252228 -106.64468
75934000 -31.862955 -92.985245 -0.055741817 -15.437345 -0.054833639 -15.43102 -32.17532 -106.58306
76933000 -31.732641 -93.387032 -0.056121502 -15.630374 -0.056185223 -15.621487 -31.99605 -107.0027
77932000 -31.627832 -94.144974 -0.057299849 -15.827373 -0.057596516 -15.817356 -31.893225 -107.01148
78931000 -31.569176 -94.91684 -0.056756139 -16.030104 -0.056588553 -16.022528 -31.799284 -106.84554
79930000 -31.454845 -95.734619 -0.059028734 -16.217861 -0.058933482 -16.216063 -31.703188 -107.23082
80929000 -31.326485 -96.74852 -0.060115475 -16.413548 -0.060161669 -16.409447 -31.592806 -107.58153
81928000 -31.250322 -97.537476 -0.059866928 -16.60672 -0.060655404 -16.604961 -31.481976 -107.70839
82927000 -31.155439 -98.259422 -0.062335469 -16.80319 -0.062019046 -16.802837 -31.382683 -108.00882
83926000 -31.03084 -99.015778 -0.06330432 -17.002317 -0.063247055 -17.003542 -31.267437 -108.30036
84925000 -30.942223 -99.419373 -0.064672992 -17.204636 -0.063526794 -17.196804 -31.174303 -108.27499
85924000 -30.856421 -99.891289 -0.06456317 -17.401722 -0.064766265 -17.400417 -31.093931 -108.31492
86923000 -30.75754 -100.41226 -0.06489896 -17.601269 -0.064769685 -17.594057 -30.986473 -108.20808
87922000 -30.641943 -100.79444 -0.06510444 -17.803719 -0.065274984 -17.795279 -30.897398 -108.31939
88921000 -30.57321 -101.16426 -0.066558585 -18.00635 -0.065493882 -18.000294 -30.806736 -108.26746
89920000 -30.475639 -101.70186 -0.067701906 -18.201639 -0.065851554 -18.195583 -30.75955 -108.51454
90919000 -30.369356 -101.94637 -0.06764248 -18.39588 -0.066776499 -18.391815 -30.674248 -108.69131
91918000 -30.292601 -102.42439 -0.067990869 -18.597542 -0.067688756 -18.595184 -30.596302 -108.75532
92917000 -30.21279 -102.75903 -0.068989649 -18.795404 -0.068487599 -18.791927 -30.539827 -108.81699
93916000 -30.125376 -103.14726 -0.069595128 -18.990084 -0.068063445 -18.981062 -30.456511 -109.46556
94915000 -30.051611 -103.7143 -0.07072477 -19.193521 -0.069116414 -19.180756 -30.40049 -109.31784
95914000 -29.985947 -103.95552 -0.071909979 -19.384367 -0.070312239 -19.379135 -30.298847 -109.60495
96913000 -29.909447 -104.20747 -0.073094197 -19.581217 -0.07136786 -19.581745 -30.245747 -109.95341
97912000 -29.834492 -104.68504 -0.07387244 -19.78191 -0.071472332 -19.779783 -30.168221 -110.22546
98911000 -29.733236 -104.87984 -0.074243449 -19.980717 -0.072329246 -19.979139 -30.125071 -110.41513
99910000 -29.666319 -105.03055 -0.075072996 -20.175188 -0.073498569 -20.175629 -30.017756 -110.71039
100909000 -29.577103 -105.32227 -0.074241869 -20.385895 -0.072304241 -20.382309 -29.933783 -110.94106
101908000 -29.493313 -105.6004 -0.076076299 -20.586231 -0.073933788 -20.586201 -29.824797 -110.65644
102907000 -29.360428 -105.60063 -0.075640604 -20.785706 -0.073875867 -20.785868 -29.74506 -110.63494
103906000 -29.265575 -105.65776 -0.075950116 -20.990211 -0.073836103 -20.983765 -29.599932 -110.61883
104905000 -29.121864 -105.61971 -0.076764181 -21.188698 -0.074072555 -21.18852 -29.468933 -110.28712
105904000 -28.977659 -105.76226 -0.076492019 -21.390638 -0.073355876 -21.386238 -29.346407 -110.16285
106903000 -28.866917 -105.80215 -0.076800011 -21.597897 -0.074583672 -21.589361 -29.223509 -110.03512
107902000 -28.703892 -106.16138 -0.077363633 -21.796282 -0.074878626 -21.790483 -29.088726 -110.0323
108901000 -28.598658 -106.43215 -0.078588076 -21.995546 -0.075860813 -21.991915 -28.951199 -110.00091
109900000 -28.46566 -106.88504 -0.079361245 -22.195498 -0.077328585 -22.187351 -28.803333 -110.04828
110899000 -28.350958 -107.56937 -0.080153801 -22.395367 -0.078045391 -22.386946 -28.677624 -110.36012
111898000 -28.262911 -108.2513 -0.081769414 -22.594439 -0.079384185 -22.588036 -28.562471 -110.50378
112897000 -28.141882 -108.85892 -0.083294593 -22.794836 -0.080226846 -22.78096 -28.428518 -110.69671
113896000 -28.029432 -109.43063 -0.083919227 -22.994436 -0.081232131 -22.981764 -28.316637 -110.86333
114895000 -27.929617 -110.06643 -0.085242674 -23.193979 -0.082809627 -23.179033 -28.20215 -110.96239
115894000 -27.798971 -110.43159 -0.086492851 -23.394266 -0.084154636 -23.377352 -28.13887 -111.14412
116893000 -27.721729 -110.95916 -0.086802348 -23.586569 -0.084476642 -23.571352 -28.003782 -111.29211
117892000 -27.640997 -111.48248 -0.087198496 -23.784769 -0.08514341 -23.773918 -27.938982 -111.49852
118891000 -27.583311 -111.91367 -0.088089161 -23.986736 -0.085508257 -23.970198 -27.837353 -111.61702
119890000 -27.488167 -112.24987 -0.088177919 -24.18589 -0.085429847 -24.170929 -27.818623 -111.7839
120889000 -27.439285 -112.75204 -0.089386396 -24.385117 -0.086140595 -24.366552 -27.749941 -111.76063
121888000 -27.399172 -113.12143 -0.089613922 -24.584187 -0.08648017 -24.566105 -27.68873 -112.09058
122887000 -27.359705 -113.25891 -0.090630367 -24.785866 -0.087237582 -24.770039 -27.642805 -112.09843
123886000 -27.297037 -113.76283 -0.090887554 -24.991184 -0.087545544 -24.967314 -27.626547 -112.28011
124885000 -27.263981 -114.2961 -0.091584399 -25.185726 -0.088241585 -25.171562 -27.593031 -112.37785
125884000 -27.213461 -114.4472 -0.092309378 -25.383818 -0.088810124 -25.366886 -27.56835 -112.5281
126883000 -27.199074 -114.86484 -0.092819475 -25.585686 -0.089486286 -25.573015 -27.522259 -112.58247
127882000 -27.145157 -115.15027 -0.093247645 -25.786461 -0.08985889 -25.767939 -27.484568 -112.75613
128881000 -27.109835 -115.45757 -0.092825562 -25.987915 -0.09010414 -25.968956 -27.434973 -112.85175
129880000 -27.051956 -115.77631 -0.093786418 -26.188681 -0.090026177 -26.170135 -27.397762 -112.83153
130879000 -26.992884 -115.92633 -0.093313769 -26.386127 -0.09025003 -26.372835 -27.319761 -112.91817
131878000 -26.929766 -116.16234 -0.094222352 -26.590595 -0.090853721 -26.568731 -27.25478 -112.82831
132877000 -26.858541 -116.21597 -0.093582749 -26.792253 -0.091311306 -26.770996 -27.170732 -112.78403
133876000 -26.778353 -116.38291 -0.094570503 -26.991791 -0.091294914 -26.971449 -27.081541 -112.70917
134875000 -26.67733 -116.51086 -0.094447479 -27.193459 -0.091713682 -27.170404 -26.973724 -112.58205
135874000 -26.594585 -116.5136 -0.09385255 -27.390892 -0.092645474 -27.373516 -26.874081 -112.5479
136873000 -26.486887 -116.49119 -0.094811782 -27.590034 -0.091430537 -27.573231 -26.795715 -112.54124
137872000 -26.410101 -116.55495 -0.094365999 -27.79921 -0.092183784 -27.779917 -26.685101 -112.47471
138871000 -26.335917 -116.8314 -0.095631771 -27.995127 -0.092436835 -27.976576 -26.591261 -112.64678
139870000 -26.234465 -117.06915 -0.095735773 -28.197487 -0.093878202 -28.174099 -26.506405 -112.81287
140869000 -26.147228 -117.50307 -0.097837701 -28.385914 -0.094576851 -28.370726 -26.39953 -112.95786
141868000 -26.055477 -118.02355 -0.098475814 -28.580067 -0.094648279 -28.562626 -26.331789 -113.29765
142867000 -25.97331 -118.24915 -0.096221656 -28.778849 -0.093847789 -28.762833 -26.255428 -113.50834
143866000 -25.905325 -118.76079 -0.097937517 -28.974653 -0.095531747 -28.958521 -26.184563 -113.9939
144865000 -25.847643 -119.28704 -0.099534333 -29.173365 -0.097245216 -29.159786 -26.124878 -114.30985
145864000 -25.793802 -119.59638 -0.10001482 -29.374462 -0.098316938 -29.359497 -26.095749 -114.59417
146863000 -25.750988 -119.99989 -0.10101701 -29.572763 -0.0986294 -29.558283 -26.044468 -114.88242
147862000 -25.710539 -120.33308 -0.10189621 -29.769676 -0.098942675 -29.757273 -26.005522 -115.2332
148861000 -25.677305 -120.86726 -0.10211776 -29.967813 -0.099531159 -29.952074 -25.984646 -115.43718
149860000 -25.663046 -121.0707 -0.10250153 -30.167023 -0.098954588 -30.157959 -25.953676 -115.61485
150859000 -25.642183 -121.43842 -0.10303297 -30.36821 -0.10008661 -30.351818 -25.944866 -115.91783
151858000 -25.626417 -121.77973 -0.10304039 -30.564329 -0.1008448 -30.552092 -25.936934 -116.17715
152857000 -25.611803 -122.08025 -0.10309818 -30.762756 -0.1008509 -30.748337 -25.92037 -116.29668
153856000 -25.602341 -122.31123 -0.10314111 -30.959555 -0.09935423 -30.948404 -25.937456 -116.61395
154855000 -25.595041 -122.47772 -0.10254314 -31.162161 -0.099991508 -31.149939 -25.929148 -116.83786
155854000 -25.612349 -122.74258 -0.10408066 -31.361603 -0.10116725 -31.348421 -25.914259 -117.08458
156853000 -25.599234 -123.44921 -0.10109942 -31.547808 -0.099953361 -31.539232 -25.911947 -117.39954
157852000 -25.606539 -123.65845 -0.10288002 -31.746469 -0.1013914 -31.738613 -25.902637 -117.72223
158851000 -25.602785 -123.90078 -0.10303482 -31.944229 -0.10193092 -31.934319 -25.885691 -117.97641
159850000 -25.585218 -124.01343 -0.1037132 -32.145348 -0.10177193 -32.135815 -25.88785 -118.16502
160849000 -25.567593 -124.13739 -0.10381766 -32.342896 -0.10331183 -32.33757 -25.854237 -118.47691
161848000 -25.548542 -124.23333 -0.10425539 -32.543449 -0.10292482 -32.535957 -25.820787 -118.54574
162847000 -25.49955 -124.4424 -0.10401862 -32.740154 -0.1034017 -32.733952 -25.788361 -118.82735
163846000 -25.461178 -124.68192 -0.10429464 -32.940842 -0.1031048 -32.93198 -25.705835 -118.80143
164845000 -25.406664 -124.67455 -0.10508247 -33.141582 -0.10367582 -33.136143 -25.640478 -118.92435
165844000 -25.341858 -124.73729 -0.10489445 -33.337223 -0.10400642 -33.330921 -25.559172 -119.0641
166843000 -25.281199 -124.83168 -0.10494457 -33.536808 -0.10408438 -33.531219 -25.492334 -119.19796
167842000 -25.226551 -124.96938 -0.10533018 -33.736698 -0.10410347 -33.728306 -25.411722 -119.15038
168841000 -25.144213 -125.17044 -0.10550071 -33.931862 -0.10405813 -33.93034 -25.334295 -119.21667
169840000 -25.079218 -125.4117 -0.10592854 -34.129414 -0.10420687 -34.12682 -25.245737 -119.41077
170839000 -25.017242 -125.70469 -0.10713295 -34.32711 -0.10558612 -34.322407 -25.160645 -119.59071
171838000 -24.95883 -126.12489 -0.10662011 -34.531311 -0.10676947 -34.520844 -25.09223 -119.86731
172837000 -24.892727 -126.48341 -0.10811476 -34.724186 -0.1071632 -34.717525 -25.028349 -120.07168
173836000 -24.820593 -126.89627 -0.10909812 -34.922894 -0.10788309 -34.91679 -24.983448 -120.31892
174835000 -24.76515 -127.30474 -0.10958578 -35.115974 -0.10926483 -35.115673 -24.935738 -120.62675
175834000 -24.7215 -127.7359 -0.11077261 -35.313946 -0.10985152 -35.310146 -24.872622 -120.9466
176833000 -24.671066 -128.07861 -0.11138845 -35.509125 -0.11047998 -35.509232 -24.823738 -121.11215
177832000 -24.623804 -128.57503 -0.1120453 -35.706409 -0.11095663 -35.710957 -24.801266 -121.30489
178831000 -24.579948 -128.91148 -0.11229446 -35.906216 -0.11090884 -35.901672 -24.759457 -121.50516
179830000 -24.544506 -129.37936 -0.1122934 -36.098724 -0.11139456 -36.103935 -24.735245 -121.64645
180829000 -24.50494 -129.58362 -0.11366166 -36.300339 -0.11090618 -36.299736 -24.707769 -121.8179
181828000 -24.48313 -129.95932 -0.11353517 -36.497444 -0.11169309 -36.490112 -24.690214 -121.93742
182827000 -24.460133 -130.27791 -0.1130771 -36.689075 -0.1126847 -36.687462 -24.676956 -122.03196
183826000 -24.415216 -130.61757 -0.11405893 -36.891464 -0.11293204 -36.885777 -24.669655 -122.16997
184825000 -24.424463 -130.90814 -0.11403741 -37.083141 -0.11227082 -37.085052 -24.651108 -122.2496
185824000 -24.397047 -131.26416 -0.11383385 -37.277718 -0.11288847 -37.284031 -24.646635 -122.30891
186823000 -24.384686 -131.62024 -0.11382003 -37.48064 -0.11255851 -37.477924 -24.645842 -122.26496
187822000 -24.360949 -131.97511 -0.11457372 -37.673908 -0.1136606 -37.675995 -24.611176 -122.33341
188821000 -24.342369 -132.21323 -0.11463591 -37.870811 -0.1138583 -37.873688 -24.593388 -122.47147
189820000 -24.327616 -132.45692 -0.11524353 -38.07407 -0.1140592 -38.071926 -24.580276 -122.61538
190819000 -24.298302 -132.68979 -0.1163463 -38.270893 -0.11543866 -38.2687 -24.549135 -122.56421
191818000 -24.262989 -132.88925 -0.11753179 -38.4655 -0.11629365 -38.465328 -24.518267 -122.44328
192817000 -24.190865 -133.18689 -0.11837337 -38.651058 -0.11674515 -38.651825 -24.447269 -122.53228
193816000 -24.155668 -133.53471 -0.11737248 -38.842678 -0.11579222 -38.843132 -24.391594 -122.80307
194815000 -24.100977 -133.98349 -0.11671165 -39.035828 -0.11602884 -39.039494 -24.326641 -122.89564
195814000 -24.040728 -134.15891 -0.11723951 -39.235802 -0.11627079 -39.238098 -24.274652 -123.03757
196813000 -23.998024 -134.53375 -0.11655635 -39.429806 -0.11656566 -39.435062 -24.194172 -123.18983
197812000 -23.940035 -134.78828 -0.11776505 -39.631287 -0.11679142 -39.627918 -24.125797 -123.25824
198811000 -23.883732 -134.96391 -0.11646728 -39.830093 -0.11582679 -39.833206 -24.058056 -123.45172
199810000 -23.815834 -135.3098 -0.11756956 -40.019558 -0.11575527 -40.019253 -23.980762 -123.56972
200809000 -23.756582 -135.59732 -0.11794272 -40.218269 -0.11651275 -40.215729 -23.901297 -123.75343
201808000 -23.699297 -135.82788 -0.11866014 -40.420555 -0.11761105 -40.420944 -23.830736 -123.84987
202807000 -23.6408 -136.20564 -0.11937236 -40.617901 -0.11831113 -40.620815 -23.778963 -124.03417
203806000 -23.588205 -136.64984 -0.12083708 -40.81966 -0.11882881 -40.820377 -23.716003 -124.21607
