!Keysight Technologies,E5080B,MY59205177,A.15.75.32
!Date: Friday, February 23, 2024 03:35:46
!Correction: S11(Cdelta 2-Port  ) 
!S21(Cdelta 2-Port  ) 
!S12(Cdelta 2-Port  ) 
!S22(Cdelta 2-Port  ) 
!S2P File: Measurements: S11, S21, S12, S22:
# Hz S  dB   R 50
10000000 -46.112614 -2.8213339 -0.015225344 -2.0438859 -0.018190838 -2.0987048 -45.950264 -157.57616
10999000 -45.269478 -4.3725863 -0.016117742 -2.2620056 -0.017761169 -2.3199143 -45.841946 -151.9543
11998000 -44.365406 -7.6807904 -0.016845824 -2.4862292 -0.017675655 -2.5290215 -46.023582 -147.20436
12997000 -43.576759 -13.441375 -0.016433956 -2.6690652 -0.016904814 -2.6985195 -45.621304 -141.33994
13996000 -43.273907 -17.215027 -0.014766877 -2.8503726 -0.017558955 -2.8700624 -45.381866 -136.32945
14995000 -42.902275 -21.520529 -0.017242137 -3.0581665 -0.016729407 -3.0805876 -45.057335 -132.79555
15994000 -42.744194 -25.88208 -0.018751318 -3.2774029 -0.01978148 -3.3042312 -44.964409 -129.35524
16993000 -42.664452 -30.522549 -0.018348888 -3.4752963 -0.018864671 -3.4845951 -44.170601 -129.44698
17992000 -42.720005 -36.098156 -0.017824329 -3.6749017 -0.019657442 -3.6741641 -43.589233 -129.03619
18991000 -42.984051 -41.144985 -0.018786935 -3.8823051 -0.020819949 -3.8843269 -42.932076 -128.06749
19990000 -42.765121 -47.015018 -0.02149315 -4.0964012 -0.022314763 -4.0876307 -42.281315 -128.83153
20989000 -42.592083 -50.49839 -0.023026709 -4.2962747 -0.024403315 -4.2866898 -41.739506 -128.3499
21988000 -42.36961 -55.569038 -0.02436661 -4.4934983 -0.025001567 -4.484251 -41.469841 -127.37659
22987000 -42.085522 -60.34679 -0.025532462 -4.6938725 -0.026614241 -4.6828842 -41.237335 -126.98753
23986000 -41.974792 -64.328201 -0.02547075 -4.8858991 -0.02457591 -4.889689 -41.079197 -126.84652
24985000 -41.594761 -67.04882 -0.026173059 -5.0970926 -0.025156742 -5.094882 -40.89632 -124.30103
25984000 -41.227913 -69.434746 -0.027317775 -5.3028541 -0.026205352 -5.3025208 -40.582722 -123.00055
26983000 -40.908733 -71.066444 -0.027986253 -5.5023489 -0.026401717 -5.5186625 -40.455341 -122.22244
27982000 -40.738743 -72.157005 -0.029060042 -5.7036166 -0.028035233 -5.7344351 -40.189774 -120.74556
28981000 -40.702534 -73.856873 -0.026707744 -5.9000568 -0.027416503 -5.9223075 -39.990005 -119.59941
29980000 -40.282425 -74.863914 -0.027542587 -6.0951467 -0.028497709 -6.0994573 -39.721771 -119.12415
30979000 -39.92836 -73.74881 -0.024917735 -6.4488378 -0.023738774 -6.4412365 -39.188324 -119.31947
31978000 -39.718906 -74.903915 -0.023526911 -6.645556 -0.024530351 -6.6333165 -38.97538 -118.71214
32977000 -39.5187 -76.403748 -0.024607409 -6.8555188 -0.024838068 -6.8523808 -38.727757 -118.67661
33976000 -39.369362 -77.572441 -0.024880765 -7.0525866 -0.025067177 -7.0504031 -38.44281 -118.07285
34975000 -39.064888 -78.211594 -0.024774285 -7.2521372 -0.026190247 -7.2528014 -38.206139 -117.81525
35974000 -38.86792 -78.826439 -0.024330165 -7.4494824 -0.026013682 -7.4523544 -37.951172 -117.02987
36973000 -38.618629 -79.544861 -0.02443976 -7.6496882 -0.027256038 -7.6530471 -37.669689 -116.0078
37972000 -38.461887 -79.299156 -0.02422422 -7.8580728 -0.026856987 -7.8713212 -37.476437 -115.31696
38971000 -38.145184 -78.837433 -0.025171321 -8.0621262 -0.027256038 -8.0705566 -37.28339 -113.83011
39970000 -37.831284 -79.1455 -0.023659909 -8.2578707 -0.025488457 -8.2735224 -37.033691 -113.09293
40969000 -37.521832 -78.714241 -0.023627635 -8.4524336 -0.02543612 -8.4699202 -36.792347 -111.67672
41968000 -37.188 -78.553436 -0.023760637 -8.6545153 -0.026005348 -8.6797123 -36.633598 -110.54319
42967000 -36.938515 -78.767639 -0.023602389 -8.8644943 -0.025825147 -8.8892813 -36.410664 -108.65965
43966000 -36.623135 -79.480858 -0.024214849 -9.0714111 -0.027630117 -9.0864925 -36.147812 -107.90099
44965000 -36.397697 -80.182083 -0.025607714 -9.268693 -0.027462352 -9.2874346 -35.917404 -107.58816
45964000 -36.16407 -81.160591 -0.026893973 -9.4720278 -0.028552949 -9.4912949 -35.701412 -107.39124
46963000 -35.964542 -83.161919 -0.026466567 -9.6683598 -0.02904623 -9.6893854 -35.530434 -107.58666
47962000 -35.789753 -84.491089 -0.028682191 -9.8657389 -0.0309988 -9.8850174 -35.321629 -107.59798
48961000 -35.580711 -85.977562 -0.030210473 -10.066167 -0.031517912 -10.087366 -35.092655 -107.83234
49960000 -35.351212 -87.267586 -0.031353384 -10.265753 -0.033104055 -10.288744 -34.94566 -107.79341
50959000 -35.118431 -88.61982 -0.031903572 -10.480715 -0.034473158 -10.48871 -34.764736 -108.12546
51958000 -34.914928 -89.560043 -0.034158237 -10.677734 -0.035281051 -10.687371 -34.596825 -108.50186
52957000 -34.689892 -90.521797 -0.035270613 -10.876408 -0.037432771 -10.886323 -34.443485 -108.3128
53956000 -34.535141 -91.375435 -0.036898069 -11.077556 -0.037484728 -11.078653 -34.301174 -108.2436
54955000 -34.350025 -91.748405 -0.037752628 -11.279757 -0.038948461 -11.279602 -34.155273 -108.17672
55954000 -34.201233 -92.61219 -0.038964655 -11.480886 -0.038975105 -11.477698 -34.043533 -107.93929
56953000 -34.086193 -92.615616 -0.038739253 -11.680017 -0.037994955 -11.668352 -33.971474 -108.06116
57952000 -33.915035 -93.147743 -0.039826676 -11.875146 -0.038625117 -11.869913 -33.874489 -108.13573
58951000 -33.78632 -93.500336 -0.04014384 -12.081549 -0.039357245 -12.067179 -33.706642 -108.2132
59950000 -33.651443 -93.936073 -0.040630076 -12.282625 -0.040207587 -12.264354 -33.638828 -108.54029
60949000 -33.537186 -94.428169 -0.041258272 -12.486023 -0.041270293 -12.464844 -33.545258 -108.82155
61948000 -33.48027 -94.76149 -0.041485373 -12.687629 -0.040363304 -12.666435 -33.448822 -108.89758
62947000 -33.386124 -94.942787 -0.041608207 -12.897525 -0.041767374 -12.875113 -33.310558 -109.10108
63946000 -33.313808 -95.800507 -0.04300065 -13.093488 -0.042879347 -13.075293 -33.212498 -109.2294
64945000 -33.199612 -95.86068 -0.043036204 -13.298252 -0.042836994 -13.279557 -33.099529 -109.71172
65944000 -33.104156 -96.143951 -0.044326592 -13.495497 -0.043566432 -13.476157 -33.004421 -110.20574
66943000 -32.94173 -96.576134 -0.042242292 -13.698077 -0.041813109 -13.679276 -32.896233 -110.46501
67942000 -32.893806 -96.540962 -0.043812484 -13.893115 -0.043919433 -13.882365 -32.771244 -110.74924
68941000 -32.793816 -96.594284 -0.04386818 -14.088774 -0.04311908 -14.078781 -32.660969 -110.72678
69940000 -32.686054 -96.62709 -0.044186946 -14.287913 -0.043110192 -14.28082 -32.524006 -111.03405
70939000 -32.573795 -96.552956 -0.044228524 -14.480496 -0.043523815 -14.473288 -32.388187 -110.96183
71938000 -32.44352 -96.130524 -0.043976177 -14.678372 -0.043208234 -14.67319 -32.262199 -110.83594
72937000 -32.279011 -95.926849 -0.043144181 -14.878815 -0.042908624 -14.873316 -32.12822 -110.4781
73936000 -32.142693 -95.566895 -0.043146532 -15.075614 -0.043033067 -15.064346 -32.006824 -110.30272
74935000 -32.024757 -95.814171 -0.042238895 -15.273546 -0.042152375 -15.273927 -31.857941 -109.98577
75934000 -31.907074 -96.058716 -0.042714387 -15.483539 -0.041639045 -15.477386 -31.770653 -109.88876
76933000 -31.766191 -96.426315 -0.043648534 -15.676913 -0.043261569 -15.672971 -31.593533 -110.14859
77932000 -31.665152 -97.115837 -0.044831347 -15.871385 -0.044931781 -15.8613 -31.498775 -110.13627
78931000 -31.590216 -97.936325 -0.042953592 -16.074003 -0.043541856 -16.068333 -31.396385 -110.05769
79930000 -31.479399 -98.771194 -0.046284474 -16.266521 -0.046204679 -16.263664 -31.312094 -110.31211
80929000 -31.364643 -99.504517 -0.047632355 -16.464029 -0.047261521 -16.462099 -31.203495 -110.57475
81928000 -31.260654 -100.23047 -0.047780488 -16.655502 -0.048365742 -16.651846 -31.071829 -110.55073
82927000 -31.169138 -100.9983 -0.049949672 -16.855515 -0.049563978 -16.853533 -30.963896 -110.88152
83926000 -31.061199 -101.6841 -0.050853424 -17.050829 -0.050242171 -17.052063 -30.844059 -110.99115
84925000 -30.939804 -102.1179 -0.052287608 -17.252668 -0.050325185 -17.246363 -30.756079 -111.094
85924000 -30.849848 -102.49803 -0.052837573 -17.451418 -0.052182551 -17.449217 -30.673306 -111.01817
86923000 -30.741249 -103.0178 -0.053409357 -17.650585 -0.052359395 -17.644943 -30.562113 -110.87852
87922000 -30.634045 -103.35197 -0.053417742 -17.858688 -0.052014094 -17.844587 -30.483278 -110.92749
88921000 -30.552895 -103.60307 -0.054313041 -18.054817 -0.053465437 -18.048992 -30.387465 -110.92019
89920000 -30.460155 -104.07183 -0.05453375 -18.254332 -0.053763941 -18.247969 -30.325323 -111.00146
90919000 -30.356604 -104.32018 -0.055292159 -18.451326 -0.053809807 -18.445297 -30.242762 -111.18413
91918000 -30.257694 -104.69809 -0.056252096 -18.65085 -0.054693654 -18.644266 -30.175882 -111.18429
92917000 -30.171331 -105.03196 -0.056848194 -18.85145 -0.055775378 -18.847834 -30.106863 -111.31502
93916000 -30.082315 -105.3835 -0.057095785 -19.044495 -0.05565634 -19.039196 -30.023436 -111.91181
94915000 -30.006983 -106.02322 -0.058657188 -19.243265 -0.056708932 -19.240118 -29.963543 -111.79222
95914000 -29.933455 -106.16394 -0.05939585 -19.438578 -0.058419216 -19.439413 -29.8764 -112.09646
96913000 -29.844816 -106.37784 -0.061256312 -19.640051 -0.058988322 -19.63512 -29.810207 -112.40849
97912000 -29.767527 -106.88821 -0.061617576 -19.834991 -0.059247319 -19.838606 -29.726719 -112.68367
98911000 -29.663549 -107.03104 -0.06159211 -20.038279 -0.060700819 -20.038 -29.690418 -112.85747
99910000 -29.597143 -107.16295 -0.062553957 -20.237734 -0.060523894 -20.237961 -29.579865 -113.13701
100909000 -29.505457 -107.42456 -0.062154803 -20.444407 -0.059711032 -20.441549 -29.489985 -113.35311
101908000 -29.419525 -107.63941 -0.064006992 -20.646536 -0.061308555 -20.643307 -29.38368 -113.11835
102907000 -29.28278 -107.64683 -0.063054532 -20.845036 -0.061006907 -20.847349 -29.313759 -113.1218
103906000 -29.190664 -107.72228 -0.064006463 -21.054201 -0.060750168 -21.047728 -29.16968 -113.06136
104905000 -29.046331 -107.57008 -0.064778619 -21.252352 -0.061035261 -21.250135 -29.03857 -112.75252
105904000 -28.902349 -107.66175 -0.065103911 -21.453562 -0.061738353 -21.448872 -28.929903 -112.65162
106903000 -28.795588 -107.71104 -0.064672992 -21.662678 -0.061627291 -21.65843 -28.811975 -112.58077
107902000 -28.638227 -108.02422 -0.065997683 -21.862829 -0.062662683 -21.851593 -28.671951 -112.47823
108901000 -28.521408 -108.28542 -0.06705042 -22.062166 -0.063271485 -22.054556 -28.544392 -112.43526
109900000 -28.400248 -108.77174 -0.068057135 -22.262913 -0.065303624 -22.251648 -28.397993 -112.4884
110899000 -28.275871 -109.35665 -0.069443613 -22.457495 -0.065758258 -22.451525 -28.269928 -112.75164
111898000 -28.183371 -110.00605 -0.070409052 -22.661001 -0.066754155 -22.655708 -28.154291 -112.94691
112897000 -28.065786 -110.53111 -0.071883135 -22.85844 -0.06791909 -22.851772 -28.018169 -113.04473
113896000 -27.95789 -111.12557 -0.072080523 -23.062853 -0.069167182 -23.049601 -27.914831 -113.19785
114895000 -27.850794 -111.78611 -0.073268212 -23.259188 -0.070461668 -23.246342 -27.802301 -113.27768
115894000 -27.734106 -112.14629 -0.074606322 -23.460899 -0.071619175 -23.449669 -27.729008 -113.47005
116893000 -27.653214 -112.60192 -0.076066285 -23.660227 -0.072543241 -23.641123 -27.603933 -113.51685
117892000 -27.57296 -113.09707 -0.075569481 -23.851597 -0.072866485 -23.840107 -27.533152 -113.73014
118891000 -27.513325 -113.47173 -0.076389797 -24.056255 -0.073329024 -24.042978 -27.436453 -113.84559
119890000 -27.431715 -113.86793 -0.077007636 -24.255384 -0.073573604 -24.245392 -27.428278 -113.9811
120889000 -27.381361 -114.32665 -0.077976599 -24.454657 -0.073994085 -24.442833 -27.349354 -113.92525
121888000 -27.338522 -114.69093 -0.078238048 -24.64784 -0.074567348 -24.640255 -27.289137 -114.18204
122887000 -27.298534 -114.84583 -0.0785807 -24.856159 -0.075411178 -24.841887 -27.243137 -114.19559
123886000 -27.246964 -115.27142 -0.079040416 -25.058838 -0.075421184 -25.035755 -27.229698 -114.30871
124885000 -27.211435 -115.7642 -0.079601951 -25.257536 -0.076111339 -25.245958 -27.201607 -114.37447
125884000 -27.162933 -115.96526 -0.080794066 -25.455095 -0.075882152 -25.441069 -27.176508 -114.48697
126883000 -27.140358 -116.37636 -0.080254532 -25.657473 -0.076644033 -25.647223 -27.134907 -114.53638
127882000 -27.088474 -116.63689 -0.081003465 -25.857166 -0.077299595 -25.84041 -27.10117 -114.64825
128881000 -27.061874 -116.97277 -0.081408583 -26.061337 -0.077046901 -26.04418 -27.056103 -114.77766
129880000 -27.005966 -117.33303 -0.081759393 -26.261122 -0.077247947 -26.244766 -27.019543 -114.68728
130879000 -26.951178 -117.47993 -0.081550486 -26.461546 -0.07826256 -26.446795 -26.945705 -114.71026
131878000 -26.884405 -117.6385 -0.082237914 -26.666166 -0.079108693 -26.647251 -26.884932 -114.61807
132877000 -26.822886 -117.78339 -0.081835628 -26.865194 -0.079055443 -26.847704 -26.812336 -114.59842
133876000 -26.734776 -117.92686 -0.082452662 -27.068354 -0.07864739 -27.049383 -26.725622 -114.4563
134875000 -26.63899 -118.07317 -0.082408868 -27.265621 -0.079036467 -27.248064 -26.626839 -114.30541
135874000 -26.557884 -118.09411 -0.082696967 -27.468428 -0.079311423 -27.450775 -26.530416 -114.27435
136873000 -26.447378 -118.00641 -0.082405701 -27.665663 -0.079566099 -27.65217 -26.445789 -114.20808
137872000 -26.370348 -118.11546 -0.083308578 -27.870052 -0.079200171 -27.86079 -26.345282 -114.1842
138871000 -26.301523 -118.36823 -0.082935482 -28.066982 -0.079589561 -28.056543 -26.255547 -114.33829
139870000 -26.200171 -118.65869 -0.08370652 -28.26899 -0.080701768 -28.254002 -26.166317 -114.50781
140869000 -26.122644 -119.1758 -0.084658235 -28.468193 -0.081242941 -28.449114 -26.071821 -114.70502
141868000 -26.044329 -119.57091 -0.086081713 -28.668558 -0.08248432 -28.654133 -26.020048 -114.94859
142867000 -25.96314 -119.78051 -0.084612839 -28.865206 -0.081590578 -28.850222 -25.943998 -115.08002
143866000 -25.892904 -120.23252 -0.086084887 -29.063005 -0.083360299 -29.045862 -25.87233 -115.54451
144865000 -25.837078 -120.77119 -0.087995119 -29.259581 -0.084472418 -29.245832 -25.812866 -115.81699
145864000 -25.77417 -121.08793 -0.087883912 -29.462376 -0.086478062 -29.45191 -25.781803 -116.09707
146863000 -25.733572 -121.44913 -0.089220725 -29.661617 -0.08625678 -29.653141 -25.722923 -116.38618
147862000 -25.690054 -121.77484 -0.090206422 -29.858158 -0.08698193 -29.850191 -25.697386 -116.66973
148861000 -25.658043 -122.19882 -0.091102466 -30.058659 -0.08838398 -30.045193 -25.671251 -116.84927
149860000 -25.62355 -122.39661 -0.092168711 -30.249634 -0.088832848 -30.2397 -25.620882 -116.91438
150859000 -25.603971 -122.84943 -0.091597356 -30.447874 -0.088554382 -30.438633 -25.600092 -117.28271
151858000 -25.596416 -123.21133 -0.091656573 -30.650221 -0.08786542 -30.637623 -25.591499 -117.64493
152857000 -25.574497 -123.54533 -0.091757566 -30.845026 -0.088285439 -30.836296 -25.581623 -117.77302
153856000 -25.566315 -123.74627 -0.09109956 -31.050129 -0.087733082 -31.034304 -25.589882 -118.10822
154855000 -25.568037 -123.88127 -0.091408856 -31.246271 -0.088246346 -31.238131 -25.581285 -118.32674
155854000 -25.584248 -124.16609 -0.09155558 -31.4499 -0.088077009 -31.437159 -25.57357 -118.62767
156853000 -25.567308 -124.86349 -0.089360505 -31.634809 -0.087683693 -31.628454 -25.564571 -118.93446
157852000 -25.572794 -125.02977 -0.090738744 -31.838442 -0.089544423 -31.826323 -25.55653 -119.26524
158851000 -25.571871 -125.2735 -0.091409914 -32.035671 -0.089169465 -32.027195 -25.535711 -119.52446
159850000 -25.556753 -125.39124 -0.091860682 -32.231636 -0.089888752 -32.226997 -25.539808 -119.75179
160849000 -25.545088 -125.47643 -0.092303827 -32.435764 -0.090093568 -32.429363 -25.510237 -120.02514
161848000 -25.525997 -125.58004 -0.093045324 -32.636185 -0.090030938 -32.627342 -25.471317 -120.16834
162847000 -25.487949 -125.73078 -0.092739612 -32.833862 -0.090336189 -32.829872 -25.445013 -120.38919
163846000 -25.446136 -125.93024 -0.092776634 -33.038242 -0.090499796 -33.024864 -25.361116 -120.42857
164845000 -25.388039 -125.90898 -0.093429081 -33.235943 -0.091427892 -33.231415 -25.302944 -120.52383
165844000 -25.335918 -125.95124 -0.093664743 -33.433956 -0.092111334 -33.427467 -25.221544 -120.63012
166843000 -25.274382 -125.98332 -0.093222521 -33.633038 -0.090978757 -33.627457 -25.160099 -120.82467
167842000 -25.217287 -126.11234 -0.09402369 -33.833195 -0.091476269 -33.829689 -25.081766 -120.74358
168841000 -25.143082 -126.29312 -0.093843028 -34.030609 -0.091918848 -34.028904 -25.011293 -120.78783
169840000 -25.072018 -126.48773 -0.093965761 -34.228443 -0.092905685 -34.222858 -24.919327 -121.00368
170839000 -25.019455 -126.74007 -0.095177971 -34.42627 -0.09323892 -34.424538 -24.840721 -121.1497
171838000 -24.954807 -127.12775 -0.094470501 -34.627712 -0.093912326 -34.622459 -24.779661 -121.38298
172837000 -24.886717 -127.45771 -0.096095681 -34.822342 -0.095381714 -34.817249 -24.713686 -121.56213
173836000 -24.817963 -127.8524 -0.097349778 -35.022869 -0.095764354 -35.01936 -24.669804 -121.79372
174835000 -24.771517 -128.26482 -0.097882442 -35.218838 -0.096883357 -35.219116 -24.625811 -122.12676
175834000 -24.716579 -128.62198 -0.098426029 -35.420021 -0.098117821 -35.416016 -24.567171 -122.37659
176833000 -24.668409 -128.96846 -0.099625714 -35.619125 -0.098425239 -35.614742 -24.513308 -122.5231
177832000 -24.623085 -129.41084 -0.10082917 -35.818356 -0.09921784 -35.819637 -24.496944 -122.60413
178831000 -24.576731 -129.63252 -0.10187262 -36.014927 -0.10102575 -36.012337 -24.461483 -122.67629
179830000 -24.506098 -130.04486 -0.10336353 -36.200218 -0.10162936 -36.201725 -24.390451 -122.77277
180829000 -24.458134 -130.38426 -0.10261364 -36.393578 -0.10046992 -36.390404 -24.351437 -123.09772
181828000 -24.430664 -130.79468 -0.10230036 -36.5937 -0.10048503 -36.591839 -24.333326 -123.29294
182827000 -24.412907 -131.19904 -0.10138902 -36.786152 -0.1006612 -36.788467 -24.31768 -123.40674
183826000 -24.373636 -131.52374 -0.1029439 -36.985596 -0.10037456 -36.989498 -24.309135 -123.55374
184825000 -24.37224 -131.8627 -0.10237351 -37.185169 -0.1005955 -37.18618 -24.29232 -123.68175
185824000 -24.344469 -132.23027 -0.10194682 -37.380131 -0.10143645 -37.380703 -24.2864 -123.72008
186823000 -24.331503 -132.60049 -0.10265075 -37.580708 -0.10136835 -37.578201 -24.278193 -123.75012
187822000 -24.305952 -132.94218 -0.10287313 -37.774231 -0.10157583 -37.77499 -24.24247 -123.84316
188821000 -24.282576 -133.2012 -0.10242917 -37.968979 -0.10173271 -37.973358 -24.223331 -123.94086
189820000 -24.263601 -133.50101 -0.10284132 -38.173763 -0.10167971 -38.17049 -24.209648 -124.12859
190819000 -24.232714 -133.76645 -0.10370631 -38.368641 -0.10267566 -38.367741 -24.167933 -124.20012
191818000 -24.196936 -134.04793 -0.10378531 -38.565025 -0.10300566 -38.56673 -24.142677 -124.24143
192817000 -24.14995 -134.33841 -0.10438293 -38.762409 -0.103104 -38.763783 -24.095736 -124.29803
193816000 -24.122356 -134.59409 -0.10499178 -38.959152 -0.10252299 -38.9594 -24.049538 -124.46591
194815000 -24.063763 -135.00842 -0.10455263 -39.157497 -0.10387333 -39.159775 -23.980841 -124.52584
195814000 -24.007124 -135.20511 -0.10508195 -39.351089 -0.10311779 -39.356216 -23.92742 -124.59357
196813000 -23.954945 -135.51477 -0.10487854 -39.549725 -0.10367131 -39.548939 -23.846876 -124.75651
197812000 -23.896711 -135.69547 -0.1059869 -39.744709 -0.10472023 -39.744213 -23.776892 -124.86407
198811000 -23.842619 -135.87767 -0.10559036 -39.940224 -0.10386405 -39.947552 -23.712219 -125.01914
199810000 -23.768864 -136.23837 -0.10545324 -40.13343 -0.10361139 -40.13279 -23.6315 -125.13546
200809000 -23.718319 -136.48434 -0.10600334 -40.335644 -0.10391337 -40.333775 -23.555487 -125.32413
201808000 -23.664213 -136.69464 -0.10722741 -40.536232 -0.10521375 -40.538784 -23.489296 -125.35676
202807000 -23.604477 -137.02254 -0.10781542 -40.738201 -0.10580945 -40.738419 -23.433767 -125.55691
