!Keysight Technologies,E5080B,MY59205177,A.15.75.32
!Date: Friday, February 23, 2024 03:35:52
!Correction: S11(Cdelta 2-Port  ) 
!S21(Cdelta 2-Port  ) 
!S12(Cdelta 2-Port  ) 
!S22(Cdelta 2-Port  ) 
!S2P File: Measurements: S11, S21, S12, S22:
# Hz S  dB   R 50
10000000 -46.126114 -2.3855612 -0.0155602 -2.0451491 -0.017684752 -2.0998921 -45.910873 -157.6834
10999000 -45.298897 -4.6199765 -0.016748115 -2.2605519 -0.01701526 -2.3189292 -45.840504 -151.86121
11998000 -44.385986 -7.5412784 -0.016923785 -2.4889772 -0.017235121 -2.5300903 -46.019711 -146.64517
12997000 -43.583015 -13.130914 -0.015746212 -2.6688588 -0.01710414 -2.6974726 -45.625851 -141.37901
13996000 -43.344978 -17.310518 -0.0147035 -2.8454025 -0.017115055 -2.869035 -45.428894 -136.56888
14995000 -42.902657 -21.479671 -0.017064637 -3.0597539 -0.016652489 -3.0789461 -45.1031 -132.99982
15994000 -42.750122 -25.791058 -0.018747158 -3.2782962 -0.019230487 -3.2989354 -45.022045 -129.65581
16993000 -42.683247 -30.618742 -0.017614055 -3.4790947 -0.018522803 -3.4822943 -44.179882 -129.15714
17992000 -42.776859 -36.199394 -0.018723501 -3.6716249 -0.019134285 -3.6744571 -43.610878 -129.14134
18991000 -42.958576 -41.435173 -0.019105686 -3.8840122 -0.01989902 -3.8780255 -42.964859 -128.15855
19990000 -42.759869 -47.003353 -0.021589145 -4.094214 -0.021764228 -4.0902534 -42.314175 -128.6369
20989000 -42.563976 -50.708027 -0.02349594 -4.293242 -0.023709102 -4.2853694 -41.758305 -128.29144
21988000 -42.37579 -55.781975 -0.024345525 -4.497613 -0.024742784 -4.4823666 -41.504662 -127.63308
22987000 -42.039295 -60.50705 -0.02554496 -4.6960254 -0.025652763 -4.6881261 -41.254555 -127.07625
23986000 -41.945461 -64.665474 -0.025584279 -4.886869 -0.024772983 -4.8888721 -41.135464 -126.99565
24985000 -41.544289 -67.287453 -0.026010817 -5.0980096 -0.025281457 -5.0940557 -40.916248 -124.63589
25984000 -41.209198 -69.237091 -0.02718701 -5.301991 -0.025696769 -5.3006406 -40.601517 -122.88081
26983000 -40.907642 -71.164009 -0.02829734 -5.5002675 -0.026459536 -5.5216107 -40.467873 -122.22274
27982000 -40.749184 -72.212059 -0.029497346 -5.7015696 -0.02811105 -5.7346196 -40.219929 -120.60715
28981000 -40.692627 -73.300766 -0.02672285 -5.899231 -0.028039662 -5.921483 -39.949486 -119.79769
29980000 -40.305416 -74.986549 -0.026919238 -6.0953918 -0.02856754 -6.1016555 -39.687496 -119.18406
30979000 -39.915474 -73.810936 -0.025068479 -6.4507613 -0.022687115 -6.4399762 -39.206944 -119.43833
31978000 -39.707581 -74.77655 -0.0241732 -6.6443305 -0.024185173 -6.6345258 -38.947762 -118.70096
32977000 -39.524723 -76.369553 -0.023813214 -6.8527684 -0.024718832 -6.8495188 -38.707371 -118.7747
33976000 -39.371693 -77.514977 -0.024925806 -7.0532722 -0.024499634 -7.0504236 -38.433117 -118.12948
34975000 -39.079933 -78.126381 -0.024330165 -7.2531524 -0.025914725 -7.2534075 -38.201084 -117.7876
35974000 -38.862694 -78.798157 -0.023811912 -7.448143 -0.026440784 -7.4513173 -37.930908 -116.97592
36973000 -38.639904 -79.312271 -0.024315327 -7.6480036 -0.026747072 -7.6561418 -37.658031 -116.05649
37972000 -38.456261 -79.154594 -0.024409302 -7.8625979 -0.026704097 -7.8679667 -37.430542 -115.19139
38971000 -38.136761 -78.763382 -0.025235632 -8.0625181 -0.02706797 -8.0714445 -37.297016 -113.84493
39970000 -37.82412 -78.988205 -0.023123259 -8.2573929 -0.026081912 -8.2714748 -37.029213 -113.11433
40969000 -37.519653 -78.676147 -0.024022225 -8.4487782 -0.024931794 -8.4711752 -36.779736 -111.71001
41968000 -37.180096 -78.666618 -0.023963919 -8.6591215 -0.02627697 -8.6743059 -36.593842 -110.59145
42967000 -36.927563 -78.820831 -0.023804104 -8.8657532 -0.025749369 -8.8873158 -36.405994 -108.65275
43966000 -36.651684 -79.459198 -0.025093473 -9.0693216 -0.027064063 -9.0901937 -36.143585 -107.86598
44965000 -36.399097 -80.290848 -0.025153097 -9.2714739 -0.027216185 -9.2894621 -35.92849 -107.59819
45964000 -36.147747 -81.285881 -0.026692636 -9.4699192 -0.028944338 -9.4891357 -35.693192 -107.41301
46963000 -35.955872 -83.211838 -0.026929136 -9.6644964 -0.028796846 -9.6894093 -35.529598 -107.56676
47962000 -35.806896 -84.562614 -0.02785781 -9.8694115 -0.030042605 -9.8835993 -35.312962 -107.58717
48961000 -35.583843 -86.021454 -0.030333769 -10.064095 -0.03152078 -10.0873 -35.091496 -107.79364
49960000 -35.348328 -87.236641 -0.031109866 -10.26395 -0.032833308 -10.288909 -34.943672 -107.81263
50959000 -35.123165 -88.599091 -0.031692617 -10.480879 -0.033890821 -10.488855 -34.763466 -108.11242
51958000 -34.905952 -89.593185 -0.034035355 -10.676406 -0.034943629 -10.687892 -34.606915 -108.54732
52957000 -34.69923 -90.610359 -0.035625286 -10.87678 -0.036255889 -10.885663 -34.442181 -108.32863
53956000 -34.534538 -91.321007 -0.036559999 -11.078212 -0.03648508 -11.080166 -34.300098 -108.31762
54955000 -34.359604 -91.760872 -0.037224416 -11.284146 -0.037783965 -11.279284 -34.162697 -108.28838
55954000 -34.183956 -92.565857 -0.038314074 -11.481689 -0.038142499 -11.481227 -34.041695 -107.93336
56953000 -34.07523 -92.590622 -0.037893899 -11.680659 -0.037926279 -11.671245 -33.972343 -108.13647
57952000 -33.898819 -93.176796 -0.039049543 -11.877369 -0.038792793 -11.871981 -33.871197 -108.18829
58951000 -33.780579 -93.409378 -0.0403377 -12.08154 -0.039039094 -12.063917 -33.707211 -108.28937
59950000 -33.647606 -93.846886 -0.041011319 -12.283126 -0.039960176 -12.262684 -33.636978 -108.58498
60949000 -33.537766 -94.470551 -0.041533984 -12.48348 -0.040092371 -12.464482 -33.553532 -108.79047
61948000 -33.482765 -94.739868 -0.042598318 -12.681809 -0.040729631 -12.662989 -33.474838 -108.92039
62947000 -33.392071 -94.91124 -0.041896224 -12.895926 -0.041393641 -12.877995 -33.317711 -109.13644
63946000 -33.316288 -95.732269 -0.043400403 -13.093043 -0.042513099 -13.073397 -33.204594 -109.31427
64945000 -33.191422 -95.856705 -0.043734301 -13.296382 -0.042800397 -13.27612 -33.087799 -109.76056
65944000 -33.101879 -96.181313 -0.04419845 -13.493331 -0.042824183 -13.481565 -32.998211 -110.18762
66943000 -32.95945 -96.574486 -0.042768501 -13.697297 -0.041871917 -13.681925 -32.889229 -110.4836
67942000 -32.898132 -96.500626 -0.044414986 -13.893604 -0.043495312 -13.882733 -32.773285 -110.80192
68941000 -32.79221 -96.658112 -0.044008076 -14.085171 -0.042985227 -14.075505 -32.666039 -110.74683
69940000 -32.686874 -96.629921 -0.044061683 -14.285563 -0.042798303 -14.280614 -32.524296 -110.99039
70939000 -32.585625 -96.554756 -0.043226015 -14.484571 -0.043708675 -14.474385 -32.3936 -110.91684
71938000 -32.445919 -96.172722 -0.043794442 -14.679448 -0.042531922 -14.671147 -32.257416 -110.8211
72937000 -32.286652 -96.026642 -0.043652717 -14.877666 -0.042773467 -14.873101 -32.116932 -110.47145
73936000 -32.159515 -95.624725 -0.04266341 -15.079183 -0.041775476 -15.071108 -32.009869 -110.29793
74935000 -32.028763 -95.770416 -0.042801965 -15.278011 -0.041326739 -15.270001 -31.854746 -109.91655
75934000 -31.902235 -96.045914 -0.042793337 -15.482858 -0.041467864 -15.478745 -31.773945 -109.81828
76933000 -31.770792 -96.387436 -0.043727502 -15.674818 -0.042762488 -15.672503 -31.598978 -110.24673
77932000 -31.654978 -97.188538 -0.045561902 -15.876355 -0.044542871 -15.867225 -31.49267 -110.10386
78931000 -31.584499 -97.895622 -0.043284576 -16.074867 -0.042770594 -16.068092 -31.397827 -110.02859
79930000 -31.481052 -98.788963 -0.046268776 -16.266378 -0.04567622 -16.265621 -31.287226 -110.30354
80929000 -31.362906 -99.5411 -0.048233293 -16.463648 -0.047451254 -16.462591 -31.198223 -110.571
81928000 -31.271023 -100.28241 -0.048317578 -16.655796 -0.047426131 -16.652042 -31.073132 -110.59993
82927000 -31.170404 -101.09993 -0.049316552 -16.853258 -0.048995316 -16.851282 -30.957922 -110.87879
83926000 -31.048189 -101.7047 -0.05156666 -17.052135 -0.049858809 -17.053896 -30.843197 -110.9734
84925000 -30.950815 -102.0923 -0.052217394 -17.252125 -0.050117262 -17.24725 -30.75029 -111.06532
85924000 -30.854998 -102.53036 -0.052733023 -17.453272 -0.051636599 -17.450928 -30.666128 -111.03755
86923000 -30.752913 -103.02954 -0.053581271 -17.653269 -0.051536534 -17.643021 -30.561201 -110.92931
87922000 -30.634562 -103.31827 -0.053317897 -17.857414 -0.052107099 -17.851793 -30.479357 -110.94128
88921000 -30.565474 -103.60109 -0.054523002 -18.055056 -0.051970609 -18.0525 -30.382011 -110.87463
89920000 -30.461111 -104.08394 -0.054821055 -18.252556 -0.053809021 -18.244886 -30.331203 -111.03413
90919000 -30.366493 -104.35655 -0.055639297 -18.449924 -0.054056175 -18.44474 -30.24345 -111.21333
91918000 -30.25984 -104.68397 -0.055789798 -18.652672 -0.055036023 -18.644779 -30.177799 -111.31429
92917000 -30.171213 -105.02891 -0.057413686 -18.849163 -0.056612421 -18.845514 -30.108986 -111.3157
93916000 -30.081766 -105.34116 -0.056186534 -19.042801 -0.054986473 -19.037905 -30.025448 -111.88525
94915000 -30.005692 -105.9934 -0.057636127 -19.247641 -0.056366954 -19.238798 -29.965605 -111.81531
95914000 -29.93557 -106.17966 -0.059215304 -19.4387 -0.05742234 -19.435745 -29.87726 -112.03152
96913000 -29.853186 -106.37385 -0.060291331 -19.640293 -0.058895171 -19.637484 -29.811777 -112.42207
97912000 -29.774345 -106.88139 -0.061631493 -19.834473 -0.058958411 -19.837482 -29.723572 -112.64228
98911000 -29.665148 -107.00087 -0.061642781 -20.038376 -0.059831232 -20.034729 -29.691486 -112.82912
99910000 -29.599445 -107.15845 -0.062642463 -20.236984 -0.060573243 -20.232895 -29.579985 -113.11053
100909000 -29.512993 -107.414 -0.062200494 -20.446087 -0.059557505 -20.438391 -29.493988 -113.34746
101908000 -29.424999 -107.62574 -0.062815011 -20.642006 -0.060864359 -20.643883 -29.383253 -113.15851
102907000 -29.282146 -107.69426 -0.063413322 -20.847248 -0.061086453 -20.846785 -29.31101 -113.1348
103906000 -29.189714 -107.74826 -0.06376715 -21.049459 -0.061416723 -21.052816 -29.177231 -113.10342
104905000 -29.049364 -107.5984 -0.065025344 -21.249949 -0.061001658 -21.249952 -29.042313 -112.79408
105904000 -28.903042 -107.69324 -0.064536631 -21.452255 -0.061437991 -21.449232 -28.935106 -112.65638
106903000 -28.795197 -107.76456 -0.063982822 -21.659565 -0.061536707 -21.652864 -28.806078 -112.55348
107902000 -28.632082 -108.09926 -0.065160148 -21.86134 -0.061879616 -21.849318 -28.668545 -112.49094
108901000 -28.518305 -108.28928 -0.066241592 -22.059816 -0.063400976 -22.054472 -28.544327 -112.42379
109900000 -28.385836 -108.78457 -0.066936858 -22.258705 -0.064383723 -22.254925 -28.390556 -112.50681
110899000 -28.28175 -109.40382 -0.068778194 -22.456902 -0.064970694 -22.448538 -28.273615 -112.77496
111898000 -28.187832 -110.04957 -0.069991812 -22.661713 -0.067172401 -22.653419 -28.149801 -112.8555
112897000 -28.058313 -110.578 -0.071879186 -22.859264 -0.06735906 -22.849394 -28.016977 -113.07702
113896000 -27.952023 -111.15891 -0.072969154 -23.061752 -0.068768993 -23.050537 -27.90729 -113.20093
114895000 -27.851274 -111.79694 -0.073598355 -23.26054 -0.070213839 -23.247589 -27.791615 -113.29425
115894000 -27.726555 -112.10999 -0.074376427 -23.460938 -0.071817078 -23.445923 -27.722454 -113.466
116893000 -27.648186 -112.60044 -0.074888639 -23.656057 -0.072217911 -23.638649 -27.600695 -113.48911
117892000 -27.56558 -113.06755 -0.075113557 -23.854874 -0.072817527 -23.841862 -27.531775 -113.65872
118891000 -27.509949 -113.50414 -0.076078936 -24.054464 -0.07280989 -24.046114 -27.439764 -113.83123
119890000 -27.422693 -113.8308 -0.076913312 -24.257517 -0.074130222 -24.238279 -27.420694 -113.98377
120889000 -27.369337 -114.40402 -0.078166097 -24.45553 -0.074175514 -24.441547 -27.353199 -113.93401
121888000 -27.334766 -114.64985 -0.07795842 -24.650389 -0.073857173 -24.639652 -27.292162 -114.15364
122887000 -27.295961 -114.87988 -0.07905861 -24.857903 -0.075147264 -24.842304 -27.245279 -114.20771
123886000 -27.245235 -115.30023 -0.079260275 -25.058466 -0.075746752 -25.037971 -27.231817 -114.3534
124885000 -27.21102 -115.78501 -0.079480939 -25.255451 -0.076051533 -25.2493 -27.192358 -114.35419
125884000 -27.157251 -115.99527 -0.080444656 -25.456936 -0.075819984 -25.442636 -27.170803 -114.54612
126883000 -27.134567 -116.35744 -0.080347613 -25.659557 -0.076321825 -25.645811 -27.130348 -114.54132
127882000 -27.086708 -116.67048 -0.081010848 -25.856619 -0.076708853 -25.84124 -27.096275 -114.66759
128881000 -27.060133 -116.97929 -0.081344225 -26.061657 -0.077191561 -26.043737 -27.059875 -114.80723
129880000 -27.007612 -117.29559 -0.082305714 -26.262428 -0.077696458 -26.242466 -27.017458 -114.70074
130879000 -26.949244 -117.47752 -0.081436537 -26.463688 -0.078284174 -26.446587 -26.945419 -114.75333
131878000 -26.886154 -117.69608 -0.081849605 -26.665323 -0.078860112 -26.648216 -26.888723 -114.62367
132877000 -26.821795 -117.74884 -0.081703998 -26.86594 -0.079500183 -26.849293 -26.805023 -114.59634
133876000 -26.739317 -117.93204 -0.08228223 -27.070812 -0.078558296 -27.049646 -26.718386 -114.43967
134875000 -26.637625 -118.06553 -0.082284078 -27.269781 -0.079476453 -27.248554 -26.622681 -114.31233
135874000 -26.557014 -118.08607 -0.082177766 -27.467615 -0.080053605 -27.452431 -26.529455 -114.24023
136873000 -26.448513 -118.01968 -0.082861863 -27.668009 -0.080017745 -27.651289 -26.446186 -114.19746
137872000 -26.370398 -118.13327 -0.083140232 -27.872711 -0.080038309 -27.850735 -26.339529 -114.16053
138871000 -26.29612 -118.36292 -0.083537102 -28.072708 -0.079377331 -28.056324 -26.250841 -114.33237
139870000 -26.195625 -118.64149 -0.083872251 -28.271471 -0.080814905 -28.257614 -26.170311 -114.4739
140869000 -26.11952 -119.19427 -0.08450409 -28.468752 -0.08156684 -28.452734 -26.070892 -114.67617
141868000 -26.035299 -119.6179 -0.085220762 -28.669487 -0.082661085 -28.651909 -26.019096 -114.93494
142867000 -25.958706 -119.80216 -0.084043004 -28.863075 -0.082149275 -28.847052 -25.940245 -115.04175
143866000 -25.886953 -120.28779 -0.08599247 -29.066303 -0.083581433 -29.046333 -25.868145 -115.50689
144865000 -25.829815 -120.82691 -0.087792516 -29.261078 -0.084917709 -29.24782 -25.805958 -115.80459
145864000 -25.774071 -121.06875 -0.088492557 -29.459982 -0.085909039 -29.450253 -25.775764 -116.05345
146863000 -25.734081 -121.43251 -0.08950346 -29.661654 -0.085972935 -29.646395 -25.728588 -116.35322
147862000 -25.692198 -121.77947 -0.090718649 -29.858582 -0.086949177 -29.849989 -25.696825 -116.68664
148861000 -25.651798 -122.24337 -0.091035321 -30.061588 -0.08826378 -30.044401 -25.674809 -116.79891
149860000 -25.622169 -122.38535 -0.09193524 -30.249823 -0.087887608 -30.237553 -25.61834 -116.93712
150859000 -25.601086 -122.85686 -0.091477588 -30.449202 -0.088605635 -30.432949 -25.601362 -117.28014
151858000 -25.58869 -123.21429 -0.09112943 -30.647188 -0.087775081 -30.634663 -25.587 -117.61485
152857000 -25.570242 -123.50963 -0.091008097 -30.848793 -0.088468783 -30.83427 -25.577209 -117.7953
153856000 -25.574825 -123.74285 -0.090777859 -31.04945 -0.087363563 -31.032114 -25.59004 -118.11213
154855000 -25.567362 -123.89174 -0.091241248 -31.244978 -0.087284327 -31.233301 -25.578398 -118.35026
155854000 -25.583014 -124.1403 -0.091343559 -31.443264 -0.08816392 -31.435471 -25.570158 -118.62522
156853000 -25.570847 -124.82407 -0.089071698 -31.636019 -0.087800965 -31.626556 -25.564278 -118.95683
157852000 -25.574621 -125.05564 -0.090799004 -31.83642 -0.089595422 -31.827126 -25.559896 -119.30482
158851000 -25.571634 -125.28841 -0.091526501 -32.035198 -0.08954151 -32.025936 -25.541256 -119.57886
159850000 -25.559137 -125.41328 -0.092080131 -32.230396 -0.08995112 -32.227459 -25.53982 -119.74095
160849000 -25.544436 -125.49924 -0.092128523 -32.433487 -0.091113567 -32.431225 -25.505772 -120.02579
161848000 -25.52829 -125.56915 -0.092817888 -32.630646 -0.090813547 -32.627525 -25.466852 -120.12543
162847000 -25.487131 -125.74456 -0.092619024 -32.836369 -0.091524124 -32.83099 -25.442936 -120.40411
163846000 -25.448765 -125.92798 -0.092571959 -33.032337 -0.091025807 -33.027496 -25.360844 -120.41595
164845000 -25.390205 -125.93384 -0.093197659 -33.23341 -0.091167763 -33.226902 -25.301731 -120.5239
165844000 -25.337454 -125.96596 -0.092764474 -33.432571 -0.092182726 -33.427185 -25.22117 -120.65946
166843000 -25.27194 -126.00059 -0.092906743 -33.632141 -0.091640711 -33.626789 -25.155439 -120.78798
167842000 -25.219004 -126.09826 -0.093352906 -33.83387 -0.092188008 -33.824886 -25.077978 -120.72645
168841000 -25.140415 -126.27927 -0.094400391 -34.03101 -0.092348516 -34.026962 -25.003414 -120.79725
169840000 -25.071051 -126.53386 -0.093815513 -34.226234 -0.093001425 -34.2229 -24.921101 -120.9494
170839000 -25.024408 -126.76617 -0.094704896 -34.427841 -0.092951708 -34.425133 -24.843113 -121.1547
171838000 -24.958965 -127.12881 -0.094745114 -34.628544 -0.094331875 -34.619423 -24.777691 -121.38476
172837000 -24.881475 -127.48891 -0.09687753 -34.822403 -0.095307618 -34.817093 -24.709406 -121.56192
173836000 -24.82239 -127.85714 -0.097345546 -35.024761 -0.09581966 -35.017788 -24.668659 -121.81239
174835000 -24.766829 -128.28644 -0.097625904 -35.221085 -0.096673191 -35.219887 -24.628271 -122.11022
175834000 -24.718941 -128.62732 -0.098788552 -35.418922 -0.097587779 -35.416271 -24.568438 -122.36987
176833000 -24.670177 -128.97545 -0.099938527 -35.616741 -0.098200172 -35.618092 -24.51936 -122.51083
177832000 -24.623598 -129.40448 -0.10074068 -35.819683 -0.0991503 -35.821136 -24.497885 -122.58997
178831000 -24.574711 -129.6129 -0.10214665 -36.013268 -0.10132039 -36.010918 -24.457987 -122.68597
179830000 -24.506979 -130.02043 -0.10328215 -36.197243 -0.10146904 -36.199921 -24.393665 -122.7646
180829000 -24.455475 -130.38734 -0.10154217 -36.388039 -0.1003078 -36.38821 -24.354809 -123.07654
181828000 -24.429613 -130.77538 -0.10218428 -36.588417 -0.10036872 -36.58987 -24.336985 -123.31587
182827000 -24.413576 -131.18848 -0.101919 -36.788738 -0.10048211 -36.787434 -24.322201 -123.40188
183826000 -24.365637 -131.51096 -0.10223517 -36.988312 -0.099955484 -36.984962 -24.314117 -123.54255
184825000 -24.37237 -131.85501 -0.10236291 -37.181297 -0.10047416 -37.185848 -24.29402 -123.68137
185824000 -24.343666 -132.21594 -0.10210636 -37.381405 -0.10045721 -37.379879 -24.285713 -123.73284
186823000 -24.327829 -132.57135 -0.10224047 -37.575459 -0.10055417 -37.578796 -24.281574 -123.73262
187822000 -24.302921 -132.89937 -0.10329752 -37.774529 -0.10137232 -37.774841 -24.241583 -123.82492
188821000 -24.283901 -133.21454 -0.10346612 -37.97036 -0.10200937 -37.976242 -24.223442 -123.9562
189820000 -24.25881 -133.49701 -0.10313369 -38.172123 -0.10169296 -38.172321 -24.209772 -124.14593
190819000 -24.230368 -133.78777 -0.10411328 -38.36842 -0.1019357 -38.367516 -24.166046 -124.18275
191818000 -24.199688 -134.07512 -0.10369358 -38.567104 -0.10262636 -38.568508 -24.142044 -124.22616
192817000 -24.151236 -134.35266 -0.10422305 -38.763756 -0.10302554 -38.76416 -24.098257 -124.29976
193816000 -24.122192 -134.61644 -0.10428907 -38.958527 -0.10239683 -38.958981 -24.0455 -124.4421
194815000 -24.062069 -135.0201 -0.104738 -39.154621 -0.10375164 -39.159679 -23.98107 -124.52982
195814000 -24.008812 -135.21547 -0.10543732 -39.349384 -0.10366309 -39.354126 -23.926134 -124.63283
196813000 -23.95381 -135.53064 -0.10493714 -39.546703 -0.1033463 -39.549942 -23.849379 -124.76402
197812000 -23.895123 -135.71655 -0.10524902 -39.744141 -0.10424187 -39.744621 -23.778894 -124.8643
198811000 -23.848965 -135.89526 -0.10535192 -39.944149 -0.10420369 -39.945911 -23.707752 -125.0451
199810000 -23.775377 -136.24805 -0.10598981 -40.13707 -0.10399397 -40.132114 -23.629263 -125.12423
200809000 -23.714607 -136.48573 -0.1061426 -40.334011 -0.1042546 -40.333778 -23.555277 -125.31108
201808000 -23.657633 -136.7045 -0.10661666 -40.534912 -0.10566224 -40.539051 -23.486742 -125.3755
202807000 -23.597504 -137.02867 -0.10720088 -40.735123 -0.10683288 -40.738384 -23.436466 -125.5591
