!Keysight Technologies,E5080B,MY59205177,A.15.75.32
!Date: Friday, February 23, 2024 02:57:39
!Correction: S11(Cdelta 2-Port  ) 
!S21(Cdelta 2-Port  ) 
!S12(Cdelta 2-Port  ) 
!S22(Cdelta 2-Port  ) 
!S2P File: Measurements: S11, S21, S12, S22:
# Hz S  dB   R 50
10000000 -44.017212 -3.6374962 -0.028171495 -2.0417488 -0.031748157 -2.0960972 -48.173866 -149.52971
10999000 -43.410038 -5.2466784 -0.029139524 -2.2616787 -0.031275425 -2.3100412 -47.975906 -142.17282
11998000 -42.630489 -7.909534 -0.029701419 -2.479624 -0.031328615 -2.5247428 -48.004292 -136.40962
12997000 -41.982174 -12.549851 -0.028572751 -2.6586971 -0.030901294 -2.6934648 -47.436111 -129.96165
13996000 -41.769691 -15.76804 -0.028539659 -2.8382442 -0.031162011 -2.8639622 -47.022678 -124.33038
14995000 -41.449966 -19.263422 -0.030001944 -3.0480952 -0.030640854 -3.0731883 -46.436275 -121.03041
15994000 -41.349541 -23.158333 -0.031244921 -3.2672641 -0.033507332 -3.2911158 -46.297955 -117.10295
16993000 -41.318119 -27.236858 -0.030487308 -3.4613495 -0.032558411 -3.4712515 -45.325294 -118.05164
17992000 -41.411644 -31.669331 -0.031569801 -3.6610067 -0.032838527 -3.6647971 -44.748772 -119.09203
18991000 -41.631218 -36.205441 -0.03158284 -3.8709307 -0.033888992 -3.8690703 -44.035488 -118.4691
19990000 -41.520313 -41.424301 -0.034404539 -4.0791984 -0.03554203 -4.0752621 -43.336872 -120.4614
20989000 -41.427059 -44.197735 -0.036327932 -4.2842331 -0.037970409 -4.2717285 -42.759369 -120.44625
21988000 -41.346935 -48.684799 -0.037334334 -4.4795198 -0.038655154 -4.4679942 -42.463173 -119.23466
22987000 -41.133301 -53.051323 -0.038065985 -4.6799402 -0.039436396 -4.6717601 -42.195473 -119.45724
23986000 -41.122597 -56.789036 -0.03754374 -4.8736372 -0.038377795 -4.8689523 -42.060291 -119.28775
24985000 -40.874493 -59.615837 -0.039046932 -5.0821338 -0.038565047 -5.0788112 -41.778187 -116.65541
25984000 -40.623806 -61.551403 -0.039776258 -5.2898817 -0.038996 -5.2860494 -41.449169 -115.47096
26983000 -40.377514 -63.35284 -0.040672928 -5.4817119 -0.039853062 -5.504828 -41.307064 -114.92679
27982000 -40.165482 -64.595207 -0.041607421 -5.6830096 -0.041686352 -5.7160516 -41.012722 -113.15494
28981000 -40.19062 -65.895576 -0.039884411 -5.8820829 -0.041335363 -5.90768 -40.766182 -112.49599
29980000 -39.76841 -67.534714 -0.039132606 -6.0720701 -0.042402264 -6.081491 -40.441624 -111.93412
30979000 -39.443672 -66.787582 -0.037798587 -6.4314904 -0.036381185 -6.4201312 -39.931396 -112.62589
31978000 -39.269516 -67.732361 -0.036745347 -6.622613 -0.037612934 -6.6130238 -39.674156 -112.06622
32977000 -39.087288 -69.559845 -0.036583755 -6.8315649 -0.038140669 -6.8272004 -39.432098 -112.21062
33976000 -38.941921 -70.514244 -0.037565671 -7.0333843 -0.037895985 -7.0277648 -39.097797 -111.88306
34975000 -38.684196 -71.641556 -0.037601706 -7.2342257 -0.039646421 -7.2305555 -38.856915 -111.69726
35974000 -38.490906 -72.204308 -0.036780067 -7.4272051 -0.038850777 -7.4276524 -38.569 -110.84039
36973000 -38.265606 -73.152641 -0.036574356 -7.6264024 -0.040272642 -7.6291175 -38.261707 -110.0844
37972000 -38.105171 -73.055069 -0.036382489 -7.8341885 -0.03966758 -7.841392 -38.023399 -109.45312
38971000 -37.795506 -72.841423 -0.037604317 -8.0380564 -0.039647989 -8.048934 -37.84436 -107.91876
39970000 -37.457211 -73.580681 -0.036045764 -8.2348003 -0.038971446 -8.243865 -37.555298 -107.51397
40969000 -37.192398 -73.293396 -0.035781622 -8.4242249 -0.039331123 -8.4478846 -37.290684 -106.304
41968000 -36.850937 -73.616882 -0.036913473 -8.6313801 -0.038325824 -8.6447096 -37.08075 -105.18205
42967000 -36.573517 -73.756142 -0.036966208 -8.8377714 -0.038841635 -8.8584909 -36.826511 -103.3042
43966000 -36.317047 -74.572777 -0.036816094 -9.04356 -0.0402635 -9.0583048 -36.549076 -102.79965
44965000 -36.086617 -75.537567 -0.03834698 -9.241683 -0.040708203 -9.2599506 -36.341053 -102.54292
45964000 -35.889351 -76.735306 -0.039365083 -9.4432268 -0.042221382 -9.4622231 -36.082642 -102.43525
46963000 -35.695839 -78.811249 -0.039672546 -9.6359634 -0.041882373 -9.6603622 -35.898769 -102.98299
47962000 -35.567383 -80.251534 -0.040476177 -9.8429527 -0.043148886 -9.8548298 -35.70792 -103.10473
48961000 -35.357594 -81.774475 -0.043015029 -10.034103 -0.045220021 -10.054184 -35.47261 -103.38968
49960000 -35.142502 -83.146278 -0.04395761 -10.234497 -0.045940701 -10.25647 -35.33231 -103.54876
50959000 -34.95002 -84.521553 -0.044944596 -10.446 -0.047079913 -10.45515 -35.156776 -103.93161
51958000 -34.758465 -85.70842 -0.047295805 -10.647924 -0.049091134 -10.656325 -34.981735 -104.53675
52957000 -34.54874 -86.829956 -0.04850081 -10.844404 -0.049674995 -10.851433 -34.815544 -104.25916
53956000 -34.399483 -87.531937 -0.049269166 -11.049825 -0.050309211 -11.047223 -34.685532 -104.36185
54955000 -34.229198 -88.038261 -0.050448269 -11.248019 -0.05169528 -11.242429 -34.529686 -104.36717
55954000 -34.068684 -88.851753 -0.051275641 -11.447695 -0.051919259 -11.442855 -34.414715 -104.19263
56953000 -33.96883 -89.040619 -0.051331431 -11.646293 -0.050964735 -11.636516 -34.338604 -104.36282
57952000 -33.807087 -89.589066 -0.051596783 -11.843384 -0.051326193 -11.832177 -34.247059 -104.48302
58951000 -33.693775 -90.00721 -0.053331785 -12.047509 -0.052805867 -12.023988 -34.076729 -104.65918
59950000 -33.566471 -90.397415 -0.053258672 -12.247594 -0.053369522 -12.225528 -34.015354 -104.92819
60949000 -33.468616 -90.983627 -0.053609315 -12.447151 -0.054079764 -12.42957 -33.940849 -105.20065
61948000 -33.395218 -91.327126 -0.054548692 -12.648188 -0.053658321 -12.629441 -33.831482 -105.31715
62947000 -33.329498 -91.499985 -0.054649614 -12.8572 -0.054595876 -12.83759 -33.709965 -105.61443
63946000 -33.263054 -92.225952 -0.055213507 -13.055659 -0.05552524 -13.033626 -33.595669 -105.7368
64945000 -33.147739 -92.42823 -0.056013469 -13.257593 -0.056017138 -13.236079 -33.484978 -106.31798
65944000 -33.053978 -92.640732 -0.056936581 -13.458764 -0.056247111 -13.437865 -33.396088 -106.6806
66943000 -32.909805 -93.126213 -0.055006661 -13.655883 -0.054597449 -13.639103 -33.28344 -107.0227
67942000 -32.855736 -93.110443 -0.056633923 -13.850487 -0.056854751 -13.840779 -33.170353 -107.3868
68941000 -32.751286 -93.201866 -0.056248683 -14.047862 -0.056274645 -14.037542 -33.072346 -107.32141
69940000 -32.642555 -93.226418 -0.056717061 -14.242388 -0.056396849 -14.237023 -32.919926 -107.63271
70939000 -32.542786 -93.207268 -0.056267302 -14.445071 -0.056293789 -14.43257 -32.801411 -107.57759
71938000 -32.410885 -92.795013 -0.056244753 -14.639225 -0.05659065 -14.628593 -32.656166 -107.41708
72937000 -32.238422 -92.764748 -0.055530485 -14.837901 -0.056506731 -14.824538 -32.523548 -107.17336
73936000 -32.103355 -92.386658 -0.055426922 -15.037265 -0.055164482 -15.023128 -32.409637 -106.94547
74935000 -31.978828 -92.679436 -0.055335421 -15.230424 -0.05447818 -15.225573 -32.25584 -106.74964
75934000 -31.859415 -92.986496 -0.055482768 -15.440645 -0.054038353 -15.434569 -32.170166 -106.65376
76933000 -31.722549 -93.36895 -0.056537151 -15.630948 -0.055703271 -15.62388 -31.994963 -107.01793
77932000 -31.635239 -94.18206 -0.057360176 -15.82995 -0.057154536 -15.82038 -31.895594 -107.01271
78931000 -31.564976 -94.923103 -0.056256816 -16.026903 -0.056959398 -16.020744 -31.794336 -106.89613
79930000 -31.454016 -95.696304 -0.058721207 -16.215874 -0.058893073 -16.220694 -31.705242 -107.22934
80929000 -31.326462 -96.686188 -0.060703706 -16.412447 -0.060571667 -16.412119 -31.592737 -107.60795
81928000 -31.245708 -97.511055 -0.06044016 -16.606388 -0.060801622 -16.601919 -31.483456 -107.69923
82927000 -31.161232 -98.273094 -0.062313151 -16.806122 -0.06229398 -16.804092 -31.376793 -108.02907
83926000 -31.045918 -98.981339 -0.063084736 -17.002773 -0.062927939 -17.00531 -31.257399 -108.2597
84925000 -30.933596 -99.463249 -0.06448172 -17.202751 -0.063209757 -17.195768 -31.168062 -108.29002
85924000 -30.84977 -99.944496 -0.064663537 -17.400476 -0.064284153 -17.39592 -31.091005 -108.33003
86923000 -30.75705 -100.4521 -0.065099448 -17.601055 -0.064916827 -17.594488 -30.982668 -108.2141
87922000 -30.646576 -100.84756 -0.065817915 -17.80356 -0.064605996 -17.797049 -30.896765 -108.3718
88921000 -30.575514 -101.12098 -0.066403501 -18.004494 -0.065725937 -17.999031 -30.804132 -108.30386
89920000 -30.473633 -101.68658 -0.066697642 -18.201038 -0.06663876 -18.192814 -30.75462 -108.52522
90919000 -30.383701 -102.04904 -0.068151794 -18.392693 -0.067324884 -18.390446 -30.669811 -108.72258
91918000 -30.287975 -102.37039 -0.068436585 -18.597569 -0.067211047 -18.590553 -30.604059 -108.73248
92917000 -30.201971 -102.7757 -0.069614589 -18.793926 -0.068454467 -18.79291 -30.546642 -108.87279
93916000 -30.123156 -103.1671 -0.069109581 -18.990164 -0.068345331 -18.98385 -30.451355 -109.46826
94915000 -30.046114 -103.77541 -0.070509553 -19.190525 -0.069788992 -19.18432 -30.390041 -109.3456
95914000 -29.992058 -103.98341 -0.071203656 -19.385733 -0.070782922 -19.380301 -30.30205 -109.63503
96913000 -29.90638 -104.25661 -0.072515339 -19.5861 -0.071562327 -19.57815 -30.240976 -109.9942
97912000 -29.83094 -104.70439 -0.073269792 -19.777035 -0.071377859 -19.779196 -30.161879 -110.1845
98911000 -29.736107 -104.93463 -0.074428566 -19.980612 -0.07305444 -19.976141 -30.126768 -110.48731
99910000 -29.666224 -105.06291 -0.075007148 -20.179426 -0.073387206 -20.174278 -30.017097 -110.73913
100909000 -29.579853 -105.31993 -0.074099146 -20.388935 -0.072671428 -20.378674 -29.928694 -110.96677
101908000 -29.489613 -105.58327 -0.075764671 -20.589138 -0.074208423 -20.583471 -29.82209 -110.70287
102907000 -29.356718 -105.63651 -0.07551074 -20.785303 -0.073556758 -20.785496 -29.747072 -110.69612
103906000 -29.267168 -105.70364 -0.075979091 -20.995552 -0.072949931 -20.987581 -29.592278 -110.60722
104905000 -29.115938 -105.65163 -0.076547608 -21.191296 -0.073401421 -21.18782 -29.458452 -110.30505
105904000 -28.978491 -105.74149 -0.076710962 -21.387938 -0.073525161 -21.386503 -29.356491 -110.15446
106903000 -28.868723 -105.83739 -0.077057965 -21.597866 -0.074739844 -21.590122 -29.221422 -110.06473
107902000 -28.706448 -106.18768 -0.07755626 -21.797541 -0.074862562 -21.786757 -29.083185 -110.06215
108901000 -28.59013 -106.46592 -0.078602843 -21.992613 -0.075604513 -21.988588 -28.949915 -109.98562
109900000 -28.472614 -106.95879 -0.079265811 -22.197426 -0.077142283 -22.190157 -28.807302 -110.10648
110899000 -28.349644 -107.57439 -0.081030108 -22.394802 -0.077671684 -22.38497 -28.672588 -110.37453
111898000 -28.259018 -108.26495 -0.082296744 -22.59461 -0.079186462 -22.58815 -28.554253 -110.45679
112897000 -28.137383 -108.85053 -0.083916582 -22.795069 -0.080020912 -22.784086 -28.423845 -110.71848
113896000 -28.026054 -109.42298 -0.084812656 -22.994455 -0.081498258 -22.982422 -28.317091 -110.88826
114895000 -27.925817 -110.05231 -0.085503243 -23.189774 -0.083264776 -23.179878 -28.198631 -110.96622
115894000 -27.796431 -110.39806 -0.08680895 -23.392546 -0.08410766 -23.381071 -28.13616 -111.1583
116893000 -27.715746 -111.03721 -0.086763524 -23.586477 -0.084876269 -23.570089 -28.005554 -111.32378
117892000 -27.643604 -111.48466 -0.087306775 -23.782558 -0.084757484 -23.771749 -27.929676 -111.53861
118891000 -27.581097 -111.92662 -0.088079385 -23.985353 -0.086367421 -23.970163 -27.838276 -111.686
119890000 -27.488764 -112.2981 -0.088940643 -24.189482 -0.086277112 -24.171394 -27.821028 -111.81141
120889000 -27.437704 -112.84032 -0.090058424 -24.385443 -0.08626312 -24.366255 -27.743885 -111.77135
121888000 -27.399113 -113.12511 -0.089839071 -24.583317 -0.086548567 -24.56699 -27.684988 -112.04596
122887000 -27.36109 -113.33469 -0.091058053 -24.784811 -0.087643012 -24.77132 -27.639648 -112.08397
123886000 -27.300348 -113.77431 -0.091444016 -24.987701 -0.088220455 -24.969913 -27.628048 -112.3052
124885000 -27.268312 -114.29453 -0.091639921 -25.183889 -0.08811003 -25.167267 -27.593773 -112.35443
125884000 -27.220045 -114.45317 -0.092620082 -25.384409 -0.088855833 -25.36655 -27.570421 -112.5381
126883000 -27.18936 -114.84118 -0.093315616 -25.584112 -0.089266703 -25.572556 -27.523285 -112.55416
127882000 -27.142765 -115.11127 -0.092622198 -25.782814 -0.089951389 -25.768591 -27.483021 -112.72318
128881000 -27.110672 -115.45408 -0.093229659 -25.987608 -0.090218581 -25.969549 -27.440584 -112.86684
129880000 -27.054329 -115.75822 -0.093834296 -26.189371 -0.090266682 -26.169165 -27.399601 -112.86248
130879000 -26.991379 -115.91682 -0.093501285 -26.386736 -0.090970293 -26.370388 -27.319571 -112.89029
131878000 -26.924461 -116.20471 -0.094000146 -26.58757 -0.090932228 -26.570286 -27.263281 -112.82662
132877000 -26.856747 -116.25639 -0.093804404 -26.790859 -0.091334037 -26.767649 -27.177706 -112.79256
133876000 -26.776104 -116.41669 -0.094365738 -26.993034 -0.091190763 -26.972467 -27.08659 -112.71625
134875000 -26.675707 -116.51953 -0.094579495 -27.187786 -0.091595769 -27.170599 -26.976944 -112.61954
135874000 -26.603319 -116.57238 -0.094051994 -27.392126 -0.091636479 -27.37154 -26.879545 -112.60161
136873000 -26.483948 -116.5045 -0.093934551 -27.593729 -0.091482349 -27.570475 -26.793139 -112.54652
137872000 -26.403913 -116.63804 -0.094548807 -27.795057 -0.092391878 -27.77899 -26.682049 -112.48962
138871000 -26.334568 -116.81242 -0.095346786 -27.995033 -0.091950044 -27.975544 -26.589819 -112.67712
139870000 -26.236727 -117.05729 -0.09618672 -28.194218 -0.093759969 -28.172968 -26.510361 -112.83652
140869000 -26.150877 -117.5045 -0.09826716 -28.38866 -0.094991431 -28.366396 -26.398294 -112.98078
141868000 -26.054108 -118.06834 -0.098271929 -28.581587 -0.095448129 -28.563833 -26.333017 -113.31126
142867000 -25.975729 -118.27396 -0.096607551 -28.777811 -0.094576322 -28.762735 -26.253305 -113.50558
143866000 -25.905693 -118.80997 -0.097901508 -28.973629 -0.095852472 -28.959702 -26.184113 -113.99796
144865000 -25.847473 -119.33428 -0.099463083 -29.174507 -0.097255804 -29.155886 -26.124132 -114.31235
145864000 -25.7939 -119.64029 -0.099708349 -29.377241 -0.098130003 -29.364162 -26.087217 -114.57959
146863000 -25.748999 -120.0135 -0.10001747 -29.572701 -0.099168308 -29.560492 -26.03875 -114.85258
147862000 -25.709927 -120.39607 -0.10098522 -29.772154 -0.099224456 -29.754221 -26.006516 -115.24439
148861000 -25.67738 -120.89867 -0.10174066 -29.968349 -0.099223927 -29.953638 -25.979088 -115.47801
149860000 -25.668848 -121.07964 -0.10242254 -30.166742 -0.1000278 -30.152489 -25.951267 -115.66116
150859000 -25.64904 -121.45514 -0.10302475 -30.365475 -0.099930584 -30.35248 -25.949234 -115.90974
151858000 -25.630629 -121.77199 -0.1023258 -30.56687 -0.10044079 -30.555006 -25.932806 -116.16857
152857000 -25.610018 -122.09315 -0.10261682 -30.763199 -0.10107769 -30.747927 -25.919996 -116.3214
153856000 -25.604282 -122.32945 -0.10276419 -30.961042 -0.10041429 -30.947588 -25.934162 -116.58238
154855000 -25.60038 -122.51321 -0.10304198 -31.159201 -0.10091501 -31.148237 -25.925745 -116.82745
155854000 -25.614273 -122.7079 -0.10366972 -31.358799 -0.10114922 -31.346569 -25.918789 -117.10355
156853000 -25.594172 -123.44827 -0.10163201 -31.548088 -0.10043178 -31.537121 -25.915791 -117.4286
157852000 -25.602814 -123.68278 -0.10246548 -31.746918 -0.10165427 -31.738234 -25.900501 -117.75876
158851000 -25.599464 -123.86437 -0.10287128 -31.946991 -0.10187528 -31.936684 -25.888775 -117.99288
159850000 -25.580269 -124.02605 -0.10381448 -32.144661 -0.10233455 -32.134686 -25.88661 -118.19946
160849000 -25.567209 -124.14433 -0.10405203 -32.344105 -0.10270641 -32.33728 -25.860518 -118.48799
161848000 -25.545811 -124.24274 -0.10439513 -32.545464 -0.10255294 -32.537514 -25.812834 -118.54501
162847000 -25.498552 -124.44625 -0.1038675 -32.738514 -0.10357507 -32.736134 -25.79191 -118.79396
163846000 -25.459593 -124.66755 -0.10387599 -32.939018 -0.10324503 -32.933075 -25.708963 -118.83065
164845000 -25.396948 -124.65213 -0.1047539 -33.140587 -0.10400166 -33.131348 -25.644861 -118.90584
165844000 -25.350214 -124.7412 -0.10473322 -33.342525 -0.1037869 -33.335274 -25.561907 -119.05615
166843000 -25.280819 -124.84611 -0.10492017 -33.53883 -0.10358118 -33.531429 -25.491888 -119.25156
167842000 -25.22748 -124.98534 -0.10474515 -33.735214 -0.10421642 -33.728161 -25.408365 -119.17774
168841000 -25.147026 -125.15502 -0.10529464 -33.936012 -0.10436279 -33.929806 -25.333179 -119.21916
169840000 -25.084383 -125.39312 -0.10599804 -34.133415 -0.10448794 -34.130692 -25.246916 -119.45412
170839000 -25.014339 -125.69016 -0.10710854 -34.323414 -0.1058251 -34.32402 -25.160385 -119.62759
171838000 -24.961279 -126.08395 -0.1071839 -34.525944 -0.10585745 -34.517574 -25.094198 -119.87818
172837000 -24.890053 -126.5022 -0.10822782 -34.721054 -0.10692706 -34.718628 -25.025805 -120.11538
173836000 -24.822174 -126.92719 -0.10889002 -34.924225 -0.10765196 -34.9184 -24.984217 -120.34109
174835000 -24.770302 -127.33885 -0.10894152 -35.115883 -0.1089731 -35.117554 -24.939486 -120.67794
175834000 -24.716219 -127.71893 -0.11010136 -35.315121 -0.10951569 -35.311317 -24.87171 -120.95834
176833000 -24.664532 -128.07207 -0.11091202 -35.513515 -0.10986029 -35.509537 -24.817518 -121.09515
177832000 -24.615032 -128.56186 -0.11133242 -35.705261 -0.11014463 -35.710064 -24.794737 -121.29405
178831000 -24.579428 -128.9554 -0.11170106 -35.906391 -0.1114267 -35.902443 -24.75802 -121.5196
179830000 -24.539534 -129.36617 -0.11238743 -36.102951 -0.11153612 -36.101387 -24.731419 -121.64164
180829000 -24.504837 -129.60175 -0.11293735 -36.300468 -0.11204477 -36.30056 -24.704536 -121.81775
181828000 -24.483315 -129.96175 -0.11288847 -36.499344 -0.11200067 -36.495808 -24.688313 -121.94303
182827000 -24.456512 -130.29333 -0.11221503 -36.689522 -0.11259464 -36.690151 -24.669134 -122.01117
183826000 -24.414719 -130.58838 -0.11357078 -36.889156 -0.11258774 -36.886532 -24.662827 -122.13914
184825000 -24.422447 -130.93954 -0.11357716 -37.081734 -0.11293072 -37.084854 -24.652288 -122.25153
185824000 -24.391449 -131.27596 -0.1137722 -37.281315 -0.11377911 -37.287262 -24.643398 -122.31229
186823000 -24.383591 -131.6338 -0.11403156 -37.481922 -0.11400552 -37.477562 -24.644238 -122.28217
187822000 -24.357689 -131.94974 -0.11492138 -37.674854 -0.11406531 -37.672607 -24.610683 -122.35373
188821000 -24.344883 -132.19463 -0.11447591 -37.870853 -0.11467791 -37.870422 -24.591854 -122.472
189820000 -24.327826 -132.44852 -0.11496603 -38.072128 -0.11502929 -38.073097 -24.582693 -122.62041
190819000 -24.299246 -132.72089 -0.11590122 -38.274128 -0.11578106 -38.26823 -24.547026 -122.58087
191818000 -24.262379 -132.89951 -0.11697703 -38.465469 -0.1166675 -38.469143 -24.516537 -122.47051
192817000 -24.189631 -133.16084 -0.1175669 -38.649876 -0.1171818 -38.650478 -24.438293 -122.54424
193816000 -24.153625 -133.53207 -0.11701 -38.844162 -0.11548065 -38.842308 -24.390678 -122.78605
194815000 -24.10146 -133.96494 -0.11643803 -39.043674 -0.1162099 -39.044209 -24.32515 -122.91882
195814000 -24.04678 -134.18555 -0.11720015 -39.238327 -0.11657523 -39.238056 -24.276749 -123.0309
196813000 -23.994942 -134.54451 -0.11696959 -39.433537 -0.11613173 -39.436989 -24.196184 -123.18958
197812000 -23.937626 -134.77429 -0.11693342 -39.632133 -0.11641224 -39.63216 -24.128206 -123.30153
198811000 -23.884308 -134.96225 -0.11692438 -39.827877 -0.11661167 -39.831238 -24.056633 -123.47223
199810000 -23.809383 -135.3362 -0.11748312 -40.017597 -0.11572682 -40.015644 -23.977936 -123.59938
200809000 -23.754541 -135.62813 -0.11734509 -40.217194 -0.11676855 -40.22007 -23.901735 -123.76352
201808000 -23.696831 -135.86214 -0.11839944 -40.421741 -0.11813317 -40.422714 -23.834867 -123.83868
202807000 -23.635643 -136.20641 -0.1187466 -40.616615 -0.11857076 -40.619217 -23.776739 -124.04988
203806000 -23.587648 -136.6489 -0.12044796 -40.818787 -0.1191204 -40.822784 -23.711617 -124.21235
