!Keysight Technologies,E5080B,MY59205177,A.15.75.32
!Date: Friday, February 23, 2024 03:35:59
!Correction: S11(Cdelta 2-Port  ) 
!S21(Cdelta 2-Port  ) 
!S12(Cdelta 2-Port  ) 
!S22(Cdelta 2-Port  ) 
!S2P File: Measurements: S11, S21, S12, S22:
# Hz S  dB   R 50
10000000 -46.073284 -2.1227891 -0.014924283 -2.0417938 -0.017949875 -2.0976877 -45.861626 -157.8163
10999000 -45.296822 -4.3785105 -0.016048111 -2.2630506 -0.017696189 -2.3172958 -45.810413 -151.649
11998000 -44.359669 -7.4904065 -0.01689546 -2.4872463 -0.017585466 -2.5335879 -46.078182 -147.15463
12997000 -43.545712 -13.12805 -0.015572149 -2.6698515 -0.017211212 -2.6990833 -45.613632 -141.54585
13996000 -43.296677 -17.033978 -0.015153649 -2.8472629 -0.018207476 -2.8682518 -45.424469 -136.01758
14995000 -42.9095 -21.735071 -0.017701646 -3.0592451 -0.017794957 -3.0814164 -45.075783 -133.12518
15994000 -42.77943 -25.992294 -0.018855052 -3.275218 -0.019757297 -3.3024297 -45.027412 -129.5032
16993000 -42.70697 -30.699678 -0.017640566 -3.4754341 -0.019361533 -3.4840209 -44.178398 -128.6124
17992000 -42.724197 -36.327976 -0.017993804 -3.672652 -0.019562531 -3.672385 -43.55595 -128.94688
18991000 -42.927181 -41.461262 -0.018892489 -3.8851192 -0.020884976 -3.881021 -42.949497 -128.18384
19990000 -42.759666 -46.997044 -0.021168502 -4.0939894 -0.02254634 -4.0882378 -42.310204 -128.74783
20989000 -42.600243 -50.517242 -0.02365054 -4.2974296 -0.024737837 -4.2845111 -41.723328 -128.21054
21988000 -42.422039 -55.849091 -0.024505101 -4.4949269 -0.025440287 -4.4791822 -41.489765 -127.45446
22987000 -42.036091 -60.566479 -0.025538711 -4.6952038 -0.02683589 -4.6834884 -41.232281 -126.92487
23986000 -41.973064 -64.635246 -0.024617041 -4.8866425 -0.02443976 -4.8837314 -41.08448 -126.66373
24985000 -41.535423 -67.209579 -0.026032172 -5.0996008 -0.025666302 -5.0909586 -40.936424 -124.4864
25984000 -41.23484 -69.244087 -0.027207589 -5.3010182 -0.026777286 -5.3013086 -40.583607 -122.87131
26983000 -40.949364 -71.213013 -0.02764106 -5.5009146 -0.026900746 -5.5169187 -40.4566 -122.16561
27982000 -40.784054 -72.207901 -0.028942514 -5.6969395 -0.028375767 -5.7297869 -40.192318 -120.58054
28981000 -40.72253 -73.643089 -0.027172944 -5.8966694 -0.02873092 -5.9237447 -40.022781 -120.08597
29980000 -40.281834 -74.959297 -0.027210714 -6.0930734 -0.029137179 -6.0994825 -39.739544 -119.21922
30979000 -39.9114 -73.971268 -0.02504739 -6.4499645 -0.023110766 -6.4417615 -39.201332 -119.39254
31978000 -39.711697 -74.822876 -0.023300227 -6.6441889 -0.024977615 -6.6334853 -38.947502 -118.79967
32977000 -39.526192 -76.618065 -0.024098232 -6.8566713 -0.025472313 -6.8511682 -38.710106 -118.71088
33976000 -39.355919 -77.566933 -0.02479485 -7.0554895 -0.0258728 -7.045938 -38.450821 -118.26878
34975000 -39.082397 -78.332031 -0.02489222 -7.2516665 -0.02650303 -7.2502203 -38.201115 -117.85571
35974000 -38.838413 -78.87719 -0.02424166 -7.4514046 -0.025844676 -7.4556561 -37.927532 -116.89594
36973000 -38.616924 -79.680328 -0.024594914 -7.6471329 -0.02708438 -7.6548328 -37.680519 -116.0287
37972000 -38.467937 -79.244553 -0.023967043 -7.8567839 -0.027284432 -7.8698549 -37.436481 -115.33358
38971000 -38.137428 -78.623726 -0.025404355 -8.0569391 -0.02718753 -8.0729618 -37.280155 -113.69246
39970000 -37.825108 -79.171555 -0.023163596 -8.2597151 -0.025282759 -8.2674894 -37.024853 -113.13435
40969000 -37.521885 -78.664604 -0.022991838 -8.4527979 -0.025826707 -8.4709301 -36.788261 -111.64431
41968000 -37.172695 -78.716599 -0.023770267 -8.6580524 -0.026387133 -8.6768751 -36.602764 -110.43193
42967000 -36.925438 -78.843781 -0.024064913 -8.868681 -0.026701752 -8.8874102 -36.42112 -108.57492
43966000 -36.625874 -79.496765 -0.023953248 -9.0708828 -0.027713222 -9.0837622 -36.147789 -107.83109
44965000 -36.401459 -80.26474 -0.025293173 -9.2732601 -0.027942743 -9.2917871 -35.936615 -107.67114
45964000 -36.142231 -81.287704 -0.026327753 -9.4716196 -0.029228391 -9.4860601 -35.694653 -107.28189
46963000 -35.963295 -83.185455 -0.02614936 -9.6635437 -0.029677963 -9.6920366 -35.513435 -107.56498
47962000 -35.785049 -84.720932 -0.028144138 -9.8676739 -0.030730532 -9.8887653 -35.32629 -107.64959
48961000 -35.580608 -86.003464 -0.029630788 -10.064223 -0.031828731 -10.086851 -35.083271 -107.70271
49960000 -35.345062 -87.26635 -0.031268388 -10.265146 -0.033686027 -10.287608 -34.946751 -107.91665
50959000 -35.121269 -88.624557 -0.031761978 -10.477987 -0.034748442 -10.490596 -34.790825 -108.13868
51958000 -34.918148 -89.637848 -0.033865254 -10.679099 -0.035333768 -10.685566 -34.584541 -108.54344
52957000 -34.69067 -90.656693 -0.035367433 -10.878604 -0.036997277 -10.885842 -34.423317 -108.34769
53956000 -34.523621 -91.359863 -0.036862824 -11.078172 -0.037516061 -11.082679 -34.290504 -108.25888
54955000 -34.364151 -91.78376 -0.037636954 -11.280671 -0.038433421 -11.276812 -34.142277 -108.27555
55954000 -34.18539 -92.653564 -0.03886671 -11.479658 -0.038712874 -11.481921 -34.041229 -107.92458
56953000 -34.0769 -92.587234 -0.038837977 -11.678934 -0.037859689 -11.668698 -33.970379 -108.07838
57952000 -33.897141 -93.183846 -0.039709903 -11.876165 -0.038690671 -11.869363 -33.858196 -108.18349
58951000 -33.786919 -93.47805 -0.040486891 -12.081485 -0.039695796 -12.058837 -33.711792 -108.30811
59950000 -33.64677 -93.909279 -0.041186403 -12.281289 -0.040641051 -12.259789 -33.640762 -108.43856
60949000 -33.546162 -94.411804 -0.041830622 -12.482867 -0.040989108 -12.461264 -33.5406 -108.80953
61948000 -33.476315 -94.722855 -0.042476505 -12.682352 -0.041046336 -12.669687 -33.451622 -108.86091
62947000 -33.379436 -95.017387 -0.042697396 -12.895599 -0.042109247 -12.876225 -33.306915 -109.10778
63946000 -33.317436 -95.772629 -0.043324057 -13.093326 -0.042824708 -13.07593 -33.213219 -109.35582
64945000 -33.192783 -95.924248 -0.043286148 -13.296069 -0.043012936 -13.276986 -33.07745 -109.74799
65944000 -33.098236 -96.102539 -0.044338621 -13.498507 -0.043505512 -13.47842 -32.988468 -110.19473
66943000 -32.952602 -96.564331 -0.042648509 -13.696198 -0.041854668 -13.682779 -32.89592 -110.39003
67942000 -32.896984 -96.557579 -0.044566147 -13.89527 -0.043477535 -13.882426 -32.767487 -110.76774
68941000 -32.782063 -96.63018 -0.043972254 -14.092116 -0.04310941 -14.07664 -32.654388 -110.79361
69940000 -32.689911 -96.608192 -0.04399788 -14.283952 -0.043998141 -14.273603 -32.514458 -110.97758
70939000 -32.580452 -96.565269 -0.044649575 -14.482409 -0.043066531 -14.477489 -32.391399 -110.95171
71938000 -32.43705 -96.078751 -0.043937735 -14.67896 -0.043106794 -14.670337 -32.247845 -110.78648
72937000 -32.277508 -95.944206 -0.044155303 -14.880828 -0.043095551 -14.871175 -32.111294 -110.46941
73936000 -32.136776 -95.59861 -0.043358833 -15.082369 -0.04242187 -15.068207 -32.006931 -110.24377
74935000 -32.025154 -95.80722 -0.042616356 -15.275954 -0.041457411 -15.271524 -31.853043 -109.90889
75934000 -31.903957 -96.061058 -0.043364845 -15.484433 -0.041640092 -15.47536 -31.772499 -109.83413
76933000 -31.769846 -96.458344 -0.04379287 -15.679956 -0.042357042 -15.6684 -31.588747 -110.2561
77932000 -31.675186 -97.19017 -0.045622855 -15.875669 -0.044266444 -15.866516 -31.491869 -110.19088
78931000 -31.584024 -97.866829 -0.044439305 -16.0728 -0.043859027 -16.066078 -31.388706 -109.97289
79930000 -31.474112 -98.767914 -0.04624366 -16.261599 -0.045748685 -16.26642 -31.295467 -110.33427
80929000 -31.35894 -99.596756 -0.048300304 -16.46217 -0.047329303 -16.461866 -31.195549 -110.58034
81928000 -31.263048 -100.2466 -0.048086192 -16.65591 -0.047895387 -16.651369 -31.068674 -110.52139
82927000 -31.163586 -100.98681 -0.050242957 -16.851538 -0.049221776 -16.85087 -30.962078 -110.83973
83926000 -31.041834 -101.75031 -0.051025499 -17.052011 -0.050507978 -17.049234 -30.847721 -111.00188
84925000 -30.948996 -102.11164 -0.052270841 -17.253017 -0.050405581 -17.245735 -30.754019 -111.01531
85924000 -30.848209 -102.52977 -0.052956011 -17.451521 -0.052320622 -17.451464 -30.657705 -111.04855
86923000 -30.745167 -103.02717 -0.052967541 -17.649239 -0.052992694 -17.645432 -30.561554 -110.91972
87922000 -30.633846 -103.31364 -0.053024665 -17.857859 -0.052009117 -17.845509 -30.482586 -110.92603
88921000 -30.554832 -103.60403 -0.054097325 -18.053913 -0.053314488 -18.053692 -30.380754 -110.93533
89920000 -30.452734 -104.1046 -0.054584865 -18.254654 -0.053353798 -18.249819 -30.329227 -111.02971
90919000 -30.356806 -104.35169 -0.055783767 -18.448742 -0.054387484 -18.449953 -30.245949 -111.20017
91918000 -30.259481 -104.76549 -0.056780268 -18.651445 -0.054887641 -18.645887 -30.177813 -111.20787
92917000 -30.165308 -104.98262 -0.05715847 -18.849564 -0.054991193 -18.843733 -30.113588 -111.3353
93916000 -30.078089 -105.41843 -0.056847408 -19.042179 -0.055160288 -19.038082 -30.017956 -111.92254
94915000 -30.000013 -106.03393 -0.058342606 -19.244822 -0.056991659 -19.239468 -29.963018 -111.78931
95914000 -29.92977 -106.22631 -0.059811547 -19.441399 -0.057592582 -19.436581 -29.872459 -112.07725
96913000 -29.851892 -106.43549 -0.060697932 -19.638489 -0.058308497 -19.638779 -29.804373 -112.34484
97912000 -29.78021 -106.90836 -0.061547212 -19.833521 -0.059156526 -19.837248 -29.730322 -112.63568
98911000 -29.666471 -107.09325 -0.06227297 -20.039818 -0.060066655 -20.034746 -29.685829 -112.84731
99910000 -29.601973 -107.15985 -0.063223943 -20.237204 -0.060716044 -20.236237 -29.57922 -113.16235
100909000 -29.509903 -107.4378 -0.061555348 -20.444212 -0.059263326 -20.438179 -29.492924 -113.35265
101908000 -29.419159 -107.68209 -0.063417524 -20.649178 -0.060727593 -20.643822 -29.384867 -113.13084
102907000 -29.281565 -107.63319 -0.06412521 -20.844641 -0.061235569 -20.843546 -29.311161 -113.12237
103906000 -29.191284 -107.74828 -0.063423827 -21.055124 -0.060028076 -21.046633 -29.165169 -113.11942
104905000 -29.046263 -107.60297 -0.064881884 -21.248692 -0.061116643 -21.248165 -29.041349 -112.76247
105904000 -28.906139 -107.65704 -0.064876102 -21.452221 -0.061143421 -21.44829 -28.929363 -112.69102
106903000 -28.798422 -107.77573 -0.064725809 -21.658667 -0.061714198 -21.655939 -28.811424 -112.53662
107902000 -28.629562 -108.08673 -0.065253437 -21.857969 -0.06227297 -21.848682 -28.658394 -112.52727
108901000 -28.520451 -108.33233 -0.066799372 -22.059311 -0.063912943 -22.051228 -28.537821 -112.46208
109900000 -28.389315 -108.76263 -0.067321993 -22.26025 -0.065004848 -22.253935 -28.392546 -112.55053
110899000 -28.269112 -109.35291 -0.068842366 -22.457863 -0.065300994 -22.452518 -28.267509 -112.80305
111898000 -28.182968 -110.01186 -0.070365645 -22.660524 -0.066651642 -22.654869 -28.144623 -112.8961
112897000 -28.060812 -110.58162 -0.071559966 -22.860897 -0.067406908 -22.84701 -28.016541 -113.08998
113896000 -27.953363 -111.12348 -0.072872281 -23.059717 -0.069150083 -23.048811 -27.909805 -113.20966
114895000 -27.849993 -111.7772 -0.073294006 -23.257437 -0.07044825 -23.246193 -27.794704 -113.27434
115894000 -27.732872 -112.13076 -0.07458815 -23.457731 -0.071006306 -23.447496 -27.725168 -113.46368
116893000 -27.6502 -112.6051 -0.075727262 -23.658592 -0.072332673 -23.642153 -27.607681 -113.51171
117892000 -27.572662 -113.0811 -0.075156219 -23.850275 -0.072570615 -23.838781 -27.527605 -113.70472
118891000 -27.511961 -113.53091 -0.07688459 -24.053522 -0.072611943 -24.038492 -27.434284 -113.84313
119890000 -27.425474 -113.91072 -0.077335432 -24.252077 -0.074077033 -24.239927 -27.420506 -113.99788
120889000 -27.380335 -114.38653 -0.078624189 -24.454056 -0.073335342 -24.437344 -27.354481 -113.91289
121888000 -27.337358 -114.66763 -0.077758916 -24.652142 -0.074518368 -24.641474 -27.291897 -114.20249
122887000 -27.29887 -114.86138 -0.07849925 -24.857756 -0.075221278 -24.838369 -27.244986 -114.16429
123886000 -27.243473 -115.28006 -0.079357028 -25.054579 -0.075550519 -25.039654 -27.228449 -114.34641
124885000 -27.206133 -115.78563 -0.079857431 -25.257429 -0.075628482 -25.248028 -27.202003 -114.40844
125884000 -27.156944 -116.02386 -0.079830013 -25.453657 -0.076640084 -25.440422 -27.168764 -114.54208
126883000 -27.13636 -116.38552 -0.080808312 -25.660128 -0.077250056 -25.643692 -27.135532 -114.55799
127882000 -27.091618 -116.65493 -0.080664583 -25.855698 -0.07733807 -25.840134 -27.096457 -114.68591
128881000 -27.062761 -116.99554 -0.081194945 -26.058645 -0.077579454 -26.042667 -27.054695 -114.79267
129880000 -27.00909 -117.33176 -0.082295425 -26.260477 -0.077499077 -26.244835 -27.012823 -114.73428
130879000 -26.945126 -117.48012 -0.081348442 -26.458622 -0.078033 -26.445322 -26.945875 -114.76808
131878000 -26.881189 -117.69067 -0.081208393 -26.662725 -0.078308947 -26.647293 -26.888794 -114.6545
132877000 -26.819942 -117.75503 -0.081480585 -26.865589 -0.079143755 -26.850756 -26.804327 -114.63078
133876000 -26.734051 -117.96155 -0.082198344 -27.07073 -0.078557506 -27.046139 -26.720905 -114.50037
134875000 -26.638226 -118.04837 -0.082352936 -27.265993 -0.079434536 -27.251551 -26.618118 -114.34462
135874000 -26.561831 -118.09616 -0.082644723 -27.467491 -0.079252899 -27.449411 -26.53022 -114.23944
136873000 -26.450155 -118.08407 -0.082791157 -27.670034 -0.078885153 -27.654221 -26.446993 -114.23122
137872000 -26.370764 -118.14172 -0.082584836 -27.872217 -0.079816565 -27.855717 -26.341995 -114.14729
138871000 -26.297178 -118.35789 -0.082947619 -28.070623 -0.079509936 -28.055485 -26.245567 -114.31004
139870000 -26.19433 -118.63662 -0.082627051 -28.273098 -0.080952041 -28.253036 -26.171631 -114.51357
140869000 -26.120321 -119.22165 -0.085003242 -28.468227 -0.080925666 -28.449615 -26.069992 -114.7065
141868000 -26.039202 -119.55762 -0.086011484 -28.666441 -0.082960807 -28.652821 -26.022848 -114.95641
142867000 -25.956511 -119.77872 -0.08410687 -28.862167 -0.082109176 -28.847324 -25.941917 -115.03084
143866000 -25.884525 -120.24532 -0.085960522 -29.06292 -0.083702825 -29.043242 -25.868055 -115.52536
144865000 -25.825796 -120.75481 -0.087413482 -29.260387 -0.084932491 -29.248512 -25.811022 -115.82329
145864000 -25.772079 -121.08324 -0.088511579 -29.459522 -0.086262852 -29.451616 -25.776518 -116.05148
146863000 -25.730705 -121.45045 -0.088810652 -29.6632 -0.086521104 -29.649927 -25.726093 -116.37436
147862000 -25.68445 -121.76651 -0.090296015 -29.858299 -0.086433701 -29.846138 -25.691916 -116.661
148861000 -25.656961 -122.1972 -0.090328529 -30.057381 -0.088539846 -30.04524 -25.67589 -116.86002
149860000 -25.620625 -122.41165 -0.092181668 -30.248863 -0.089265116 -30.238857 -25.626484 -116.9396
150859000 -25.597609 -122.85095 -0.091439784 -30.450165 -0.089007229 -30.430836 -25.602999 -117.29932
151858000 -25.581818 -123.18686 -0.091305487 -30.645361 -0.088657148 -30.634197 -25.589741 -117.65038
152857000 -25.567511 -123.52808 -0.091969609 -30.846457 -0.088034481 -30.836473 -25.574516 -117.84209
153856000 -25.570356 -123.71706 -0.090852663 -31.04895 -0.087616071 -31.032501 -25.591024 -118.13453
154855000 -25.572454 -123.90887 -0.091821551 -31.24604 -0.087583318 -31.236965 -25.579882 -118.35878
155854000 -25.577585 -124.15144 -0.092106573 -31.445263 -0.088620953 -31.435209 -25.570379 -118.66093
156853000 -25.56752 -124.84773 -0.090139821 -31.636229 -0.087392092 -31.626686 -25.5655 -118.95523
157852000 -25.569395 -125.03242 -0.090680063 -31.83441 -0.089136168 -31.826815 -25.554214 -119.3117
158851000 -25.569414 -125.26395 -0.091484204 -32.036278 -0.089464881 -32.025467 -25.53758 -119.54182
159850000 -25.557535 -125.37252 -0.092145175 -32.233166 -0.089607574 -32.227562 -25.534618 -119.77132
160849000 -25.545349 -125.45265 -0.091994464 -32.432693 -0.090549484 -32.428928 -25.506449 -120.06369
161848000 -25.527916 -125.56847 -0.092693068 -32.635494 -0.090095423 -32.628048 -25.46594 -120.16822
162847000 -25.486286 -125.74802 -0.092695713 -32.835266 -0.090594947 -32.833107 -25.43615 -120.43275
163846000 -25.448122 -125.94603 -0.092954881 -33.03931 -0.09095972 -33.027195 -25.363667 -120.42451
164845000 -25.389761 -125.91474 -0.093248442 -33.233753 -0.091255262 -33.226616 -25.298323 -120.5185
165844000 -25.333738 -125.97175 -0.093145825 -33.433537 -0.091651283 -33.426346 -25.224743 -120.64584
166843000 -25.271057 -125.99582 -0.093250558 -33.633072 -0.091507204 -33.626987 -25.154388 -120.79927
167842000 -25.215502 -126.10979 -0.093117788 -33.835819 -0.091919377 -33.826431 -25.079361 -120.72948
168841000 -25.136524 -126.2888 -0.094147757 -34.029087 -0.09262114 -34.026474 -25.003225 -120.79339
169840000 -25.068146 -126.50031 -0.094091147 -34.226757 -0.093019143 -34.224331 -24.919388 -120.98055
170839000 -25.011124 -126.74886 -0.094765216 -34.425453 -0.092696771 -34.424091 -24.840652 -121.15816
171838000 -24.956688 -127.15782 -0.094541401 -34.627514 -0.093499169 -34.621487 -24.773119 -121.38865
172837000 -24.890312 -127.4854 -0.096042223 -34.821541 -0.09472236 -34.818565 -24.709578 -121.59425
173836000 -24.815674 -127.90212 -0.097485326 -35.023407 -0.095690258 -35.019978 -24.668518 -121.78963
174835000 -24.763891 -128.28979 -0.097924806 -35.218414 -0.09621954 -35.220142 -24.623547 -122.13177
175834000 -24.716993 -128.64616 -0.098545454 -35.420712 -0.097631462 -35.416084 -24.565889 -122.38454
176833000 -24.662882 -128.99937 -0.099811919 -35.619785 -0.098231941 -35.616779 -24.515856 -122.53245
177832000 -24.614273 -129.41205 -0.10095528 -35.816971 -0.099102102 -35.816929 -24.494923 -122.6144
178831000 -24.57555 -129.66556 -0.10240585 -36.014339 -0.10066172 -36.01263 -24.454035 -122.71364
179830000 -24.501823 -129.99431 -0.10351118 -36.19453 -0.10234754 -36.199036 -24.395323 -122.76769
180829000 -24.4557 -130.39882 -0.10238995 -36.389133 -0.10063153 -36.391167 -24.350662 -123.09276
181828000 -24.433146 -130.80534 -0.10195848 -36.591091 -0.099853501 -36.587425 -24.333994 -123.31468
182827000 -24.408606 -131.18347 -0.10167573 -36.791882 -0.10054331 -36.788589 -24.319368 -123.42616
183826000 -24.367189 -131.52208 -0.10256513 -36.987068 -0.10046621 -36.987915 -24.308828 -123.57972
184825000 -24.375328 -131.83934 -0.10246734 -37.183231 -0.1011063 -37.185738 -24.292395 -123.71249
185824000 -24.345108 -132.21097 -0.10187156 -37.37756 -0.1017449 -37.376999 -24.28898 -123.74563
186823000 -24.325146 -132.58107 -0.10210689 -37.583225 -0.10120699 -37.576969 -24.278906 -123.75925
187822000 -24.306725 -132.90361 -0.1027467 -37.772789 -0.10147832 -37.777725 -24.23926 -123.84401
188821000 -24.278046 -133.14734 -0.10258289 -37.96632 -0.10179047 -37.974789 -24.222551 -123.96757
189820000 -24.261698 -133.48697 -0.10304516 -38.168701 -0.10154748 -38.170609 -24.203697 -124.16437
190819000 -24.227961 -133.79071 -0.10378557 -38.366455 -0.102197 -38.369522 -24.167551 -124.18153
191818000 -24.20022 -134.09637 -0.10349316 -38.563587 -0.10256858 -38.566513 -24.14357 -124.2263
192817000 -24.154816 -134.35936 -0.10449642 -38.757999 -0.10260198 -38.763783 -24.096939 -124.31374
193816000 -24.121428 -134.60089 -0.10433547 -38.958927 -0.10276154 -38.956963 -24.04558 -124.44468
194815000 -24.064541 -135.00955 -0.10483637 -39.151756 -0.10348733 -39.154781 -23.983488 -124.51641
195814000 -24.006994 -135.19035 -0.10559858 -39.350651 -0.10362306 -39.352524 -23.925644 -124.60589
196813000 -23.953419 -135.51218 -0.10474701 -39.543537 -0.10363261 -39.546318 -23.845219 -124.78403
197812000 -23.891123 -135.7421 -0.1055413 -39.742138 -0.10377683 -39.73978 -23.774645 -124.87651
198811000 -23.839861 -135.89026 -0.10567948 -39.941948 -0.10381209 -39.941376 -23.709095 -125.0465
199810000 -23.768641 -136.256 -0.10593862 -40.136482 -0.10380255 -40.131912 -23.630444 -125.15224
200809000 -23.71553 -136.50896 -0.10670951 -40.333904 -0.10460249 -40.333031 -23.552963 -125.28867
201808000 -23.65687 -136.71228 -0.10680555 -40.535828 -0.10557206 -40.534187 -23.485121 -125.35954
202807000 -23.601307 -137.04541 -0.10783532 -40.734406 -0.10595984 -40.739292 -23.434443 -125.55692
