!Keysight Technologies,E5080B,MY59205177,A.15.75.32
!Date: Friday, February 23, 2024 02:57:46
!Correction: S11(Cdelta 2-Port  ) 
!S21(Cdelta 2-Port  ) 
!S12(Cdelta 2-Port  ) 
!S22(Cdelta 2-Port  ) 
!S2P File: Measurements: S11, S21, S12, S22:
# Hz S  dB   R 50
10000000 -44.018402 -3.8051283 -0.028417716 -2.0412581 -0.03130541 -2.0967226 -48.256847 -150.06772
10999000 -43.410568 -5.3725028 -0.029820271 -2.2594998 -0.030631209 -2.3110943 -48.000492 -141.90321
11998000 -42.636211 -7.8605261 -0.030254785 -2.4806464 -0.030839507 -2.5257232 -48.126492 -136.79135
12997000 -41.979164 -12.50963 -0.029160112 -2.66048 -0.029772835 -2.6917417 -47.461575 -130.34677
13996000 -41.751156 -15.887396 -0.028587082 -2.8393147 -0.030002205 -2.8580863 -46.97826 -124.61235
14995000 -41.432926 -19.513105 -0.031156274 -3.0477765 -0.030029051 -3.0744042 -46.506031 -121.00093
15994000 -41.344604 -23.325109 -0.031775534 -3.2687342 -0.032758456 -3.2908487 -46.30315 -117.66431
16993000 -41.327194 -27.195894 -0.030669531 -3.4626596 -0.031536166 -3.4711506 -45.352692 -118.10047
17992000 -41.401924 -31.734688 -0.031723123 -3.660821 -0.032688294 -3.6671278 -44.751366 -119.10558
18991000 -41.700504 -36.046234 -0.032413665 -3.8722532 -0.033044845 -3.8703327 -43.990868 -118.58613
19990000 -41.549084 -41.192009 -0.034513082 -4.0814629 -0.035369784 -4.0779333 -43.299019 -120.41757
20989000 -41.446999 -43.947468 -0.036315925 -4.2810569 -0.037321802 -4.2705808 -42.764378 -120.05225
21988000 -41.343941 -48.813953 -0.037806682 -4.4788456 -0.038615454 -4.4670396 -42.412029 -119.53913
22987000 -41.138401 -53.191971 -0.038323998 -4.6794205 -0.039194249 -4.6726809 -42.193798 -119.3669
23986000 -41.210865 -56.584747 -0.038575236 -4.8697276 -0.038331833 -4.8710184 -42.049381 -119.22353
24985000 -40.86462 -59.61237 -0.039532263 -5.0810475 -0.038392942 -5.0769162 -41.79018 -116.90704
25984000 -40.614307 -61.715126 -0.039812829 -5.2864671 -0.038564786 -5.2899079 -41.42815 -115.61792
26983000 -40.35247 -63.507381 -0.041493215 -5.4853158 -0.039918374 -5.5026979 -41.3074 -114.94025
27982000 -40.163639 -64.342575 -0.041589651 -5.6818633 -0.041049734 -5.71803 -41.031898 -112.86577
28981000 -40.151875 -65.754883 -0.040390741 -5.8833489 -0.041565605 -5.9069085 -40.795799 -112.76585
29980000 -39.793091 -67.689919 -0.039945543 -6.0708838 -0.041269768 -6.079927 -40.421623 -111.93504
30979000 -39.429012 -66.724777 -0.03789651 -6.4282079 -0.03672133 -6.4186687 -39.930943 -112.7271
31978000 -39.253551 -67.903664 -0.037200134 -6.6228924 -0.037375066 -6.6145611 -39.666069 -112.15225
32977000 -39.096413 -69.40033 -0.037739314 -6.8343139 -0.037397783 -6.8274503 -39.407734 -112.28731
33976000 -38.97393 -70.604332 -0.038087919 -7.0315008 -0.037976936 -7.0299273 -39.102451 -111.76511
34975000 -38.656815 -71.611336 -0.038386937 -7.2329674 -0.039228991 -7.2324123 -38.862728 -111.67136
35974000 -38.500954 -72.430656 -0.037134603 -7.4294 -0.038978238 -7.4316626 -38.555294 -110.83832
36973000 -38.26239 -73.087204 -0.03730927 -7.627233 -0.039714083 -7.6326971 -38.258415 -110.24727
37972000 -38.107105 -73.06115 -0.03753721 -7.8363643 -0.040140964 -7.8437576 -38.018204 -109.41756
38971000 -37.783901 -72.913445 -0.038497146 -8.0358248 -0.039783571 -8.0496197 -37.833092 -107.9205
39970000 -37.471836 -73.399933 -0.036357168 -8.2310877 -0.037996002 -8.2424355 -37.541397 -107.4835
40969000 -37.187527 -73.36747 -0.036616907 -8.4241085 -0.038370222 -8.4470091 -37.275105 -106.18011
41968000 -36.839264 -73.604012 -0.036246751 -8.6287069 -0.039235782 -8.6448689 -37.063889 -105.12296
42967000 -36.586182 -73.785706 -0.036762837 -8.8450117 -0.038765632 -8.8603506 -36.846527 -103.29852
43966000 -36.311264 -74.667007 -0.037320238 -9.043808 -0.039960697 -9.0590687 -36.551163 -102.7311
44965000 -36.080688 -75.607826 -0.037899382 -9.2413111 -0.040803056 -9.2616415 -36.320957 -102.71385
45964000 -35.89283 -76.753517 -0.039473228 -9.4448776 -0.041516732 -9.4612284 -36.098213 -102.55536
46963000 -35.701553 -78.695473 -0.039889116 -9.6391306 -0.042190276 -9.6569557 -35.911526 -102.88813
47962000 -35.569046 -80.244881 -0.04177051 -9.836772 -0.04334759 -9.8555088 -35.705914 -103.08204
48961000 -35.356331 -81.665787 -0.04315307 -10.033958 -0.044753145 -10.056527 -35.465847 -103.49982
49960000 -35.132233 -83.031342 -0.044032659 -10.233926 -0.045916371 -10.256615 -35.325733 -103.59264
50959000 -34.947918 -84.436829 -0.045768563 -10.445729 -0.047377191 -10.456006 -35.158062 -103.97395
51958000 -34.753139 -85.662292 -0.046769045 -10.647534 -0.048550811 -10.654896 -34.978516 -104.53856
52957000 -34.550003 -86.766029 -0.048949763 -10.845259 -0.049908035 -10.85239 -34.807301 -104.3265
53956000 -34.392971 -87.483353 -0.049539626 -11.047861 -0.050315496 -11.04792 -34.674156 -104.48042
54955000 -34.235538 -88.070831 -0.05050955 -11.247765 -0.05153732 -11.242646 -34.515614 -104.47485
55954000 -34.08065 -88.910973 -0.051305499 -11.447243 -0.050933305 -11.443386 -34.413284 -104.14502
56953000 -33.966652 -88.999077 -0.051540464 -11.647805 -0.050297163 -11.632874 -34.343517 -104.40645
57952000 -33.805996 -89.683411 -0.051365223 -11.841148 -0.052122295 -11.829493 -34.254765 -104.50973
58951000 -33.689121 -89.961838 -0.053122669 -12.046173 -0.053134199 -12.027214 -34.084946 -104.669
59950000 -33.561985 -90.350929 -0.053403851 -12.251898 -0.053388651 -12.222943 -34.016872 -104.95432
60949000 -33.464813 -90.994202 -0.054686837 -12.445554 -0.054027606 -12.424821 -33.934372 -105.22791
61948000 -33.395702 -91.315254 -0.055164222 -12.647773 -0.053350128 -12.626544 -33.838619 -105.36472
62947000 -33.326298 -91.513245 -0.054843862 -12.854449 -0.054278705 -12.83605 -33.706535 -105.59772
63946000 -33.24469 -92.342209 -0.056106031 -13.057716 -0.055841193 -13.035316 -33.598412 -105.88548
64945000 -33.147099 -92.43145 -0.05684321 -13.258135 -0.05544816 -13.236263 -33.485184 -106.26921
65944000 -33.040806 -92.763535 -0.057268109 -13.456747 -0.05593323 -13.437414 -33.39695 -106.77663
66943000 -32.91687 -93.124466 -0.05450413 -13.658011 -0.054372281 -13.640291 -33.2971 -107.03902
67942000 -32.853794 -93.131699 -0.057156898 -13.854598 -0.056212235 -13.83969 -33.177971 -107.34114
68941000 -32.742928 -93.198135 -0.056627892 -14.045053 -0.055232648 -14.037393 -33.063534 -107.29308
69940000 -32.640331 -93.274879 -0.056615304 -14.245122 -0.057196502 -14.238003 -32.923702 -107.6911
70939000 -32.540367 -93.301399 -0.056455329 -14.439521 -0.055358753 -14.437065 -32.803326 -107.63301
71938000 -32.390163 -92.883942 -0.057128306 -14.638098 -0.056013729 -14.629876 -32.667263 -107.42689
72937000 -32.233086 -92.73774 -0.055912778 -14.834848 -0.054766528 -14.828629 -32.516216 -107.20545
73936000 -32.10231 -92.441246 -0.05597125 -15.035157 -0.054817121 -15.020213 -32.401905 -107.08227
74935000 -31.968988 -92.680557 -0.055016361 -15.227514 -0.053729344 -15.223887 -32.246391 -106.63638
75934000 -31.848944 -92.987122 -0.054843862 -15.439788 -0.053742711 -15.433582 -32.169975 -106.68194
76933000 -31.723841 -93.340714 -0.056456119 -15.632106 -0.055576108 -15.623409 -31.991976 -106.97795
77932000 -31.628315 -94.161011 -0.057730038 -15.828306 -0.057414472 -15.821227 -31.893169 -107.07619
78931000 -31.570129 -94.907532 -0.056143269 -16.028044 -0.056108654 -16.024042 -31.796597 -107.0006
79930000 -31.445024 -95.751778 -0.058798611 -16.217997 -0.059345987 -16.212748 -31.697212 -107.18885
80929000 -31.324894 -96.67308 -0.060859375 -16.410198 -0.060319416 -16.4109 -31.592102 -107.61395
81928000 -31.252825 -97.515816 -0.060818423 -16.606489 -0.060469035 -16.602774 -31.471937 -107.68732
82927000 -31.162918 -98.275764 -0.062397707 -16.805096 -0.061357386 -16.801119 -31.371437 -108.02399
83926000 -31.048801 -98.966141 -0.064189047 -16.998798 -0.062893532 -17.00132 -31.252979 -108.27481
84925000 -30.943478 -99.487907 -0.064191937 -17.197966 -0.06319584 -17.198236 -31.166 -108.35358
85924000 -30.856197 -99.974792 -0.065559052 -17.404039 -0.064711884 -17.393497 -31.081081 -108.35773
86923000 -30.754663 -100.48515 -0.065653399 -17.598234 -0.064874262 -17.592279 -30.98106 -108.29062
87922000 -30.648712 -100.87474 -0.065701231 -17.804945 -0.064415514 -17.796717 -30.89187 -108.33492
88921000 -30.577639 -101.12305 -0.066323861 -18.003942 -0.065022983 -17.998281 -30.797985 -108.32181
89920000 -30.481813 -101.72235 -0.067190543 -18.200871 -0.065568775 -18.191936 -30.753477 -108.50515
90919000 -30.384272 -102.01835 -0.067767896 -18.394003 -0.066318341 -18.389954 -30.668289 -108.66786
91918000 -30.290546 -102.39119 -0.068620406 -18.592115 -0.066725768 -18.592453 -30.595169 -108.75807
92917000 -30.203766 -102.74921 -0.069531471 -18.797031 -0.068247773 -18.789476 -30.538036 -108.85658
93916000 -30.126358 -103.11543 -0.068788715 -18.985027 -0.067614876 -18.982559 -30.453966 -109.47374
94915000 -30.053137 -103.79768 -0.070456408 -19.190052 -0.069314994 -19.182423 -30.386503 -109.36259
95914000 -29.987181 -103.98116 -0.07180839 -19.383993 -0.070045479 -19.377472 -30.300146 -109.63315
96913000 -29.90296 -104.22565 -0.072993897 -19.582838 -0.070711091 -19.579727 -30.238348 -109.95631
97912000 -29.831139 -104.70594 -0.073824786 -19.777552 -0.071074195 -19.778936 -30.155714 -110.21394
98911000 -29.73867 -104.94488 -0.073983029 -19.979717 -0.072862014 -19.976227 -30.118431 -110.48714
99910000 -29.665653 -105.06091 -0.075124092 -20.177708 -0.072870702 -20.1761 -30.011303 -110.72782
100909000 -29.574165 -105.31869 -0.074117579 -20.387928 -0.072420321 -20.379749 -29.922276 -110.93861
101908000 -29.483919 -105.55509 -0.075304769 -20.587709 -0.073351927 -20.580336 -29.81509 -110.70995
102907000 -29.352673 -105.63859 -0.075146474 -20.787796 -0.073747642 -20.786974 -29.742571 -110.62199
103906000 -29.259596 -105.69029 -0.076141894 -20.991396 -0.073312961 -20.986164 -29.593498 -110.65444
104905000 -29.12043 -105.57686 -0.076872736 -21.188143 -0.073781081 -21.190718 -29.461143 -110.29867
105904000 -28.971775 -105.75015 -0.076622434 -21.390888 -0.073556229 -21.382637 -29.349264 -110.20203
106903000 -28.871202 -105.84499 -0.076925427 -21.595598 -0.074435413 -21.592325 -29.227184 -110.11584
107902000 -28.706102 -106.19125 -0.077700414 -21.791727 -0.07486783 -21.788635 -29.083874 -110.04614
108901000 -28.594959 -106.39613 -0.078873552 -21.998938 -0.076756537 -21.992439 -28.951996 -110.01965
109900000 -28.465258 -106.91139 -0.079499394 -22.195553 -0.077157833 -22.189631 -28.797558 -110.10997
110899000 -28.346886 -107.5902 -0.080752403 -22.393166 -0.07787092 -22.383951 -28.665741 -110.38938
111898000 -28.257233 -108.25834 -0.081699513 -22.594515 -0.078658983 -22.589979 -28.554977 -110.56606
112897000 -28.130466 -108.80665 -0.083866179 -22.794292 -0.080352619 -22.781937 -28.420088 -110.75668
113896000 -28.026199 -109.41074 -0.084528372 -22.995255 -0.081365854 -22.983295 -28.310972 -110.87721
114895000 -27.929722 -110.09555 -0.085581653 -23.191864 -0.08236824 -23.177835 -28.201468 -111.03062
115894000 -27.800194 -110.45187 -0.086944163 -23.395012 -0.084194228 -23.377577 -28.131176 -111.16989
116893000 -27.727133 -111.01169 -0.087753423 -23.585344 -0.084699944 -23.569094 -27.995054 -111.29877
117892000 -27.647491 -111.55649 -0.087540261 -23.780949 -0.085323721 -23.770493 -27.930969 -111.49699
118891000 -27.581015 -111.93088 -0.087925121 -23.987837 -0.084715255 -23.972876 -27.835426 -111.64848
119890000 -27.491714 -112.3175 -0.088745393 -24.186935 -0.086137429 -24.175428 -27.819099 -111.82545
120889000 -27.437914 -112.80763 -0.089719094 -24.38772 -0.086336523 -24.369709 -27.739628 -111.79633
121888000 -27.400167 -113.14218 -0.08973442 -24.580019 -0.087213017 -24.566681 -27.686817 -112.08823
122887000 -27.355438 -113.36102 -0.09083654 -24.785519 -0.087188721 -24.770248 -27.63784 -112.11812
123886000 -27.303621 -113.77402 -0.091534428 -24.986673 -0.087495625 -24.968689 -27.627342 -112.26076
124885000 -27.262114 -114.29901 -0.092057131 -25.183771 -0.088269591 -25.172405 -27.593435 -112.34514
125884000 -27.215052 -114.45541 -0.09242335 -25.384398 -0.088039503 -25.366199 -27.565029 -112.54563
126883000 -27.192421 -114.86742 -0.092655517 -25.585403 -0.088930078 -25.573645 -27.521709 -112.58817
127882000 -27.145504 -115.14807 -0.092347987 -25.782534 -0.09022519 -25.767183 -27.478559 -112.76735
128881000 -27.115845 -115.51747 -0.093514509 -25.984261 -0.090120792 -25.970045 -27.438454 -112.86448
129880000 -27.053003 -115.78439 -0.094340339 -26.188601 -0.089616299 -26.169544 -27.401512 -112.82588
130879000 -26.991934 -115.95991 -0.093280971 -26.384663 -0.090920068 -26.370028 -27.320013 -112.9348
131878000 -26.927536 -116.15316 -0.093955971 -26.591684 -0.090813279 -26.569586 -27.254971 -112.80315
132877000 -26.861069 -116.2491 -0.09361925 -26.789696 -0.090621643 -26.770655 -27.178278 -112.81068
133876000 -26.777208 -116.43962 -0.094034009 -26.991896 -0.090553187 -26.971132 -27.081682 -112.71056
134875000 -26.676962 -116.53384 -0.094098821 -27.189259 -0.091447189 -27.169577 -26.975252 -112.58823
135874000 -26.598612 -116.58024 -0.094835065 -27.388981 -0.091668472 -27.373596 -26.872955 -112.53687
136873000 -26.486101 -116.46228 -0.094949894 -27.589035 -0.090716533 -27.575388 -26.792654 -112.57183
137872000 -26.40624 -116.63271 -0.095271371 -27.794489 -0.091023691 -27.77738 -26.688061 -112.5107
138871000 -26.332306 -116.8131 -0.095442042 -27.98992 -0.091565363 -27.979696 -26.592539 -112.71786
139870000 -26.237089 -117.05161 -0.096351609 -28.191647 -0.092958577 -28.174223 -26.510984 -112.86828
140869000 -26.145184 -117.53979 -0.098498322 -28.388556 -0.095061548 -28.366236 -26.396914 -112.98112
141868000 -26.048492 -118.02899 -0.097853325 -28.576752 -0.0959967 -28.565376 -26.33337 -113.33342
142867000 -25.97657 -118.26892 -0.096514381 -28.776909 -0.094490074 -28.760647 -26.248999 -113.52017
143866000 -25.906385 -118.79523 -0.0981263 -28.97477 -0.095480144 -28.959019 -26.180189 -114.01613
144865000 -25.850965 -119.3399 -0.099740662 -29.17404 -0.097219802 -29.1563 -26.124552 -114.32957
145864000 -25.793198 -119.62549 -0.099677093 -29.377172 -0.098567173 -29.360849 -26.089888 -114.56721
146863000 -25.755543 -120.03255 -0.10105623 -29.571735 -0.098248623 -29.55995 -26.043777 -114.90932
147862000 -25.707403 -120.38268 -0.10131033 -29.769619 -0.099186324 -29.757092 -26.003258 -115.25451
148861000 -25.679874 -120.92812 -0.10251743 -29.966902 -0.099883698 -29.951197 -25.986156 -115.49738
149860000 -25.664001 -121.09312 -0.10242731 -30.165438 -0.099492483 -30.154303 -25.948116 -115.64904
150859000 -25.64889 -121.47609 -0.10292429 -30.365643 -0.10016422 -30.349136 -25.949902 -115.93134
151858000 -25.627768 -121.79036 -0.10296617 -30.564106 -0.10049324 -30.547451 -25.935493 -116.17115
152857000 -25.604353 -122.10651 -0.10284106 -30.762022 -0.10048264 -30.748091 -25.920965 -116.31277
153856000 -25.603825 -122.32892 -0.10273715 -30.95962 -0.10047999 -30.943233 -25.935522 -116.64967
154855000 -25.598772 -122.45935 -0.10350058 -31.159256 -0.10024766 -31.146036 -25.924925 -116.84779
155854000 -25.608309 -122.74805 -0.1035255 -31.361858 -0.10061616 -31.346867 -25.915274 -117.11519
156853000 -25.598225 -123.45383 -0.1019887 -31.54653 -0.099702261 -31.537785 -25.909887 -117.38414
157852000 -25.600731 -123.6538 -0.10302872 -31.745752 -0.10122236 -31.738951 -25.90085 -117.76121
158851000 -25.597975 -123.91843 -0.10349793 -31.947929 -0.10182598 -31.937651 -25.885712 -118.02906
159850000 -25.581327 -124.01936 -0.10434607 -32.143726 -0.10185354 -32.13633 -25.88187 -118.15366
160849000 -25.561474 -124.15845 -0.10457014 -32.342037 -0.10259721 -32.335003 -25.854887 -118.48885
161848000 -25.54571 -124.26675 -0.10465658 -32.539833 -0.10278805 -32.533337 -25.814554 -118.5667
162847000 -25.500072 -124.46584 -0.10412256 -32.735367 -0.10309207 -32.73521 -25.784515 -118.83502
163846000 -25.456839 -124.67924 -0.10486554 -32.941841 -0.10254234 -32.9324 -25.707127 -118.80934
164845000 -25.39901 -124.65576 -0.10553678 -33.13829 -0.1032901 -33.132618 -25.640944 -118.9241
165844000 -25.345524 -124.7573 -0.1051387 -33.339344 -0.10355467 -33.328434 -25.556091 -119.06071
166843000 -25.282938 -124.83187 -0.10527422 -33.538589 -0.10376383 -33.533207 -25.490818 -119.2508
167842000 -25.218275 -124.96799 -0.1053376 -33.734776 -0.10491116 -33.7257 -25.404991 -119.15074
168841000 -25.142756 -125.16786 -0.10605639 -33.930908 -0.10408252 -33.927986 -25.331812 -119.24265
169840000 -25.081762 -125.42651 -0.10552909 -34.128963 -0.10522568 -34.127865 -25.244097 -119.46797
170839000 -25.019323 -125.68359 -0.10668352 -34.324821 -0.10465287 -34.322186 -25.158806 -119.64045
171838000 -24.959913 -126.14091 -0.10677 -34.528057 -0.106258 -34.51857 -25.09235 -119.90343
172837000 -24.889874 -126.47227 -0.10783638 -34.72364 -0.10721467 -34.713345 -25.01623 -120.12706
173836000 -24.821802 -126.90199 -0.10927146 -34.921448 -0.10766735 -34.915638 -24.976433 -120.35738
174835000 -24.769508 -127.34761 -0.10975196 -35.114712 -0.10854418 -35.114941 -24.928984 -120.67307
175834000 -24.716789 -127.72458 -0.11050707 -35.31229 -0.10932827 -35.310734 -24.870911 -120.96027
176833000 -24.664818 -128.11948 -0.11072508 -35.510227 -0.10963675 -35.509632 -24.816317 -121.14062
177832000 -24.619749 -128.58688 -0.11183121 -35.70755 -0.1101449 -35.708729 -24.79508 -121.29054
178831000 -24.583889 -128.95493 -0.11193851 -35.90453 -0.1108475 -35.901901 -24.759335 -121.5249
179830000 -24.544153 -129.37842 -0.11245863 -36.100536 -0.11079013 -36.103699 -24.729446 -121.66563
180829000 -24.503517 -129.58957 -0.112537 -36.297974 -0.111402 -36.30162 -24.701448 -121.83909
181828000 -24.481289 -129.9848 -0.11340338 -36.496059 -0.11214544 -36.496311 -24.681057 -121.9806
182827000 -24.457472 -130.31798 -0.11387265 -36.68821 -0.11282896 -36.691368 -24.669447 -122.03958
183826000 -24.416899 -130.61223 -0.11443684 -36.891384 -0.11211595 -36.88662 -24.663401 -122.17143
184825000 -24.422359 -130.94481 -0.1136893 -37.083775 -0.11259358 -37.083958 -24.644886 -122.26409
185824000 -24.395641 -131.30981 -0.11441319 -37.281391 -0.11328461 -37.279995 -24.643745 -122.31911
186823000 -24.378407 -131.65236 -0.11429041 -37.483315 -0.11290228 -37.478466 -24.64196 -122.2807
187822000 -24.361013 -131.95844 -0.11505268 -37.671825 -0.11378283 -37.674126 -24.608204 -122.36817
188821000 -24.337862 -132.20467 -0.1152361 -37.871609 -0.11399409 -37.873585 -24.589359 -122.48373
189820000 -24.326712 -132.48412 -0.11531743 -38.072216 -0.11456893 -38.06979 -24.581282 -122.60515
190819000 -24.291615 -132.72049 -0.11647393 -38.272095 -0.11526693 -38.269024 -24.552153 -122.57362
191818000 -24.263685 -132.88322 -0.11752993 -38.462429 -0.11668878 -38.46492 -24.514999 -122.45342
192817000 -24.1924 -133.16681 -0.11820579 -38.648552 -0.11706532 -38.65065 -24.441763 -122.52465
193816000 -24.154268 -133.5347 -0.11726265 -38.84026 -0.11600704 -38.84116 -24.386375 -122.82584
194815000 -24.095125 -133.97418 -0.11703288 -39.039566 -0.11635933 -39.041016 -24.329554 -122.91158
195814000 -24.047197 -134.21133 -0.11737169 -39.234989 -0.11575872 -39.239319 -24.271975 -123.03508
196813000 -23.99161 -134.54428 -0.11778738 -39.428196 -0.11573427 -39.43689 -24.194624 -123.17445
197812000 -23.938103 -134.78079 -0.11724802 -39.630577 -0.11678237 -39.632587 -24.128307 -123.30333
198811000 -23.879608 -134.96107 -0.11772701 -39.824333 -0.11609691 -39.828125 -24.055651 -123.47723
199810000 -23.813877 -135.31276 -0.11811907 -40.022717 -0.11630801 -40.020573 -23.976843 -123.59428
200809000 -23.751263 -135.62422 -0.11815764 -40.216454 -0.11599268 -40.219585 -23.899855 -123.77157
201808000 -23.697725 -135.85133 -0.11923481 -40.416889 -0.11753073 -40.422073 -23.833408 -123.84992
202807000 -23.641533 -136.19708 -0.11908901 -40.620041 -0.11839864 -40.623161 -23.776121 -124.09048
203806000 -23.587765 -136.65576 -0.12069628 -40.81765 -0.11851649 -40.81958 -23.712318 -124.25505
