!Keysight Technologies,E5080B,MY59205177,A.15.75.32
!Date: Friday, February 23, 2024 03:36:05
!Correction: S11(Cdelta 2-Port  ) 
!S21(Cdelta 2-Port  ) 
!S12(Cdelta 2-Port  ) 
!S22(Cdelta 2-Port  ) 
!S2P File: Measurements: S11, S21, S12, S22:
# Hz S  dB   R 50
10000000 -46.073902 -2.5067861 -0.015629305 -2.0442703 -0.017679814 -2.0965402 -45.918903 -157.67303
10999000 -45.275055 -4.3777471 -0.016786056 -2.265878 -0.017916083 -2.3171301 -45.838398 -151.58115
11998000 -44.394512 -7.5358453 -0.01762991 -2.486764 -0.017121552 -2.5317965 -46.043457 -147.33533
12997000 -43.599579 -13.212477 -0.016179839 -2.6685228 -0.017415227 -2.6969407 -45.617683 -141.27292
13996000 -43.325546 -17.106686 -0.015610079 -2.8492641 -0.017635368 -2.869344 -45.407166 -136.06256
14995000 -42.917126 -21.706181 -0.01778768 -3.0566897 -0.017505674 -3.0824652 -45.086494 -132.64961
15994000 -42.723858 -25.960297 -0.018760938 -3.276835 -0.019834008 -3.2984021 -44.962479 -129.22493
16993000 -42.665569 -30.382877 -0.018411798 -3.4736543 -0.019326951 -3.4856787 -44.125248 -129.01755
17992000 -42.75425 -35.982918 -0.018821253 -3.6703563 -0.019440839 -3.6760993 -43.554485 -129.18553
18991000 -42.991943 -41.290241 -0.019689687 -3.8854058 -0.020276887 -3.8850274 -42.944427 -128.06598
19990000 -42.757065 -47.047123 -0.021919547 -4.094883 -0.022515377 -4.0859785 -42.291641 -128.8432
20989000 -42.557896 -50.729752 -0.024276022 -4.2936153 -0.024563674 -4.2891164 -41.77541 -128.35129
21988000 -42.393497 -55.626289 -0.024314027 -4.4963808 -0.025351757 -4.4801655 -41.531631 -127.40666
22987000 -42.046021 -60.465992 -0.025914986 -4.6925659 -0.026507717 -4.6837392 -41.249401 -127.02487
23986000 -41.955864 -64.668839 -0.025683228 -4.8888063 -0.025614485 -4.8874478 -41.090164 -126.89173
24985000 -41.562962 -67.421249 -0.026506154 -5.0977774 -0.025987901 -5.0946589 -40.91901 -124.34785
25984000 -41.207386 -69.551292 -0.027078388 -5.302145 -0.026758533 -5.3000417 -40.5993 -122.82311
26983000 -40.884884 -71.170799 -0.028486505 -5.5024757 -0.027162785 -5.5174561 -40.483459 -122.09562
27982000 -40.764328 -72.179588 -0.02978326 -5.7010088 -0.028093332 -5.7361679 -40.200371 -120.63892
28981000 -40.709778 -73.620926 -0.027360756 -5.8969159 -0.028407034 -5.9227538 -39.950794 -119.82146
29980000 -40.319588 -74.696487 -0.027029159 -6.0931854 -0.028808052 -6.0994802 -39.733498 -119.08459
30979000 -39.923275 -73.750885 -0.025404094 -6.4475422 -0.023522748 -6.4362736 -39.213345 -119.53965
31978000 -39.703419 -74.902992 -0.024088081 -6.6409345 -0.024782095 -6.6326027 -38.962559 -118.81733
32977000 -39.520077 -76.395821 -0.02418153 -6.8522449 -0.0252549 -6.8498855 -38.723408 -118.7288
33976000 -39.354031 -77.627907 -0.024633443 -7.0513501 -0.025862124 -7.0487056 -38.413689 -118.1446
34975000 -39.081066 -78.317223 -0.024629798 -7.2566357 -0.026803331 -7.2541099 -38.208595 -117.89838
35974000 -38.857422 -78.757034 -0.024170857 -7.4465318 -0.025884258 -7.4551258 -37.917587 -116.91079
36973000 -38.642368 -79.522865 -0.024223959 -7.6481829 -0.026973678 -7.6554914 -37.672592 -115.97973
37972000 -38.47847 -79.203018 -0.023890257 -7.8592 -0.026584549 -7.8678002 -37.459579 -115.34931
38971000 -38.138302 -78.745132 -0.025215324 -8.0613604 -0.027553789 -8.0727129 -37.280212 -113.67856
39970000 -37.823109 -79.032242 -0.023118313 -8.256341 -0.026478808 -8.2714214 -37.018162 -113.1963
40969000 -37.530315 -78.797958 -0.023978496 -8.446454 -0.026388176 -8.4700775 -36.786484 -111.68503
41968000 -37.177673 -78.679611 -0.024285913 -8.6563148 -0.025925662 -8.6693687 -36.596394 -110.45374
42967000 -36.927505 -78.790352 -0.024608711 -8.8694639 -0.026940858 -8.8862753 -36.404667 -108.61861
43966000 -36.624557 -79.389099 -0.025056763 -9.0663824 -0.027621781 -9.0856266 -36.135876 -107.85299
44965000 -36.394409 -80.260826 -0.025271302 -9.2716579 -0.028014129 -9.2919846 -35.927444 -107.68039
45964000 -36.159042 -81.158585 -0.026831983 -9.4705858 -0.029038412 -9.4874725 -35.703747 -107.26682
46963000 -35.958248 -83.19455 -0.026008734 -9.6666546 -0.029344363 -9.6855688 -35.526012 -107.61491
47962000 -35.788891 -84.458237 -0.028125901 -9.8676004 -0.03081526 -9.8886909 -35.315197 -107.58282
48961000 -35.575008 -85.962074 -0.030377302 -10.062535 -0.032339077 -10.086908 -35.085865 -107.78404
49960000 -35.345348 -87.242661 -0.032037087 -10.262761 -0.033465073 -10.287653 -34.942871 -107.81904
50959000 -35.114357 -88.551979 -0.03245461 -10.47769 -0.034326524 -10.487494 -34.779499 -108.10968
51958000 -34.905613 -89.547226 -0.034433238 -10.674995 -0.035883155 -10.686552 -34.598377 -108.53958
52957000 -34.699455 -90.575005 -0.035325415 -10.878685 -0.037074815 -10.887346 -34.428204 -108.29152
53956000 -34.52124 -91.337799 -0.036528934 -11.081016 -0.038123697 -11.084655 -34.295906 -108.31377
54955000 -34.35508 -91.837738 -0.037463058 -11.278791 -0.038878985 -11.277336 -34.138561 -108.27155
55954000 -34.185467 -92.545746 -0.038936447 -11.480014 -0.038746044 -11.482545 -34.052341 -107.89664
56953000 -34.056416 -92.621613 -0.038531881 -11.68089 -0.037914526 -11.671195 -33.972122 -108.13339
57952000 -33.888962 -93.22364 -0.039287239 -11.876382 -0.038807157 -11.867806 -33.858772 -108.23779
58951000 -33.778603 -93.479752 -0.040557701 -12.080842 -0.039849143 -12.062861 -33.706303 -108.27847
59950000 -33.657051 -93.847321 -0.040691745 -12.279844 -0.040087145 -12.26129 -33.641148 -108.64266
60949000 -33.533787 -94.427528 -0.04107482 -12.486138 -0.041557766 -12.464437 -33.53698 -108.75373
61948000 -33.475834 -94.727058 -0.041501313 -12.686473 -0.040737208 -12.663 -33.459759 -108.82159
62947000 -33.383228 -95.008606 -0.042215109 -12.897361 -0.041676421 -12.875608 -33.300121 -109.23674
63946000 -33.298256 -95.704819 -0.042989407 -13.091155 -0.042371158 -13.07456 -33.197533 -109.27656
64945000 -33.190174 -95.844154 -0.043431256 -13.295363 -0.042749416 -13.277421 -33.084942 -109.78839
65944000 -33.096794 -96.152328 -0.044185113 -13.49774 -0.043455832 -13.478214 -32.990627 -110.27149
66943000 -32.946346 -96.631927 -0.042267907 -13.695299 -0.042136431 -13.679597 -32.894558 -110.48157
67942000 -32.8965 -96.547638 -0.044612177 -13.892936 -0.043883346 -13.88363 -32.763775 -110.77234
68941000 -32.776703 -96.627007 -0.043571141 -14.085375 -0.04330837 -14.076991 -32.660229 -110.70947
69940000 -32.684315 -96.657173 -0.043807514 -14.287949 -0.043599118 -14.277393 -32.516338 -110.98792
70939000 -32.579765 -96.562248 -0.044607468 -14.480582 -0.044294424 -14.477242 -32.387833 -110.98061
71938000 -32.432419 -96.198318 -0.043568 -14.680351 -0.043566957 -14.670709 -32.254185 -110.80202
72937000 -32.280903 -95.936653 -0.043696124 -14.880453 -0.043041695 -14.874006 -32.113361 -110.46571
73936000 -32.148407 -95.574387 -0.043459494 -15.074291 -0.043074638 -15.073546 -32.005005 -110.29468
74935000 -32.017094 -95.843193 -0.042108722 -15.27433 -0.041577104 -15.267384 -31.851305 -109.92171
75934000 -31.900812 -96.040695 -0.042852942 -15.482558 -0.042828891 -15.473935 -31.761028 -109.84465
76933000 -31.766308 -96.385025 -0.044289455 -15.675468 -0.04368671 -15.669381 -31.592232 -110.18665
77932000 -31.66078 -97.208519 -0.045164827 -15.87108 -0.043960486 -15.864693 -31.492126 -110.1843
78931000 -31.587025 -97.923553 -0.044064824 -16.072712 -0.044394061 -16.069592 -31.392296 -110.01735
79930000 -31.475601 -98.790161 -0.046207815 -16.267151 -0.046611004 -16.262833 -31.303263 -110.25923
80929000 -31.363979 -99.546043 -0.047965009 -16.463001 -0.047577135 -16.459177 -31.192533 -110.53528
81928000 -31.266815 -100.28446 -0.048370194 -16.653889 -0.048607089 -16.653376 -31.069485 -110.54944
82927000 -31.165251 -101.00156 -0.049544338 -16.853132 -0.049385935 -16.850063 -30.964071 -110.8183
83926000 -31.048075 -101.72552 -0.051553562 -17.05164 -0.050257359 -17.051146 -30.840879 -111.02896
84925000 -30.940947 -102.16755 -0.052354943 -17.250517 -0.050610118 -17.247202 -30.746607 -111.02655
85924000 -30.851065 -102.56768 -0.052954961 -17.45244 -0.052072253 -17.445274 -30.661018 -110.98704
86923000 -30.737926 -102.9995 -0.052364897 -17.647007 -0.052191198 -17.644653 -30.564299 -110.93217
87922000 -30.624809 -103.30637 -0.052976713 -17.852871 -0.051949911 -17.85078 -30.474369 -110.97815
88921000 -30.557974 -103.59232 -0.053883191 -18.056948 -0.052744552 -18.05072 -30.392179 -110.90354
89920000 -30.454283 -104.11256 -0.054404259 -18.252728 -0.053273607 -18.248201 -30.331282 -111.07834
90919000 -30.35527 -104.40403 -0.054713577 -18.451981 -0.054416578 -18.445269 -30.242611 -111.2183
91918000 -30.260338 -104.76811 -0.05648575 -18.649288 -0.055183098 -18.643482 -30.177145 -111.24208
92917000 -30.172556 -105.04932 -0.057801913 -18.847757 -0.055508986 -18.844912 -30.113737 -111.28957
93916000 -30.075109 -105.44393 -0.056905106 -19.044626 -0.055836998 -19.041021 -30.024967 -111.89163
94915000 -30.00363 -105.99223 -0.058622029 -19.243868 -0.056954678 -19.23752 -29.961128 -111.8279
95914000 -29.944304 -106.22264 -0.059235774 -19.440527 -0.058245007 -19.436028 -29.870735 -112.10146
96913000 -29.845921 -106.41712 -0.06010944 -19.640934 -0.058855288 -19.637486 -29.806324 -112.41195
97912000 -29.773981 -106.89229 -0.061619937 -19.834307 -0.058968645 -19.836266 -29.723957 -112.65705
98911000 -29.665358 -107.07127 -0.061751481 -20.037106 -0.060059834 -20.034212 -29.679501 -112.88661
99910000 -29.594862 -107.19653 -0.062972061 -20.235748 -0.060414962 -20.238302 -29.582008 -113.16976
100909000 -29.50997 -107.44726 -0.061753847 -20.444567 -0.059035555 -20.441607 -29.485958 -113.37756
101908000 -29.418015 -107.70651 -0.063279361 -20.643724 -0.061439566 -20.641285 -29.384619 -113.18198
102907000 -29.283039 -107.66294 -0.063896395 -20.845142 -0.06099562 -20.844248 -29.30689 -113.12009
103906000 -29.187586 -107.68984 -0.06434878 -21.052031 -0.060758308 -21.044348 -29.162838 -113.06188
104905000 -29.045424 -107.57986 -0.064668 -21.247219 -0.061472122 -21.245687 -29.040356 -112.78134
105904000 -28.899992 -107.67664 -0.064333804 -21.449596 -0.061181225 -21.447327 -28.929577 -112.67435
106903000 -28.789536 -107.71677 -0.064750239 -21.655987 -0.062190518 -21.652857 -28.806932 -112.53117
107902000 -28.631277 -108.07088 -0.065907009 -21.859669 -0.062416617 -21.850151 -28.664751 -112.46769
108901000 -28.525084 -108.29009 -0.066448189 -22.059927 -0.063612163 -22.054184 -28.538202 -112.41468
109900000 -28.39257 -108.8047 -0.067101419 -22.262053 -0.064847723 -22.251644 -28.383444 -112.52298
110899000 -28.272682 -109.35329 -0.069257393 -22.458492 -0.065025873 -22.45002 -28.264597 -112.80891
111898000 -28.181957 -110.06026 -0.070012853 -22.659859 -0.066585399 -22.652811 -28.14316 -112.94347
112897000 -28.057348 -110.56145 -0.071285494 -22.857874 -0.067285709 -22.849182 -28.008984 -113.09601
113896000 -27.951221 -111.15783 -0.07212685 -23.060253 -0.069223724 -23.047655 -27.90266 -113.19146
114895000 -27.846659 -111.7626 -0.072909392 -23.257544 -0.070510603 -23.242785 -27.793371 -113.29227
115894000 -27.72942 -112.11343 -0.074087039 -23.458689 -0.071529701 -23.446239 -27.728523 -113.47163
116893000 -27.6472 -112.59594 -0.075194672 -23.656446 -0.072754346 -23.639677 -27.601376 -113.51358
117892000 -27.567471 -113.10468 -0.075188354 -23.85428 -0.072886229 -23.839651 -27.527882 -113.74631
118891000 -27.508072 -113.52203 -0.075743064 -24.052027 -0.072386362 -24.039291 -27.433304 -113.80669
119890000 -27.42149 -113.83829 -0.076452501 -24.25532 -0.073747113 -24.243071 -27.421457 -113.99303
120889000 -27.369152 -114.31182 -0.077369161 -24.458731 -0.07370472 -24.441448 -27.342415 -113.90822
121888000 -27.334089 -114.67551 -0.077382341 -24.650631 -0.074411713 -24.636534 -27.287777 -114.19386
122887000 -27.297739 -114.9059 -0.079596944 -24.853811 -0.075466231 -24.841543 -27.242933 -114.20743
123886000 -27.241854 -115.32026 -0.078980312 -25.062302 -0.075891636 -25.039518 -27.229839 -114.354
124885000 -27.20727 -115.82315 -0.079958685 -25.256329 -0.075965397 -25.242977 -27.200846 -114.34115
125884000 -27.155622 -116.01377 -0.080499239 -25.454248 -0.075801022 -25.44129 -27.173037 -114.51988
126883000 -27.135803 -116.38044 -0.080908522 -25.658144 -0.076795004 -25.643017 -27.13047 -114.516
127882000 -27.087244 -116.65115 -0.080596022 -25.857325 -0.077561006 -25.839054 -27.092657 -114.70311
128881000 -27.059538 -117.01117 -0.080951773 -26.058062 -0.07766325 -26.041859 -27.05817 -114.75286
129880000 -27.009226 -117.33754 -0.081585035 -26.263397 -0.077498548 -26.243992 -27.01371 -114.75146
130879000 -26.944813 -117.46552 -0.081674717 -26.462427 -0.078377746 -26.446692 -26.946211 -114.75464
131878000 -26.882362 -117.67691 -0.081717186 -26.665836 -0.078879617 -26.645292 -26.880733 -114.64736
132877000 -26.818619 -117.79024 -0.08120048 -26.865875 -0.079267919 -26.848461 -26.804331 -114.59652
133876000 -26.732992 -117.93684 -0.081921354 -27.067911 -0.078914151 -27.048075 -26.714949 -114.47734
134875000 -26.636757 -118.091 -0.081335522 -27.265995 -0.079499654 -27.245955 -26.621235 -114.35044
135874000 -26.560053 -118.14099 -0.082089655 -27.468105 -0.079542898 -27.448465 -26.522041 -114.25664
136873000 -26.449034 -118.05238 -0.081982292 -27.670305 -0.078956589 -27.656153 -26.446384 -114.24688
137872000 -26.370636 -118.15807 -0.082970835 -27.873837 -0.078655295 -27.855371 -26.342802 -114.14906
138871000 -26.300402 -118.34954 -0.083042078 -28.069717 -0.079796262 -28.05674 -26.248615 -114.3465
139870000 -26.195431 -118.6445 -0.083327048 -28.268635 -0.08085525 -28.250092 -26.17054 -114.47979
140869000 -26.117929 -119.21736 -0.084565587 -28.469412 -0.0808658 -28.448177 -26.07304 -114.69958
141868000 -26.037127 -119.59554 -0.085374407 -28.665909 -0.083246835 -28.651108 -26.016436 -114.92994
142867000 -25.958565 -119.79402 -0.084001832 -28.861452 -0.081919245 -28.848999 -25.941164 -115.07613
143866000 -25.888577 -120.26122 -0.086045809 -29.060547 -0.083175592 -29.048307 -25.868942 -115.49032
144865000 -25.828999 -120.77122 -0.087625846 -29.260166 -0.084762499 -29.244743 -25.81196 -115.8344
145864000 -25.77434 -121.07674 -0.088118486 -29.460192 -0.085910618 -29.448015 -25.778082 -116.06997
146863000 -25.729452 -121.43671 -0.088979751 -29.661955 -0.085737422 -29.647211 -25.732826 -116.35794
147862000 -25.689316 -121.80579 -0.089493945 -29.86091 -0.08662726 -29.84293 -25.691492 -116.65589
148861000 -25.652851 -122.20708 -0.091069691 -30.057829 -0.088225208 -30.042776 -25.67244 -116.82999
149860000 -25.622284 -122.39043 -0.091883682 -30.247797 -0.087926969 -30.237356 -25.618105 -116.91209
150859000 -25.599108 -122.86208 -0.091005981 -30.450363 -0.087448612 -30.431984 -25.599319 -117.31407
151858000 -25.585249 -123.21867 -0.090812221 -30.64526 -0.088226795 -30.63413 -25.593306 -117.63197
152857000 -25.571371 -123.51398 -0.091727957 -30.843748 -0.088395335 -30.836166 -25.572746 -117.79967
153856000 -25.56872 -123.74185 -0.090410993 -31.046034 -0.087491401 -31.031656 -25.592005 -118.15928
154855000 -25.564753 -123.90563 -0.09118177 -31.248335 -0.088242643 -31.234562 -25.579443 -118.344
155854000 -25.579226 -124.17435 -0.091864385 -31.444166 -0.088382132 -31.433466 -25.569904 -118.65028
156853000 -25.564901 -124.84941 -0.089461178 -31.629366 -0.087671012 -31.626259 -25.565081 -118.9999
157852000 -25.571527 -125.04517 -0.090647288 -31.834471 -0.089200638 -31.826332 -25.550301 -119.28904
158851000 -25.568941 -125.29835 -0.09140674 -32.034336 -0.089391686 -32.026272 -25.537027 -119.5814
159850000 -25.556671 -125.3858 -0.091806218 -32.232025 -0.089668095 -32.224567 -25.531164 -119.77558
160849000 -25.540756 -125.47641 -0.092125081 -32.434208 -0.090224132 -32.428234 -25.509418 -120.05455
161848000 -25.527418 -125.56423 -0.092189066 -32.632809 -0.090361826 -32.624786 -25.462357 -120.17303
162847000 -25.48303 -125.72614 -0.092552915 -32.831245 -0.091066517 -32.828953 -25.433952 -120.41629
163846000 -25.447313 -125.94949 -0.092586502 -33.034378 -0.09097743 -33.023647 -25.359455 -120.42367
164845000 -25.387224 -125.91859 -0.092791975 -33.232208 -0.091312625 -33.228333 -25.297417 -120.48529
165844000 -25.330935 -125.95932 -0.092772402 -33.432529 -0.091327697 -33.425369 -25.21982 -120.64075
166843000 -25.270994 -126.01517 -0.092558734 -33.632244 -0.09186174 -33.629131 -25.152473 -120.83132
167842000 -25.217983 -126.13931 -0.093855456 -33.832577 -0.092046291 -33.825264 -25.073097 -120.77097
168841000 -25.138609 -126.28289 -0.093562648 -34.030006 -0.092286378 -34.027481 -25.000778 -120.80632
169840000 -25.072142 -126.52592 -0.094176322 -34.226387 -0.092245124 -34.223888 -24.916069 -120.98443
170839000 -25.013977 -126.76454 -0.095065251 -34.426811 -0.093177557 -34.415771 -24.83725 -121.17134
171838000 -24.955498 -127.15726 -0.094484784 -34.627087 -0.09346161 -34.61916 -24.771038 -121.42247
172837000 -24.885227 -127.49364 -0.096666306 -34.82045 -0.094899356 -34.8167 -24.707561 -121.58411
173836000 -24.816954 -127.88963 -0.097212121 -35.023815 -0.095782876 -35.02103 -24.66493 -121.81842
174835000 -24.762974 -128.30322 -0.0976815 -35.214993 -0.096403219 -35.21664 -24.624947 -122.11224
175834000 -24.71381 -128.60776 -0.098515801 -35.417816 -0.097615838 -35.415607 -24.557861 -122.41789
176833000 -24.66761 -128.98883 -0.09972398 -35.616566 -0.09801589 -35.61507 -24.514091 -122.51135
177832000 -24.620922 -129.42017 -0.10033853 -35.817471 -0.099295169 -35.811852 -24.493773 -122.63061
178831000 -24.573307 -129.65735 -0.10220707 -36.013691 -0.10072531 -36.007622 -24.455175 -122.69425
179830000 -24.501963 -130.02133 -0.10350376 -36.195911 -0.10170515 -36.197105 -24.394838 -122.78716
180829000 -24.455896 -130.40581 -0.10207456 -36.389812 -0.100711 -36.389942 -24.351231 -123.12029
181828000 -24.430136 -130.82443 -0.10093038 -36.593044 -0.10016184 -36.590111 -24.327208 -123.2902
182827000 -24.408335 -131.18378 -0.10114074 -36.784679 -0.10044634 -36.790905 -24.316553 -123.40644
183826000 -24.366827 -131.528 -0.10251133 -36.985588 -0.100844 -36.981361 -24.31205 -123.56448
184825000 -24.37571 -131.86449 -0.10219965 -37.181824 -0.10127323 -37.185043 -24.29435 -123.69182
185824000 -24.341843 -132.23085 -0.10193199 -37.380325 -0.10112167 -37.381729 -24.286766 -123.73941
186823000 -24.327072 -132.58864 -0.10281614 -37.57864 -0.10100456 -37.577511 -24.277931 -123.77504
187822000 -24.304106 -132.93871 -0.10278857 -37.772934 -0.10144281 -37.77243 -24.245674 -123.83092
188821000 -24.28212 -133.21603 -0.10317744 -37.96896 -0.10218057 -37.971924 -24.222647 -123.95975
189820000 -24.26339 -133.48067 -0.10286862 -38.171421 -0.1020629 -38.171562 -24.206051 -124.15071
190819000 -24.228638 -133.79367 -0.1036289 -38.368813 -0.10198922 -38.364349 -24.16753 -124.20979
191818000 -24.19733 -134.09731 -0.10374289 -38.563629 -0.10249331 -38.564411 -24.139444 -124.24583
192817000 -24.156271 -134.36377 -0.10449006 -38.763184 -0.10283867 -38.765255 -24.097336 -124.31707
193816000 -24.123348 -134.61787 -0.10447972 -38.957314 -0.10284211 -38.956787 -24.047346 -124.48283
194815000 -24.054554 -135.00108 -0.10545589 -39.156418 -0.10414509 -39.154694 -23.978361 -124.53127
195814000 -24.008135 -135.209 -0.10556675 -39.348747 -0.10409605 -39.351147 -23.924854 -124.64864
196813000 -23.952106 -135.54106 -0.10444631 -39.542038 -0.10357534 -39.545013 -23.844376 -124.79325
197812000 -23.893724 -135.75694 -0.10555058 -39.743279 -0.10354671 -39.739239 -23.775213 -124.86874
198811000 -23.84059 -135.88976 -0.10497746 -39.943161 -0.10423207 -39.942406 -23.704845 -125.0225
199810000 -23.767952 -136.27568 -0.10543149 -40.133003 -0.10399158 -40.132992 -23.628048 -125.14214
200809000 -23.713257 -136.50755 -0.1055275 -40.334499 -0.10478599 -40.334198 -23.552334 -125.3093
201808000 -23.65522 -136.73064 -0.1068557 -40.533398 -0.10551212 -40.533333 -23.486135 -125.34306
202807000 -23.597055 -137.06987 -0.10710429 -40.735203 -0.10569513 -40.736732 -23.432213 -125.60225
