!Keysight Technologies,E5080B,MY59205177,A.15.75.32
!Date: Friday, February 23, 2024 02:57:52
!Correction: S11(Cdelta 2-Port  ) 
!S21(Cdelta 2-Port  ) 
!S12(Cdelta 2-Port  ) 
!S22(Cdelta 2-Port  ) 
!S2P File: Measurements: S11, S21, S12, S22:
# Hz S  dB   R 50
10000000 -44.026871 -3.8961782 -0.028662648 -2.0409589 -0.031490795 -2.0930047 -48.130554 -149.91919
10999000 -43.366657 -5.3940282 -0.029400656 -2.2554317 -0.031305149 -2.3119509 -47.912994 -141.7486
11998000 -42.613255 -7.9118676 -0.02963157 -2.4803603 -0.031444643 -2.525305 -48.036053 -136.2664
12997000 -42.014603 -12.471508 -0.02925341 -2.6600461 -0.030473754 -2.6923063 -47.417385 -130.35545
13996000 -41.749157 -15.645833 -0.028532363 -2.8351731 -0.030821256 -2.8603857 -46.957451 -124.1354
14995000 -41.44743 -19.415447 -0.030233933 -3.0457675 -0.030505296 -3.0740755 -46.488323 -120.89417
15994000 -41.344933 -23.392624 -0.031613085 -3.26794 -0.033047453 -3.2919061 -46.27494 -117.33434
16993000 -41.304928 -27.455271 -0.029922966 -3.4630144 -0.032192774 -3.474606 -45.388954 -118.35715
17992000 -41.401184 -31.904013 -0.030888258 -3.6586981 -0.032580577 -3.6633089 -44.781868 -119.04488
18991000 -41.704838 -36.151299 -0.0322611 -3.8716509 -0.03369594 -3.8680565 -44.059868 -118.5661
19990000 -41.565231 -41.197601 -0.034341916 -4.0823569 -0.035414148 -4.0765014 -43.299389 -120.44894
20989000 -41.428875 -44.144909 -0.037099879 -4.285675 -0.036945585 -4.2715411 -42.719322 -120.18229
21988000 -41.363327 -48.805328 -0.037705366 -4.4772053 -0.037721295 -4.469873 -42.463009 -119.63855
22987000 -41.161442 -53.078136 -0.03881656 -4.6785111 -0.038405739 -4.6682382 -42.197483 -119.2687
23986000 -41.204231 -56.884754 -0.037812948 -4.8694167 -0.037414491 -4.8703699 -42.052177 -119.34283
24985000 -40.859146 -59.487526 -0.038815517 -5.0798788 -0.038828313 -5.0790386 -41.787033 -116.67025
25984000 -40.627277 -61.729557 -0.039897997 -5.2870808 -0.038767196 -5.288919 -41.430771 -115.54317
26983000 -40.334129 -63.545036 -0.040698014 -5.487308 -0.039546371 -5.5028443 -41.315613 -114.69353
27982000 -40.207115 -64.445564 -0.041979603 -5.6809969 -0.041432321 -5.7179003 -40.993416 -113.53542
28981000 -40.193893 -65.987083 -0.039794542 -5.882297 -0.041646365 -5.9043641 -40.755756 -112.4705
29980000 -39.798435 -67.605171 -0.040036984 -6.0756769 -0.041431796 -6.0807433 -40.431736 -111.86561
30979000 -39.428101 -66.925858 -0.037193086 -6.4297023 -0.036137644 -6.4248233 -39.921085 -112.55788
31978000 -39.281132 -68.023888 -0.036776673 -6.6227779 -0.03791035 -6.6106911 -39.66267 -112.16154
32977000 -39.098606 -69.495216 -0.036471505 -6.8336201 -0.038655676 -6.8302526 -39.414146 -112.34898
33976000 -38.95261 -70.709373 -0.036804084 -7.0313287 -0.038715225 -7.0256343 -39.088341 -111.86805
34975000 -38.679562 -71.542969 -0.037793886 -7.233057 -0.038944021 -7.2301726 -38.84589 -111.67734
35974000 -38.495438 -72.454727 -0.03595493 -7.4278164 -0.038454577 -7.4302998 -38.551388 -110.92941
36973000 -38.282928 -73.333572 -0.036687132 -7.6285119 -0.039230559 -7.6331162 -38.265106 -110.0606
37972000 -38.104942 -72.987328 -0.036562346 -7.8349733 -0.040074866 -7.8449745 -38.017155 -109.64992
38971000 -37.768932 -72.877769 -0.038153205 -8.038311 -0.040330123 -8.0476532 -37.828785 -107.94099
39970000 -37.469521 -73.438454 -0.036119372 -8.2342625 -0.038670823 -8.2440252 -37.531914 -107.61696
40969000 -37.186325 -73.334579 -0.036373876 -8.4262981 -0.039114844 -8.4432688 -37.267841 -106.28483
41968000 -36.839165 -73.552757 -0.036530238 -8.6332464 -0.039230295 -8.6484966 -37.073059 -105.02766
42967000 -36.588383 -73.858154 -0.036816876 -8.841856 -0.039262164 -8.8596268 -36.846539 -103.32356
43966000 -36.318272 -74.701141 -0.037167501 -9.0459995 -0.040184073 -9.063633 -36.541832 -102.87495
44965000 -36.073582 -75.555496 -0.03757716 -9.2401896 -0.040760204 -9.2613878 -36.338398 -102.72616
45964000 -35.883389 -76.728195 -0.038637653 -9.443923 -0.041603502 -9.4613686 -36.095894 -102.49799
46963000 -35.69973 -78.665077 -0.039407659 -9.637743 -0.042565644 -9.66045 -35.927406 -102.86902
47962000 -35.566048 -80.278564 -0.040568151 -9.8386183 -0.043671545 -9.8540545 -35.69931 -103.04953
48961000 -35.348309 -81.692276 -0.042451933 -10.034808 -0.045167707 -10.055071 -35.464638 -103.44958
49960000 -35.162407 -83.184074 -0.043236732 -10.235247 -0.046617024 -10.255438 -35.331303 -103.61439
50959000 -34.947704 -84.509186 -0.044407923 -10.448181 -0.047140885 -10.45762 -35.144867 -103.98314
51958000 -34.74437 -85.645615 -0.04673006 -10.644112 -0.048136447 -10.654958 -34.974545 -104.5892
52957000 -34.54483 -86.782196 -0.047949303 -10.843487 -0.050121713 -10.850576 -34.822151 -104.40624
53956000 -34.398296 -87.504883 -0.048809446 -11.048804 -0.050919164 -11.046625 -34.684509 -104.40324
54955000 -34.238197 -88.073364 -0.049522609 -11.247331 -0.051204395 -11.244068 -34.537537 -104.37332
55954000 -34.076599 -88.938759 -0.050958712 -11.450232 -0.052179147 -11.442326 -34.411037 -104.16095
56953000 -33.968967 -89.112022 -0.05013952 -11.644125 -0.051510863 -11.630955 -34.33791 -104.48157
57952000 -33.811001 -89.645233 -0.051608834 -11.83986 -0.052538086 -11.834913 -34.234505 -104.56441
58951000 -33.707211 -89.996407 -0.05210343 -12.045794 -0.052922208 -12.024373 -34.086872 -104.67675
59950000 -33.562428 -90.461342 -0.053585202 -12.245881 -0.053465437 -12.225251 -34.015419 -104.98917
60949000 -33.46159 -90.974548 -0.053536456 -12.447193 -0.053804565 -12.427933 -33.93037 -105.25996
61948000 -33.415451 -91.324478 -0.054428112 -12.647239 -0.053297717 -12.631483 -33.831669 -105.31738
62947000 -33.315617 -91.544876 -0.054109644 -12.857745 -0.054737169 -12.838697 -33.69421 -105.63926
63946000 -33.25473 -92.256271 -0.055114146 -13.054936 -0.055634312 -13.036127 -33.590374 -105.82752
64945000 -33.144684 -92.441612 -0.055620156 -13.259492 -0.055903073 -13.239228 -33.484531 -106.25779
65944000 -33.047539 -92.748055 -0.056551315 -13.458215 -0.056209873 -13.437564 -33.397465 -106.75209
66943000 -32.906807 -93.179977 -0.054542661 -13.656776 -0.054333486 -13.637595 -33.287731 -107.11899
67942000 -32.856342 -93.123177 -0.056852128 -13.852157 -0.056465033 -13.840945 -33.174606 -107.37713
68941000 -32.737453 -93.25605 -0.055534679 -14.045865 -0.055216391 -14.035672 -33.062637 -107.36755
69940000 -32.645596 -93.232262 -0.056307428 -14.246106 -0.056816723 -14.237108 -32.929779 -107.68257
70939000 -32.541634 -93.241058 -0.056085315 -14.438951 -0.056080595 -14.433294 -32.793674 -107.57665
71938000 -32.402744 -92.876961 -0.056489162 -14.640541 -0.055738408 -14.630916 -32.668732 -107.48642
72937000 -32.24086 -92.73597 -0.055474378 -14.834331 -0.055425085 -14.826104 -32.519424 -107.19321
73936000 -32.10788 -92.477333 -0.054578312 -15.035606 -0.055093173 -15.023914 -32.399933 -107.09792
74935000 -31.975237 -92.752831 -0.054411862 -15.229143 -0.053696062 -15.224198 -32.24947 -106.75441
75934000 -31.862352 -92.950699 -0.055075083 -15.437252 -0.054454587 -15.430921 -32.160229 -106.65588
76933000 -31.723524 -93.42939 -0.055875018 -15.62754 -0.055529959 -15.62608 -31.996559 -107.10095
77932000 -31.630215 -94.182159 -0.057412636 -15.827987 -0.056690048 -15.820439 -31.898911 -107.04864
78931000 -31.558491 -94.930298 -0.055586331 -16.027199 -0.057188898 -16.019804 -31.798775 -106.94154
79930000 -31.45159 -95.789673 -0.058521278 -16.215666 -0.058346279 -16.216156 -31.698469 -107.27704
80929000 -31.327377 -96.716736 -0.060122035 -16.410517 -0.060264561 -16.40819 -31.598799 -107.62614
81928000 -31.248777 -97.576698 -0.059900783 -16.607113 -0.060711842 -16.60342 -31.48027 -107.72305
82927000 -31.151327 -98.305695 -0.061996203 -16.803478 -0.061805572 -16.804794 -31.376989 -108.0324
83926000 -31.04653 -98.973488 -0.063397564 -17.000357 -0.062895902 -17.002977 -31.256027 -108.33897
84925000 -30.942413 -99.527023 -0.064008042 -17.200302 -0.063408591 -17.197401 -31.163656 -108.33701
85924000 -30.85527 -99.937798 -0.064526647 -17.402596 -0.064406842 -17.395639 -31.079041 -108.39265
86923000 -30.756531 -100.50748 -0.064732373 -17.59977 -0.064373218 -17.588551 -30.979084 -108.2708
87922000 -30.64769 -100.79875 -0.064235285 -17.806358 -0.063958652 -17.797089 -30.888176 -108.32968
88921000 -30.579224 -101.24298 -0.066093355 -18.002022 -0.065587178 -17.996058 -30.807886 -108.3644
89920000 -30.474253 -101.75794 -0.066780441 -18.205524 -0.066163793 -18.194695 -30.747355 -108.56549
90919000 -30.384552 -102.06217 -0.067123242 -18.395617 -0.067302011 -18.39286 -30.660292 -108.67284
91918000 -30.294477 -102.42333 -0.068260662 -18.596262 -0.066282593 -18.586697 -30.601223 -108.74847
92917000 -30.199883 -102.74886 -0.069309212 -18.794067 -0.068307467 -18.7938 -30.537624 -108.82712
93916000 -30.115929 -103.17271 -0.06868799 -18.98744 -0.068420276 -18.983612 -30.451859 -109.48353
94915000 -30.045668 -103.78153 -0.070098616 -19.191795 -0.069159292 -19.1824 -30.386553 -109.34828
95914000 -29.974903 -103.97191 -0.071037881 -19.384008 -0.070054948 -19.378876 -30.300182 -109.60475
96913000 -29.898436 -104.22628 -0.072323196 -19.582554 -0.071146555 -19.580969 -30.235315 -109.97717
97912000 -29.83169 -104.72166 -0.073220298 -19.778555 -0.071038149 -19.778574 -30.154205 -110.20659
98911000 -29.727585 -104.89186 -0.073571235 -19.98041 -0.072795942 -19.976011 -30.112087 -110.41981
99910000 -29.665396 -105.07555 -0.073581241 -20.176487 -0.072920717 -20.176329 -30.012957 -110.75297
100909000 -29.57933 -105.36908 -0.074057281 -20.386208 -0.072580621 -20.381371 -29.927246 -110.94329
101908000 -29.487001 -105.64368 -0.07431902 -20.585548 -0.074019365 -20.583445 -29.806459 -110.73746
102907000 -29.358519 -105.62841 -0.074837811 -20.785011 -0.073824257 -20.78583 -29.736927 -110.70795
103906000 -29.261509 -105.69892 -0.075040072 -20.992395 -0.073540434 -20.983879 -29.596453 -110.67664
104905000 -29.11483 -105.63821 -0.076454341 -21.188871 -0.074255824 -21.189251 -29.461046 -110.37618
105904000 -28.970751 -105.77737 -0.076433264 -21.388456 -0.073617049 -21.38386 -29.34235 -110.22905
106903000 -28.865625 -105.84422 -0.076243579 -21.598049 -0.074870989 -21.589045 -29.221375 -110.11778
107902000 -28.702259 -106.20596 -0.077519365 -21.796549 -0.074860193 -21.787422 -29.077599 -110.08064
108901000 -28.593924 -106.42419 -0.078563303 -21.999897 -0.076406129 -21.990177 -28.952034 -109.99058
109900000 -28.462643 -106.98079 -0.079197533 -22.192856 -0.076955996 -22.18453 -28.78764 -110.07558
110899000 -28.350706 -107.60145 -0.080792218 -22.39377 -0.077950507 -22.384911 -28.673353 -110.40363
111898000 -28.261549 -108.27889 -0.081794739 -22.594637 -0.079027504 -22.588034 -28.552336 -110.53483
112897000 -28.129725 -108.88623 -0.083120175 -22.793148 -0.079547115 -22.781372 -28.419514 -110.75743
113896000 -28.032833 -109.42402 -0.083636321 -22.993063 -0.081777066 -22.982725 -28.311371 -110.90817
114895000 -27.933037 -110.07359 -0.085359097 -23.190542 -0.082447909 -23.179796 -28.198881 -111.03393
115894000 -27.79628 -110.41526 -0.086083829 -23.392803 -0.083881751 -23.376553 -28.126572 -111.17601
116893000 -27.722984 -111.03902 -0.087027088 -23.589209 -0.084590927 -23.569363 -27.999228 -111.28342
117892000 -27.642654 -111.52401 -0.086347088 -23.782188 -0.085440934 -23.772179 -27.92564 -111.56111
118891000 -27.585005 -111.97499 -0.08758305 -23.982317 -0.085832998 -23.969591 -27.830719 -111.64694
119890000 -27.49192 -112.30347 -0.088287286 -24.187634 -0.085664548 -24.167906 -27.819572 -111.83324
120889000 -27.435043 -112.83408 -0.090043359 -24.388535 -0.086003296 -24.371536 -27.739801 -111.8084
121888000 -27.398226 -113.15854 -0.089768775 -24.58256 -0.086690113 -24.567759 -27.683516 -112.07185
122887000 -27.35531 -113.36205 -0.090303153 -24.782669 -0.087571166 -24.768744 -27.63969 -112.11095
123886000 -27.301037 -113.79494 -0.090111278 -24.986616 -0.088044785 -24.967073 -27.618534 -112.30762
124885000 -27.263754 -114.29337 -0.091415204 -25.184092 -0.088360466 -25.171932 -27.589466 -112.38888
125884000 -27.215315 -114.45558 -0.09189558 -25.381161 -0.088372618 -25.369673 -27.562458 -112.5461
126883000 -27.192406 -114.87619 -0.091972522 -25.586037 -0.090110749 -25.570433 -27.52467 -112.59586
127882000 -27.142317 -115.15144 -0.09228082 -25.78256 -0.089769572 -25.765936 -27.476439 -112.76355
128881000 -27.117546 -115.4893 -0.092839308 -25.984627 -0.089816608 -25.966967 -27.435013 -112.91351
129880000 -27.052326 -115.81933 -0.093647286 -26.187683 -0.090104938 -26.16783 -27.390341 -112.85076
130879000 -26.993872 -115.98522 -0.093335979 -26.383804 -0.090769932 -26.370687 -27.312658 -112.90984
131878000 -26.929382 -116.20661 -0.093413472 -26.586834 -0.091023162 -26.571201 -27.255829 -112.81384
132877000 -26.859858 -116.27864 -0.093642794 -26.79158 -0.091085285 -26.772821 -27.168221 -112.83892
133876000 -26.775614 -116.42055 -0.093942486 -26.990643 -0.090900771 -26.969633 -27.07707 -112.71634
134875000 -26.678602 -116.55389 -0.093670033 -27.189445 -0.091563776 -27.175457 -26.973364 -112.6134
135874000 -26.592468 -116.58439 -0.093922645 -27.387741 -0.091855392 -27.370567 -26.872852 -112.57421
136873000 -26.484617 -116.51476 -0.094542988 -27.591303 -0.090880685 -27.576319 -26.792004 -112.58011
137872000 -26.402849 -116.61813 -0.093957826 -27.793886 -0.09190774 -27.778637 -26.680918 -112.51575
138871000 -26.334785 -116.79681 -0.094724208 -27.991955 -0.09246169 -27.977085 -26.590191 -112.65688
139870000 -26.229677 -117.08546 -0.095433839 -28.194582 -0.093656018 -28.175735 -26.505701 -112.8405
140869000 -26.147842 -117.58161 -0.097389489 -28.388775 -0.094514675 -28.363991 -26.394402 -112.98935
141868000 -26.050171 -118.06886 -0.097136945 -28.580334 -0.096369602 -28.566576 -26.33124 -113.31857
142867000 -25.971838 -118.30834 -0.095670938 -28.775238 -0.094618917 -28.761019 -26.248539 -113.5068
143866000 -25.907217 -118.80193 -0.097374134 -28.975012 -0.095870733 -28.957243 -26.181784 -114.03309
144865000 -25.850273 -119.33707 -0.098904543 -29.173296 -0.097109146 -29.158146 -26.122164 -114.33595
145864000 -25.792847 -119.65127 -0.099009149 -29.373556 -0.098420739 -29.360859 -26.091051 -114.61161
146863000 -25.747749 -120.03046 -0.10046012 -29.572472 -0.098801263 -29.558321 -26.0411 -114.90949
147862000 -25.70883 -120.39901 -0.10075445 -29.766184 -0.098764189 -29.754326 -26.00704 -115.25425
148861000 -25.676455 -120.90518 -0.10062569 -29.965057 -0.099422827 -29.953712 -25.980375 -115.47379
149860000 -25.66379 -121.11113 -0.10168262 -30.168453 -0.099944361 -30.154503 -25.950346 -115.64844
150859000 -25.642185 -121.4826 -0.10194312 -30.365686 -0.10035601 -30.347214 -25.947945 -115.91897
151858000 -25.627735 -121.81464 -0.10196432 -30.562952 -0.10079896 -30.545429 -25.932636 -116.19537
152857000 -25.609121 -122.101 -0.10190284 -30.760775 -0.1008085 -30.75012 -25.920961 -116.3436
153856000 -25.601734 -122.33963 -0.10243818 -30.960377 -0.10060477 -30.9452 -25.934288 -116.62996
154855000 -25.598417 -122.4958 -0.10250364 -31.158388 -0.10110683 -31.147373 -25.922419 -116.88625
155854000 -25.611273 -122.75475 -0.10302766 -31.360554 -0.10169826 -31.34621 -25.912079 -117.13606
156853000 -25.595802 -123.4419 -0.10070836 -31.546309 -0.10012501 -31.535946 -25.903299 -117.42249
157852000 -25.59926 -123.69292 -0.10218322 -31.74464 -0.10188746 -31.736061 -25.897045 -117.78223
158851000 -25.596897 -123.89616 -0.10271913 -31.944714 -0.10201494 -31.935753 -25.885761 -118.01318
159850000 -25.584896 -124.03277 -0.10334788 -32.142876 -0.10237218 -32.133984 -25.884676 -118.18364
160849000 -25.563654 -124.13355 -0.10325378 -32.339699 -0.1031716 -32.337711 -25.850204 -118.46594
161848000 -25.544743 -124.26654 -0.10398468 -32.539776 -0.10261019 -32.537678 -25.812387 -118.58517
162847000 -25.501013 -124.46636 -0.10399158 -32.741913 -0.10325564 -32.73661 -25.780281 -118.84254
163846000 -25.460114 -124.701 -0.10424638 -32.940956 -0.10292429 -32.931068 -25.706816 -118.82333
164845000 -25.399656 -124.69344 -0.10417452 -33.141468 -0.10362359 -33.13438 -25.638189 -118.93415
165844000 -25.339825 -124.76618 -0.10422596 -33.339436 -0.10481171 -33.329052 -25.55588 -119.08427
166843000 -25.281452 -124.8453 -0.10499974 -33.535431 -0.10426998 -33.530388 -25.484642 -119.24572
167842000 -25.224358 -124.98904 -0.10506868 -33.735878 -0.10449563 -33.728046 -25.40328 -119.1578
168841000 -25.142891 -125.19234 -0.10530949 -33.93285 -0.10480455 -33.930275 -25.327127 -119.23635
169840000 -25.072233 -125.424 -0.10509494 -34.126251 -0.10535537 -34.122494 -25.239897 -119.43691
170839000 -25.018925 -125.73443 -0.10593915 -34.32777 -0.10565375 -34.320839 -25.151152 -119.61567
171838000 -24.958128 -126.11644 -0.10590467 -34.527695 -0.10628983 -34.520161 -25.089413 -119.88209
172837000 -24.886429 -126.46035 -0.10759304 -34.722229 -0.10766947 -34.717133 -25.027971 -120.08492
173836000 -24.82332 -126.93405 -0.10858373 -34.919724 -0.10818695 -34.918163 -24.979393 -120.33649
174835000 -24.768055 -127.35888 -0.10889931 -35.11377 -0.10877748 -35.113819 -24.932325 -120.67232
175834000 -24.71702 -127.74255 -0.1101972 -35.315346 -0.10973126 -35.311813 -24.872337 -120.96806
176833000 -24.662401 -128.12317 -0.11047839 -35.509884 -0.11052433 -35.50935 -24.815475 -121.13284
177832000 -24.618361 -128.59192 -0.11078163 -35.705368 -0.11016349 -35.711185 -24.799971 -121.30302
178831000 -24.579256 -128.95908 -0.11153001 -35.90332 -0.11102409 -35.901325 -24.760107 -121.55046
179830000 -24.543261 -129.41862 -0.11223974 -36.103245 -0.11083315 -36.102646 -24.732533 -121.6523
180829000 -24.505751 -129.60968 -0.11230189 -36.294907 -0.1116745 -36.298744 -24.705004 -121.83641
181828000 -24.476215 -129.98647 -0.11221902 -36.496555 -0.11154436 -36.495811 -24.685106 -121.95592
182827000 -24.456352 -130.27356 -0.11181819 -36.687721 -0.11229658 -36.68615 -24.673304 -122.04864
183826000 -24.416529 -130.62132 -0.11346131 -36.887398 -0.11252185 -36.885166 -24.66539 -122.18137
184825000 -24.42107 -130.95883 -0.11293815 -37.082066 -0.11270729 -37.084667 -24.64473 -122.27721
185824000 -24.392191 -131.31386 -0.11319055 -37.278835 -0.11278831 -37.282597 -24.641809 -122.32497
186823000 -24.378798 -131.62387 -0.11317435 -37.478985 -0.11293416 -37.478001 -24.643137 -122.31685
187822000 -24.361982 -131.97612 -0.11359841 -37.674603 -0.1133699 -37.67197 -24.605209 -122.37576
188821000 -24.339062 -132.20534 -0.11414105 -37.869106 -0.11442222 -37.870895 -24.589537 -122.51292
189820000 -24.324207 -132.47469 -0.11478901 -38.072796 -0.11439565 -38.070602 -24.576662 -122.63831
190819000 -24.294716 -132.7234 -0.11557955 -38.269836 -0.11523237 -38.268665 -24.54414 -122.60399
191818000 -24.261692 -132.92537 -0.11732116 -38.461632 -0.11641703 -38.465359 -24.514685 -122.46384
192817000 -24.192686 -133.1783 -0.11761424 -38.649525 -0.11649839 -38.650871 -24.440907 -122.55495
193816000 -24.151508 -133.53778 -0.11658242 -38.842632 -0.1151925 -38.842972 -24.385149 -122.79935
194815000 -24.097427 -134.01241 -0.1159762 -39.03788 -0.11605968 -39.039883 -24.321714 -122.90707
195814000 -24.044411 -134.1947 -0.11629472 -39.23111 -0.11608946 -39.239613 -24.27092 -123.02541
196813000 -23.995012 -134.5775 -0.11635162 -39.431499 -0.11553648 -39.430912 -24.192486 -123.21326
197812000 -23.93276 -134.78951 -0.11667123 -39.628132 -0.11559018 -39.6273 -24.121782 -123.31042
198811000 -23.884762 -135.00208 -0.11621708 -39.827881 -0.11659039 -39.829277 -24.05246 -123.47048
199810000 -23.814175 -135.38669 -0.11664464 -40.022522 -0.11625404 -40.019901 -23.975269 -123.5886
200809000 -23.752028 -135.64467 -0.11730281 -40.21637 -0.11597008 -40.218872 -23.898579 -123.79409
201808000 -23.695494 -135.87169 -0.11750041 -40.416836 -0.11722223 -40.419823 -23.83028 -123.84377
202807000 -23.636408 -136.24205 -0.11848058 -40.61718 -0.11747328 -40.622833 -23.776499 -124.05463
203806000 -23.584812 -136.68954 -0.11962354 -40.81678 -0.11793713 -40.820515 -23.70989 -124.2577
