!Keysight Technologies,E5080B,MY59205177,A.15.75.32
!Date: Friday, February 23, 2024 02:57:58
!Correction: S11(Cdelta 2-Port  ) 
!S21(Cdelta 2-Port  ) 
!S12(Cdelta 2-Port  ) 
!S22(Cdelta 2-Port  ) 
!S2P File: Measurements: S11, S21, S12, S22:
# Hz S  dB   R 50
10000000 -44.044765 -3.8552687 -0.027700977 -2.0411923 -0.031422481 -2.0968039 -48.277115 -149.8696
10999000 -43.373043 -5.2881975 -0.028581873 -2.2581608 -0.031465244 -2.310076 -47.971874 -142.14247
11998000 -42.638748 -7.9210949 -0.02916324 -2.4808173 -0.031486362 -2.5225451 -48.044739 -136.32109
12997000 -42.013863 -12.321963 -0.027958114 -2.6604097 -0.031073624 -2.6940074 -47.373917 -129.99086
13996000 -41.774464 -15.832235 -0.027593385 -2.8413923 -0.030784758 -2.8613858 -46.981087 -124.44317
14995000 -41.430828 -19.705751 -0.029765537 -3.0465281 -0.031225367 -3.0729079 -46.502831 -120.92875
15994000 -41.326057 -23.476444 -0.031220933 -3.2666304 -0.033496376 -3.2876072 -46.285732 -117.49723
16993000 -41.316017 -27.559341 -0.030080661 -3.4607329 -0.031915829 -3.4728949 -45.291595 -118.58575
17992000 -41.416019 -31.887766 -0.030780066 -3.6661596 -0.033213608 -3.6646736 -44.773674 -119.35641
18991000 -41.676739 -36.217003 -0.031093439 -3.8709013 -0.033696461 -3.8689556 -44.029186 -118.65174
19990000 -41.543579 -41.334843 -0.033826642 -4.0805111 -0.035586398 -4.0768008 -43.305946 -120.08945
20989000 -41.483749 -43.9949 -0.035690535 -4.2832336 -0.037551049 -4.275785 -42.756744 -120.6373
21988000 -41.383907 -49.125847 -0.036595762 -4.4769969 -0.038959172 -4.4682288 -42.479889 -119.97053
22987000 -41.165169 -52.930649 -0.038121086 -4.675921 -0.039685607 -4.6702285 -42.178204 -119.56531
23986000 -41.182285 -56.862476 -0.036495522 -4.8695674 -0.038184542 -4.872221 -42.080471 -119.27013
24985000 -40.856579 -59.634869 -0.0381882 -5.0822697 -0.039818317 -5.0774965 -41.80336 -116.82917
25984000 -40.585487 -61.804714 -0.039335564 -5.2871146 -0.039279144 -5.2895451 -41.415958 -115.52872
26983000 -40.340614 -63.530365 -0.039666276 -5.4825892 -0.040341619 -5.4994202 -41.295746 -114.74873
27982000 -40.164932 -64.746155 -0.040967681 -5.6860118 -0.042254053 -5.7156763 -40.98988 -113.25339
28981000 -40.190781 -65.945602 -0.039796632 -5.8798394 -0.041854147 -5.9070425 -40.74062 -112.67393
29980000 -39.819324 -67.587631 -0.039611939 -6.0725336 -0.042148452 -6.0836325 -40.434677 -111.69354
30979000 -39.430466 -66.704758 -0.037267495 -6.4289432 -0.036414336 -6.422102 -39.93148 -112.72219
31978000 -39.258995 -67.923553 -0.036184367 -6.6238008 -0.038032297 -6.613379 -39.65139 -112.03967
32977000 -39.108543 -69.652382 -0.035883937 -6.8313475 -0.038676571 -6.8263855 -39.421555 -112.29272
33976000 -38.93132 -70.793365 -0.036878228 -7.035593 -0.03894585 -7.0277114 -39.092094 -111.77682
34975000 -38.656277 -71.60891 -0.036774062 -7.2331762 -0.039720614 -7.2307591 -38.856876 -111.66498
35974000 -38.492928 -72.399857 -0.035642512 -7.4252048 -0.039190594 -7.4255486 -38.564011 -110.93842
36973000 -38.300568 -73.198196 -0.036227956 -7.6284213 -0.040355466 -7.6324215 -38.26577 -110.07973
37972000 -38.114708 -73.110115 -0.035989646 -7.8364987 -0.039887808 -7.8462481 -38.011368 -109.44715
38971000 -37.780899 -73.029869 -0.037063066 -8.0330286 -0.040556394 -8.0491781 -37.815998 -107.95496
39970000 -37.485142 -73.456146 -0.035254955 -8.233305 -0.038379885 -8.2462587 -37.546825 -107.6901
40969000 -37.188484 -73.296776 -0.035836432 -8.4267035 -0.038315117 -8.4430819 -37.283825 -106.23178
41968000 -36.838577 -73.559769 -0.036531545 -8.6271601 -0.038897008 -8.6482592 -37.065384 -105.12901
42967000 -36.598652 -73.908539 -0.035984688 -8.8408632 -0.038863312 -8.858469 -36.825397 -103.45866
43966000 -36.323483 -74.82988 -0.037132777 -9.0435123 -0.039916545 -9.0590706 -36.549938 -102.89628
44965000 -36.084198 -75.546791 -0.038209353 -9.2441587 -0.041144855 -9.2597294 -36.323494 -102.68
45964000 -35.878975 -76.822525 -0.039128687 -9.4413681 -0.041885249 -9.4621401 -36.074116 -102.62453
46963000 -35.688007 -78.738724 -0.038477819 -9.6388884 -0.042827323 -9.6567574 -35.897476 -102.92136
47962000 -35.547123 -80.33773 -0.040416345 -9.8401737 -0.044390664 -9.854991 -35.704365 -103.13858
48961000 -35.35648 -81.739243 -0.042522248 -10.036948 -0.04581356 -10.060026 -35.46677 -103.44625
49960000 -35.129501 -83.094765 -0.043719657 -10.232385 -0.046266161 -10.256401 -35.334366 -103.64606
50959000 -34.938862 -84.546967 -0.04388753 -10.447337 -0.047630262 -10.458328 -35.14732 -104.06937
51958000 -34.743172 -85.665848 -0.046387561 -10.643486 -0.048719656 -10.653698 -34.969467 -104.61982
52957000 -34.547539 -86.758583 -0.047610898 -10.845322 -0.04943699 -10.8498 -34.799438 -104.44073
53956000 -34.400127 -87.56308 -0.048528299 -11.04371 -0.050713044 -11.04621 -34.667564 -104.43623
54955000 -34.233807 -88.030876 -0.050040796 -11.244746 -0.051942576 -11.242996 -34.511753 -104.50584
55954000 -34.080067 -88.992134 -0.050909471 -11.449656 -0.052421752 -11.441582 -34.410942 -104.25125
56953000 -33.969589 -89.112526 -0.050303448 -11.642606 -0.051010046 -11.633586 -34.330521 -104.41717
57952000 -33.800468 -89.659363 -0.052191198 -11.842017 -0.052520268 -11.829643 -34.240749 -104.5709
58951000 -33.688801 -90.004753 -0.052385598 -12.044539 -0.052794598 -12.02531 -34.078773 -104.6591
59950000 -33.574577 -90.490082 -0.053453907 -12.244354 -0.054327983 -12.225868 -34.005733 -105.00765
60949000 -33.468651 -90.978111 -0.053620584 -12.444159 -0.054306749 -12.4276 -33.917545 -105.2792
61948000 -33.403831 -91.360817 -0.054551836 -12.645819 -0.054028653 -12.628129 -33.83585 -105.36413
62947000 -33.322746 -91.52697 -0.054463498 -12.85386 -0.055096842 -12.835899 -33.702438 -105.56492
63946000 -33.255863 -92.269829 -0.054537419 -13.054832 -0.055889439 -13.033243 -33.594711 -105.79752
64945000 -33.150581 -92.464516 -0.055606257 -13.255625 -0.05602815 -13.235849 -33.479549 -106.3438
65944000 -33.055 -92.761002 -0.056735158 -13.454272 -0.056793381 -13.436398 -33.4062 -106.80412
66943000 -32.910515 -93.182579 -0.054435976 -13.657152 -0.055112049 -13.639272 -33.292488 -107.01348
67942000 -32.864952 -93.147125 -0.056224298 -13.850511 -0.056621335 -13.842121 -33.167843 -107.33112
68941000 -32.745457 -93.276619 -0.055779573 -14.042907 -0.056460574 -14.03453 -33.066826 -107.32352
69940000 -32.643463 -93.263351 -0.056460839 -14.242948 -0.056730434 -14.232849 -32.92321 -107.68816
70939000 -32.534298 -93.238518 -0.056577802 -14.440103 -0.05662081 -14.429749 -32.798347 -107.56763
71938000 -32.399513 -92.847244 -0.056103673 -14.63915 -0.055950012 -14.628578 -32.65382 -107.46712
72937000 -32.241592 -92.733246 -0.055786915 -14.83436 -0.056015566 -14.829198 -32.521397 -107.17679
73936000 -32.096977 -92.461761 -0.055224519 -15.034551 -0.054565992 -15.023172 -32.40612 -107.03987
74935000 -31.979904 -92.681831 -0.055307891 -15.229776 -0.054964978 -15.227221 -32.245903 -106.72867
75934000 -31.846581 -92.994713 -0.055130139 -15.434448 -0.054508325 -15.433238 -32.162251 -106.65132
76933000 -31.717291 -93.408821 -0.056056995 -15.630506 -0.05587633 -15.620025 -31.985071 -107.04666
77932000 -31.625805 -94.171669 -0.057108112 -15.829515 -0.057616189 -15.819944 -31.887981 -107.12961
78931000 -31.560579 -94.98806 -0.056006126 -16.024151 -0.056515649 -16.018805 -31.788212 -106.93803
79930000 -31.447153 -95.732658 -0.058702055 -16.218828 -0.059215304 -16.212814 -31.686922 -107.27937
80929000 -31.323692 -96.732338 -0.060529932 -16.410488 -0.06045381 -16.411036 -31.591997 -107.63934
81928000 -31.25139 -97.64595 -0.060583219 -16.606819 -0.061077002 -16.603497 -31.471321 -107.73697
82927000 -31.151457 -98.289215 -0.061530143 -16.803167 -0.06189537 -16.802814 -31.364281 -108.12144
83926000 -31.038214 -99.043594 -0.063576177 -17.00149 -0.063343719 -16.999044 -31.251234 -108.32159
84925000 -30.940634 -99.515129 -0.064844042 -17.199963 -0.062760644 -17.19803 -31.155624 -108.38815
85924000 -30.853958 -99.965904 -0.065184325 -17.401413 -0.06478361 -17.397972 -31.069313 -108.36067
86923000 -30.746277 -100.50465 -0.065503083 -17.599411 -0.064796485 -17.59219 -30.967651 -108.23518
87922000 -30.638781 -100.92462 -0.065607406 -17.805016 -0.064231873 -17.792131 -30.883455 -108.35738
88921000 -30.581343 -101.16218 -0.066017397 -18.000017 -0.066053927 -17.994667 -30.795696 -108.32948
89920000 -30.478256 -101.72195 -0.066221088 -18.201694 -0.066925026 -18.191647 -30.745234 -108.50011
90919000 -30.378513 -102.03748 -0.06756939 -18.398792 -0.067181602 -18.389324 -30.655592 -108.72224
91918000 -30.287985 -102.45271 -0.068446316 -18.597075 -0.067237072 -18.586813 -30.588066 -108.74177
92917000 -30.198275 -102.79549 -0.069366023 -18.793413 -0.068487071 -18.790697 -30.536728 -108.82567
93916000 -30.123499 -103.19044 -0.069349192 -18.989574 -0.068621986 -18.98464 -30.443806 -109.49769
94915000 -30.0434 -103.78091 -0.070626371 -19.187677 -0.069998913 -19.181753 -30.38957 -109.37206
95914000 -29.982735 -103.97572 -0.070798971 -19.386168 -0.070523232 -19.378693 -30.29331 -109.59965
96913000 -29.905405 -104.25362 -0.072884127 -19.584557 -0.07154496 -19.578264 -30.235382 -109.99481
97912000 -29.828033 -104.7653 -0.073168434 -19.778511 -0.071321018 -19.776417 -30.161026 -110.2835
98911000 -29.719469 -104.92953 -0.073952489 -19.977364 -0.072765931 -19.974413 -30.123426 -110.52399
99910000 -29.655434 -105.07555 -0.074543908 -20.179646 -0.073584139 -20.17588 -30.008734 -110.7494
100909000 -29.577631 -105.37621 -0.073601514 -20.381899 -0.072746448 -20.376968 -29.924805 -110.96398
101908000 -29.486645 -105.57903 -0.075769149 -20.584633 -0.074291371 -20.578882 -29.806896 -110.7344
102907000 -29.35111 -105.64954 -0.075791009 -20.782877 -0.074221067 -20.782759 -29.739515 -110.71024
103906000 -29.263653 -105.77559 -0.075399593 -20.99227 -0.07340537 -20.987404 -29.590477 -110.65153
104905000 -29.113029 -105.68027 -0.075633489 -21.189348 -0.074535742 -21.184427 -29.459679 -110.31718
105904000 -28.975502 -105.73855 -0.076674074 -21.389633 -0.074302696 -21.383087 -29.347635 -110.22577
106903000 -28.857121 -105.89852 -0.076615579 -21.592995 -0.075114079 -21.587412 -29.219032 -110.12646
107902000 -28.706184 -106.28423 -0.077488802 -21.796942 -0.075576596 -21.783901 -29.075792 -110.07143
108901000 -28.592279 -106.48889 -0.078600734 -21.998491 -0.076794215 -21.987226 -28.952074 -110.061
109900000 -28.463081 -106.95969 -0.079208344 -22.195215 -0.077521212 -22.188475 -28.789658 -110.15095
110899000 -28.350412 -107.60203 -0.080762155 -22.396866 -0.077762343 -22.385111 -28.668631 -110.43877
111898000 -28.257948 -108.299 -0.08208596 -22.593613 -0.079116076 -22.591732 -28.55105 -110.57521
112897000 -28.132669 -108.87503 -0.08323364 -22.792133 -0.080031455 -22.782381 -28.414957 -110.7687
113896000 -28.034389 -109.42113 -0.083985202 -22.992361 -0.081618272 -22.984617 -28.307676 -110.9409
114895000 -27.929379 -110.11772 -0.085450172 -23.190697 -0.082734428 -23.177731 -28.196396 -111.01858
115894000 -27.795925 -110.49548 -0.086534835 -23.391514 -0.084453151 -23.380907 -28.120338 -111.17353
116893000 -27.719809 -111.04784 -0.087355644 -23.588507 -0.084968656 -23.571711 -27.998354 -111.34364
117892000 -27.642879 -111.52182 -0.08649496 -23.782909 -0.084969714 -23.773552 -27.920168 -111.54855
118891000 -27.576826 -111.95056 -0.0879407 -23.98427 -0.084948599 -23.970251 -27.830086 -111.69794
119890000 -27.493015 -112.29009 -0.087549247 -24.182259 -0.085610427 -24.172998 -27.814743 -111.83607
120889000 -27.440449 -112.82751 -0.089591719 -24.385582 -0.086749531 -24.367321 -27.741137 -111.76741
121888000 -27.39715 -113.16029 -0.089450613 -24.581118 -0.086711235 -24.564945 -27.684889 -112.06464
122887000 -27.353128 -113.41373 -0.090504028 -24.781719 -0.087742858 -24.770464 -27.631905 -112.13749
123886000 -27.297518 -113.78164 -0.091316327 -24.986225 -0.088285439 -24.965611 -27.61932 -112.32087
124885000 -27.263069 -114.30656 -0.090790018 -25.184078 -0.088201165 -25.172417 -27.590538 -112.37019
125884000 -27.213842 -114.51616 -0.092011124 -25.381891 -0.088510789 -25.367155 -27.559076 -112.52823
126883000 -27.18877 -114.86581 -0.09235803 -25.585684 -0.08940886 -25.572481 -27.518349 -112.57843
127882000 -27.137899 -115.15666 -0.092307262 -25.783781 -0.089710899 -25.768278 -27.479582 -112.7424
128881000 -27.114782 -115.47334 -0.092550538 -25.986408 -0.089991555 -25.969933 -27.437162 -112.87025
129880000 -27.054958 -115.82719 -0.094090089 -26.188253 -0.090376101 -26.166471 -27.393259 -112.90127
130879000 -26.994907 -115.9827 -0.09343569 -26.386951 -0.091280907 -26.370022 -27.319023 -112.88292
131878000 -26.927464 -116.21255 -0.093569525 -26.586365 -0.090831518 -26.566153 -27.255695 -112.84788
132877000 -26.858923 -116.25728 -0.093338363 -26.787661 -0.092120588 -26.771439 -27.166075 -112.83896
133876000 -26.774288 -116.42279 -0.09401232 -26.989048 -0.091032416 -26.967041 -27.075432 -112.74222
134875000 -26.674923 -116.5403 -0.093740396 -27.189791 -0.091837414 -27.170254 -26.971771 -112.59175
135874000 -26.593794 -116.59222 -0.094040886 -27.387209 -0.091487899 -27.372177 -26.870302 -112.60732
136873000 -26.487204 -116.49904 -0.094819456 -27.592232 -0.091529936 -27.572645 -26.786234 -112.58405
137872000 -26.405432 -116.61436 -0.095446803 -27.794336 -0.091747254 -27.776102 -26.685957 -112.52197
138871000 -26.329679 -116.83842 -0.095249407 -27.995119 -0.091992088 -27.974257 -26.584986 -112.68984
139870000 -26.233496 -117.09014 -0.096198365 -28.194918 -0.093425907 -28.176054 -26.504192 -112.85627
140869000 -26.142212 -117.54924 -0.09774477 -28.38582 -0.094987728 -28.369818 -26.39435 -113.00687
141868000 -26.046612 -118.04434 -0.09727513 -28.577827 -0.095121607 -28.564163 -26.325378 -113.35729
142867000 -25.97094 -118.27243 -0.096184075 -28.777514 -0.094564416 -28.757538 -26.244141 -113.53996
143866000 -25.907509 -118.81809 -0.097931691 -28.97397 -0.095746621 -28.959269 -26.173523 -114.0459
144865000 -25.848396 -119.32368 -0.099394754 -29.173494 -0.09717162 -29.15843 -26.115681 -114.32129
145864000 -25.792387 -119.64761 -0.099262856 -29.373438 -0.098301314 -29.361057 -26.084301 -114.609
146863000 -25.745871 -120.04137 -0.10020157 -29.573214 -0.098582 -29.556725 -26.031208 -114.9041
147862000 -25.706587 -120.41456 -0.10196352 -29.767218 -0.099166989 -29.757872 -26.004135 -115.31604
148861000 -25.674591 -120.89633 -0.10143354 -29.965429 -0.099680275 -29.949707 -25.97517 -115.52242
149860000 -25.665529 -121.13779 -0.10203137 -30.162977 -0.099883437 -30.155167 -25.945469 -115.67168
150859000 -25.641308 -121.51389 -0.10247529 -30.367048 -0.10014991 -30.349874 -25.938419 -115.94723
151858000 -25.625072 -121.82561 -0.10182174 -30.56575 -0.10061245 -30.543974 -25.932091 -116.21083
152857000 -25.603294 -122.14326 -0.10286968 -30.760557 -0.10030515 -30.747498 -25.912472 -116.34351
153856000 -25.603422 -122.34474 -0.10256726 -30.9569 -0.099846877 -30.945978 -25.928654 -116.62505
154855000 -25.598948 -122.51128 -0.1027398 -31.157991 -0.10028502 -31.145203 -25.920229 -116.87225
155854000 -25.609381 -122.79112 -0.10332827 -31.359386 -0.10079923 -31.343697 -25.910954 -117.13332
156853000 -25.59366 -123.48948 -0.10135802 -31.54558 -0.10022461 -31.536484 -25.90889 -117.40564
157852000 -25.601898 -123.68377 -0.10240214 -31.747368 -0.10135245 -31.736444 -25.900249 -117.75294
158851000 -25.594839 -123.92233 -0.1027186 -31.942818 -0.10192563 -31.93347 -25.883488 -118.01275
159850000 -25.581392 -124.01978 -0.1034921 -32.141514 -0.10188535 -32.134613 -25.883514 -118.19235
160849000 -25.557827 -124.1425 -0.10352126 -32.341751 -0.10268706 -32.337048 -25.852726 -118.45028
161848000 -25.548861 -124.28924 -0.10410082 -32.542957 -0.10306425 -32.53352 -25.809526 -118.59722
162847000 -25.497921 -124.45972 -0.10400696 -32.741756 -0.10304993 -32.733021 -25.784483 -118.83459
163846000 -25.45978 -124.69623 -0.10457809 -32.94157 -0.10384125 -32.932541 -25.702183 -118.82488
164845000 -25.395451 -124.70512 -0.10468575 -33.140457 -0.10309181 -33.131775 -25.639839 -118.96508
165844000 -25.34531 -124.76182 -0.10509149 -33.339409 -0.10419627 -33.330803 -25.55714 -119.08498
166843000 -25.282358 -124.86111 -0.10471121 -33.535736 -0.10341045 -33.531399 -25.489473 -119.25398
167842000 -25.218998 -125.01111 -0.10543627 -33.733921 -0.10421218 -33.729206 -25.405161 -119.14772
168841000 -25.143438 -125.18998 -0.10549515 -33.931587 -0.10469106 -33.93108 -25.329323 -119.27218
169840000 -25.078514 -125.49713 -0.10543945 -34.128506 -0.10497428 -34.122074 -25.238165 -119.46743
170839000 -25.015881 -125.74005 -0.10691672 -34.325844 -0.10510343 -34.321018 -25.152182 -119.67728
171838000 -24.958157 -126.13797 -0.10639541 -34.527584 -0.10658482 -34.520031 -25.087883 -119.8681
172837000 -24.888777 -126.52686 -0.1077987 -34.723804 -0.10728764 -34.717529 -25.021418 -120.12538
173836000 -24.823862 -126.91232 -0.10915254 -34.919556 -0.10807124 -34.915657 -24.971737 -120.35325
174835000 -24.768024 -127.37115 -0.1095279 -35.1152 -0.10919607 -35.113846 -24.925699 -120.68613
175834000 -24.715563 -127.74642 -0.11028641 -35.313736 -0.11026571 -35.311092 -24.871571 -120.96717
176833000 -24.664131 -128.14934 -0.11117944 -35.513161 -0.10990674 -35.510098 -24.814854 -121.17126
177832000 -24.621714 -128.58963 -0.11141315 -35.708054 -0.11056177 -35.7104 -24.790781 -121.32317
178831000 -24.579992 -128.96947 -0.11134729 -35.905224 -0.11151859 -35.899929 -24.754648 -121.56091
179830000 -24.543333 -129.40321 -0.11239115 -36.102314 -0.1116907 -36.100475 -24.729816 -121.67639
180829000 -24.502968 -129.59871 -0.11272854 -36.2994 -0.11264459 -36.29784 -24.69573 -121.87583
181828000 -24.480934 -129.98927 -0.11238504 -36.495628 -0.11197118 -36.492809 -24.682823 -121.98151
182827000 -24.452875 -130.33971 -0.11254629 -36.688801 -0.11252159 -36.690578 -24.66766 -122.05656
183826000 -24.413765 -130.64162 -0.11446688 -36.891739 -0.11326734 -36.882339 -24.661329 -122.17336
184825000 -24.419128 -130.97095 -0.11350967 -37.083908 -0.11367574 -37.086571 -24.645142 -122.2916
185824000 -24.394773 -131.31268 -0.11389843 -37.277386 -0.11370843 -37.282921 -24.639959 -122.33406
186823000 -24.380226 -131.66811 -0.11380622 -37.48127 -0.11340976 -37.478996 -24.637825 -122.32475
187822000 -24.355415 -131.98149 -0.11442568 -37.671787 -0.11398453 -37.674896 -24.601044 -122.38087
188821000 -24.336201 -132.23961 -0.11389551 -37.868706 -0.11443419 -37.875488 -24.590002 -122.49533
189820000 -24.322763 -132.49211 -0.11444349 -38.067383 -0.11437386 -38.073875 -24.577469 -122.64189
190819000 -24.296951 -132.74811 -0.11583955 -38.26918 -0.11571699 -38.269768 -24.548706 -122.58202
191818000 -24.262339 -132.90486 -0.11705016 -38.463982 -0.11742727 -38.465118 -24.51354 -122.45932
192817000 -24.191195 -133.20621 -0.11709936 -38.64777 -0.11721265 -38.652161 -24.437864 -122.57005
193816000 -24.152271 -133.53055 -0.11647286 -38.842873 -0.11551575 -38.838844 -24.388494 -122.83575
194815000 -24.09256 -133.99861 -0.11628169 -39.037682 -0.11643856 -39.039837 -24.323198 -122.94242
195814000 -24.044117 -134.22195 -0.11690044 -39.237991 -0.1161873 -39.241211 -24.269062 -123.01766
196813000 -23.989355 -134.58073 -0.11662523 -39.428268 -0.11630376 -39.433746 -24.188742 -123.2213
197812000 -23.936121 -134.79262 -0.11669277 -39.632027 -0.11633354 -39.630474 -24.120693 -123.30829
198811000 -23.879868 -134.96257 -0.11620804 -39.823811 -0.11614157 -39.826565 -24.053516 -123.49418
199810000 -23.809601 -135.34467 -0.11714404 -40.023186 -0.11586188 -40.018105 -23.970568 -123.59685
200809000 -23.751354 -135.61304 -0.11743551 -40.219158 -0.11640639 -40.218307 -23.897076 -123.79196
201808000 -23.693298 -135.85358 -0.11814913 -40.418289 -0.11724855 -40.421192 -23.8265 -123.8863
202807000 -23.634277 -136.23293 -0.11879157 -40.618675 -0.11877241 -40.620617 -23.767719 -124.09025
203806000 -23.584843 -136.68779 -0.12041869 -40.817524 -0.11890596 -40.818653 -23.707483 -124.24854
