!Keysight Technologies,E5080B,MY59205177,A.15.75.32
!Date: Friday, February 23, 2024 03:36:11
!Correction: S11(Cdelta 2-Port  ) 
!S21(Cdelta 2-Port  ) 
!S12(Cdelta 2-Port  ) 
!S22(Cdelta 2-Port  ) 
!S2P File: Measurements: S11, S21, S12, S22:
# Hz S  dB   R 50
10000000 -46.102318 -2.8781257 -0.01467415 -2.0437117 -0.017850582 -2.0969667 -45.939034 -157.43857
10999000 -45.25246 -4.3572063 -0.016215697 -2.2629762 -0.018378263 -2.3190944 -45.867882 -151.37312
11998000 -44.376694 -7.5484991 -0.016057983 -2.4842212 -0.017278003 -2.5310628 -45.97559 -147.07372
12997000 -43.621311 -13.335074 -0.016341455 -2.667146 -0.017550897 -2.6997387 -45.620365 -141.51329
13996000 -43.284443 -17.492723 -0.014997534 -2.8439026 -0.017684752 -2.8659563 -45.43129 -136.16656
14995000 -42.914471 -21.561247 -0.017644726 -3.0582089 -0.018494466 -3.0848265 -45.14328 -132.74887
15994000 -42.691536 -26.064585 -0.018780956 -3.2782009 -0.020912549 -3.3006654 -44.971062 -129.29881
16993000 -42.701271 -30.777052 -0.017767666 -3.4758978 -0.01932097 -3.4811063 -44.165031 -129.11041
17992000 -42.712273 -36.213272 -0.018343169 -3.6728356 -0.019870155 -3.6771903 -43.56105 -129.03766
18991000 -42.97509 -41.617226 -0.018415177 -3.8843136 -0.020616293 -3.8819351 -42.951836 -127.77843
19990000 -42.675777 -47.171551 -0.022042869 -4.0881586 -0.022652507 -4.0894895 -42.305027 -128.88046
20989000 -42.57658 -50.57011 -0.023579225 -4.2975235 -0.024606889 -4.284802 -41.764996 -128.31709
21988000 -42.371552 -55.625832 -0.024330165 -4.4924984 -0.025818637 -4.4809818 -41.501343 -127.66202
22987000 -42.025726 -60.476601 -0.025576988 -4.6934924 -0.025956651 -4.6834564 -41.238724 -126.95413
23986000 -42.011768 -65.009209 -0.025518922 -4.8869572 -0.025002869 -4.8862157 -41.10704 -126.76916
24985000 -41.553719 -67.334946 -0.026169153 -5.0993586 -0.025291871 -5.0921488 -40.918911 -124.25167
25984000 -41.237171 -69.451096 -0.026971072 -5.2996264 -0.026315253 -5.3013735 -40.560425 -122.99241
26983000 -40.91251 -71.297218 -0.02780232 -5.5006518 -0.027380034 -5.5182538 -40.472805 -122.24721
27982000 -40.736668 -72.140511 -0.02840052 -5.6994615 -0.028426055 -5.7372856 -40.197124 -120.32638
28981000 -40.701649 -73.738792 -0.026731445 -5.9005146 -0.028417977 -5.9235568 -39.933239 -119.93874
29980000 -40.294044 -75.114067 -0.027285995 -6.0914817 -0.028992549 -6.0990305 -39.724895 -119.21622
30979000 -39.931065 -73.926987 -0.025434818 -6.4480042 -0.023462886 -6.4384222 -39.184288 -119.58663
31978000 -39.718872 -74.907143 -0.024013637 -6.643127 -0.024259361 -6.6329255 -38.937386 -118.71245
32977000 -39.528023 -76.281166 -0.025054419 -6.8532071 -0.025264012 -6.8503165 -38.705799 -118.73664
33976000 -39.367744 -77.303658 -0.024850305 -7.053309 -0.025547305 -7.0473127 -38.425507 -118.16641
34975000 -39.054501 -78.190208 -0.024958089 -7.2540588 -0.026524125 -7.2531905 -38.21006 -117.84867
35974000 -38.870182 -78.612228 -0.024046432 -7.44628 -0.025690259 -7.4518509 -37.930954 -117.09631
36973000 -38.617825 -79.486237 -0.024624592 -7.6503139 -0.026528552 -7.6495652 -37.666744 -116.06952
37972000 -38.453415 -79.344238 -0.024347868 -7.8568377 -0.026199883 -7.8674784 -37.460274 -115.31837
38971000 -38.146919 -78.789474 -0.026084516 -8.0639601 -0.027433176 -8.0721722 -37.282234 -113.70642
39970000 -37.804047 -79.2714 -0.023361906 -8.2559032 -0.026129307 -8.2704639 -37.031986 -113.1862
40969000 -37.52528 -78.687416 -0.023970688 -8.4501333 -0.026285565 -8.4662027 -36.798347 -111.61311
41968000 -37.184528 -78.727509 -0.023843406 -8.654417 -0.026072016 -8.6729946 -36.595253 -110.47765
42967000 -36.915077 -78.715065 -0.024407219 -8.871912 -0.026794737 -8.8853178 -36.405048 -108.62043
43966000 -36.613377 -79.361458 -0.024930751 -9.0659199 -0.027992764 -9.085556 -36.13356 -107.87057
44965000 -36.404049 -80.213943 -0.025766555 -9.2737045 -0.027598334 -9.291522 -35.928043 -107.64407
45964000 -36.16396 -81.214745 -0.027344607 -9.4716501 -0.029626098 -9.4938555 -35.684902 -107.31831
46963000 -35.933189 -83.248718 -0.027030461 -9.6647129 -0.029968841 -9.6853752 -35.501137 -107.53117
47962000 -35.792511 -84.53067 -0.028725186 -9.8640652 -0.030956825 -9.8839884 -35.314327 -107.64248
48961000 -35.586414 -85.955574 -0.030034786 -10.062972 -0.032674991 -10.085138 -35.074722 -107.84976
49960000 -35.354202 -87.270157 -0.031615432 -10.264277 -0.033689421 -10.287485 -34.948441 -107.81855
50959000 -35.115345 -88.594498 -0.032560237 -10.475466 -0.034696516 -10.488536 -34.763412 -108.14581
51958000 -34.911518 -89.591698 -0.03437062 -10.676067 -0.036191676 -10.685656 -34.583187 -108.54933
52957000 -34.682117 -90.6474 -0.035289403 -10.878236 -0.03663753 -10.883322 -34.428917 -108.33689
53956000 -34.524605 -91.367226 -0.036481425 -11.077122 -0.037835926 -11.076859 -34.292603 -108.18791
54955000 -34.357723 -91.76651 -0.037477419 -11.278568 -0.037773259 -11.278972 -34.141869 -108.26766
55954000 -34.192211 -92.574089 -0.03828587 -11.478208 -0.038965963 -11.474374 -34.034161 -107.92993
56953000 -34.068359 -92.634216 -0.037753936 -11.67948 -0.038307805 -11.669381 -33.958138 -108.17088
57952000 -33.891365 -93.203751 -0.039890941 -11.876383 -0.03963545 -11.867711 -33.852703 -108.23324
58951000 -33.774982 -93.547592 -0.039899565 -12.082408 -0.040382639 -12.064404 -33.707577 -108.27019
59950000 -33.647068 -93.893021 -0.041083965 -12.283291 -0.040765166 -12.263518 -33.641834 -108.51611
60949000 -33.536724 -94.447639 -0.041011058 -12.481634 -0.041346602 -12.463554 -33.535633 -108.8487
61948000 -33.481693 -94.811752 -0.042378999 -12.684157 -0.041229263 -12.665194 -33.457615 -108.87157
62947000 -33.390511 -95.046219 -0.04206847 -12.895188 -0.042638317 -12.87417 -33.304893 -109.17484
63946000 -33.30732 -95.726097 -0.042998821 -13.092586 -0.043269936 -13.069858 -33.202225 -109.2663
64945000 -33.199085 -95.863213 -0.043683313 -13.293685 -0.043751817 -13.276867 -33.091965 -109.71841
65944000 -33.097607 -96.140694 -0.044265918 -13.495723 -0.044056717 -13.478398 -32.99818 -110.28924
66943000 -32.947876 -96.566528 -0.042349987 -13.696574 -0.042914901 -13.678787 -32.894642 -110.54
67942000 -32.895283 -96.517502 -0.044275858 -13.89509 -0.043981668 -13.882321 -32.761227 -110.70142
68941000 -32.777748 -96.615173 -0.044067174 -14.08793 -0.043586306 -14.075562 -32.665768 -110.70771
69940000 -32.692783 -96.638168 -0.043823466 -14.284587 -0.043469429 -14.274836 -32.511524 -111.05131
70939000 -32.578342 -96.661591 -0.044137519 -14.482694 -0.04380307 -14.480978 -32.390171 -110.91118
71938000 -32.431984 -96.165459 -0.044798654 -14.678678 -0.043459494 -14.673174 -32.258778 -110.81689
72937000 -32.285126 -95.988449 -0.043917861 -14.876835 -0.04293346 -14.872136 -32.117168 -110.47933
73936000 -32.143158 -95.578041 -0.043363798 -15.079565 -0.042796995 -15.067576 -32.006584 -110.28079
74935000 -32.016747 -95.782608 -0.042716742 -15.271864 -0.042451669 -15.269433 -31.853596 -109.82208
75934000 -31.890326 -95.995636 -0.042929016 -15.481389 -0.041782532 -15.477007 -31.765234 -109.9271
76933000 -31.768761 -96.391708 -0.044530317 -15.673893 -0.043809343 -15.669371 -31.587137 -110.20611
77932000 -31.668608 -97.166183 -0.045770396 -15.876686 -0.045578908 -15.868402 -31.495228 -110.20438
78931000 -31.587021 -97.922844 -0.043960225 -16.072392 -0.044541825 -16.067543 -31.386757 -110.00647
79930000 -31.476604 -98.744652 -0.046567831 -16.263227 -0.046785269 -16.263178 -31.297363 -110.32239
80929000 -31.362135 -99.5951 -0.04782027 -16.462563 -0.047804307 -16.461889 -31.194941 -110.53073
81928000 -31.261713 -100.26678 -0.04875866 -16.65448 -0.048609186 -16.649982 -31.0749 -110.5293
82927000 -31.169348 -100.98354 -0.050684232 -16.85404 -0.049462385 -16.850462 -30.956734 -110.82988
83926000 -31.044256 -101.69836 -0.051651269 -17.052547 -0.050973378 -17.050587 -30.840067 -110.99323
84925000 -30.937387 -102.12849 -0.05243564 -17.251961 -0.05116982 -17.245888 -30.75251 -111.0777
85924000 -30.848381 -102.49858 -0.052561663 -17.456497 -0.051982135 -17.45083 -30.663326 -111.04982
86923000 -30.743151 -103.04069 -0.052847531 -17.644081 -0.051980302 -17.643055 -30.561613 -110.9123
87922000 -30.638849 -103.34161 -0.053213861 -17.855791 -0.051664893 -17.849318 -30.472746 -110.91836
88921000 -30.549463 -103.59621 -0.05451173 -18.054821 -0.052928235 -18.050791 -30.382858 -110.87286
89920000 -30.452877 -104.07693 -0.0548166 -18.254051 -0.053506844 -18.245806 -30.33041 -111.05089
90919000 -30.348753 -104.4138 -0.055210885 -18.450405 -0.05435105 -18.445765 -30.246693 -111.21546
91918000 -30.252802 -104.72804 -0.056242652 -18.648912 -0.055480145 -18.644934 -30.172266 -111.25058
92917000 -30.165743 -105.03655 -0.057596516 -18.850174 -0.05594765 -18.846245 -30.106827 -111.33607
93916000 -30.082306 -105.33375 -0.056743812 -19.040493 -0.056068797 -19.039984 -30.020369 -111.92501
94915000 -30.005039 -105.99718 -0.058450438 -19.244617 -0.056701325 -19.239323 -29.963005 -111.82482
95914000 -29.929468 -106.19305 -0.059021648 -19.439003 -0.057962723 -19.436771 -29.870285 -112.0891
96913000 -29.843878 -106.40555 -0.060315218 -19.640427 -0.058471952 -19.637102 -29.805517 -112.42322
97912000 -29.770105 -106.85 -0.061345838 -19.8309 -0.058877591 -19.837849 -29.728943 -112.71972
98911000 -29.66148 -107.05698 -0.062452592 -20.038258 -0.060190544 -20.035805 -29.686298 -112.85164
99910000 -29.593624 -107.17526 -0.06334582 -20.23563 -0.060829446 -20.231342 -29.58242 -113.1876
100909000 -29.506792 -107.45471 -0.061935809 -20.445305 -0.059634659 -20.436749 -29.493332 -113.39105
101908000 -29.421425 -107.68094 -0.063478991 -20.640455 -0.060865935 -20.641966 -29.382801 -113.13489
102907000 -29.277082 -107.6004 -0.064570263 -20.845734 -0.061194614 -20.841238 -29.306437 -113.14143
103906000 -29.187418 -107.72841 -0.06391032 -21.047676 -0.060646217 -21.044912 -29.162577 -113.09073
104905000 -29.042845 -107.61557 -0.064513773 -21.246708 -0.062270347 -21.247133 -29.041826 -112.76184
105904000 -28.898342 -107.68192 -0.064836688 -21.454264 -0.061157335 -21.444069 -28.928179 -112.67278
106903000 -28.787971 -107.74063 -0.064746298 -21.65624 -0.061765138 -21.647449 -28.806839 -112.54232
107902000 -28.627792 -108.07688 -0.065384299 -21.859144 -0.062326804 -21.847672 -28.665405 -112.51961
108901000 -28.521143 -108.33117 -0.066705793 -22.060406 -0.063682042 -22.051498 -28.53451 -112.41879
109900000 -28.391346 -108.77852 -0.067218937 -22.258207 -0.06486506 -22.253479 -28.388777 -112.54832
110899000 -28.272093 -109.38668 -0.06870351 -22.456333 -0.064883716 -22.45089 -28.261328 -112.77886
111898000 -28.175829 -110.07677 -0.069799773 -22.661528 -0.066469215 -22.653936 -28.140648 -112.91996
112897000 -28.052227 -110.55517 -0.071640231 -22.855639 -0.067892008 -22.849043 -28.003456 -113.08932
113896000 -27.944508 -111.15337 -0.072023675 -23.061069 -0.069331832 -23.048035 -27.901598 -113.20202
114895000 -27.845333 -111.80575 -0.073238723 -23.255384 -0.070356436 -23.245413 -27.789642 -113.30153
115894000 -27.728493 -112.13055 -0.074897595 -23.459745 -0.071063146 -23.446917 -27.723009 -113.4714
116893000 -27.649315 -112.6015 -0.075330846 -23.654139 -0.072579041 -23.639465 -27.597652 -113.53548
117892000 -27.562525 -113.08898 -0.074654251 -23.85504 -0.073022328 -23.838667 -27.519953 -113.70206
118891000 -27.503691 -113.51519 -0.075919822 -24.05411 -0.073210552 -24.04019 -27.426056 -113.84869
119890000 -27.418707 -113.83867 -0.076526001 -24.259315 -0.074059919 -24.239336 -27.417505 -113.97189
120889000 -27.368347 -114.37714 -0.077653237 -24.456465 -0.073144473 -24.439623 -27.341732 -113.96691
121888000 -27.332911 -114.67154 -0.078155555 -24.64747 -0.073897459 -24.636478 -27.28286 -114.17123
122887000 -27.299175 -114.88568 -0.078524292 -24.852049 -0.075143054 -24.840263 -27.239227 -114.17793
123886000 -27.239235 -115.26962 -0.079401851 -25.059006 -0.075619265 -25.035334 -27.228741 -114.36657
124885000 -27.199873 -115.81079 -0.079310365 -25.253759 -0.075918503 -25.24328 -27.196728 -114.36665
125884000 -27.155924 -115.97342 -0.080913797 -25.456228 -0.076038629 -25.441416 -27.171391 -114.56979
126883000 -27.137077 -116.37484 -0.08019942 -25.656834 -0.077127792 -25.641409 -27.128202 -114.55026
127882000 -27.083035 -116.70478 -0.080879517 -25.855267 -0.077886209 -25.842342 -27.090137 -114.69839
128881000 -27.060654 -116.99709 -0.080875561 -26.058962 -0.078209586 -26.042265 -27.054384 -114.81087
129880000 -27.00478 -117.32623 -0.081631728 -26.26158 -0.077940233 -26.243919 -27.011908 -114.7326
130879000 -26.946861 -117.49905 -0.081987306 -26.458014 -0.078676909 -26.442322 -26.94277 -114.7841
131878000 -26.881901 -117.7242 -0.081706107 -26.660633 -0.079038575 -26.646223 -26.886127 -114.63848
132877000 -26.819336 -117.7841 -0.081571847 -26.86161 -0.079281107 -26.845083 -26.80682 -114.58726
133876000 -26.736761 -117.93861 -0.082437359 -27.066507 -0.078543797 -27.048431 -26.714626 -114.46983
134875000 -26.642101 -118.06658 -0.082876906 -27.264101 -0.079490691 -27.247242 -26.621851 -114.32738
135874000 -26.557449 -118.09924 -0.081922412 -27.461601 -0.079571366 -27.450464 -26.526823 -114.29251
136873000 -26.448555 -118.05616 -0.082606994 -27.668072 -0.079053335 -27.651329 -26.441708 -114.25799
137872000 -26.369829 -118.1895 -0.082768463 -27.86833 -0.079279788 -27.853159 -26.341099 -114.19051
138871000 -26.299479 -118.36827 -0.08299458 -28.068745 -0.080227107 -28.055798 -26.247934 -114.30592
139870000 -26.197037 -118.67647 -0.08321543 -28.26602 -0.080287226 -28.255026 -26.166079 -114.51077
140869000 -26.1206 -119.19483 -0.084892109 -28.465157 -0.081430733 -28.451141 -26.064781 -114.69585
141868000 -26.03631 -119.58147 -0.085240036 -28.667509 -0.082734428 -28.652967 -26.020601 -114.92636
142867000 -25.958065 -119.80369 -0.084024265 -28.866268 -0.082054839 -28.846724 -25.940144 -115.07533
143866000 -25.885185 -120.25548 -0.08609888 -29.060028 -0.08322493 -29.044701 -25.868597 -115.56832
144865000 -25.829992 -120.77753 -0.087608412 -29.25923 -0.084735312 -29.243093 -25.811394 -115.86006
145864000 -25.767502 -121.07987 -0.087605506 -29.460047 -0.085960262 -29.448767 -25.772085 -116.06953
146863000 -25.726364 -121.47438 -0.088933773 -29.661049 -0.086606137 -29.64576 -25.722412 -116.40199
147862000 -25.685946 -121.7973 -0.08980947 -29.856329 -0.086984567 -29.846403 -25.696438 -116.71859
148861000 -25.654482 -122.21432 -0.090746403 -30.058392 -0.088871948 -30.039852 -25.669123 -116.86694
149860000 -25.619087 -122.40561 -0.091622472 -30.248688 -0.088737994 -30.238911 -25.621822 -116.94276
150859000 -25.598423 -122.83768 -0.09064623 -30.446405 -0.088946983 -30.426622 -25.600527 -117.32205
151858000 -25.583414 -123.22363 -0.090823852 -30.650898 -0.088071197 -30.631435 -25.587519 -117.65725
152857000 -25.570047 -123.53575 -0.090855576 -30.843407 -0.088591896 -30.836252 -25.574011 -117.80573
153856000 -25.566628 -123.74399 -0.090981394 -31.042521 -0.088436551 -31.034817 -25.58709 -118.14976
154855000 -25.562233 -123.93233 -0.091107488 -31.24675 -0.087919839 -31.232735 -25.579506 -118.39136
155854000 -25.578018 -124.16389 -0.091716327 -31.443277 -0.088290989 -31.431656 -25.567856 -118.63245
156853000 -25.567081 -124.87526 -0.089424185 -31.632429 -0.087821573 -31.623148 -25.562101 -118.98336
157852000 -25.572016 -125.07491 -0.090720236 -31.836454 -0.089534111 -31.826012 -25.551918 -119.29834
158851000 -25.566648 -125.27313 -0.091084488 -32.033218 -0.089491308 -32.025852 -25.536049 -119.58455
159850000 -25.558064 -125.38691 -0.091879718 -32.234344 -0.089953236 -32.225113 -25.536346 -119.76667
160849000 -25.5429 -125.48843 -0.091817319 -32.433247 -0.09061715 -32.427673 -25.504061 -120.08987
161848000 -25.523529 -125.57007 -0.092134073 -32.634197 -0.090349674 -32.626011 -25.469746 -120.1685
162847000 -25.485741 -125.73714 -0.091348313 -32.830616 -0.091095857 -32.824848 -25.435272 -120.44022
163846000 -25.441597 -125.94952 -0.092365704 -33.030186 -0.091519624 -33.021812 -25.358273 -120.42007
164845000 -25.387772 -125.90463 -0.093163274 -33.233891 -0.091372371 -33.225513 -25.295956 -120.54762
165844000 -25.334564 -125.96603 -0.093180731 -33.431179 -0.091706805 -33.427952 -25.219227 -120.68053
166843000 -25.27179 -126.00127 -0.092834815 -33.633247 -0.091563776 -33.624607 -25.153992 -120.84254
167842000 -25.215515 -126.12268 -0.09390413 -33.828125 -0.091592327 -33.82515 -25.076902 -120.74743
168841000 -25.13278 -126.26289 -0.094233468 -34.029186 -0.092280559 -34.024372 -25.000141 -120.80582
169840000 -25.074854 -126.51544 -0.093571641 -34.22665 -0.092575133 -34.2215 -24.916508 -120.9991
170839000 -25.011301 -126.767 -0.09483242 -34.427216 -0.09256614 -34.420937 -24.83746 -121.19453
171838000 -24.951715 -127.15568 -0.094820783 -34.623695 -0.093984276 -34.617546 -24.773405 -121.40463
172837000 -24.885855 -127.48273 -0.096227482 -34.820751 -0.094790615 -34.816338 -24.70672 -121.60569
173836000 -24.817463 -127.89879 -0.097822875 -35.022579 -0.095571704 -35.018005 -24.663124 -121.81362
174835000 -24.766966 -128.29077 -0.097972997 -35.218643 -0.096653074 -35.218674 -24.622309 -122.11031
175834000 -24.710665 -128.64639 -0.099032983 -35.419556 -0.097840346 -35.415909 -24.562147 -122.40044
176833000 -24.661779 -128.98535 -0.10000369 -35.617443 -0.098425239 -35.612114 -24.511806 -122.51456
177832000 -24.616983 -129.42274 -0.10128754 -35.817871 -0.099275835 -35.818768 -24.492741 -122.62875
178831000 -24.574013 -129.64287 -0.10271754 -36.009251 -0.10079367 -36.009842 -24.455908 -122.7041
179830000 -24.500185 -130.04501 -0.10303561 -36.194492 -0.10146984 -36.199451 -24.392191 -122.75282
180829000 -24.449915 -130.41595 -0.10248907 -36.392368 -0.10091024 -36.39101 -24.349188 -123.10292
181828000 -24.430599 -130.81631 -0.10188481 -36.588478 -0.10087315 -36.587635 -24.329977 -123.27564
182827000 -24.407591 -131.20874 -0.10147673 -36.787334 -0.10113916 -36.783401 -24.322969 -123.42962
183826000 -24.363026 -131.51939 -0.10267831 -36.989178 -0.10110471 -36.983315 -24.312542 -123.58518
184825000 -24.371773 -131.84366 -0.10221343 -37.182247 -0.10034011 -37.183334 -24.288927 -123.68421
185824000 -24.344124 -132.22514 -0.10229903 -37.376514 -0.1011275 -37.377617 -24.285397 -123.73547
186823000 -24.328688 -132.57768 -0.10271436 -37.579651 -0.10125521 -37.574554 -24.282282 -123.78417
187822000 -24.303974 -132.92268 -0.10333304 -37.77433 -0.10138875 -37.775494 -24.243761 -123.85667
188821000 -24.279608 -133.17593 -0.10289778 -37.969757 -0.10215407 -37.971031 -24.219463 -123.98706
189820000 -24.262699 -133.47836 -0.10378213 -38.16853 -0.10172582 -38.1693 -24.204878 -124.17302
190819000 -24.233049 -133.78868 -0.10359867 -38.367828 -0.10201891 -38.365788 -24.170448 -124.18355
191818000 -24.201849 -134.08887 -0.10380255 -38.563702 -0.10264571 -38.564308 -24.141256 -124.26987
192817000 -24.153965 -134.34091 -0.10491593 -38.759888 -0.10251955 -38.762444 -24.096598 -124.32381
193816000 -24.122013 -134.59279 -0.10453938 -38.957458 -0.10290441 -38.953884 -24.046753 -124.44877
194815000 -24.06118 -135.03735 -0.10497348 -39.151871 -0.10415146 -39.156452 -23.977409 -124.54693
195814000 -24.010052 -135.2155 -0.10561185 -39.350147 -0.10355307 -39.349915 -23.922819 -124.63414
196813000 -23.955767 -135.54437 -0.10527448 -39.542747 -0.10358329 -39.54821 -23.844412 -124.79278
197812000 -23.894419 -135.73706 -0.10492017 -39.741077 -0.10410029 -39.741417 -23.774801 -124.88974
198811000 -23.844635 -135.92209 -0.10512331 -39.942841 -0.10462318 -39.942501 -23.70682 -125.04118
199810000 -23.769499 -136.24796 -0.1059235 -40.131516 -0.10468549 -40.129395 -23.630497 -125.13288
200809000 -23.711205 -136.51408 -0.10625587 -40.328053 -0.10525831 -40.333858 -23.551384 -125.30438
201808000 -23.65521 -136.72386 -0.10673339 -40.531479 -0.10558055 -40.534637 -23.485548 -125.38147
202807000 -23.600119 -137.05696 -0.10770715 -40.733997 -0.10620919 -40.737339 -23.431768 -125.55609
