!Keysight Technologies,E5080B,MY59205177,A.15.75.32
!Date: Friday, February 23, 2024 03:36:17
!Correction: S11(Cdelta 2-Port  ) 
!S21(Cdelta 2-Port  ) 
!S12(Cdelta 2-Port  ) 
!S22(Cdelta 2-Port  ) 
!S2P File: Measurements: S11, S21, S12, S22:
# Hz S  dB   R 50
10000000 -46.066219 -2.8134065 -0.015458363 -2.042289 -0.017858639 -2.0984173 -45.90794 -157.95868
10999000 -45.283081 -4.4528484 -0.016909493 -2.2645679 -0.017996663 -2.3148332 -45.839485 -151.60339
11998000 -44.341656 -7.5361147 -0.017398855 -2.4903405 -0.017133765 -2.5313554 -46.035931 -147.30051
12997000 -43.610634 -12.939051 -0.017110895 -2.6699901 -0.016931061 -2.6997645 -45.586845 -141.4472
13996000 -43.29818 -17.272226 -0.015971724 -2.8521471 -0.017389238 -2.8711574 -45.415226 -136.62434
14995000 -42.926102 -21.593575 -0.01748878 -3.0569255 -0.017634328 -3.0822642 -45.122616 -132.89325
15994000 -42.756611 -25.874723 -0.019577352 -3.2762382 -0.01984337 -3.2959146 -44.994816 -129.46104
16993000 -42.672871 -30.92889 -0.01823503 -3.4752588 -0.019476462 -3.4853082 -44.186615 -129.19359
17992000 -42.726719 -35.944908 -0.018363966 -3.6738238 -0.02063502 -3.6747651 -43.611923 -129.26324
18991000 -42.999104 -41.473511 -0.0196473 -3.8847351 -0.020370774 -3.8808064 -42.957977 -127.72243
19990000 -42.718086 -47.100208 -0.02173431 -4.0929127 -0.022978825 -4.0876079 -42.263302 -128.81483
20989000 -42.579281 -50.413506 -0.023944918 -4.2979226 -0.024531914 -4.2845807 -41.741253 -128.25116
21988000 -42.409237 -55.635872 -0.024735494 -4.4956717 -0.025375973 -4.4819694 -41.507553 -127.37563
22987000 -42.056564 -60.675739 -0.025914725 -4.6939573 -0.026160037 -4.6835389 -41.229637 -126.91888
23986000 -41.965347 -64.564575 -0.025798585 -4.8873091 -0.025436381 -4.8866787 -41.130798 -126.7709
24985000 -41.567631 -67.298531 -0.026971593 -5.0953331 -0.025524911 -5.0922651 -40.895905 -124.47742
25984000 -41.228722 -69.313843 -0.027633505 -5.3020139 -0.025915246 -5.3004546 -40.547348 -122.71761
26983000 -40.892818 -71.077805 -0.028357267 -5.5013075 -0.027060416 -5.5199184 -40.431942 -122.05087
27982000 -40.737755 -72.133492 -0.029099392 -5.7047668 -0.028688967 -5.7357445 -40.195313 -120.4489
28981000 -40.720135 -73.634155 -0.02731986 -5.895154 -0.028299686 -5.9209623 -39.974522 -120.0156
29980000 -40.300838 -74.848763 -0.027603285 -6.0932727 -0.029137962 -6.097959 -39.727684 -119.00019
30979000 -39.903255 -73.908188 -0.025154918 -6.4486589 -0.024116714 -6.4427552 -39.180214 -119.53227
31978000 -39.705582 -74.962547 -0.024060229 -6.6408129 -0.024116714 -6.6351109 -38.934624 -118.79281
32977000 -39.525299 -76.425789 -0.023668759 -6.8533797 -0.024972929 -6.8498688 -38.705742 -118.74931
33976000 -39.353191 -77.535141 -0.024681345 -7.0538583 -0.025650419 -7.0483642 -38.420643 -118.32471
34975000 -39.045639 -78.397278 -0.024670931 -7.2536087 -0.026727799 -7.253767 -38.198303 -117.93365
35974000 -38.883438 -78.880112 -0.024109164 -7.4492145 -0.025952484 -7.4526458 -37.940075 -116.98441
36973000 -38.622887 -79.590378 -0.024747729 -7.6472764 -0.026915593 -7.6510372 -37.677025 -116.01444
37972000 -38.44413 -79.337456 -0.024495209 -7.8576612 -0.026937211 -7.867415 -37.440434 -115.26073
38971000 -38.134476 -78.917274 -0.026260562 -8.0599546 -0.026872095 -8.0687275 -37.285522 -113.73812
39970000 -37.810822 -79.044197 -0.024230987 -8.2535639 -0.024969805 -8.2737036 -37.021919 -113.13131
40969000 -37.523495 -78.882057 -0.024343181 -8.4504595 -0.025927486 -8.4686241 -36.793671 -111.66644
41968000 -37.174339 -78.763718 -0.024390299 -8.6570406 -0.02610014 -8.6695757 -36.610001 -110.56418
42967000 -36.910923 -78.70903 -0.024131812 -8.8664293 -0.026222279 -8.887989 -36.397423 -108.5856
43966000 -36.623112 -79.400986 -0.024310382 -9.0690022 -0.027774183 -9.0812006 -36.142521 -107.94775
44965000 -36.391205 -80.214867 -0.025609797 -9.2699852 -0.027800236 -9.2935677 -35.920177 -107.74377
45964000 -36.170387 -81.303825 -0.026175402 -9.468708 -0.029129623 -9.4897203 -35.677128 -107.41671
46963000 -35.957012 -83.174278 -0.027263854 -9.6650381 -0.029705068 -9.6876249 -35.511986 -107.47407
47962000 -35.803101 -84.59005 -0.02888336 -9.8682718 -0.030577768 -9.8832636 -35.292702 -107.61244
48961000 -35.566395 -85.989021 -0.030317087 -10.063535 -0.03196355 -10.084034 -35.089756 -107.77597
49960000 -35.323696 -87.325623 -0.03171191 -10.263354 -0.033712637 -10.28484 -34.941566 -107.74543
50959000 -35.108917 -88.531525 -0.032287698 -10.479043 -0.034163717 -10.487269 -34.75848 -108.13473
51958000 -34.90593 -89.661797 -0.034099534 -10.673608 -0.035658956 -10.686463 -34.597126 -108.6416
52957000 -34.690887 -90.603485 -0.035947885 -10.872998 -0.037494391 -10.885743 -34.417896 -108.33936
53956000 -34.519218 -91.339355 -0.037386816 -11.07886 -0.038182713 -11.079659 -34.28384 -108.25169
54955000 -34.356438 -91.776756 -0.038057629 -11.281703 -0.03885835 -11.280099 -34.142059 -108.22647
55954000 -34.192413 -92.625954 -0.038749959 -11.480029 -0.038307805 -11.473193 -34.033054 -107.90033
56953000 -34.075813 -92.687286 -0.038225021 -11.679375 -0.038264193 -11.66674 -33.947937 -108.08961
57952000 -33.890438 -93.258003 -0.039818317 -11.877128 -0.039041445 -11.866482 -33.858963 -108.23138
58951000 -33.771675 -93.566505 -0.040406939 -12.081246 -0.040582784 -12.058992 -33.71067 -108.29035
59950000 -33.646423 -93.861038 -0.040905487 -12.283407 -0.040418174 -12.258064 -33.630138 -108.55739
60949000 -33.537819 -94.475281 -0.041130483 -12.483188 -0.04160272 -12.459659 -33.534271 -108.78029
61948000 -33.464188 -94.809921 -0.042229224 -12.680981 -0.040943902 -12.662631 -33.448708 -108.89885
62947000 -33.38369 -94.983734 -0.041883156 -12.894253 -0.042570088 -12.871644 -33.320564 -109.15307
63946000 -33.308384 -95.731171 -0.0429 -13.094836 -0.042777129 -13.071751 -33.196377 -109.3386
64945000 -33.204189 -95.834648 -0.043424197 -13.295637 -0.043674421 -13.276373 -33.09148 -109.76186
65944000 -33.110542 -96.13076 -0.044434074 -13.494076 -0.044084433 -13.478508 -32.999756 -110.22343
66943000 -32.953487 -96.565544 -0.042209096 -13.696251 -0.042555969 -13.679358 -32.882065 -110.51175
67942000 -32.900013 -96.544342 -0.043803852 -13.892734 -0.044196881 -13.882292 -32.762665 -110.82958
68941000 -32.778942 -96.654831 -0.043475442 -14.085241 -0.043517277 -14.076448 -32.65519 -110.7384
69940000 -32.682312 -96.64856 -0.04341609 -14.287338 -0.04415321 -14.280439 -32.51141 -111.07155
70939000 -32.591114 -96.596245 -0.043616373 -14.48421 -0.044177007 -14.474586 -32.388031 -110.91334
71938000 -32.438465 -96.133102 -0.044105876 -14.677975 -0.04366187 -14.671086 -32.24828 -110.76107
72937000 -32.28577 -95.977539 -0.042916991 -14.877593 -0.043394912 -14.871242 -32.113701 -110.47395
73936000 -32.155987 -95.6231 -0.043021042 -15.079115 -0.042420302 -15.072566 -32.004814 -110.25172
74935000 -32.023941 -95.839996 -0.042656355 -15.273944 -0.042123884 -15.268893 -31.84782 -109.94089
75934000 -31.89267 -96.025879 -0.042334564 -15.480914 -0.041602194 -15.474676 -31.757973 -109.82444
76933000 -31.764204 -96.386047 -0.042749681 -15.675483 -0.043355171 -15.668109 -31.595633 -110.2298
77932000 -31.668705 -97.173912 -0.044428844 -15.873189 -0.045111209 -15.866055 -31.491716 -110.12717
78931000 -31.587662 -97.920631 -0.043219216 -16.072395 -0.044409756 -16.068323 -31.394819 -109.98975
79930000 -31.477686 -98.80114 -0.045966864 -16.264746 -0.046808295 -16.264751 -31.303562 -110.29331
80929000 -31.366386 -99.624435 -0.046780821 -16.460762 -0.048083052 -16.45891 -31.192303 -110.57638
81928000 -31.260361 -100.3472 -0.047944069 -16.654884 -0.048948716 -16.649883 -31.066368 -110.4968
82927000 -31.148647 -100.99778 -0.049344044 -16.849642 -0.049909607 -16.847765 -30.961481 -110.82468
83926000 -31.04785 -101.76264 -0.051158819 -17.0509 -0.050892971 -17.050116 -30.839861 -111.01446
84925000 -30.933796 -102.09989 -0.051275641 -17.251854 -0.050875422 -17.249077 -30.749161 -111.07401
85924000 -30.851072 -102.51608 -0.052039243 -17.451466 -0.051991303 -17.448463 -30.668066 -111.03802
86923000 -30.739973 -103.06688 -0.052236259 -17.647594 -0.052234948 -17.644485 -30.560598 -110.86185
87922000 -30.627169 -103.36581 -0.052265339 -17.853046 -0.052462887 -17.84824 -30.474911 -110.95103
88921000 -30.552593 -103.62946 -0.053427439 -18.053621 -0.053394157 -18.048462 -30.38426 -110.95051
89920000 -30.451378 -104.10207 -0.053541176 -18.252359 -0.054298889 -18.244127 -30.330513 -111.08486
90919000 -30.345617 -104.42432 -0.055140361 -18.450027 -0.05462471 -18.448681 -30.244766 -111.28638
91918000 -30.250055 -104.6994 -0.056457691 -18.648645 -0.054887641 -18.643091 -30.181488 -111.26008
92917000 -30.165882 -105.0709 -0.057242405 -18.846857 -0.056046244 -18.843325 -30.115702 -111.33849
93916000 -30.084953 -105.39227 -0.056555774 -19.041243 -0.056394752 -19.037426 -30.018124 -111.952
94915000 -30.0035 -106.00629 -0.057951968 -19.24596 -0.057077162 -19.238852 -29.956514 -111.79024
95914000 -29.94096 -106.1484 -0.058808319 -19.437536 -0.057991058 -19.433014 -29.868361 -112.08041
96913000 -29.84696 -106.44009 -0.059771657 -19.637262 -0.059288781 -19.635241 -29.8064 -112.44946
97912000 -29.77396 -106.89542 -0.061028697 -19.836576 -0.059599232 -19.838758 -29.720484 -112.62636
98911000 -29.669777 -107.0059 -0.061961018 -20.036919 -0.06037664 -20.035749 -29.676785 -112.9046
99910000 -29.604305 -107.17089 -0.062554747 -20.236784 -0.061163373 -20.234047 -29.568693 -113.17561
100909000 -29.507492 -107.43148 -0.061661687 -20.444231 -0.060589779 -20.436563 -29.485792 -113.36415
101908000 -29.417871 -107.66824 -0.062669776 -20.646868 -0.061750956 -20.643055 -29.380293 -113.14097
102907000 -29.286304 -107.65011 -0.062858604 -20.83931 -0.061942372 -20.845499 -29.30554 -113.13625
103906000 -29.198627 -107.75433 -0.06402643 -21.050308 -0.060651205 -21.044432 -29.159658 -113.10052
104905000 -29.043325 -107.62189 -0.064154893 -21.248777 -0.062120929 -21.248987 -29.032259 -112.78999
105904000 -28.901983 -107.65473 -0.064845093 -21.454031 -0.062627494 -21.446129 -28.922421 -112.6227
106903000 -28.784323 -107.76696 -0.064433113 -21.657082 -0.062491722 -21.652092 -28.801485 -112.51535
107902000 -28.617409 -108.07021 -0.065584809 -21.858305 -0.062913232 -21.850775 -28.665773 -112.49529
108901000 -28.513247 -108.3319 -0.066694483 -22.059338 -0.063813381 -22.05308 -28.535395 -112.42798
109900000 -28.396105 -108.78549 -0.066913456 -22.262978 -0.064893179 -22.24939 -28.385391 -112.50291
110899000 -28.264805 -109.40318 -0.068762414 -22.452951 -0.065723307 -22.446768 -28.258486 -112.79485
111898000 -28.178883 -110.05148 -0.069790304 -22.65889 -0.066886649 -22.652754 -28.146898 -112.89766
112897000 -28.051527 -110.61996 -0.07110814 -22.857096 -0.068139702 -22.847916 -28.011442 -113.0507
113896000 -27.948811 -111.15462 -0.072321616 -23.0595 -0.06959644 -23.046967 -27.906731 -113.23355
114895000 -27.846657 -111.79096 -0.07373026 -23.255278 -0.070267513 -23.244123 -27.789333 -113.27139
115894000 -27.718758 -112.18237 -0.074326657 -23.456995 -0.071626015 -23.447071 -27.727524 -113.53172
116893000 -27.64258 -112.62215 -0.075514957 -23.656321 -0.073101036 -23.637543 -27.599037 -113.56311
117892000 -27.559647 -113.16399 -0.075598985 -23.848999 -0.073056288 -23.837173 -27.529837 -113.75164
118891000 -27.503208 -113.5043 -0.075511009 -24.05357 -0.073744215 -24.035162 -27.431814 -113.83421
119890000 -27.418413 -113.88907 -0.075920083 -24.255043 -0.073914044 -24.238756 -27.420595 -114.02857
120889000 -27.368851 -114.31997 -0.077796862 -24.456638 -0.074080452 -24.437624 -27.346363 -113.99978
121888000 -27.330841 -114.70198 -0.077665098 -24.651133 -0.075100914 -24.633265 -27.287626 -114.24627
122887000 -27.292696 -114.90552 -0.077713586 -24.851774 -0.075158067 -24.843786 -27.244394 -114.22366
123886000 -27.237617 -115.33858 -0.078747556 -25.053999 -0.075619265 -25.036043 -27.22823 -114.33825
124885000 -27.204758 -115.8331 -0.079579279 -25.253508 -0.076650888 -25.245584 -27.195438 -114.40965
125884000 -27.153744 -116.00914 -0.079694495 -25.452753 -0.077020817 -25.439228 -27.163368 -114.5969
126883000 -27.138819 -116.39081 -0.080448344 -25.655787 -0.077837974 -25.643078 -27.125404 -114.58578
127882000 -27.083202 -116.67921 -0.080803566 -25.856255 -0.077780791 -25.840334 -27.088007 -114.6999
128881000 -27.057993 -117.00438 -0.081026942 -26.058872 -0.077681698 -26.043127 -27.049568 -114.81062
129880000 -27.002985 -117.28786 -0.081929795 -26.263767 -0.078174002 -26.241865 -27.009659 -114.73949
130879000 -26.946573 -117.52548 -0.081340268 -26.460463 -0.079230227 -26.441399 -26.935661 -114.78114
131878000 -26.884226 -117.73071 -0.080970235 -26.66371 -0.078546964 -26.642052 -26.880907 -114.63138
132877000 -26.816025 -117.79145 -0.081355833 -26.862614 -0.079063877 -26.848227 -26.803453 -114.6406
133876000 -26.727491 -117.94831 -0.082071453 -27.064911 -0.079475664 -27.046717 -26.716793 -114.45387
134875000 -26.639996 -118.1068 -0.08232972 -27.270065 -0.080208652 -27.243088 -26.617001 -114.28253
135874000 -26.553488 -118.12172 -0.081931904 -27.465504 -0.079487264 -27.451578 -26.51722 -114.28043
136873000 -26.447107 -118.05164 -0.083033107 -27.668947 -0.079465382 -27.651115 -26.445124 -114.1901
137872000 -26.369587 -118.15793 -0.082848676 -27.871616 -0.079557925 -27.851206 -26.337467 -114.13633
138871000 -26.293467 -118.37997 -0.083332591 -28.067547 -0.079706356 -28.052973 -26.249788 -114.29943
139870000 -26.193365 -118.65099 -0.083749801 -28.268818 -0.080822021 -28.253099 -26.165541 -114.47197
140869000 -26.112429 -119.22208 -0.08464583 -28.465719 -0.081564203 -28.445486 -26.069695 -114.71799
141868000 -26.034035 -119.60471 -0.085447535 -28.665747 -0.082901709 -28.65205 -26.016077 -114.97065
142867000 -25.952335 -119.81203 -0.08451201 -28.865391 -0.082477197 -28.846914 -25.94059 -115.03744
143866000 -25.879448 -120.26208 -0.086027063 -29.06196 -0.083581433 -29.042791 -25.866209 -115.51458
144865000 -25.826059 -120.77638 -0.087932512 -29.258072 -0.085191987 -29.241617 -25.806011 -115.82605
145864000 -25.766714 -121.12614 -0.088008329 -29.460833 -0.086374812 -29.447548 -25.778105 -116.09843
146863000 -25.72003 -121.4475 -0.08935231 -29.659777 -0.086865731 -29.646191 -25.728884 -116.34442
147862000 -25.68642 -121.82877 -0.089849114 -29.858282 -0.087041616 -29.844433 -25.694996 -116.70587
148861000 -25.653236 -122.22144 -0.090575919 -30.059065 -0.088446058 -30.044725 -25.668774 -116.86147
149860000 -25.620102 -122.44606 -0.092348516 -30.250156 -0.089029424 -30.238323 -25.621517 -116.95225
150859000 -25.596006 -122.89963 -0.091139473 -30.444374 -0.088842355 -30.432062 -25.59683 -117.28827
151858000 -25.583399 -123.23438 -0.091318712 -30.648012 -0.088612504 -30.630529 -25.591301 -117.6652
152857000 -25.564198 -123.54714 -0.091339596 -30.841589 -0.089489192 -30.830862 -25.571495 -117.86042
153856000 -25.566448 -123.78265 -0.090858214 -31.045938 -0.088869311 -31.031258 -25.584776 -118.15834
154855000 -25.564922 -123.90125 -0.090938576 -31.244287 -0.088359676 -31.235573 -25.577732 -118.37494
155854000 -25.578844 -124.1744 -0.091727696 -31.447264 -0.089039199 -31.432199 -25.571108 -118.66364
156853000 -25.561932 -124.85706 -0.089096531 -31.634964 -0.088130638 -31.623363 -25.560745 -118.98096
157852000 -25.574179 -125.05908 -0.091019459 -31.833849 -0.090416275 -31.825834 -25.549236 -119.3672
158851000 -25.568165 -125.28055 -0.091331929 -32.033653 -0.090514071 -32.024338 -25.536295 -119.60841
159850000 -25.557289 -125.41438 -0.091968291 -32.23222 -0.090773106 -32.224274 -25.534189 -119.77977
160849000 -25.539988 -125.50102 -0.091876544 -32.433453 -0.091309719 -32.427422 -25.503735 -120.06905
161848000 -25.523535 -125.56091 -0.092044175 -32.633339 -0.09088967 -32.622219 -25.467016 -120.14793
162847000 -25.482925 -125.75227 -0.092011914 -32.829685 -0.091699935 -32.831154 -25.433643 -120.41624
163846000 -25.444141 -125.91299 -0.092519596 -33.030605 -0.091763385 -33.023174 -25.355089 -120.44212
164845000 -25.390919 -125.91689 -0.092781924 -33.233257 -0.092296161 -33.226269 -25.294813 -120.54788
165844000 -25.330612 -125.98734 -0.092666365 -33.432583 -0.092575394 -33.425743 -25.215744 -120.66767
166843000 -25.270298 -126.04474 -0.092834815 -33.630112 -0.092582531 -33.626308 -25.150057 -120.80695
167842000 -25.212967 -126.1032 -0.093751505 -33.829029 -0.092941388 -33.82407 -25.077019 -120.72265
168841000 -25.133406 -126.27601 -0.093452618 -34.031532 -0.093352377 -34.024349 -25.002108 -120.77702
169840000 -25.074188 -126.54629 -0.093886934 -34.226131 -0.093429871 -34.222195 -24.919476 -120.96201
170839000 -25.014534 -126.76145 -0.09447103 -34.42001 -0.093939841 -34.419151 -24.839941 -121.16035
171838000 -24.956909 -127.15607 -0.094828449 -34.627201 -0.094718128 -34.619171 -24.775335 -121.38381
172837000 -24.883083 -127.49374 -0.096031636 -34.820354 -0.096013643 -34.814018 -24.714493 -121.56636
173836000 -24.815548 -127.89412 -0.097272478 -35.02161 -0.096808709 -35.016045 -24.666279 -121.77467
174835000 -24.76572 -128.30678 -0.097835056 -35.216644 -0.09727142 -35.217018 -24.627375 -122.11227
175834000 -24.713787 -128.64009 -0.099046484 -35.416092 -0.0978655 -35.412457 -24.564207 -122.37848
176833000 -24.661997 -128.98215 -0.099997334 -35.615814 -0.098754652 -35.61441 -24.52125 -122.51567
177832000 -24.618874 -129.43452 -0.10056265 -35.81477 -0.099779069 -35.816711 -24.497246 -122.63464
178831000 -24.571138 -129.64555 -0.10184082 -36.010452 -0.10174012 -36.009796 -24.461946 -122.70357
179830000 -24.504164 -130.06419 -0.103227 -36.195843 -0.10199347 -36.1931 -24.391779 -122.7571
180829000 -24.450411 -130.40262 -0.10220575 -36.391182 -0.10111134 -36.388748 -24.34868 -123.11512
181828000 -24.43034 -130.8264 -0.10184242 -36.587326 -0.10070783 -36.58696 -24.336966 -123.29617
182827000 -24.407558 -131.19843 -0.10113492 -36.786175 -0.10068451 -36.78828 -24.322464 -123.44552
183826000 -24.366434 -131.54546 -0.10233906 -36.985748 -0.10108086 -36.982079 -24.313496 -123.59356
184825000 -24.372122 -131.88356 -0.10222138 -37.182938 -0.10226114 -37.181576 -24.294416 -123.71247
185824000 -24.344028 -132.23698 -0.10240372 -37.376961 -0.10202845 -37.378513 -24.28924 -123.79205
186823000 -24.327194 -132.58554 -0.1020417 -37.581127 -0.10166142 -37.576221 -24.283722 -123.78678
187822000 -24.303574 -132.93417 -0.10288161 -37.773132 -0.10276392 -37.771225 -24.240261 -123.88139
188821000 -24.282253 -133.2045 -0.10251557 -37.966125 -0.10231414 -37.970516 -24.222782 -123.99712
189820000 -24.259123 -133.48007 -0.10260781 -38.172504 -0.10268521 -38.169994 -24.204456 -124.19135
190819000 -24.229012 -133.79347 -0.10364904 -38.367348 -0.10300911 -38.363075 -24.168777 -124.20401
191818000 -24.20014 -134.09222 -0.10340966 -38.563091 -0.10307909 -38.563427 -24.140854 -124.26789
192817000 -24.152464 -134.37451 -0.10402764 -38.762268 -0.10339666 -38.761631 -24.094097 -124.35
193816000 -24.119783 -134.63521 -0.10488066 -38.958023 -0.10283257 -38.955086 -24.040262 -124.48926
194815000 -24.060354 -134.99217 -0.10421589 -39.153526 -0.10434926 -39.154888 -23.977516 -124.5526
195814000 -24.00547 -135.20335 -0.10606674 -39.35326 -0.1039587 -39.35173 -23.91976 -124.67
196813000 -23.951672 -135.52313 -0.1048613 -39.542023 -0.10411195 -39.546146 -23.841587 -124.77239
197812000 -23.891203 -135.72981 -0.10486767 -39.741398 -0.10510263 -39.73933 -23.774218 -124.88593
198811000 -23.837826 -135.90491 -0.10501724 -39.938297 -0.10416525 -39.945442 -23.700508 -125.04987
199810000 -23.767666 -136.24373 -0.10500901 -40.134064 -0.10466958 -40.130905 -23.621395 -125.13445
200809000 -23.713278 -136.48878 -0.1055588 -40.331127 -0.1046534 -40.331791 -23.547083 -125.29745
201808000 -23.653572 -136.70523 -0.10655511 -40.531151 -0.10615295 -40.534054 -23.481037 -125.35947
202807000 -23.591997 -137.06767 -0.10717912 -40.731266 -0.10661401 -40.73745 -23.43247 -125.5609
