!Keysight Technologies,E5080B,MY59205177,A.15.75.32
!Date: Friday, February 23, 2024 02:58:04
!Correction: S11(Cdelta 2-Port  ) 
!S21(Cdelta 2-Port  ) 
!S12(Cdelta 2-Port  ) 
!S22(Cdelta 2-Port  ) 
!S2P File: Measurements: S11, S21, S12, S22:
# Hz S  dB   R 50
10000000 -44.046833 -3.5667582 -0.027759595 -2.0401571 -0.031219369 -2.0929942 -48.229553 -150.02036
10999000 -43.42627 -5.1029558 -0.028862774 -2.2596843 -0.031782575 -2.3141003 -47.928967 -142.22812
11998000 -42.621677 -7.8024673 -0.028863816 -2.4759347 -0.031172698 -2.5241375 -48.048248 -136.60231
12997000 -42.0215 -12.294311 -0.028579006 -2.6589725 -0.030887216 -2.6921935 -47.41608 -130.32898
13996000 -41.780064 -15.805655 -0.027721038 -2.8375647 -0.031051725 -2.8623781 -46.950752 -124.48756
14995000 -41.452026 -19.455481 -0.030365571 -3.0475624 -0.030545441 -3.0744913 -46.521912 -121.30373
15994000 -41.324024 -23.310715 -0.031353123 -3.268266 -0.032977547 -3.286979 -46.265175 -117.07227
16993000 -41.343929 -27.228865 -0.029814538 -3.4633694 -0.032540936 -3.4728627 -45.35667 -118.03735
17992000 -41.439106 -31.865395 -0.030681262 -3.6629157 -0.032805402 -3.6649754 -44.694996 -119.14635
18991000 -41.679771 -36.166164 -0.031599525 -3.8720105 -0.033620287 -3.8698609 -44.014782 -118.75414
19990000 -41.543896 -41.314751 -0.034057006 -4.0795913 -0.035777185 -4.0757079 -43.323986 -120.44534
20989000 -41.461094 -44.425995 -0.035618499 -4.283679 -0.037673771 -4.2715392 -42.718418 -120.31362
21988000 -41.337402 -48.653427 -0.036616907 -4.480092 -0.038735073 -4.4688721 -42.476685 -119.49619
22987000 -41.154591 -53.042542 -0.037444256 -4.6786804 -0.039621342 -4.6707206 -42.204136 -119.5004
23986000 -41.171665 -57.275433 -0.037303265 -4.8741846 -0.038530312 -4.8723931 -42.089645 -119.38647
24985000 -40.859402 -59.626091 -0.038668733 -5.0817127 -0.038915291 -5.0781231 -41.820221 -116.68684
25984000 -40.614735 -61.613239 -0.039385978 -5.2851038 -0.03908141 -5.288105 -41.455509 -115.43742
26983000 -40.320412 -63.545479 -0.040037245 -5.48457 -0.040265068 -5.5042214 -41.28233 -114.62588
27982000 -40.205658 -64.736916 -0.041273426 -5.6856508 -0.041909818 -5.7151804 -40.983574 -113.16285
28981000 -40.138382 -66.104828 -0.039706245 -5.8823752 -0.041870873 -5.9083881 -40.744785 -112.60197
29980000 -39.800987 -67.714455 -0.039410535 -6.0722246 -0.0417036 -6.0838628 -40.423969 -111.88351
30979000 -39.436123 -66.8601 -0.036593411 -6.4260521 -0.036559477 -6.4139686 -39.920391 -112.67553
31978000 -39.257969 -67.909103 -0.036077868 -6.6206622 -0.037913222 -6.6095462 -39.638187 -112.02985
32977000 -39.093983 -69.45797 -0.036776934 -6.8315368 -0.03871705 -6.8260512 -39.413212 -112.22459
33976000 -38.968529 -70.690872 -0.037260186 -7.0333509 -0.039117455 -7.0276046 -39.088127 -111.99184
34975000 -38.700085 -71.734955 -0.037166454 -7.2313724 -0.040046651 -7.2309523 -38.867519 -111.74809
35974000 -38.50116 -72.329636 -0.036171839 -7.4250789 -0.03960567 -7.4289827 -38.54258 -110.96508
36973000 -38.243443 -73.245987 -0.036663637 -7.6281242 -0.040366441 -7.6315274 -38.255173 -110.19283
37972000 -38.110813 -73.2827 -0.036502305 -7.8339028 -0.039786708 -7.8447866 -38.015549 -109.51114
38971000 -37.763062 -72.925919 -0.03743016 -8.0381308 -0.040375587 -8.0462332 -37.829288 -108.00697
39970000 -37.461937 -73.686928 -0.035481744 -8.2341309 -0.039130256 -8.2458277 -37.535549 -107.55135
40969000 -37.180355 -73.512421 -0.035634942 -8.4261112 -0.038548857 -8.4474993 -37.273392 -106.20174
41968000 -36.854889 -73.558052 -0.035825472 -8.6322374 -0.039253023 -8.6508646 -37.053261 -105.21812
42967000 -36.583176 -73.900909 -0.035768311 -8.8366022 -0.038923647 -8.8608217 -36.819698 -103.45975
43966000 -36.309914 -74.800003 -0.036995448 -9.0392733 -0.040555086 -9.0589275 -36.527756 -102.83318
44965000 -36.086746 -75.617035 -0.037638523 -9.2413311 -0.040438816 -9.2650242 -36.31221 -102.72499
45964000 -35.865604 -76.869179 -0.038645227 -9.4441376 -0.042058799 -9.4597025 -36.062225 -102.55016
46963000 -35.684299 -78.820534 -0.038591687 -9.6346903 -0.042967446 -9.6583805 -35.889843 -102.93383
47962000 -35.544788 -80.412376 -0.040358603 -9.8374224 -0.04325242 -9.8530273 -35.699982 -103.16782
48961000 -35.357353 -81.871094 -0.042099051 -10.032894 -0.045070142 -10.053391 -35.453171 -103.50682
49960000 -35.139713 -83.141106 -0.043758616 -10.232817 -0.046225086 -10.253139 -35.320717 -103.6339
50959000 -34.937946 -84.556602 -0.044048872 -10.448318 -0.047731809 -10.457519 -35.139977 -104.07488
51958000 -34.74712 -85.653862 -0.046325814 -10.64517 -0.048800547 -10.653275 -34.957729 -104.63634
52957000 -34.553436 -86.817078 -0.047673706 -10.843828 -0.050151825 -10.850276 -34.807892 -104.44756
53956000 -34.384373 -87.576096 -0.048726983 -11.04758 -0.051087577 -11.045892 -34.658573 -104.41628
54955000 -34.230476 -88.119751 -0.04961006 -11.243823 -0.052436948 -11.240584 -34.523438 -104.53479
55954000 -34.080772 -88.994972 -0.050343778 -11.448713 -0.051961437 -11.438523 -34.405075 -104.10168
56953000 -33.958694 -89.100464 -0.050270453 -11.645373 -0.050873067 -11.630286 -34.327751 -104.50563
57952000 -33.80621 -89.709808 -0.051310215 -11.842357 -0.052211631 -11.834466 -34.236729 -104.53378
58951000 -33.689987 -90.062531 -0.052311976 -12.045581 -0.053436346 -12.026863 -34.072449 -104.68819
59950000 -33.570778 -90.364166 -0.052408654 -12.246511 -0.053638928 -12.225186 -34.012169 -104.97681
60949000 -33.453476 -91.017418 -0.053428486 -12.44605 -0.053714931 -12.425384 -33.906006 -105.35135
61948000 -33.396172 -91.346794 -0.054060891 -12.645167 -0.053565022 -12.629243 -33.831871 -105.35706
62947000 -33.314217 -91.571716 -0.054584865 -12.855991 -0.054699682 -12.837847 -33.694378 -105.70585
63946000 -33.254383 -92.375946 -0.054653283 -13.05407 -0.055411976 -13.033913 -33.59222 -105.83495
64945000 -33.139957 -92.497429 -0.055112049 -13.253757 -0.05631398 -13.237763 -33.483868 -106.36028
65944000 -33.044777 -92.822884 -0.056099739 -13.451193 -0.055961549 -13.438825 -33.394333 -106.74352
66943000 -32.898521 -93.186707 -0.054137163 -13.655484 -0.054492597 -13.636767 -33.288559 -107.09515
67942000 -32.852173 -93.141991 -0.056340732 -13.851377 -0.057253681 -13.840221 -33.166466 -107.35615
68941000 -32.737251 -93.311546 -0.056184702 -14.042955 -0.05586243 -14.035561 -33.056129 -107.34296
69940000 -32.642612 -93.358124 -0.055852205 -14.245012 -0.056810427 -14.234468 -32.912319 -107.59485
70939000 -32.534691 -93.188004 -0.05607168 -14.438807 -0.056850031 -14.436288 -32.790276 -107.61723
71938000 -32.403801 -92.921822 -0.055808939 -14.636599 -0.056253407 -14.62991 -32.65596 -107.48276
72937000 -32.234631 -92.694275 -0.055533107 -14.835905 -0.056554724 -14.828404 -32.51004 -107.21693
73936000 -32.092724 -92.505219 -0.054939024 -15.033028 -0.055022389 -15.025324 -32.402519 -107.02734
74935000 -31.971844 -92.679901 -0.054380931 -15.229977 -0.054427065 -15.225139 -32.240894 -106.72302
75934000 -31.849981 -92.978127 -0.054870337 -15.438668 -0.054354455 -15.430037 -32.159454 -106.65736
76933000 -31.719883 -93.393562 -0.055876065 -15.628942 -0.05570668 -15.627097 -31.99321 -107.10256
77932000 -31.633436 -94.20961 -0.056906417 -15.826444 -0.057241619 -15.822005 -31.892817 -107.09985
78931000 -31.565617 -94.949745 -0.055534679 -16.029037 -0.056426484 -16.020569 -31.790319 -106.94852
79930000 -31.446934 -95.807106 -0.058807272 -16.21978 -0.059008788 -16.215162 -31.698063 -107.25161
80929000 -31.330814 -96.701599 -0.059753809 -16.415609 -0.060917389 -16.41046 -31.589838 -107.64647
81928000 -31.247536 -97.615067 -0.059792127 -16.604706 -0.060629416 -16.601431 -31.478384 -107.73008
82927000 -31.161057 -98.342575 -0.061648294 -16.802843 -0.061640419 -16.801788 -31.370222 -108.06455
83926000 -31.042908 -99.038513 -0.062950529 -17.003302 -0.063288294 -17.001097 -31.250948 -108.27814
84925000 -30.942518 -99.523956 -0.063894294 -17.200493 -0.063488446 -17.198732 -31.162546 -108.38448
85924000 -30.854244 -100.02252 -0.065119416 -17.399786 -0.065043218 -17.398375 -31.0728 -108.42944
86923000 -30.754698 -100.52426 -0.064620711 -17.596836 -0.064801738 -17.592808 -30.970728 -108.27021
87922000 -30.64064 -100.93479 -0.064574994 -17.804321 -0.065064237 -17.795868 -30.89698 -108.40715
88921000 -30.574392 -101.17908 -0.06587889 -18.003355 -0.065628961 -17.994703 -30.799044 -108.3475
89920000 -30.480942 -101.76871 -0.066107549 -18.200693 -0.066091776 -18.191465 -30.739347 -108.54211
90919000 -30.382929 -102.1223 -0.066924766 -18.394258 -0.067419007 -18.38722 -30.665218 -108.75938
91918000 -30.287994 -102.46576 -0.067965105 -18.599197 -0.067317523 -18.589725 -30.5993 -108.72602
92917000 -30.204222 -102.83533 -0.068899177 -18.795719 -0.068395823 -18.791933 -30.530199 -108.83206
93916000 -30.11945 -103.20894 -0.067615137 -18.989281 -0.068854205 -18.983023 -30.446711 -109.51674
94915000 -30.044436 -103.83382 -0.069402583 -19.187319 -0.069503061 -19.183653 -30.385427 -109.3757
95914000 -29.974558 -104.03804 -0.069980763 -19.381901 -0.070104666 -19.378765 -30.291626 -109.64909
96913000 -29.896727 -104.27691 -0.071433648 -19.582569 -0.072069995 -19.57939 -30.228477 -110.01499
97912000 -29.824612 -104.73884 -0.072892286 -19.777632 -0.071989201 -19.778671 -30.156021 -110.26012
98911000 -29.719481 -104.92905 -0.073032066 -19.979971 -0.072596677 -19.97611 -30.119028 -110.47021
99910000 -29.661058 -105.13496 -0.073663652 -20.179295 -0.073307432 -20.175945 -30.005306 -110.76303
100909000 -29.573553 -105.42749 -0.07355465 -20.386053 -0.072769351 -20.378895 -29.922102 -110.99903
101908000 -29.490894 -105.6321 -0.074885741 -20.58637 -0.074450955 -20.582859 -29.808456 -110.76753
102907000 -29.34808 -105.7021 -0.075376675 -20.783659 -0.073840581 -20.780674 -29.730593 -110.72736
103906000 -29.257551 -105.75558 -0.075303979 -20.992012 -0.073718414 -20.985874 -29.582956 -110.66492
104905000 -29.116159 -105.66282 -0.075385369 -21.189806 -0.074250028 -21.18712 -29.45879 -110.35506
105904000 -28.980173 -105.77876 -0.075823411 -21.390259 -0.074501246 -21.385757 -29.348083 -110.20598
106903000 -28.870098 -105.87333 -0.076102115 -21.595381 -0.074950002 -21.590233 -29.217079 -110.11707
107902000 -28.706335 -106.20078 -0.076471202 -21.79715 -0.075374037 -21.786226 -29.077246 -110.08473
108901000 -28.59033 -106.50515 -0.077673793 -21.996914 -0.076123454 -21.987593 -28.944019 -110.07964
109900000 -28.460579 -106.98331 -0.07838697 -22.197351 -0.077702522 -22.184484 -28.798641 -110.15475
110899000 -28.349239 -107.6311 -0.080281951 -22.391886 -0.078593351 -22.385647 -28.672604 -110.47027
111898000 -28.258654 -108.24792 -0.081776805 -22.593388 -0.079244986 -22.588493 -28.55427 -110.58292
112897000 -28.131376 -108.87562 -0.082818329 -22.793547 -0.080194935 -22.781721 -28.416098 -110.76338
113896000 -28.028864 -109.45259 -0.083819732 -22.993322 -0.081725895 -22.98073 -28.307716 -110.92832
114895000 -27.925392 -110.07231 -0.084910057 -23.191359 -0.083231002 -23.176071 -28.199129 -110.99422
115894000 -27.801128 -110.43232 -0.086337313 -23.390711 -0.084331475 -23.378361 -28.126333 -111.15637
116893000 -27.716034 -111.05401 -0.086917222 -23.582489 -0.084941998 -23.567684 -27.993975 -111.33347
117892000 -27.633751 -111.55213 -0.086986415 -23.785938 -0.085606471 -23.772295 -27.923475 -111.55776
118891000 -27.580021 -111.95363 -0.087375447 -23.983112 -0.085716031 -23.96895 -27.826012 -111.68806
119890000 -27.48838 -112.3401 -0.088166296 -24.186415 -0.085982434 -24.166922 -27.818762 -111.83336
120889000 -27.437256 -112.80243 -0.089061655 -24.382034 -0.086236715 -24.370245 -27.737955 -111.79237
121888000 -27.39427 -113.22205 -0.088947512 -24.581223 -0.086897947 -24.569534 -27.677212 -112.06079
122887000 -27.35779 -113.40735 -0.089754507 -24.781191 -0.087536827 -24.768467 -27.64006 -112.12847
123886000 -27.302082 -113.81381 -0.090425789 -24.983871 -0.08833088 -24.96608 -27.616999 -112.33669
124885000 -27.265621 -114.32933 -0.090361826 -25.185476 -0.088424399 -25.169205 -27.585831 -112.37576
125884000 -27.208612 -114.49818 -0.091724522 -25.379982 -0.088982128 -25.367706 -27.560541 -112.56335
126883000 -27.191978 -114.90144 -0.091846935 -25.58643 -0.089709319 -25.570108 -27.515793 -112.59535
127882000 -27.134741 -115.17016 -0.091775015 -25.7854 -0.090015605 -25.767521 -27.473633 -112.74558
128881000 -27.105558 -115.52052 -0.092075899 -25.986315 -0.090032518 -25.96788 -27.432457 -112.90513
129880000 -27.04986 -115.83578 -0.092944302 -26.188353 -0.089905933 -26.166962 -27.391201 -112.86156
130879000 -26.985643 -115.99986 -0.092973657 -26.385727 -0.090972148 -26.369476 -27.310585 -112.92403
131878000 -26.91971 -116.20059 -0.093311653 -26.589617 -0.091417842 -26.569466 -27.255577 -112.84306
132877000 -26.853945 -116.27229 -0.092465125 -26.790997 -0.091588363 -26.771891 -27.163746 -112.81992
133876000 -26.762306 -116.43019 -0.093712091 -26.987755 -0.091052771 -26.972095 -27.077696 -112.77825
134875000 -26.6742 -116.56458 -0.09337724 -27.190758 -0.091537602 -27.170996 -26.970776 -112.61842
135874000 -26.588867 -116.57488 -0.093828745 -27.387875 -0.091456443 -27.372829 -26.865971 -112.61038
136873000 -26.477354 -116.513 -0.094178446 -27.591061 -0.091369733 -27.575384 -26.783091 -112.58195
137872000 -26.401548 -116.66055 -0.093310855 -27.79369 -0.091874696 -27.776705 -26.678619 -112.55647
138871000 -26.325089 -116.85074 -0.094865754 -27.993837 -0.092032537 -27.972403 -26.580278 -112.71422
139870000 -26.223749 -117.07143 -0.095078215 -28.191496 -0.09330266 -28.173229 -26.500345 -112.88046
140869000 -26.145699 -117.54879 -0.0971343 -28.389191 -0.095141985 -28.369207 -26.387884 -113.0178
141868000 -26.045383 -118.03945 -0.096829355 -28.582249 -0.095402353 -28.564962 -26.322405 -113.33578
142867000 -25.96981 -118.33286 -0.095393352 -28.779591 -0.094229765 -28.759109 -26.243992 -113.52944
143866000 -25.904325 -118.81467 -0.09751974 -28.975613 -0.096009403 -28.957804 -26.173658 -114.03513
144865000 -25.846054 -119.35618 -0.098731875 -29.172316 -0.09718512 -29.158167 -26.115026 -114.36327
145864000 -25.791904 -119.63691 -0.098990344 -29.373676 -0.098072015 -29.361929 -26.0853 -114.63634
146863000 -25.74473 -120.03046 -0.09953963 -29.573481 -0.098214999 -29.560513 -26.034182 -114.94511
147862000 -25.703978 -120.41804 -0.1005841 -29.769083 -0.09876816 -29.755354 -25.999977 -115.25549
148861000 -25.673494 -120.89481 -0.10091368 -29.963329 -0.099228427 -29.952066 -25.97427 -115.52466
149860000 -25.659121 -121.10338 -0.10139909 -30.16107 -0.099462025 -30.155224 -25.938028 -115.64668
150859000 -25.635662 -121.47421 -0.10184348 -30.364836 -0.099883169 -30.349977 -25.931974 -115.94444
151858000 -25.625511 -121.80769 -0.10157266 -30.564667 -0.10061669 -30.549551 -25.922852 -116.2285
152857000 -25.606962 -122.13184 -0.10208728 -30.758224 -0.10055841 -30.750547 -25.906864 -116.33151
153856000 -25.602247 -122.3437 -0.10162114 -30.960289 -0.10045826 -30.943565 -25.926796 -116.67129
154855000 -25.591692 -122.54922 -0.10289248 -31.158962 -0.10099185 -31.145792 -25.916573 -116.88892
155854000 -25.611494 -122.77958 -0.10244136 -31.358042 -0.10054649 -31.344658 -25.906639 -117.12363
156853000 -25.591848 -123.4845 -0.10020395 -31.545126 -0.099851646 -31.537466 -25.902954 -117.38168
157852000 -25.596216 -123.71352 -0.10204912 -31.744308 -0.10222933 -31.736135 -25.899952 -117.72932
158851000 -25.595432 -123.96326 -0.10286094 -31.943501 -0.10201785 -31.93458 -25.882278 -118.02519
159850000 -25.580557 -124.07119 -0.10323814 -32.145187 -0.10213817 -32.131916 -25.884232 -118.19892
160849000 -25.561277 -124.13324 -0.1028999 -32.340691 -0.10300222 -32.33683 -25.851105 -118.45958
161848000 -25.539505 -124.29395 -0.1034078 -32.544388 -0.1027785 -32.533283 -25.814243 -118.58733
162847000 -25.501448 -124.4593 -0.10359867 -32.736538 -0.10330255 -32.734421 -25.784166 -118.82924
163846000 -25.456804 -124.72883 -0.10379035 -32.940445 -0.10325882 -32.934711 -25.699654 -118.85322
164845000 -25.397635 -124.7221 -0.10431797 -33.138859 -0.10357057 -33.131916 -25.638681 -118.9361
165844000 -25.345041 -124.77422 -0.10440043 -33.33868 -0.10455582 -33.331425 -25.557507 -119.07592
166843000 -25.278944 -124.88926 -0.10386432 -33.536072 -0.10449828 -33.531666 -25.482319 -119.26081
167842000 -25.218044 -124.99203 -0.1041268 -33.733871 -0.10457491 -33.726357 -25.404879 -119.17668
168841000 -25.139744 -125.21428 -0.10483585 -33.928558 -0.10408756 -33.92646 -25.327898 -119.28265
169840000 -25.074293 -125.45178 -0.10527634 -34.12521 -0.10456695 -34.12199 -25.23679 -119.45766
170839000 -25.023056 -125.75169 -0.10618107 -34.324886 -0.10517529 -34.320507 -25.151712 -119.64662
171838000 -24.958536 -126.16014 -0.10625482 -34.527363 -0.10600387 -34.516857 -25.088713 -119.87003
172837000 -24.894205 -126.51936 -0.10776951 -34.723804 -0.10740624 -34.714256 -25.017611 -120.09265
173836000 -24.826839 -126.95844 -0.10863601 -34.920113 -0.10811821 -34.915867 -24.98033 -120.36269
174835000 -24.771362 -127.36066 -0.10917272 -35.112133 -0.10908405 -35.115112 -24.933376 -120.70415
175834000 -24.715 -127.77605 -0.10991922 -35.314938 -0.11035997 -35.308689 -24.870855 -120.96323
176833000 -24.662964 -128.13565 -0.11041785 -35.510757 -0.10992426 -35.509235 -24.818527 -121.16918
177832000 -24.623854 -128.62453 -0.11089609 -35.708473 -0.11036023 -35.706711 -24.796492 -121.29993
178831000 -24.581087 -128.97972 -0.11131223 -35.901947 -0.1116012 -35.902237 -24.756886 -121.53851
179830000 -24.544041 -129.42802 -0.11236618 -36.10334 -0.11191594 -36.102108 -24.730082 -121.65462
180829000 -24.504372 -129.62047 -0.11220441 -36.296165 -0.11246394 -36.30056 -24.702738 -121.84581
181828000 -24.478813 -129.9873 -0.11249848 -36.496914 -0.11188512 -36.493973 -24.684422 -121.9525
182827000 -24.457563 -130.31113 -0.11181899 -36.687691 -0.11286031 -36.689201 -24.670576 -122.03573
183826000 -24.413824 -130.62425 -0.11333696 -36.890179 -0.11254098 -36.888821 -24.660601 -122.16585
184825000 -24.420229 -130.9718 -0.11276919 -37.08448 -0.11253567 -37.085205 -24.64307 -122.27769
185824000 -24.391403 -131.34091 -0.11292513 -37.276337 -0.11304151 -37.284946 -24.637848 -122.31518
186823000 -24.381121 -131.66202 -0.11351764 -37.478683 -0.11300006 -37.476055 -24.639454 -122.3084
187822000 -24.361872 -131.9836 -0.11411607 -37.67271 -0.11375333 -37.675396 -24.599724 -122.37343
188821000 -24.339592 -132.23221 -0.11394307 -37.86763 -0.11403103 -37.871548 -24.588053 -122.49329
189820000 -24.321527 -132.49202 -0.11401721 -38.07074 -0.11427552 -38.06937 -24.574217 -122.63295
190819000 -24.294245 -132.77594 -0.11593233 -38.270393 -0.11531611 -38.266621 -24.544952 -122.61346
191818000 -24.255733 -132.92418 -0.11695576 -38.46524 -0.11678929 -38.463383 -24.512856 -122.48781
192817000 -24.189354 -133.19565 -0.11731797 -38.649254 -0.11719456 -38.649555 -24.438137 -122.59473
193816000 -24.15049 -133.53551 -0.11586401 -38.840176 -0.1157473 -38.840145 -24.380934 -122.86097
194815000 -24.09127 -133.99889 -0.11612668 -39.038326 -0.11656859 -39.037693 -24.321871 -122.95477
195814000 -24.041122 -134.22183 -0.11637023 -39.236458 -0.1158656 -39.236782 -24.266523 -123.04289
196813000 -23.990734 -134.5786 -0.1163003 -39.430256 -0.11575421 -39.430546 -24.190203 -123.23205
197812000 -23.932512 -134.80983 -0.11630189 -39.628708 -0.11662815 -39.627335 -24.122252 -123.34397
198811000 -23.877398 -134.99106 -0.11583848 -39.822948 -0.11535253 -39.828785 -24.050703 -123.50117
199810000 -23.807373 -135.35445 -0.11671005 -40.015354 -0.11550564 -40.015759 -23.973928 -123.6139
200809000 -23.751097 -135.62195 -0.11771371 -40.214607 -0.11653615 -40.215633 -23.892965 -123.78913
201808000 -23.692436 -135.87408 -0.11743445 -40.420193 -0.11732116 -40.418892 -23.824497 -123.88493
202807000 -23.635187 -136.18896 -0.11860587 -40.617271 -0.11821456 -40.620674 -23.77001 -124.13251
203806000 -23.586107 -136.65984 -0.11983243 -40.818138 -0.11832655 -40.819176 -23.703718 -124.23844
