!Keysight Technologies,E5080B,MY59205177,A.15.75.32
!Date: Friday, February 23, 2024 02:58:10
!Correction: S11(Cdelta 2-Port  ) 
!S21(Cdelta 2-Port  ) 
!S12(Cdelta 2-Port  ) 
!S22(Cdelta 2-Port  ) 
!S2P File: Measurements: S11, S21, S12, S22:
# Hz S  dB   R 50
10000000 -44.063988 -3.5844774 -0.028664473 -2.0408738 -0.03106476 -2.095397 -48.22488 -150.18938
10999000 -43.403793 -5.3458567 -0.029363127 -2.2614367 -0.031039732 -2.3103659 -47.900322 -142.08948
11998000 -42.618195 -7.7773495 -0.030232368 -2.4807291 -0.0305981 -2.5227861 -48.046085 -136.51251
12997000 -41.982948 -12.368592 -0.029299539 -2.6605036 -0.030535536 -2.6938241 -47.340885 -130.00218
13996000 -41.790123 -15.928649 -0.028161073 -2.8390434 -0.030750345 -2.8587821 -46.996113 -124.23685
14995000 -41.468323 -19.500319 -0.030450553 -3.0479696 -0.030511292 -3.0720458 -46.467979 -121.20063
15994000 -41.34293 -23.469158 -0.031733032 -3.2681749 -0.032596227 -3.2880783 -46.310032 -117.51655
16993000 -41.295555 -27.518303 -0.030292584 -3.4619851 -0.032430615 -3.4719994 -45.316463 -118.25511
17992000 -41.441914 -31.993114 -0.031350516 -3.6618962 -0.033054754 -3.6639781 -44.705093 -119.12389
18991000 -41.685188 -36.290703 -0.032091327 -3.8716969 -0.033590026 -3.864819 -44.001217 -118.56949
19990000 -41.567261 -41.465973 -0.034634411 -4.0798135 -0.035632856 -4.0751677 -43.313591 -120.57332
20989000 -41.497059 -44.19825 -0.036535982 -4.2847257 -0.036877181 -4.2734938 -42.742611 -120.32043
21988000 -41.35004 -48.650658 -0.037384987 -4.4794807 -0.038287435 -4.4703031 -42.470299 -119.70338
22987000 -41.134163 -53.056042 -0.038768504 -4.6774368 -0.039200518 -4.6690788 -42.203217 -119.60164
23986000 -41.178638 -56.890862 -0.038055278 -4.8721175 -0.037970409 -4.8730235 -42.039635 -119.54518
24985000 -40.818134 -59.59 -0.038731679 -5.0816464 -0.037869874 -5.0770583 -41.793983 -116.9749
25984000 -40.607216 -61.900455 -0.039860375 -5.2878003 -0.038905103 -5.2861972 -41.429207 -115.81377
26983000 -40.333565 -63.724895 -0.040757068 -5.484755 -0.039771553 -5.4995322 -41.294167 -114.94003
27982000 -40.214512 -64.404266 -0.041449048 -5.6806779 -0.041180134 -5.7129107 -40.98798 -113.1233
28981000 -40.182274 -65.746483 -0.039468788 -5.880518 -0.040900525 -5.9056311 -40.724548 -112.78091
29980000 -39.802586 -67.421867 -0.03994032 -6.0746865 -0.041820168 -6.0795884 -40.415592 -111.84106
30979000 -39.452919 -66.868095 -0.037367232 -6.4277282 -0.036350902 -6.4163094 -39.904099 -112.75647
31978000 -39.261833 -67.963097 -0.036536504 -6.6235695 -0.037421543 -6.6130657 -39.662823 -112.37321
32977000 -39.106522 -69.627602 -0.036833324 -6.8335733 -0.038312245 -6.8279905 -39.392635 -112.40083
33976000 -38.957115 -70.70163 -0.037381854 -7.0321603 -0.03792889 -7.0270081 -39.082726 -111.95518
34975000 -38.670227 -71.583611 -0.037377939 -7.2317753 -0.039551593 -7.230938 -38.834682 -111.82393
35974000 -38.489929 -72.417946 -0.036110759 -7.4275856 -0.039138876 -7.4278617 -38.530972 -110.94801
36973000 -38.292698 -73.191574 -0.036548775 -7.6251855 -0.039822236 -7.6317792 -38.231812 -110.21132
37972000 -38.087135 -73.174194 -0.037139826 -7.8352704 -0.039660789 -7.8453031 -37.998856 -109.59789
38971000 -37.767143 -72.979828 -0.037916876 -8.0363207 -0.039193988 -8.0462246 -37.80085 -108.04341
39970000 -37.476929 -73.548302 -0.036366828 -8.2289391 -0.038621463 -8.2511473 -37.521038 -107.53369
40969000 -37.182739 -73.288681 -0.036707494 -8.4248505 -0.038361341 -8.4454632 -37.27285 -106.24363
41968000 -36.830524 -73.719254 -0.036452446 -8.6303825 -0.038488265 -8.6492739 -37.052872 -105.10638
42967000 -36.587982 -73.958038 -0.037033305 -8.8391418 -0.039160293 -8.8575735 -36.833771 -103.31281
43966000 -36.310482 -74.790985 -0.037083171 -9.0377493 -0.039942149 -9.0611267 -36.536846 -102.71243
44965000 -36.097855 -75.735062 -0.038196295 -9.2417269 -0.040262192 -9.2636604 -36.304401 -102.75465
45964000 -35.857185 -76.863976 -0.0389085 -9.4424639 -0.042372726 -9.4598341 -36.071102 -102.55587
46963000 -35.704689 -78.838501 -0.039379448 -9.6393728 -0.04192942 -9.6562405 -35.888474 -102.92766
47962000 -35.542564 -80.313271 -0.040527914 -9.8397427 -0.043818496 -9.8560352 -35.686749 -103.11132
48961000 -35.356564 -81.809258 -0.043687757 -10.032791 -0.04491818 -10.053851 -35.450283 -103.40108
49960000 -35.132763 -83.236412 -0.044828467 -10.231236 -0.046429943 -10.256699 -35.328724 -103.61567
50959000 -34.929905 -84.548561 -0.044974413 -10.445328 -0.047328517 -10.455033 -35.142532 -104.00352
51958000 -34.741528 -85.817108 -0.046928663 -10.645908 -0.048624892 -10.653914 -34.967369 -104.58571
52957000 -34.534492 -86.853325 -0.048086978 -10.845217 -0.049568951 -10.854791 -34.817909 -104.45374
53956000 -34.38755 -87.652306 -0.049473383 -11.045008 -0.050280143 -11.048853 -34.677349 -104.50636
54955000 -34.222553 -88.137993 -0.050587855 -11.244985 -0.051498815 -11.243089 -34.511894 -104.51151
55954000 -34.065548 -89.024818 -0.051566396 -11.444938 -0.051163536 -11.442548 -34.399525 -104.16373
56953000 -33.95713 -89.053909 -0.051254161 -11.64514 -0.050752852 -11.631258 -34.330162 -104.44629
57952000 -33.799747 -89.719673 -0.052553281 -11.842259 -0.052702628 -11.833434 -34.232216 -104.68432
58951000 -33.687763 -90.09539 -0.053792506 -12.043829 -0.052845169 -12.02716 -34.06472 -104.74388
59950000 -33.562424 -90.496391 -0.054061942 -12.245021 -0.053110614 -12.226109 -34.005276 -105.01021
60949000 -33.458408 -91.026054 -0.054434665 -12.44802 -0.053504486 -12.42162 -33.915359 -105.33859
61948000 -33.397812 -91.30027 -0.05473271 -12.64518 -0.053802729 -12.629187 -33.82748 -105.43357
62947000 -33.321632 -91.529106 -0.053970993 -12.854774 -0.054349739 -12.834736 -33.692852 -105.6255
63946000 -33.252991 -92.305214 -0.056042835 -13.055918 -0.055330176 -13.03732 -33.588268 -105.87351
64945000 -33.140118 -92.468819 -0.056411013 -13.257158 -0.055795304 -13.237458 -33.479736 -106.36263
65944000 -33.044983 -92.75676 -0.057378538 -13.454747 -0.055860598 -13.43719 -33.392361 -106.77453
66943000 -32.91312 -93.223953 -0.055122796 -13.654314 -0.054432046 -13.636592 -33.290634 -107.08132
67942000 -32.85461 -93.220154 -0.057140898 -13.850595 -0.056805182 -13.838304 -33.159252 -107.42691
68941000 -32.75161 -93.295097 -0.056159001 -14.045434 -0.055115193 -14.034047 -33.057739 -107.32053
69940000 -32.643967 -93.292656 -0.056809902 -14.242631 -0.05580527 -14.236942 -32.923992 -107.74918
70939000 -32.543404 -93.291496 -0.05680282 -14.441673 -0.056339942 -14.435763 -32.784245 -107.55437
71938000 -32.397827 -92.929611 -0.056663822 -14.637089 -0.055574533 -14.626169 -32.655678 -107.50446
72937000 -32.248024 -92.768242 -0.055998523 -14.834271 -0.055883672 -14.827158 -32.512016 -107.18307
73936000 -32.101322 -92.479362 -0.055703796 -15.034081 -0.054821581 -15.023961 -32.393501 -107.02015
74935000 -31.967464 -92.760513 -0.055217966 -15.225352 -0.054023676 -15.22398 -32.245399 -106.75883
75934000 -31.860228 -93.021645 -0.055517901 -15.439133 -0.053666446 -15.431519 -32.152153 -106.68257
76933000 -31.720724 -93.406548 -0.056682706 -15.629825 -0.055770658 -15.619249 -31.992966 -107.06903
77932000 -31.625109 -94.22448 -0.057293814 -15.825999 -0.057198603 -15.820812 -31.894993 -107.08675
78931000 -31.562693 -95.037659 -0.056332339 -16.026413 -0.056270976 -16.023075 -31.788124 -106.95336
79930000 -31.446999 -95.826172 -0.058358345 -16.216757 -0.058729343 -16.214924 -31.690218 -107.26426
80929000 -31.329609 -96.778732 -0.060481634 -16.4116 -0.060576655 -16.410707 -31.594938 -107.67283
81928000 -31.250715 -97.623543 -0.05988241 -16.605089 -0.060706332 -16.60297 -31.470797 -107.80105
82927000 -31.153988 -98.368378 -0.062223077 -16.804657 -0.061859135 -16.797741 -31.372204 -108.07211
83926000 -31.050014 -99.090347 -0.063793942 -16.997917 -0.062390618 -16.998587 -31.248924 -108.3035
84925000 -30.932688 -99.593208 -0.064289406 -17.197731 -0.062754869 -17.196762 -31.15797 -108.363
85924000 -30.849613 -99.993996 -0.065306775 -17.404491 -0.064355083 -17.395849 -31.074038 -108.43587
86923000 -30.746992 -100.55238 -0.065567464 -17.59944 -0.065288648 -17.588593 -30.975285 -108.34193
87922000 -30.645554 -100.94249 -0.065293372 -17.805664 -0.064690076 -17.795965 -30.88513 -108.3584
88921000 -30.579451 -101.25437 -0.06649261 -18.002483 -0.065414518 -17.993673 -30.792963 -108.38814
89920000 -30.480249 -101.77134 -0.066879809 -18.197905 -0.066072062 -18.193422 -30.74568 -108.51965
90919000 -30.386576 -102.03916 -0.067341186 -18.39686 -0.066396147 -18.389843 -30.670433 -108.77332
91918000 -30.287855 -102.44201 -0.068746634 -18.597866 -0.066552281 -18.589804 -30.591898 -108.75029
92917000 -30.214342 -102.82823 -0.069427833 -18.794975 -0.068459198 -18.789169 -30.534447 -108.89014
93916000 -30.11521 -103.18465 -0.069455191 -18.989334 -0.067562819 -18.983023 -30.445782 -109.51878
94915000 -30.046766 -103.79253 -0.070637949 -19.188686 -0.069428362 -19.179865 -30.381519 -109.41032
95914000 -29.988251 -104.05688 -0.071498118 -19.384237 -0.070143864 -19.379843 -30.28863 -109.62794
96913000 -29.905369 -104.2965 -0.072485857 -19.581533 -0.071077354 -19.580793 -30.234747 -110.01962
97912000 -29.83116 -104.71746 -0.073449604 -19.77742 -0.071293391 -19.778904 -30.15638 -110.24504
98911000 -29.726057 -104.91913 -0.074265569 -19.979691 -0.072438478 -19.976679 -30.118803 -110.46114
99910000 -29.663185 -105.08598 -0.07451573 -20.181089 -0.073004164 -20.171597 -30.005384 -110.83294
100909000 -29.570845 -105.39137 -0.073844798 -20.388039 -0.072641686 -20.377697 -29.920786 -110.98538
101908000 -29.483246 -105.66875 -0.075703554 -20.586313 -0.073266104 -20.58049 -29.812342 -110.74643
102907000 -29.359501 -105.64668 -0.075765193 -20.783745 -0.07352569 -20.780207 -29.734602 -110.71922
103906000 -29.266068 -105.72131 -0.076209597 -20.993734 -0.072922818 -20.981855 -29.588808 -110.69196
104905000 -29.120579 -105.63136 -0.07703241 -21.188429 -0.073774755 -21.188137 -29.461021 -110.3482
105904000 -28.971607 -105.7681 -0.076801069 -21.390665 -0.073694192 -21.385527 -29.34609 -110.22035
106903000 -28.863688 -105.85477 -0.076558672 -21.593456 -0.074241601 -21.588133 -29.219917 -110.15067
107902000 -28.706335 -106.2368 -0.077517785 -21.799217 -0.074554443 -21.785454 -29.085363 -110.05052
108901000 -28.596354 -106.51556 -0.07847026 -21.994097 -0.075028218 -21.985537 -28.949963 -110.06791
109900000 -28.473204 -106.9894 -0.079554759 -22.193811 -0.076993413 -22.186127 -28.796936 -110.15968
110899000 -28.349247 -107.62119 -0.08106228 -22.392803 -0.077705942 -22.389362 -28.667717 -110.46506
111898000 -28.258791 -108.29591 -0.082280651 -22.593225 -0.078820832 -22.586622 -28.549282 -110.53312
112897000 -28.131662 -108.86958 -0.083638959 -22.790062 -0.079881161 -22.78137 -28.415335 -110.77587
113896000 -28.029537 -109.51345 -0.084204257 -22.991995 -0.081078365 -22.979755 -28.310883 -110.92983
114895000 -27.926878 -110.14802 -0.085592739 -23.189528 -0.082146108 -23.17765 -28.195972 -110.99094
115894000 -27.798647 -110.45319 -0.087393939 -23.392166 -0.083419144 -23.375719 -28.122656 -111.21948
116893000 -27.724529 -111.07166 -0.087383904 -23.586439 -0.084869139 -23.567562 -27.993578 -111.39047
117892000 -27.63974 -111.56057 -0.088031575 -23.784834 -0.084732145 -23.775591 -27.918104 -111.54867
118891000 -27.579018 -111.97263 -0.087942027 -23.98575 -0.084776491 -23.967398 -27.828947 -111.73668
119890000 -27.485474 -112.31844 -0.087715387 -24.186235 -0.086092018 -24.17131 -27.812773 -111.86156
120889000 -27.433893 -112.82411 -0.089382432 -24.3853 -0.085347742 -24.367374 -27.742771 -111.80625
121888000 -27.396618 -113.16014 -0.08996328 -24.580982 -0.086136371 -24.570784 -27.67915 -112.11202
122887000 -27.3561 -113.35197 -0.090656534 -24.784842 -0.08691036 -24.769518 -27.636772 -112.13565
123886000 -27.293659 -113.78414 -0.091384538 -24.98444 -0.087153062 -24.965126 -27.61672 -112.31448
124885000 -27.261993 -114.31461 -0.091565102 -25.181166 -0.087881796 -25.171478 -27.590111 -112.37727
125884000 -27.208942 -114.50473 -0.092035182 -25.382204 -0.088064067 -25.371618 -27.550194 -112.58133
126883000 -27.184324 -114.91974 -0.093006186 -25.584763 -0.088704973 -25.571793 -27.513216 -112.62616
127882000 -27.137808 -115.22263 -0.093114883 -25.780315 -0.089373983 -25.766264 -27.467768 -112.77975
128881000 -27.107506 -115.48372 -0.093199514 -25.987034 -0.089532793 -25.968149 -27.42342 -112.94089
129880000 -27.048008 -115.83621 -0.093760759 -26.186649 -0.089589342 -26.165573 -27.386288 -112.88815
130879000 -26.988924 -115.98177 -0.093687497 -26.385784 -0.08993791 -26.369019 -27.314594 -112.94001
131878000 -26.921967 -116.22709 -0.09399274 -26.586386 -0.090524115 -26.56712 -27.246546 -112.84524
132877000 -26.853966 -116.30055 -0.09298344 -26.788271 -0.090447731 -26.769114 -27.161163 -112.88172
133876000 -26.768076 -116.47379 -0.09469749 -26.989195 -0.090730548 -26.967947 -27.069792 -112.7849
134875000 -26.671782 -116.59029 -0.09409564 -27.184917 -0.090986423 -27.169992 -26.963554 -112.63185
135874000 -26.590565 -116.62976 -0.093944602 -27.385963 -0.090954699 -27.369862 -26.864111 -112.59113
136873000 -26.476357 -116.5205 -0.094861522 -27.589214 -0.090708077 -27.570297 -26.777948 -112.59561
137872000 -26.404865 -116.66033 -0.094665214 -27.79307 -0.091374755 -27.7787 -26.677193 -112.55247
138871000 -26.327291 -116.84446 -0.095719367 -27.994486 -0.091308929 -27.977461 -26.579359 -112.72533
139870000 -26.224915 -117.12914 -0.096096739 -28.191008 -0.093216173 -28.173407 -26.495251 -112.88776
140869000 -26.139477 -117.57786 -0.09806937 -28.385822 -0.094135322 -28.368084 -26.392641 -113.01923
141868000 -26.047232 -118.0808 -0.098054811 -28.578648 -0.094733208 -28.565023 -26.319246 -113.36889
142867000 -25.965458 -118.31515 -0.095785521 -28.774477 -0.093507104 -28.757813 -26.241693 -113.53492
143866000 -25.902857 -118.82389 -0.098074667 -28.972933 -0.094569445 -28.956276 -26.172264 -114.04823
144865000 -25.845518 -119.34559 -0.099752322 -29.169409 -0.096220866 -29.156002 -26.110495 -114.38464
145864000 -25.786238 -119.68472 -0.099801056 -29.373857 -0.097119473 -29.360415 -26.073071 -114.60601
146863000 -25.747879 -120.01017 -0.10074439 -29.570686 -0.096804209 -29.558617 -26.023802 -114.94337
147862000 -25.707687 -120.42655 -0.10188985 -29.766928 -0.097917922 -29.757679 -25.996552 -115.30289
148861000 -25.67444 -120.95042 -0.10215963 -29.964283 -0.098409615 -29.949406 -25.968719 -115.51272
149860000 -25.655914 -121.0917 -0.1024085 -30.16131 -0.099238761 -30.149586 -25.940083 -115.6609
150859000 -25.640556 -121.49116 -0.1028787 -30.361212 -0.099670209 -30.348289 -25.935452 -115.95485
151858000 -25.621893 -121.82008 -0.10271277 -30.562895 -0.10035283 -30.548868 -25.921879 -116.22709
152857000 -25.607279 -122.11414 -0.10298526 -30.758701 -0.099855356 -30.746893 -25.911407 -116.35673
153856000 -25.596478 -122.35954 -0.10251186 -30.960766 -0.099309206 -30.95196 -25.925625 -116.65492
154855000 -25.590996 -122.51391 -0.10291103 -31.158466 -0.099491954 -31.145908 -25.914377 -116.87134
155854000 -25.608351 -122.75249 -0.10336803 -31.357775 -0.1000964 -31.345186 -25.908888 -117.10354
156853000 -25.591599 -123.46075 -0.10145553 -31.542957 -0.099524267 -31.537426 -25.90645 -117.41109
157852000 -25.59572 -123.69903 -0.10250179 -31.744558 -0.1005796 -31.738903 -25.892794 -117.74426
158851000 -25.598063 -123.92604 -0.10332032 -31.944771 -0.10207986 -31.934977 -25.875725 -118.02621
159850000 -25.578924 -124.05887 -0.10453089 -32.142212 -0.10160975 -32.133755 -25.883123 -118.18267
160849000 -25.56543 -124.1694 -0.10413317 -32.341522 -0.10210663 -32.335049 -25.850704 -118.49552
161848000 -25.545731 -124.29382 -0.10469742 -32.540302 -0.10208941 -32.535229 -25.810097 -118.56908
162847000 -25.49778 -124.49251 -0.10468045 -32.737846 -0.10298286 -32.736835 -25.783152 -118.82203
163846000 -25.458916 -124.73225 -0.10515036 -32.937527 -0.10265843 -32.92952 -25.702356 -118.83278
164845000 -25.399858 -124.7315 -0.10478069 -33.137108 -0.10296882 -33.132565 -25.639969 -118.93619
165844000 -25.343843 -124.75834 -0.10554766 -33.335823 -0.10388128 -33.330116 -25.555157 -119.09337
166843000 -25.282934 -124.86616 -0.10441846 -33.537247 -0.10323602 -33.528938 -25.483694 -119.25239
167842000 -25.225378 -125.02721 -0.10540603 -33.736252 -0.10339772 -33.722454 -25.403194 -119.17126
168841000 -25.146475 -125.18746 -0.10609619 -33.931355 -0.10387705 -33.9268 -25.332949 -119.27464
169840000 -25.080116 -125.46902 -0.10661454 -34.127075 -0.10477724 -34.121445 -25.240267 -119.44189
170839000 -25.022633 -125.74364 -0.10780215 -34.323959 -0.10472606 -34.322811 -25.157606 -119.64653
171838000 -24.959856 -126.1451 -0.10735212 -34.525963 -0.10532752 -34.518753 -25.088562 -119.91579
172837000 -24.891405 -126.51531 -0.10830929 -34.719822 -0.10670368 -34.71479 -25.024071 -120.11892
173836000 -24.822966 -126.93012 -0.10943631 -34.921062 -0.10835468 -34.916847 -24.983074 -120.36462
174835000 -24.770878 -127.39227 -0.11008543 -35.115917 -0.10815271 -35.115543 -24.928764 -120.70484
175834000 -24.719282 -127.76787 -0.11021499 -35.312965 -0.10899778 -35.30986 -24.868273 -120.99216
176833000 -24.667747 -128.1469 -0.11123415 -35.508915 -0.10964736 -35.508236 -24.818438 -121.14063
177832000 -24.621683 -128.62521 -0.11198155 -35.705032 -0.11039661 -35.703289 -24.794205 -121.3392
178831000 -24.58276 -128.99023 -0.11244109 -35.903648 -0.11024579 -35.900501 -24.756567 -121.54282
179830000 -24.547001 -129.41104 -0.11233722 -36.099823 -0.11063612 -36.10218 -24.72711 -121.7012
180829000 -24.503225 -129.60966 -0.11369142 -36.294155 -0.1115255 -36.297192 -24.69945 -121.84246
181828000 -24.478355 -129.99918 -0.11332899 -36.497337 -0.11172815 -36.492252 -24.67635 -121.99097
182827000 -24.456127 -130.34763 -0.11362499 -36.689461 -0.11188911 -36.690369 -24.668203 -122.07952
183826000 -24.415472 -130.65813 -0.1153185 -36.888206 -0.1120028 -36.885082 -24.660404 -122.16348
184825000 -24.41935 -130.95863 -0.11417028 -37.079777 -0.11241294 -37.082554 -24.643326 -122.28252
185824000 -24.39221 -131.31673 -0.11379027 -37.278934 -0.11259172 -37.281845 -24.634199 -122.32549
186823000 -24.378716 -131.69508 -0.11468907 -37.480019 -0.11292566 -37.475304 -24.633442 -122.32631
187822000 -24.358099 -131.99803 -0.11548863 -37.671555 -0.11377326 -37.66827 -24.602989 -122.38663
188821000 -24.337164 -132.23875 -0.11472043 -37.870625 -0.11339462 -37.873737 -24.58532 -122.4996
189820000 -24.321968 -132.50198 -0.11551282 -38.070763 -0.11373287 -38.07048 -24.575172 -122.67043
190819000 -24.293404 -132.73581 -0.11679301 -38.270466 -0.11475472 -38.267044 -24.547491 -122.60166
191818000 -24.259565 -132.91925 -0.11768233 -38.462437 -0.11596025 -38.464104 -24.515579 -122.51978
192817000 -24.187735 -133.1855 -0.11839758 -38.649471 -0.11682705 -38.647709 -24.440546 -122.57622
193816000 -24.14966 -133.53127 -0.11779723 -38.840904 -0.11535731 -38.838928 -24.383566 -122.85896
194815000 -24.093109 -134.0063 -0.11708075 -39.040279 -0.11614317 -39.04063 -24.319178 -122.96387
195814000 -24.043871 -134.20425 -0.11772116 -39.23737 -0.11574224 -39.237972 -24.269228 -123.05728
196813000 -23.994535 -134.56223 -0.1171108 -39.431553 -0.11552372 -39.433041 -24.191296 -123.23734
197812000 -23.931099 -134.78644 -0.1168938 -39.631874 -0.11613625 -39.626431 -24.119997 -123.3545
198811000 -23.878693 -134.98392 -0.11692172 -39.822765 -0.11572151 -39.828201 -24.048431 -123.48891
199810000 -23.809664 -135.35335 -0.11716744 -40.020416 -0.11569493 -40.018307 -23.976212 -123.61272
200809000 -23.748783 -135.63452 -0.11776531 -40.213097 -0.1162902 -40.217884 -23.889299 -123.80157
201808000 -23.692881 -135.87003 -0.11881179 -40.417664 -0.11735466 -40.42057 -23.82502 -123.87679
202807000 -23.631918 -136.24808 -0.11877614 -40.616676 -0.11735998 -40.620193 -23.76819 -124.10402
203806000 -23.584602 -136.69675 -0.1200352 -40.816986 -0.11739828 -40.818077 -23.705317 -124.30905
