!Keysight Technologies,E5080B,MY59205177,A.15.75.32
!Date: Friday, February 23, 2024 03:36:24
!Correction: S11(Cdelta 2-Port  ) 
!S21(Cdelta 2-Port  ) 
!S12(Cdelta 2-Port  ) 
!S22(Cdelta 2-Port  ) 
!S2P File: Measurements: S11, S21, S12, S22:
# Hz S  dB   R 50
10000000 -46.106445 -2.748847 -0.01508663 -2.0385559 -0.018344209 -2.1024866 -45.979477 -157.35535
10999000 -45.303406 -4.7679973 -0.015786482 -2.2639103 -0.018731561 -2.3144827 -45.790581 -151.38475
11998000 -44.418278 -7.3547907 -0.016401997 -2.4866791 -0.018013818 -2.5296698 -45.965794 -147.26857
12997000 -43.59605 -13.462409 -0.01610657 -2.6668291 -0.017945455 -2.6965339 -45.615055 -141.33003
13996000 -43.268978 -17.074633 -0.015084033 -2.8491273 -0.018352007 -2.8678608 -45.432514 -136.02911
14995000 -42.945889 -21.416462 -0.01741159 -3.0560417 -0.017751811 -3.0801914 -45.061878 -132.69035
15994000 -42.694839 -25.963446 -0.018897949 -3.2781687 -0.020590285 -3.3024406 -45.017334 -129.53777
16993000 -42.709747 -30.596594 -0.018271942 -3.4767785 -0.018600533 -3.4842992 -44.12727 -129.32239
17992000 -42.720013 -36.194977 -0.018821774 -3.669976 -0.01963326 -3.6753116 -43.566467 -129.37259
18991000 -42.982647 -41.393806 -0.019357113 -3.8843081 -0.020817868 -3.8803768 -42.950085 -128.14212
19990000 -42.737671 -47.465065 -0.02183109 -4.0937891 -0.022667339 -4.0857854 -42.281174 -128.63611
20989000 -42.571445 -50.343994 -0.02345638 -4.2979703 -0.024703473 -4.2866001 -41.783825 -128.18146
21988000 -42.362938 -55.634693 -0.024462929 -4.4928489 -0.025670469 -4.4833207 -41.504463 -127.45154
22987000 -42.052517 -60.36974 -0.025567874 -4.6929946 -0.027182581 -4.6833868 -41.228756 -127.02241
23986000 -41.92572 -64.749275 -0.025300205 -4.8842349 -0.025647294 -4.8845048 -41.118462 -126.77567
24985000 -41.597687 -67.356064 -0.026587935 -5.0964389 -0.026061859 -5.0908937 -40.921379 -124.30344
25984000 -41.22147 -69.466667 -0.027594429 -5.2998013 -0.026635338 -5.3028336 -40.542805 -122.80163
26983000 -40.926868 -71.181877 -0.02860871 -5.501853 -0.026764002 -5.5169954 -40.408577 -122.10352
27982000 -40.743931 -72.126511 -0.029210409 -5.7003784 -0.028818475 -5.7374473 -40.211559 -120.5367
28981000 -40.698055 -73.506897 -0.02735737 -5.8978076 -0.028771831 -5.9237838 -39.954453 -119.95679
29980000 -40.319515 -74.972374 -0.027375083 -6.0937529 -0.029201809 -6.1017823 -39.694443 -119.14069
30979000 -39.906403 -73.946907 -0.02523407 -6.4478102 -0.023507651 -6.4378304 -39.195087 -119.60433
31978000 -39.710209 -74.953957 -0.024401233 -6.6417475 -0.025049994 -6.632586 -38.935574 -118.78017
32977000 -39.522541 -76.455399 -0.024444185 -6.8489628 -0.025504861 -6.8491721 -38.715069 -118.673
33976000 -39.352768 -77.525429 -0.025038017 -7.0531268 -0.025583237 -7.0462532 -38.428761 -118.09589
34975000 -39.055298 -78.177109 -0.025178611 -7.25348 -0.026825471 -7.2519593 -38.197628 -117.91437
35974000 -38.858437 -78.929779 -0.024099534 -7.4484911 -0.027283391 -7.4485478 -37.939278 -117.00941
36973000 -38.631042 -79.487556 -0.024459803 -7.6515827 -0.027628034 -7.6579065 -37.650814 -116.18102
37972000 -38.454323 -79.457832 -0.024429867 -7.8583307 -0.027540242 -7.8688116 -37.436962 -115.25281
38971000 -38.125591 -78.824745 -0.025738953 -8.0621529 -0.027426403 -8.0695982 -37.274452 -113.7484
39970000 -37.824806 -79.154922 -0.023408493 -8.253315 -0.025593914 -8.2763329 -37.027008 -113.16714
40969000 -37.505886 -78.76873 -0.023788486 -8.4548883 -0.026017588 -8.4700823 -36.789051 -111.60338
41968000 -37.176857 -78.741631 -0.02393789 -8.6547413 -0.026506675 -8.6712685 -36.592728 -110.40688
42967000 -36.91946 -78.763481 -0.023607334 -8.8734283 -0.026347548 -8.8869495 -36.415047 -108.59568
43966000 -36.606895 -79.427254 -0.025124196 -9.0635014 -0.027474074 -9.0884199 -36.121853 -107.81284
44965000 -36.394745 -80.239464 -0.025569176 -9.2729664 -0.02729433 -9.2901974 -35.912716 -107.67628
45964000 -36.127491 -81.260345 -0.027107041 -9.4695997 -0.029447047 -9.4892807 -35.696301 -107.30515
46963000 -35.940037 -83.17189 -0.027097926 -9.6636572 -0.029724877 -9.6885548 -35.50758 -107.55359
47962000 -35.799217 -84.605553 -0.028090466 -9.8651857 -0.031401101 -9.884182 -35.310242 -107.58739
48961000 -35.577705 -85.850571 -0.030902337 -10.063347 -0.032304913 -10.08777 -35.088413 -107.77699
49960000 -35.331882 -87.314491 -0.031731728 -10.263184 -0.033885602 -10.283634 -34.937679 -107.82056
50959000 -35.124352 -88.67868 -0.032593098 -10.477271 -0.034693904 -10.486687 -34.761894 -108.067
51958000 -34.902428 -89.627968 -0.033954214 -10.677397 -0.036121197 -10.686442 -34.595287 -108.49653
52957000 -34.690659 -90.629639 -0.036068473 -10.875955 -0.03717272 -10.884001 -34.425003 -108.29181
53956000 -34.525471 -91.331032 -0.036821052 -11.081625 -0.037800152 -11.080572 -34.287117 -108.25282
54955000 -34.348366 -91.756882 -0.038329482 -11.280724 -0.039093949 -11.276872 -34.134098 -108.20585
55954000 -34.172474 -92.662224 -0.038524829 -11.479006 -0.039360117 -11.477805 -34.045975 -107.94389
56953000 -34.058125 -92.69754 -0.038227633 -11.681808 -0.037897032 -11.667339 -33.954384 -108.15405
57952000 -33.883213 -93.227562 -0.039840523 -11.874267 -0.039415758 -11.866495 -33.858994 -108.27015
58951000 -33.776676 -93.659729 -0.040898435 -12.080665 -0.040499955 -12.063671 -33.699238 -108.36136
59950000 -33.642677 -93.937309 -0.041592523 -12.282743 -0.041017853 -12.25939 -33.633385 -108.50613
60949000 -33.54126 -94.472252 -0.041149557 -12.482047 -0.041199472 -12.458931 -33.54583 -108.87151
61948000 -33.473846 -94.753624 -0.042232882 -12.679114 -0.04081168 -12.667483 -33.446758 -108.92236
62947000 -33.384453 -95.005585 -0.042515453 -12.892648 -0.042231053 -12.870971 -33.303947 -109.20613
63946000 -33.308331 -95.736404 -0.042999342 -13.091096 -0.042682756 -13.073654 -33.200684 -109.28246
64945000 -33.198414 -95.826721 -0.043586042 -13.292759 -0.043848567 -13.275714 -33.08046 -109.75513
65944000 -33.099976 -96.185066 -0.044201065 -13.493227 -0.043810129 -13.477268 -32.994976 -110.19644
66943000 -32.950291 -96.589561 -0.042490881 -13.695855 -0.042390764 -13.678493 -32.886261 -110.47427
67942000 -32.896698 -96.499245 -0.044474088 -13.891067 -0.043727763 -13.878366 -32.765671 -110.7702
68941000 -32.783394 -96.677055 -0.04403292 -14.084206 -0.042924833 -14.076234 -32.646004 -110.77025
69940000 -32.677109 -96.674118 -0.044759158 -14.284623 -0.043947671 -14.274687 -32.51429 -111.01292
70939000 -32.585079 -96.642311 -0.04397722 -14.480624 -0.044160008 -14.47683 -32.385151 -110.95197
71938000 -32.431385 -96.175514 -0.043996833 -14.679026 -0.042877778 -14.67362 -32.246872 -110.80535
72937000 -32.296574 -95.866013 -0.043855365 -14.878845 -0.043485902 -14.869576 -32.115707 -110.46609
73936000 -32.138119 -95.576645 -0.043556236 -15.074527 -0.042618711 -15.071227 -32.000805 -110.24821
74935000 -32.020164 -95.814278 -0.043558065 -15.273282 -0.0418416 -15.268546 -31.850681 -109.96043
75934000 -31.890202 -96.093849 -0.043663438 -15.47773 -0.041776519 -15.476953 -31.757341 -109.89668
76933000 -31.769949 -96.469803 -0.044674683 -15.677159 -0.043370336 -15.665724 -31.594021 -110.15296
77932000 -31.65234 -97.179832 -0.045010246 -15.870871 -0.04445003 -15.863963 -31.488558 -110.16886
78931000 -31.583529 -97.925827 -0.044391185 -16.073101 -0.043869749 -16.067501 -31.389345 -109.98394
79930000 -31.476526 -98.757774 -0.046461344 -16.264427 -0.045701858 -16.262531 -31.290031 -110.34881
80929000 -31.350863 -99.561241 -0.048626199 -16.458675 -0.047869477 -16.460625 -31.18766 -110.57001
81928000 -31.259336 -100.31226 -0.048225179 -16.650293 -0.04821628 -16.651173 -31.058542 -110.58321
82927000 -31.158819 -100.9823 -0.049847811 -16.851486 -0.049527582 -16.852016 -30.958586 -110.87937
83926000 -31.038013 -101.71574 -0.051285855 -17.051929 -0.051279306 -17.048494 -30.840139 -111.03671
84925000 -30.93886 -102.11672 -0.052752677 -17.249403 -0.051250234 -17.247227 -30.745455 -111.0863
85924000 -30.843418 -102.50947 -0.052802984 -17.450472 -0.052488826 -17.445745 -30.657589 -111.03585
86923000 -30.739559 -103.03938 -0.053288545 -17.650595 -0.052505072 -17.640684 -30.556337 -110.89049
87922000 -30.633585 -103.35948 -0.053126335 -17.853962 -0.05191271 -17.84683 -30.47204 -110.90718
88921000 -30.554735 -103.65525 -0.05391936 -18.054274 -0.053830247 -18.049671 -30.370968 -110.88581
89920000 -30.451841 -104.09332 -0.054493908 -18.251266 -0.053349607 -18.24276 -30.324028 -111.06316
90919000 -30.347889 -104.355 -0.055221897 -18.451035 -0.05421501 -18.446716 -30.241785 -111.21649
91918000 -30.256781 -104.74523 -0.056173425 -18.648323 -0.054345284 -18.643177 -30.166464 -111.23662
92917000 -30.159565 -105.06181 -0.058180995 -18.851301 -0.056697391 -18.845871 -30.105484 -111.34624
93916000 -30.077589 -105.43512 -0.057323191 -19.04143 -0.055714548 -19.036375 -30.013084 -111.93823
94915000 -30.008968 -106.02654 -0.058084186 -19.24345 -0.0567564 -19.235067 -29.958433 -111.80692
95914000 -29.93807 -106.20682 -0.059077278 -19.438334 -0.057730298 -19.435156 -29.865948 -112.05602
96913000 -29.844872 -106.40905 -0.060177419 -19.637712 -0.059351761 -19.635548 -29.802027 -112.45075
97912000 -29.763599 -106.88776 -0.06155929 -19.832809 -0.058989111 -19.836191 -29.726282 -112.63828
98911000 -29.662067 -107.02219 -0.062365405 -20.037148 -0.060279522 -20.033041 -29.680523 -112.89359
99910000 -29.599098 -107.22298 -0.062777452 -20.235714 -0.061071489 -20.230858 -29.57526 -113.15218
100909000 -29.504539 -107.44473 -0.062633798 -20.442734 -0.060259048 -20.43741 -29.485741 -113.38298
101908000 -29.416338 -107.67522 -0.063527845 -20.642445 -0.061322469 -20.639669 -29.379341 -113.10458
102907000 -29.286617 -107.66477 -0.063726693 -20.84177 -0.061321944 -20.842804 -29.303074 -113.17282
103906000 -29.19421 -107.72741 -0.06372197 -21.054844 -0.060398687 -21.045544 -29.16246 -113.08848
104905000 -29.037086 -107.63798 -0.064396337 -21.249605 -0.061167575 -21.245207 -29.038811 -112.77212
105904000 -28.905952 -107.70172 -0.064991713 -21.449245 -0.061252635 -21.444393 -28.923725 -112.68878
106903000 -28.793127 -107.78748 -0.065119155 -21.65658 -0.062060535 -21.655632 -28.797989 -112.57878
107902000 -28.624659 -108.08553 -0.065581396 -21.857779 -0.062531374 -21.848328 -28.665442 -112.55
108901000 -28.515877 -108.3355 -0.066858254 -22.056606 -0.063779496 -22.049545 -28.535894 -112.4418
109900000 -28.389347 -108.7842 -0.067867815 -22.256157 -0.064903952 -22.250862 -28.386335 -112.50251
110899000 -28.272512 -109.42064 -0.06901858 -22.455374 -0.065437645 -22.449139 -28.259546 -112.83636
111898000 -28.17952 -110.03368 -0.070459299 -22.65654 -0.066598013 -22.654871 -28.145933 -112.91918
112897000 -28.057177 -110.58321 -0.071763657 -22.856285 -0.067870967 -22.847504 -28.006571 -113.09927
113896000 -27.949539 -111.15845 -0.072847798 -23.055809 -0.069212154 -23.043251 -27.903851 -113.24154
114895000 -27.845089 -111.81474 -0.073347718 -23.257862 -0.070546649 -23.244696 -27.78742 -113.2737
115894000 -27.723885 -112.11877 -0.074285842 -23.458727 -0.07180392 -23.444799 -27.719557 -113.50194
116893000 -27.644384 -112.66624 -0.075658776 -23.654951 -0.072751716 -23.636272 -27.597267 -113.53871
117892000 -27.571274 -113.15158 -0.075244188 -23.846977 -0.072833844 -23.841692 -27.522558 -113.76037
118891000 -27.509947 -113.52084 -0.076089211 -24.051292 -0.07334666 -24.037071 -27.432695 -113.82617
119890000 -27.419189 -113.88535 -0.076178774 -24.251133 -0.073718943 -24.236307 -27.417662 -114.02925
120889000 -27.37195 -114.38583 -0.077612653 -24.457205 -0.073538326 -24.44091 -27.337725 -113.93913
121888000 -27.328371 -114.72279 -0.077243209 -24.6502 -0.074853875 -24.640553 -27.282782 -114.22979
122887000 -27.296299 -114.9178 -0.078690879 -24.855446 -0.0755895 -24.838879 -27.24448 -114.18608
123886000 -27.236088 -115.29209 -0.079367049 -25.054916 -0.075893477 -25.038504 -27.222862 -114.37501
124885000 -27.201233 -115.8114 -0.079461694 -25.253702 -0.075801812 -25.240776 -27.194981 -114.40174
125884000 -27.156658 -116.0117 -0.080500819 -25.456167 -0.076902241 -25.44091 -27.166126 -114.52693
126883000 -27.140001 -116.4151 -0.080780089 -25.656311 -0.077296168 -25.638853 -27.124832 -114.57046
127882000 -27.083839 -116.66235 -0.08073394 -25.857662 -0.077873029 -25.838524 -27.093321 -114.71013
128881000 -27.057543 -117.01715 -0.081258766 -26.057938 -0.077247418 -26.040382 -27.048689 -114.77328
129880000 -27.005026 -117.30415 -0.082194649 -26.260143 -0.078390397 -26.239712 -27.00964 -114.74584
130879000 -26.943335 -117.52042 -0.081620649 -26.456692 -0.078768902 -26.442944 -26.939302 -114.78369
131878000 -26.884466 -117.71725 -0.08196488 -26.662966 -0.079153247 -26.643545 -26.878632 -114.63732
132877000 -26.81382 -117.78795 -0.08191476 -26.863348 -0.079287164 -26.845798 -26.798132 -114.62179
133876000 -26.725801 -117.93661 -0.082645252 -27.061405 -0.078754932 -27.046604 -26.717726 -114.48342
134875000 -26.635098 -118.10486 -0.081987306 -27.264769 -0.079673402 -27.24645 -26.616848 -114.34467
135874000 -26.557644 -118.12701 -0.08226192 -27.466755 -0.079373904 -27.448912 -26.521959 -114.28269
136873000 -26.44639 -118.03985 -0.082564518 -27.66659 -0.079056501 -27.652224 -26.440853 -114.22956
137872000 -26.363491 -118.14761 -0.082706727 -27.865782 -0.079912543 -27.854 -26.334787 -114.14471
138871000 -26.291866 -118.34731 -0.084089711 -28.0683 -0.079220206 -28.052219 -26.241144 -114.3457
139870000 -26.187695 -118.65801 -0.083474033 -28.269089 -0.080472343 -28.251852 -26.159302 -114.51399
140869000 -26.112999 -119.18854 -0.084305346 -28.469034 -0.081486918 -28.447334 -26.061357 -114.71442
141868000 -26.031464 -119.58508 -0.085407667 -28.665508 -0.082852893 -28.650574 -26.009977 -114.97727
142867000 -25.950312 -119.76463 -0.084245428 -28.861744 -0.082214966 -28.847864 -25.937895 -115.09927
143866000 -25.881792 -120.26812 -0.085923031 -29.058193 -0.083505958 -29.044516 -25.863935 -115.52608
144865000 -25.823793 -120.79952 -0.087380201 -29.258991 -0.0853488 -29.245607 -25.807106 -115.8475
145864000 -25.76359 -121.11608 -0.088266946 -29.4589 -0.08618205 -29.448067 -25.76898 -116.08549
146863000 -25.72035 -121.48117 -0.088869832 -29.660967 -0.086016759 -29.643137 -25.72114 -116.40102
147862000 -25.683115 -121.78852 -0.090045735 -29.856853 -0.086623564 -29.842592 -25.69166 -116.69654
148861000 -25.651649 -122.21918 -0.090464905 -30.051435 -0.088400096 -30.041214 -25.66485 -116.8628
149860000 -25.61561 -122.42095 -0.091871783 -30.247025 -0.088573404 -30.233519 -25.616365 -116.93339
150859000 -25.592909 -122.88548 -0.091668203 -30.447149 -0.088586874 -30.429276 -25.591543 -117.30237
151858000 -25.585012 -123.26849 -0.09078262 -30.645847 -0.087977953 -30.627382 -25.587364 -117.66718
152857000 -25.568192 -123.53851 -0.090588078 -30.843382 -0.088101581 -30.831095 -25.567366 -117.81625
153856000 -25.563272 -123.7583 -0.090307645 -31.046457 -0.087468423 -31.029724 -25.584177 -118.13712
154855000 -25.55847 -123.95881 -0.090874605 -31.24262 -0.087996967 -31.231466 -25.574852 -118.36704
155854000 -25.577444 -124.15994 -0.090901569 -31.444109 -0.088930078 -31.429737 -25.562664 -118.65275
156853000 -25.563148 -124.874 -0.089184783 -31.630733 -0.087971613 -31.624132 -25.559729 -118.95072
157852000 -25.56625 -125.04408 -0.090519883 -31.831024 -0.089723848 -31.822924 -25.547588 -119.34476
158851000 -25.571156 -125.2866 -0.091098763 -32.032707 -0.089295767 -32.024666 -25.532602 -119.56581
159850000 -25.553335 -125.38907 -0.091972522 -32.231197 -0.090122908 -32.221676 -25.53042 -119.75421
160849000 -25.539087 -125.5095 -0.092009798 -32.43055 -0.090788431 -32.426323 -25.49958 -120.09396
161848000 -25.525274 -125.59319 -0.092281878 -32.631649 -0.090761475 -32.62262 -25.468201 -120.1863
162847000 -25.482296 -125.76173 -0.092467509 -32.828598 -0.091171727 -32.828709 -25.434639 -120.42961
163846000 -25.445847 -125.94495 -0.092487603 -33.034161 -0.091353074 -33.025635 -25.360008 -120.42132
164845000 -25.385778 -125.9695 -0.09314318 -33.233116 -0.09123411 -33.22723 -25.292633 -120.5222
165844000 -25.335716 -125.96494 -0.093065426 -33.43359 -0.092197001 -33.422794 -25.215693 -120.6479
166843000 -25.273615 -126.0087 -0.092666626 -33.62553 -0.091589689 -33.624195 -25.14966 -120.83913
167842000 -25.21456 -126.11893 -0.093385972 -33.832432 -0.092402719 -33.826275 -25.075653 -120.72981
168841000 -25.137081 -126.29751 -0.093666069 -34.027729 -0.092207581 -34.027203 -25.002111 -120.84102
169840000 -25.069557 -126.50768 -0.09303131 -34.226635 -0.092581473 -34.224995 -24.919912 -121.00648
170839000 -25.012663 -126.77195 -0.094936132 -34.423008 -0.093004599 -34.419445 -24.836517 -121.17091
171838000 -24.954844 -127.15704 -0.094442986 -34.626801 -0.094219707 -34.617767 -24.77548 -121.39145
172837000 -24.885691 -127.49682 -0.096105471 -34.818733 -0.094916552 -34.813576 -24.70393 -121.58771
173836000 -24.814718 -127.89989 -0.097203121 -35.01965 -0.095796369 -35.013252 -24.661583 -121.82563
174835000 -24.76652 -128.2827 -0.097827904 -35.217171 -0.096639313 -35.216412 -24.618877 -122.17199
175834000 -24.71558 -128.66887 -0.098988228 -35.415161 -0.097734712 -35.413654 -24.56381 -122.36776
176833000 -24.659369 -129.0096 -0.099066615 -35.614685 -0.099014975 -35.612667 -24.511459 -122.52341
177832000 -24.620283 -129.41006 -0.10061616 -35.814671 -0.099385485 -35.813889 -24.491556 -122.6199
178831000 -24.572443 -129.63693 -0.10252034 -36.010696 -0.10171469 -36.008022 -24.449043 -122.69453
179830000 -24.500044 -130.05644 -0.10335133 -36.193928 -0.10192775 -36.195103 -24.384882 -122.79913
180829000 -24.451447 -130.38727 -0.10225663 -36.389874 -0.10107822 -36.391014 -24.343845 -123.09732
181828000 -24.427877 -130.84714 -0.10155252 -36.590263 -0.1006718 -36.583733 -24.329744 -123.31603
182827000 -24.409893 -131.18843 -0.10165931 -36.784615 -0.10092614 -36.788445 -24.314793 -123.44196
183826000 -24.369947 -131.52763 -0.10220866 -36.980774 -0.10076532 -36.981518 -24.309462 -123.57442
184825000 -24.36993 -131.85971 -0.10232289 -37.18515 -0.10118049 -37.180759 -24.287432 -123.71264
185824000 -24.344385 -132.24747 -0.10243871 -37.379101 -0.10126051 -37.375202 -24.28723 -123.78147
186823000 -24.323479 -132.59807 -0.1023963 -37.576786 -0.10151064 -37.577782 -24.273975 -123.78745
187822000 -24.302029 -132.95273 -0.10239551 -37.773258 -0.10223994 -37.774475 -24.237169 -123.84003
188821000 -24.281258 -133.16847 -0.10226485 -37.966423 -0.10229161 -37.970737 -24.221567 -123.96928
189820000 -24.25742 -133.51628 -0.1028278 -38.169056 -0.10228075 -38.165974 -24.205845 -124.17917
190819000 -24.227493 -133.81711 -0.10365063 -38.365082 -0.10292058 -38.364468 -24.16363 -124.22333
191818000 -24.196499 -134.09891 -0.10357852 -38.561409 -0.10294814 -38.563198 -24.138119 -124.25636
192817000 -24.149157 -134.35921 -0.10446275 -38.760822 -0.1030213 -38.757893 -24.092136 -124.34254
193816000 -24.119307 -134.60899 -0.10456219 -38.958805 -0.10266797 -38.953175 -24.04257 -124.48907
194815000 -24.059265 -135.01143 -0.10459188 -39.152344 -0.10429066 -39.153309 -23.976702 -124.56635
195814000 -24.005945 -135.20094 -0.10546014 -39.348614 -0.10440574 -39.352161 -23.922045 -124.6395
196813000 -23.948177 -135.517 -0.10472288 -39.544472 -0.10371029 -39.544994 -23.84226 -124.80178
197812000 -23.892855 -135.73233 -0.10582483 -39.743877 -0.10417638 -39.739735 -23.774521 -124.88438
198811000 -23.83786 -135.90138 -0.10488623 -39.940495 -0.10434316 -39.941048 -23.701601 -125.06477
199810000 -23.766884 -136.26588 -0.10554819 -40.132229 -0.10429676 -40.132053 -23.627092 -125.13342
200809000 -23.710928 -136.48174 -0.10607841 -40.329071 -0.10512438 -40.333134 -23.550655 -125.30832
201808000 -23.649647 -136.72914 -0.10611873 -40.533401 -0.10553758 -40.534924 -23.482542 -125.39999
202807000 -23.591221 -137.05296 -0.10774669 -40.731995 -0.10599857 -40.732689 -23.425562 -125.57202
