!Keysight Technologies,E5080B,MY59205177,A.15.75.32
!Date: Friday, February 23, 2024 02:58:17
!Correction: S11(Cdelta 2-Port  ) 
!S21(Cdelta 2-Port  ) 
!S12(Cdelta 2-Port  ) 
!S22(Cdelta 2-Port  ) 
!S2P File: Measurements: S11, S21, S12, S22:
# Hz S  dB   R 50
10000000 -44.04258 -3.6707768 -0.027945349 -2.0419116 -0.030504253 -2.0947132 -48.256229 -150.30176
10999000 -43.456364 -5.612412 -0.028968051 -2.2581964 -0.03093701 -2.3109336 -47.883606 -142.03764
11998000 -42.661392 -7.8866763 -0.029338108 -2.4828668 -0.031019917 -2.5210588 -47.990475 -136.46544
12997000 -42.018932 -12.417837 -0.028233765 -2.6617162 -0.030410407 -2.6915467 -47.305027 -130.74083
13996000 -41.79208 -15.792414 -0.027545713 -2.838866 -0.030387729 -2.8581257 -46.886681 -124.50789
14995000 -41.472065 -19.566895 -0.030120023 -3.049221 -0.030316304 -3.0736277 -46.491291 -120.86749
15994000 -41.335751 -23.340933 -0.031237621 -3.2677238 -0.032722462 -3.2879896 -46.198616 -117.269
16993000 -41.364113 -27.124304 -0.029953985 -3.4629753 -0.031770583 -3.4691098 -45.290855 -118.25709
17992000 -41.43259 -31.975901 -0.030247748 -3.663615 -0.032805923 -3.6664371 -44.719536 -119.59709
18991000 -41.684132 -36.157379 -0.031674102 -3.8686564 -0.033419684 -3.8663955 -43.989971 -119.00993
19990000 -41.543312 -41.085495 -0.034260772 -4.0791631 -0.035318632 -4.0776205 -43.34687 -120.36475
20989000 -41.426704 -44.259838 -0.035692621 -4.2823477 -0.036950283 -4.2714157 -42.740715 -120.45764
21988000 -41.393856 -48.773716 -0.03671141 -4.4795542 -0.038834844 -4.4704461 -42.427212 -119.86041
22987000 -41.164639 -53.127869 -0.038416445 -4.6769681 -0.039435089 -4.6717062 -42.162922 -119.32958
23986000 -41.196579 -56.912476 -0.037343998 -4.8728828 -0.038008794 -4.8705525 -42.011864 -119.48035
24985000 -40.869602 -59.72924 -0.038341232 -5.0798488 -0.038284563 -5.0759315 -41.76297 -116.9546
25984000 -40.603416 -61.977211 -0.039264515 -5.2877932 -0.03923526 -5.2898374 -41.435059 -115.62998
26983000 -40.336784 -63.720364 -0.040653855 -5.4796386 -0.040597156 -5.5027981 -41.302498 -114.97561
27982000 -40.169891 -64.560226 -0.042068731 -5.6821189 -0.041295119 -5.7173905 -40.999016 -113.15616
28981000 -40.175949 -66.083427 -0.039807606 -5.8832636 -0.041609775 -5.9035225 -40.746452 -112.49854
29980000 -39.787788 -67.589836 -0.039891206 -6.0723314 -0.041834805 -6.0816946 -40.452923 -111.89312
30979000 -39.432255 -67.004318 -0.037151836 -6.4294682 -0.036261629 -6.4194608 -39.912876 -112.72802
31978000 -39.264511 -68.129478 -0.036824446 -6.6237473 -0.037712157 -6.6137815 -39.646889 -112.23489
32977000 -39.105347 -69.688187 -0.03655269 -6.8318338 -0.037988167 -6.8305864 -39.404919 -112.50095
33976000 -38.939766 -70.782738 -0.037386034 -7.0319982 -0.038339667 -7.0262556 -39.101639 -111.9503
34975000 -38.679104 -71.58564 -0.037708238 -7.2320085 -0.039587382 -7.2320948 -38.837952 -111.71889
35974000 -38.477039 -72.347771 -0.036532849 -7.4296298 -0.039245445 -7.4277062 -38.548267 -110.90513
36973000 -38.258343 -73.242134 -0.037510317 -7.6270409 -0.040189039 -7.6306806 -38.235664 -110.17829
37972000 -38.095947 -73.293121 -0.036605682 -7.8328953 -0.039490469 -7.8442316 -38.010384 -109.61015
38971000 -37.789429 -73.087349 -0.037192564 -8.0412064 -0.040240768 -8.0441217 -37.815662 -108.00745
39970000 -37.452625 -73.515457 -0.035844784 -8.2322216 -0.039477669 -8.2441711 -37.527233 -107.58936
40969000 -37.164589 -73.5093 -0.036830712 -8.426198 -0.038353767 -8.4409695 -37.249348 -106.38866
41968000 -36.8563 -73.624779 -0.036697052 -8.6328468 -0.039049022 -8.6493378 -37.067169 -105.21362
42967000 -36.587009 -73.839272 -0.035945274 -8.8390474 -0.039086893 -8.8579807 -36.817173 -103.46384
43966000 -36.301685 -74.821404 -0.037323892 -9.0408478 -0.040501263 -9.0600176 -36.526581 -102.88503
44965000 -36.084915 -75.723404 -0.037161756 -9.2408905 -0.040366702 -9.2631855 -36.316162 -102.75394
45964000 -35.863209 -76.808464 -0.039897215 -9.439642 -0.041803963 -9.4602699 -36.083153 -102.5751
46963000 -35.689697 -78.779411 -0.03959078 -9.6354275 -0.041969147 -9.6599226 -35.90443 -103.00933
47962000 -35.551495 -80.293114 -0.040579647 -9.8359632 -0.043669716 -9.8553448 -35.667747 -103.16048
48961000 -35.35574 -81.885834 -0.043277517 -10.035563 -0.045251407 -10.05736 -35.460667 -103.39198
49960000 -35.143578 -83.278015 -0.043908712 -10.229752 -0.046483845 -10.256126 -35.321209 -103.66383
50959000 -34.932381 -84.585075 -0.044385172 -10.444509 -0.047441833 -10.455735 -35.140102 -104.02608
51958000 -34.754116 -85.719749 -0.047159724 -10.644385 -0.048648451 -10.654331 -34.956512 -104.60512
52957000 -34.544376 -86.828949 -0.048106086 -10.846129 -0.049528368 -10.853086 -34.786427 -104.47897
53956000 -34.388153 -87.641541 -0.04922099 -11.043066 -0.050593879 -11.047862 -34.661629 -104.49165
54955000 -34.235672 -88.128601 -0.049799368 -11.247235 -0.051289786 -11.242983 -34.514618 -104.55431
55954000 -34.08733 -89.04425 -0.051323313 -11.448509 -0.051784083 -11.44009 -34.396801 -104.22983
56953000 -33.951443 -89.127251 -0.050331734 -11.642979 -0.051029429 -11.632923 -34.31694 -104.48737
57952000 -33.789787 -89.732178 -0.051874202 -11.845053 -0.051601235 -11.831912 -34.224018 -104.54585
58951000 -33.687496 -90.106773 -0.052658085 -12.052105 -0.052713111 -12.024688 -34.062447 -104.68294
59950000 -33.567928 -90.465973 -0.053493217 -12.243189 -0.052859057 -12.222817 -34.000027 -104.97574
60949000 -33.462173 -91.094353 -0.054027606 -12.441975 -0.054116983 -12.422449 -33.914341 -105.29799
61948000 -33.407688 -91.3647 -0.054758664 -12.646851 -0.053571574 -12.625526 -33.839314 -105.34255
62947000 -33.318527 -91.615753 -0.054723538 -12.855471 -0.054074783 -12.83814 -33.678833 -105.71886
63946000 -33.242928 -92.289795 -0.055651095 -13.054782 -0.054881349 -13.032775 -33.584484 -105.76118
64945000 -33.148701 -92.541214 -0.055790324 -13.256526 -0.055739455 -13.235816 -33.477024 -106.29973
65944000 -33.052692 -92.898476 -0.056871537 -13.455504 -0.056026317 -13.437432 -33.389057 -106.77447
66943000 -32.915871 -93.218536 -0.054500721 -13.655834 -0.055233169 -13.638033 -33.292515 -107.01792
67942000 -32.847744 -93.233124 -0.056811478 -13.852366 -0.056980118 -13.840623 -33.165062 -107.33436
68941000 -32.736656 -93.331253 -0.056069057 -14.044975 -0.05591435 -14.036171 -33.06004 -107.39507
69940000 -32.649487 -93.358231 -0.057272568 -14.244552 -0.056383215 -14.232119 -32.929028 -107.67742
70939000 -32.538876 -93.29174 -0.056713127 -14.442565 -0.056204367 -14.431099 -32.792171 -107.60942
71938000 -32.393196 -92.899361 -0.056555249 -14.633857 -0.056120455 -14.628812 -32.659737 -107.48246
72937000 -32.224415 -92.782959 -0.055967581 -14.832369 -0.055418268 -14.825469 -32.513866 -107.2502
73936000 -32.084854 -92.487579 -0.055506624 -15.02986 -0.055060927 -15.025969 -32.387928 -107.11023
74935000 -31.977894 -92.733002 -0.055685706 -15.229262 -0.05438932 -15.220284 -32.237457 -106.71402
75934000 -31.844702 -92.978241 -0.055256244 -15.434242 -0.05421868 -15.430371 -32.15057 -106.74718
76933000 -31.721939 -93.408234 -0.056399997 -15.628738 -0.056190733 -15.621729 -31.984726 -107.07195
77932000 -31.620584 -94.168755 -0.057258405 -15.826803 -0.05761724 -15.822258 -31.887079 -107.15221
78931000 -31.569643 -95.047173 -0.056391079 -16.026228 -0.056943923 -16.021196 -31.790804 -107.02935
79930000 -31.455507 -95.844147 -0.058703627 -16.216248 -0.059272774 -16.214375 -31.69577 -107.28712
80929000 -31.324802 -96.732872 -0.060261149 -16.413523 -0.060685329 -16.40877 -31.590513 -107.76627
81928000 -31.254751 -97.604454 -0.060672469 -16.602512 -0.060982756 -16.600979 -31.463423 -107.74166
82927000 -31.160976 -98.323235 -0.061992526 -16.803101 -0.061849684 -16.800222 -31.355156 -108.13438
83926000 -31.055552 -99.063286 -0.06293162 -16.999924 -0.06305033 -16.998114 -31.241999 -108.32772
84925000 -30.94533 -99.54377 -0.064359292 -17.199566 -0.063180082 -17.195679 -31.144617 -108.41491
85924000 -30.866499 -99.978142 -0.06432566 -17.396458 -0.063964434 -17.396187 -31.075111 -108.39149
86923000 -30.757868 -100.51064 -0.065536194 -17.598618 -0.064253412 -17.593607 -30.965942 -108.35587
87922000 -30.657095 -100.90944 -0.065527782 -17.804134 -0.064184844 -17.791454 -30.8839 -108.36295
88921000 -30.583092 -101.23845 -0.066876918 -18.000177 -0.065652348 -17.996485 -30.799662 -108.34829
89920000 -30.4807 -101.78058 -0.067012832 -18.198774 -0.066223457 -18.191624 -30.740587 -108.5858
90919000 -30.383062 -102.12498 -0.068272494 -18.39473 -0.066929497 -18.389048 -30.660406 -108.72205
91918000 -30.293694 -102.5328 -0.068808705 -18.592072 -0.067592002 -18.591137 -30.590092 -108.75215
92917000 -30.200594 -102.81149 -0.06954173 -18.794445 -0.068131551 -18.791056 -30.534584 -108.86092
93916000 -30.121773 -103.17185 -0.069554619 -18.984686 -0.067608044 -18.981117 -30.451292 -109.52084
94915000 -30.045731 -103.85867 -0.070708461 -19.189768 -0.068825535 -19.182829 -30.385885 -109.35944
95914000 -29.98127 -104.09656 -0.071888134 -19.381809 -0.069811091 -19.377523 -30.298656 -109.63599
96913000 -29.892935 -104.34252 -0.072883338 -19.584242 -0.071139716 -19.577621 -30.231958 -110.01038
97912000 -29.832623 -104.78539 -0.07449124 -19.77639 -0.071332335 -19.779215 -30.161505 -110.25476
98911000 -29.724918 -104.99342 -0.074329294 -19.977928 -0.07283885 -19.974579 -30.117998 -110.45944
99910000 -29.660191 -105.13712 -0.075070888 -20.175535 -0.072802521 -20.179213 -30.003908 -110.78791
100909000 -29.563921 -105.40276 -0.074395128 -20.382792 -0.072129741 -20.375872 -29.92524 -110.98663
101908000 -29.48321 -105.64026 -0.075599506 -20.584021 -0.073605463 -20.580095 -29.81204 -110.7654
102907000 -29.359037 -105.66992 -0.075718045 -20.782959 -0.07358861 -20.782701 -29.738602 -110.77764
103906000 -29.260462 -105.72089 -0.076707006 -20.990702 -0.072990738 -20.983734 -29.590998 -110.67805
104905000 -29.11466 -105.68259 -0.077187344 -21.186949 -0.073519103 -21.185291 -29.464445 -110.37437
105904000 -28.973473 -105.74561 -0.077035569 -21.391117 -0.073136054 -21.3778 -29.344706 -110.26057
106903000 -28.865419 -105.8796 -0.076870099 -21.595005 -0.074047804 -21.591167 -29.220715 -110.15022
107902000 -28.700548 -106.18909 -0.078054346 -21.792629 -0.074461751 -21.785759 -29.07299 -110.12346
108901000 -28.590868 -106.50657 -0.078231461 -21.995707 -0.075782582 -21.988146 -28.947908 -110.11169
109900000 -28.474508 -106.95486 -0.079404481 -22.197151 -0.076921478 -22.185156 -28.792974 -110.18633
110899000 -28.350824 -107.63448 -0.08065483 -22.393164 -0.077429242 -22.384724 -28.667152 -110.47034
111898000 -28.260071 -108.27429 -0.081813201 -22.596476 -0.078381166 -22.586273 -28.545828 -110.5702
112897000 -28.131441 -108.84073 -0.083195642 -22.792503 -0.079642817 -22.780893 -28.417606 -110.77293
113896000 -28.033195 -109.51592 -0.084407486 -22.993143 -0.081077576 -22.98086 -28.303875 -110.98183
114895000 -27.932539 -110.11076 -0.085676171 -23.189354 -0.082417838 -23.176785 -28.189888 -111.00065
115894000 -27.808523 -110.45071 -0.08671388 -23.389757 -0.084189475 -23.377485 -28.123043 -111.22009
116893000 -27.731121 -111.076 -0.086708069 -23.586966 -0.084591195 -23.571884 -27.994257 -111.36311
117892000 -27.643866 -111.57257 -0.087418765 -23.782167 -0.085344575 -23.769497 -27.926132 -111.58262
118891000 -27.585732 -111.95495 -0.087475024 -23.980293 -0.085282534 -23.970619 -27.827692 -111.71648
119890000 -27.493561 -112.35855 -0.088899955 -24.182858 -0.086841956 -24.165798 -27.811787 -111.89175
120889000 -27.441874 -112.88758 -0.089711957 -24.384892 -0.086600855 -24.373381 -27.729445 -111.83363
121888000 -27.397032 -113.21652 -0.089277007 -24.580154 -0.086323582 -24.563677 -27.68355 -112.09299
122887000 -27.356779 -113.37637 -0.090649396 -24.784834 -0.087428011 -24.768467 -27.627069 -112.15572
123886000 -27.301992 -113.82401 -0.091048539 -24.982937 -0.08748506 -24.9641 -27.618639 -112.31864
124885000 -27.262867 -114.31696 -0.091722138 -25.182123 -0.088027082 -25.170065 -27.58206 -112.39104
125884000 -27.203751 -114.49481 -0.092150465 -25.38147 -0.08833722 -25.368055 -27.554976 -112.57954
126883000 -27.18222 -114.92624 -0.092689633 -25.585314 -0.089092575 -25.56883 -27.512825 -112.62654
127882000 -27.140207 -115.18546 -0.092971802 -25.783976 -0.089482583 -25.767185 -27.475988 -112.78883
128881000 -27.1092 -115.53717 -0.093454473 -25.983776 -0.089543097 -25.96677 -27.426809 -112.90356
129880000 -27.04516 -115.83696 -0.093788803 -26.186546 -0.089735739 -26.164202 -27.386162 -112.8662
130879000 -26.984577 -115.98066 -0.093652576 -26.382517 -0.090505347 -26.368841 -27.309793 -112.92191
131878000 -26.922195 -116.22289 -0.093648873 -26.585993 -0.090340681 -26.567057 -27.24556 -112.83445
132877000 -26.850166 -116.29123 -0.093320109 -26.784611 -0.091267161 -26.771379 -27.163597 -112.86083
133876000 -26.767162 -116.47263 -0.094188757 -26.98741 -0.090758301 -26.971321 -27.071844 -112.7815
134875000 -26.674444 -116.55551 -0.094127126 -27.182745 -0.0914189 -27.168499 -26.971743 -112.64277
135874000 -26.590328 -116.64217 -0.093706802 -27.388943 -0.090787373 -27.374851 -26.862206 -112.66029
136873000 -26.47858 -116.54253 -0.093849376 -27.591496 -0.090714954 -27.570498 -26.776024 -112.65468
137872000 -26.397724 -116.62408 -0.09510044 -27.787708 -0.091506407 -27.775837 -26.674942 -112.54807
138871000 -26.324942 -116.82654 -0.095152833 -27.987879 -0.091459088 -27.975212 -26.576017 -112.7476
139870000 -26.224369 -117.07409 -0.096029781 -28.189463 -0.093383327 -28.173306 -26.494345 -112.86863
140869000 -26.139906 -117.5791 -0.098006353 -28.386087 -0.094144583 -28.367474 -26.387285 -113.0633
141868000 -26.050247 -118.06307 -0.097775221 -28.579901 -0.095199138 -28.56205 -26.323009 -113.3373
142867000 -25.971754 -118.3214 -0.096357696 -28.77623 -0.093539372 -28.760004 -26.236433 -113.53608
143866000 -25.898281 -118.80772 -0.097726502 -28.974335 -0.095214218 -28.957741 -26.170637 -114.05542
144865000 -25.844374 -119.32791 -0.09975788 -29.172701 -0.09621875 -29.156431 -26.109516 -114.37875
145864000 -25.79213 -119.67512 -0.10018382 -29.372078 -0.097445615 -29.360495 -26.07621 -114.64874
146863000 -25.745735 -120.02735 -0.10094177 -29.569355 -0.097704269 -29.559618 -26.023867 -114.96282
147862000 -25.704939 -120.45898 -0.10204621 -29.770786 -0.09778025 -29.753735 -25.987024 -115.28333
148861000 -25.677883 -120.94455 -0.10176768 -29.967354 -0.098457277 -29.951941 -25.971394 -115.50378
149860000 -25.66003 -121.14468 -0.10189436 -30.165234 -0.09869004 -30.150747 -25.935755 -115.65554
150859000 -25.646442 -121.5027 -0.1025328 -30.362913 -0.099363238 -30.350319 -25.933319 -115.94764
151858000 -25.62649 -121.83852 -0.1021599 -30.564054 -0.099771127 -30.550688 -25.920187 -116.22643
152857000 -25.605684 -122.17261 -0.1029553 -30.762547 -0.099525325 -30.746244 -25.906952 -116.3591
153856000 -25.597237 -122.34424 -0.10250656 -30.95825 -0.099358469 -30.949581 -25.924465 -116.65467
154855000 -25.593061 -122.50532 -0.10275517 -31.158928 -0.09903086 -31.1423 -25.915056 -116.85374
155854000 -25.609606 -122.80183 -0.10395658 -31.356428 -0.1002617 -31.342171 -25.910694 -117.12315
156853000 -25.592407 -123.50221 -0.10158352 -31.544632 -0.09936244 -31.5375 -25.903385 -117.41634
157852000 -25.598461 -123.71544 -0.10288399 -31.743526 -0.10055417 -31.734146 -25.897388 -117.73856
158851000 -25.593313 -123.93648 -0.10307273 -31.944023 -0.10113333 -31.932802 -25.88237 -118.04581
159850000 -25.580656 -124.07357 -0.1040934 -32.138912 -0.10142903 -32.131813 -25.878088 -118.18972
160849000 -25.560993 -124.16454 -0.10428005 -32.340145 -0.1018758 -32.334232 -25.852512 -118.45357
161848000 -25.537798 -124.29416 -0.10454787 -32.539173 -0.10217156 -32.53389 -25.811163 -118.57159
162847000 -25.497622 -124.50749 -0.10504535 -32.736961 -0.10230831 -32.737232 -25.780828 -118.80627
163846000 -25.457682 -124.73169 -0.10520393 -32.937996 -0.10205389 -32.929745 -25.70619 -118.81783
164845000 -25.397858 -124.73797 -0.10470962 -33.136776 -0.10311647 -33.132832 -25.636847 -118.93577
165844000 -25.34486 -124.79137 -0.10492017 -33.337067 -0.1031443 -33.327213 -25.556538 -119.10619
166843000 -25.278017 -124.8687 -0.10525379 -33.536102 -0.10298949 -33.528728 -25.489948 -119.26293
167842000 -25.22629 -125.03955 -0.10570441 -33.73542 -0.10323443 -33.726402 -25.403034 -119.16048
168841000 -25.14562 -125.21663 -0.10580971 -33.93248 -0.10342397 -33.929588 -25.331989 -119.27068
169840000 -25.081882 -125.4688 -0.1055031 -34.125366 -0.10416233 -34.124378 -25.241964 -119.48549
170839000 -25.019415 -125.71815 -0.10731656 -34.323055 -0.10405548 -34.323257 -25.151339 -119.69359
171838000 -24.961218 -126.14186 -0.10671535 -34.525223 -0.10541982 -34.517162 -25.08835 -119.91087
172837000 -24.896427 -126.51881 -0.10791732 -34.720478 -0.10606754 -34.713551 -25.022009 -120.15015
173836000 -24.8297 -126.92859 -0.10928579 -34.918858 -0.10732505 -34.916813 -24.976988 -120.38114
174835000 -24.773615 -127.37273 -0.10957781 -35.112473 -0.10774377 -35.114368 -24.931334 -120.72973
175834000 -24.718864 -127.79736 -0.10992347 -35.313908 -0.10897629 -35.309868 -24.87038 -121.00056
176833000 -24.671227 -128.13414 -0.11155604 -35.508892 -0.10984489 -35.507912 -24.815525 -121.1461
177832000 -24.627981 -128.61827 -0.11117732 -35.703945 -0.11021765 -35.705799 -24.792213 -121.36177
178831000 -24.584682 -128.99924 -0.11193188 -35.901115 -0.11038917 -35.90181 -24.753069 -121.57136
179830000 -24.552767 -129.42032 -0.11278273 -36.097664 -0.11054743 -36.103111 -24.724678 -121.69246
180829000 -24.510199 -129.62567 -0.11277795 -36.2953 -0.11127983 -36.294483 -24.699713 -121.87538
181828000 -24.480398 -130.0155 -0.1127907 -36.497398 -0.1105384 -36.491219 -24.678757 -121.94479
182827000 -24.459105 -130.37056 -0.11254204 -36.687851 -0.11254258 -36.687897 -24.666704 -122.05398
183826000 -24.417824 -130.67224 -0.11406053 -36.886093 -0.11165192 -36.883472 -24.658373 -122.19136
184825000 -24.422791 -130.98866 -0.11380515 -37.0825 -0.11276573 -37.084538 -24.640484 -122.30766
185824000 -24.398905 -131.35582 -0.11447405 -37.277035 -0.11269453 -37.280769 -24.637135 -122.34735
186823000 -24.384674 -131.70401 -0.11389072 -37.474274 -0.1135644 -37.47596 -24.638832 -122.34834
187822000 -24.356668 -132.01224 -0.11440416 -37.671818 -0.11367255 -37.672085 -24.599438 -122.38731
188821000 -24.339487 -132.2617 -0.11428987 -37.8671 -0.11385166 -37.869705 -24.588396 -122.48966
189820000 -24.325945 -132.5255 -0.11487353 -38.068752 -0.11384342 -38.066608 -24.578468 -122.64394
190819000 -24.292208 -132.74982 -0.11625696 -38.267517 -0.11511701 -38.268246 -24.542059 -122.59203
191818000 -24.256897 -132.91577 -0.11708314 -38.459217 -0.11598763 -38.464302 -24.511438 -122.51781
192817000 -24.185871 -133.17957 -0.11750519 -38.648888 -0.11626281 -38.647808 -24.437307 -122.57133
193816000 -24.149502 -133.5425 -0.11718845 -38.841652 -0.11528075 -38.84124 -24.379723 -122.84919
194815000 -24.090712 -134.00143 -0.11624686 -39.035366 -0.11608654 -39.038635 -24.319124 -122.94496
195814000 -24.039732 -134.19952 -0.11716904 -39.233158 -0.11591505 -39.233356 -24.262928 -123.09883
196813000 -23.983683 -134.55983 -0.11634471 -39.427197 -0.11512445 -39.431984 -24.188112 -123.25223
197812000 -23.930933 -134.79404 -0.1179249 -39.630867 -0.11592808 -39.627399 -24.122175 -123.3419
198811000 -23.874432 -134.98868 -0.1173552 -39.823895 -0.11542403 -39.82486 -24.047134 -123.54083
199810000 -23.808153 -135.35062 -0.11693103 -40.016083 -0.11549927 -40.0163 -23.972004 -123.64008
200809000 -23.748287 -135.64296 -0.11758711 -40.214989 -0.11602565 -40.217758 -23.890697 -123.84543
201808000 -23.695456 -135.85529 -0.11836167 -40.417664 -0.11718712 -40.419529 -23.820456 -123.91284
202807000 -23.633892 -136.23697 -0.11884636 -40.616009 -0.11789192 -40.614544 -23.766621 -124.11224
203806000 -23.580389 -136.66731 -0.12037212 -40.816246 -0.11812333 -40.815872 -23.703939 -124.30231
