!Keysight Technologies,E5080B,MY59205177,A.15.75.32
!Date: Friday, February 23, 2024 03:36:31
!Correction: S11(Cdelta 2-Port  ) 
!S21(Cdelta 2-Port  ) 
!S12(Cdelta 2-Port  ) 
!S22(Cdelta 2-Port  ) 
!S2P File: Measurements: S11, S21, S12, S22:
# Hz S  dB   R 50
10000000 -46.094486 -2.6899071 -0.015458883 -2.0454504 -0.018071525 -2.0964227 -45.894657 -157.55246
10999000 -45.323555 -4.5741973 -0.016070714 -2.2630994 -0.018203575 -2.3168335 -45.846684 -151.75078
11998000 -44.353725 -7.7738557 -0.016523862 -2.4866123 -0.017341157 -2.5287409 -45.982399 -147.26004
12997000 -43.590836 -13.173855 -0.015818438 -2.6674769 -0.017904127 -2.69836 -45.618034 -141.37881
13996000 -43.304573 -17.473698 -0.015542794 -2.8477314 -0.017745834 -2.8674173 -45.42934 -136.38586
14995000 -42.853924 -21.549522 -0.017377542 -3.057152 -0.016927164 -3.08092 -45.101616 -132.73376
15994000 -42.705788 -26.113184 -0.018692562 -3.2767448 -0.019842591 -3.3001606 -44.991749 -129.35112
16993000 -42.683411 -30.614302 -0.017116614 -3.4691207 -0.018436754 -3.4842913 -44.120956 -129.19212
17992000 -42.712357 -35.848526 -0.017732577 -3.6715844 -0.019660303 -3.67676 -43.526241 -129.11125
18991000 -42.976292 -41.430782 -0.01956409 -3.8838351 -0.020759346 -3.8812995 -42.94788 -127.88065
19990000 -42.732738 -47.12759 -0.021853205 -4.0945306 -0.022482591 -4.0905252 -42.27644 -128.8983
20989000 -42.554497 -50.346958 -0.023675526 -4.2962499 -0.024484795 -4.2872481 -41.75449 -127.99796
21988000 -42.392189 -55.686691 -0.023968605 -4.4932508 -0.024677178 -4.4853492 -41.461258 -127.44715
22987000 -42.022533 -60.333588 -0.025710309 -4.6936784 -0.026520999 -4.6870937 -41.237446 -127.08045
23986000 -41.987713 -64.64576 -0.025340302 -4.8863034 -0.025488457 -4.8889856 -41.118431 -126.8788
24985000 -41.566612 -67.43338 -0.026258219 -5.0953441 -0.025583237 -5.0920115 -40.900612 -124.27532
25984000 -41.220058 -69.431297 -0.027637152 -5.3015032 -0.026334004 -5.3046069 -40.548191 -122.91764
26983000 -40.928646 -71.225548 -0.027773922 -5.5008078 -0.026770774 -5.5198078 -40.43951 -122.1101
27982000 -40.750633 -72.398674 -0.029210409 -5.7015719 -0.029473631 -5.7341533 -40.172298 -120.74467
28981000 -40.7085 -73.681763 -0.026852299 -5.898757 -0.028727792 -5.9257808 -39.974621 -119.92296
29980000 -40.310059 -75.111473 -0.02719743 -6.0952129 -0.028792156 -6.1019459 -39.68597 -119.11019
30979000 -39.886757 -73.95739 -0.024838068 -6.4484987 -0.023512596 -6.4411545 -39.196064 -119.37691
31978000 -39.716419 -74.968582 -0.023837419 -6.6414642 -0.024882328 -6.6338434 -38.939137 -118.84335
32977000 -39.500237 -76.391617 -0.024004525 -6.856463 -0.025169238 -6.8496928 -38.709084 -118.81771
33976000 -39.352703 -77.738075 -0.024492605 -7.0546622 -0.025367901 -7.0505753 -38.414585 -118.15433
34975000 -39.056686 -78.318893 -0.024457462 -7.2546139 -0.026700972 -7.252418 -38.183975 -117.84332
35974000 -38.842457 -78.970123 -0.023829611 -7.4475017 -0.026354579 -7.4513884 -37.911766 -117.0143
36973000 -38.612411 -79.525475 -0.024305176 -7.6508689 -0.026923146 -7.6498895 -37.65913 -116.03699
37972000 -38.449409 -79.411613 -0.023266133 -7.8579235 -0.027285734 -7.8681235 -37.444138 -115.35564
38971000 -38.1339 -78.796577 -0.025240058 -8.05793 -0.027399572 -8.0705185 -37.260406 -113.74265
39970000 -37.819778 -79.125336 -0.023642991 -8.2561932 -0.026128527 -8.2710009 -37.014385 -113.12008
40969000 -37.52026 -78.812729 -0.024401233 -8.4487724 -0.026436357 -8.4684296 -36.770031 -111.80795
41968000 -37.169437 -78.661942 -0.024024829 -8.6519604 -0.026431147 -8.6687336 -36.586857 -110.50396
42967000 -36.898457 -78.90522 -0.023302307 -8.8652554 -0.026708525 -8.8860579 -36.389496 -108.59702
43966000 -36.614384 -79.490387 -0.024803704 -9.0662384 -0.027310481 -9.0868587 -36.11623 -107.79987
44965000 -36.391941 -80.210495 -0.026072016 -9.2727928 -0.028417977 -9.2872448 -35.900375 -107.68035
45964000 -36.14394 -81.314774 -0.026842922 -9.4661798 -0.02952419 -9.4920378 -35.684689 -107.26057
46963000 -35.950111 -83.129272 -0.026836671 -9.6634436 -0.029637825 -9.6846457 -35.511902 -107.59471
47962000 -35.783344 -84.591194 -0.028176446 -9.8662214 -0.03091876 -9.8847017 -35.301361 -107.55482
48961000 -35.576145 -85.968788 -0.030546224 -10.062559 -0.032059513 -10.086394 -35.074112 -107.83376
49960000 -35.339684 -87.261627 -0.031416222 -10.263871 -0.033581156 -10.286043 -34.948574 -107.8499
50959000 -35.107239 -88.543327 -0.032399319 -10.477438 -0.034368269 -10.487212 -34.747311 -108.06455
51958000 -34.902939 -89.6651 -0.034225289 -10.676495 -0.036007393 -10.684836 -34.595875 -108.56828
52957000 -34.688679 -90.657524 -0.035826255 -10.877538 -0.037470367 -10.88558 -34.420746 -108.37173
53956000 -34.535843 -91.270729 -0.036804345 -11.075913 -0.037504312 -11.080745 -34.28651 -108.25536
54955000 -34.350544 -91.894646 -0.037921578 -11.277596 -0.038655676 -11.276408 -34.132832 -108.23089
55954000 -34.19286 -92.549591 -0.039088722 -11.478994 -0.0393003 -11.478087 -34.024155 -107.90016
56953000 -34.06982 -92.66243 -0.03869668 -11.676323 -0.038178016 -11.669614 -33.9548 -108.12823
57952000 -33.900883 -93.305046 -0.039218802 -11.874814 -0.039343141 -11.868459 -33.85252 -108.28099
58951000 -33.777836 -93.576431 -0.040393874 -12.081086 -0.040383164 -12.061614 -33.709541 -108.36299
59950000 -33.652367 -94.018372 -0.041008968 -12.2845 -0.040858455 -12.260341 -33.628529 -108.56427
60949000 -33.539932 -94.545876 -0.041520394 -12.48382 -0.041287277 -12.463476 -33.539833 -108.79114
61948000 -33.464443 -94.787216 -0.0417611 -12.685456 -0.041174907 -12.664394 -33.446556 -108.89629
62947000 -33.384926 -95.011871 -0.042662628 -12.895324 -0.041886292 -12.874253 -33.316452 -109.19995
63946000 -33.309361 -95.752556 -0.043180261 -13.094073 -0.042437032 -13.070111 -33.202824 -109.37874
64945000 -33.191406 -95.904991 -0.04387524 -13.292961 -0.043275688 -13.276427 -33.076069 -109.75379
65944000 -33.086994 -96.187073 -0.044487428 -13.49177 -0.043811176 -13.478916 -32.998672 -110.22639
66943000 -32.953094 -96.576775 -0.042117611 -13.696516 -0.042313915 -13.678997 -32.886456 -110.4586
67942000 -32.893097 -96.533211 -0.043929107 -13.892107 -0.043962315 -13.878577 -32.758404 -110.78287
68941000 -32.775642 -96.614769 -0.043899033 -14.084767 -0.042981826 -14.07584 -32.65918 -110.73114
69940000 -32.676743 -96.606895 -0.044362158 -14.281104 -0.043702397 -14.278498 -32.510574 -111.03207
70939000 -32.571156 -96.560097 -0.043862689 -14.485884 -0.044257551 -14.476068 -32.383308 -110.92274
71938000 -32.440861 -96.172852 -0.043952379 -14.674887 -0.043917861 -14.670232 -32.255508 -110.73588
72937000 -32.273487 -95.944122 -0.043500543 -14.876668 -0.043102089 -14.869229 -32.10939 -110.4866
73936000 -32.1395 -95.609444 -0.043247189 -15.079427 -0.042608514 -15.065033 -31.992939 -110.31352
74935000 -32.008621 -95.823868 -0.042658444 -15.271585 -0.042210139 -15.268425 -31.840256 -109.95901
75934000 -31.890554 -96.053413 -0.042364102 -15.479425 -0.042211447 -15.475614 -31.754091 -109.85622
76933000 -31.768444 -96.458183 -0.043960225 -15.676883 -0.043203004 -15.668383 -31.577354 -110.17169
77932000 -31.654272 -97.176773 -0.044950351 -15.871323 -0.045283582 -15.866127 -31.485594 -110.1246
78931000 -31.583609 -97.933403 -0.043843076 -16.07139 -0.044339668 -16.066408 -31.377392 -110.06023
79930000 -31.471106 -98.796501 -0.046156798 -16.261808 -0.046536434 -16.264791 -31.289091 -110.34509
80929000 -31.359327 -99.553642 -0.048005577 -16.462994 -0.047112886 -16.457754 -31.182707 -110.60307
81928000 -31.248207 -100.32233 -0.0481833 -16.650454 -0.048174139 -16.650726 -31.066965 -110.57117
82927000 -31.153542 -101.01348 -0.049670544 -16.852564 -0.049317338 -16.849096 -30.954521 -110.83654
83926000 -31.047613 -101.72273 -0.051181607 -17.049364 -0.050166491 -17.048244 -30.838179 -110.99924
84925000 -30.935467 -102.12634 -0.052212156 -17.248083 -0.050669044 -17.243538 -30.742086 -111.05277
85924000 -30.845446 -102.50849 -0.052059941 -17.448469 -0.051490694 -17.445875 -30.644182 -110.98694
86923000 -30.731377 -103.02128 -0.052795909 -17.648188 -0.051800326 -17.643749 -30.55357 -110.8897
87922000 -30.625206 -103.36724 -0.052770756 -17.852215 -0.052508477 -17.846455 -30.473951 -110.9537
88921000 -30.558615 -103.60838 -0.053925127 -18.051823 -0.052777831 -18.050348 -30.373978 -110.90783
89920000 -30.447008 -104.1272 -0.054426014 -18.250557 -0.053418528 -18.245346 -30.322529 -111.05608
90919000 -30.352203 -104.42225 -0.055641655 -18.447197 -0.05443624 -18.445694 -30.238121 -111.23327
91918000 -30.246527 -104.75462 -0.055985149 -18.65127 -0.055506889 -18.643616 -30.16976 -111.26325
92917000 -30.158867 -105.0164 -0.057593629 -18.848824 -0.055500071 -18.843431 -30.102449 -111.32071
93916000 -30.074102 -105.42247 -0.056629989 -19.039297 -0.056024741 -19.035007 -30.013441 -111.95024
94915000 -30.005144 -106.08291 -0.058084976 -19.242832 -0.056890681 -19.237144 -29.95763 -111.7995
95914000 -29.92462 -106.21198 -0.059385352 -19.440298 -0.057255257 -19.432844 -29.865038 -112.07688
96913000 -29.841234 -106.45295 -0.059784777 -19.638468 -0.059115849 -19.635101 -29.792637 -112.39727
97912000 -29.765354 -106.924 -0.06141226 -19.833351 -0.059198249 -19.833326 -29.724436 -112.68809
98911000 -29.665743 -107.04893 -0.061435889 -20.036781 -0.060273223 -20.035091 -29.67729 -112.88275
99910000 -29.591759 -107.2229 -0.062460206 -20.233257 -0.060581908 -20.232161 -29.566862 -113.11288
100909000 -29.504532 -107.46754 -0.06183498 -20.441952 -0.059156787 -20.439259 -29.483421 -113.3382
101908000 -29.413397 -107.71358 -0.06269341 -20.642328 -0.060984068 -20.640558 -29.375332 -113.11121
102907000 -29.279203 -107.68877 -0.063410699 -20.844152 -0.061187524 -20.842617 -29.303648 -113.14047
103906000 -29.189444 -107.7442 -0.063856989 -21.049492 -0.061014522 -21.042007 -29.156738 -113.13314
104905000 -29.041733 -107.64324 -0.064526126 -21.24865 -0.061153397 -21.248003 -29.039635 -112.76648
105904000 -28.899666 -107.69875 -0.064759172 -21.451635 -0.061341371 -21.445032 -28.923393 -112.6535
106903000 -28.789146 -107.77394 -0.064029321 -21.65732 -0.061768025 -21.650793 -28.803343 -112.54473
107902000 -28.629087 -108.09274 -0.065579817 -21.859365 -0.062690787 -21.845325 -28.653708 -112.49329
108901000 -28.514576 -108.36148 -0.06663692 -22.058044 -0.063776605 -22.051901 -28.535519 -112.42491
109900000 -28.384989 -108.81446 -0.066790432 -22.26026 -0.065034807 -22.25145 -28.391207 -112.51177
110899000 -28.27219 -109.41109 -0.068628028 -22.458803 -0.065884151 -22.448093 -28.261093 -112.75854
111898000 -28.180731 -109.99805 -0.069928937 -22.657736 -0.066784911 -22.651119 -28.148851 -112.94151
112897000 -28.054317 -110.60011 -0.071177341 -22.857111 -0.06801112 -22.84528 -28.00963 -113.08481
113896000 -27.954006 -111.16183 -0.072047889 -23.05867 -0.069196112 -23.043633 -27.904089 -113.2331
114895000 -27.848232 -111.81403 -0.073210292 -23.254005 -0.069985494 -23.244564 -27.790453 -113.32735
115894000 -27.726822 -112.14565 -0.074480183 -23.45582 -0.070973158 -23.446198 -27.720119 -113.50288
116893000 -27.643408 -112.6471 -0.075429618 -23.653053 -0.072141588 -23.63512 -27.601679 -113.57073
117892000 -27.567844 -113.10339 -0.075087741 -23.849186 -0.071967356 -23.837255 -27.523272 -113.69576
118891000 -27.514093 -113.52988 -0.076048374 -24.049881 -0.07230293 -24.039906 -27.435522 -113.84257
119890000 -27.423246 -113.88121 -0.076591872 -24.251625 -0.07336957 -24.235128 -27.422977 -113.97962
120889000 -27.371012 -114.41379 -0.077675112 -24.453369 -0.073196866 -24.441601 -27.343235 -113.93597
121888000 -27.327652 -114.73209 -0.0775415 -24.652651 -0.074375108 -24.637053 -27.285919 -114.20888
122887000 -27.292805 -114.88162 -0.078078598 -24.85256 -0.074475177 -24.840528 -27.239285 -114.17543
123886000 -27.240866 -115.35157 -0.078862481 -25.05604 -0.075611629 -25.036884 -27.222811 -114.34744
124885000 -27.20289 -115.83736 -0.079131104 -25.255186 -0.075783893 -25.239166 -27.195654 -114.41846
125884000 -27.149628 -116.02896 -0.079860069 -25.45397 -0.075737275 -25.439852 -27.16367 -114.57304
126883000 -27.132761 -116.40546 -0.079851367 -25.655529 -0.076434582 -25.638966 -27.127541 -114.52629
127882000 -27.08383 -116.69849 -0.080454938 -25.857393 -0.077271134 -25.838745 -27.084139 -114.68503
128881000 -27.054817 -117.04599 -0.080537215 -26.05888 -0.077411063 -26.040564 -27.048143 -114.80035
129880000 -27.000414 -117.33563 -0.081466079 -26.259401 -0.077075623 -26.239431 -27.005459 -114.76904
130879000 -26.946455 -117.49229 -0.08082097 -26.459639 -0.077973969 -26.441309 -26.939219 -114.79432
131878000 -26.882542 -117.70026 -0.081409104 -26.663937 -0.078331091 -26.6429 -26.877867 -114.62933
132877000 -26.814306 -117.8004 -0.081171729 -26.863396 -0.07852798 -26.845591 -26.798153 -114.61967
133876000 -26.728598 -117.98578 -0.082078047 -27.065187 -0.078283384 -27.046984 -26.712696 -114.50012
134875000 -26.634315 -118.06738 -0.081626974 -27.263601 -0.07922627 -27.24864 -26.617842 -114.33265
135874000 -26.550303 -118.09811 -0.081620649 -27.461849 -0.079129785 -27.447744 -26.520172 -114.30909
136873000 -26.441881 -118.03572 -0.082429968 -27.669678 -0.078479484 -27.648369 -26.436872 -114.25967
137872000 -26.358543 -118.15767 -0.082161941 -27.866198 -0.079286374 -27.850281 -26.333744 -114.20379
138871000 -26.289974 -118.39872 -0.082902499 -28.069481 -0.079300612 -28.051178 -26.239944 -114.34565
139870000 -26.195004 -118.66904 -0.08287479 -28.269405 -0.080289073 -28.252785 -26.160467 -114.50727
140869000 -26.115732 -119.21432 -0.084591985 -28.467392 -0.080848925 -28.44882 -26.060623 -114.68906
141868000 -26.034304 -119.57001 -0.085154235 -28.665119 -0.082083061 -28.650492 -26.008999 -114.95223
142867000 -25.953045 -119.86543 -0.083651364 -28.864233 -0.08146555 -28.843258 -25.929293 -115.0988
143866000 -25.884939 -120.30855 -0.08592356 -29.061666 -0.082607791 -29.043594 -25.855608 -115.56324
144865000 -25.82485 -120.81185 -0.087391824 -29.259274 -0.084329359 -29.239603 -25.802681 -115.8261
145864000 -25.768549 -121.10375 -0.087856442 -29.458431 -0.085781246 -29.447086 -25.767731 -116.11987
146863000 -25.71867 -121.46015 -0.088572346 -29.657972 -0.085783884 -29.645166 -25.716108 -116.40047
147862000 -25.681871 -121.79305 -0.089021496 -29.85626 -0.086725235 -29.843279 -25.688244 -116.70316
148861000 -25.645546 -122.25588 -0.090548694 -30.055145 -0.087735198 -30.038595 -25.664236 -116.85145
149860000 -25.61838 -122.44604 -0.09215232 -30.248217 -0.088235512 -30.23612 -25.614689 -116.97929
150859000 -25.588713 -122.89227 -0.091211379 -30.449205 -0.08877366 -30.426136 -25.592489 -117.31585
151858000 -25.576611 -123.2078 -0.090317428 -30.646889 -0.088117957 -30.63204 -25.58436 -117.66456
152857000 -25.567181 -123.54762 -0.090963423 -30.846592 -0.089056902 -30.828856 -25.566147 -117.83213
153856000 -25.562387 -123.73914 -0.090405971 -31.044859 -0.087658331 -31.029379 -25.579021 -118.183
154855000 -25.557722 -123.94735 -0.091326639 -31.246716 -0.088279098 -31.229248 -25.57052 -118.38147
155854000 -25.574032 -124.19792 -0.091937356 -31.444128 -0.08848305 -31.429731 -25.565128 -118.688
156853000 -25.564409 -124.8865 -0.089181088 -31.632528 -0.087177098 -31.626444 -25.557341 -118.96408
157852000 -25.56315 -125.06814 -0.090390906 -31.832701 -0.089111596 -31.825277 -25.542301 -119.30875
158851000 -25.561937 -125.31865 -0.091145024 -32.030075 -0.089475982 -32.023418 -25.5334 -119.59164
159850000 -25.555449 -125.38599 -0.091403835 -32.231174 -0.089370809 -32.222065 -25.53433 -119.73535
160849000 -25.535416 -125.50047 -0.091582812 -32.431019 -0.090616621 -32.425671 -25.502222 -120.06181
161848000 -25.519632 -125.61198 -0.092349306 -32.631966 -0.090379804 -32.627121 -25.463547 -120.19093
162847000 -25.481384 -125.75191 -0.092178226 -32.83017 -0.090566665 -32.823269 -25.433048 -120.45122
163846000 -25.438217 -125.97339 -0.093105093 -33.031841 -0.090998583 -33.025738 -25.360458 -120.44051
164845000 -25.380163 -125.92178 -0.092955932 -33.229736 -0.091078676 -33.225384 -25.294304 -120.54604
165844000 -25.327915 -125.9584 -0.092230849 -33.430447 -0.091413878 -33.420658 -25.218681 -120.68333
166843000 -25.271082 -126.01224 -0.093183905 -33.628757 -0.091846935 -33.62365 -25.145761 -120.81648
167842000 -25.214842 -126.1237 -0.092997193 -33.829662 -0.092243277 -33.823402 -25.074953 -120.75256
168841000 -25.131004 -126.27074 -0.093495995 -34.025002 -0.092564285 -34.026951 -24.999054 -120.83311
169840000 -25.068096 -126.52731 -0.093469545 -34.220703 -0.092575662 -34.221306 -24.914177 -121.01246
170839000 -25.010639 -126.77123 -0.094683729 -34.422138 -0.092877924 -34.421436 -24.834352 -121.2019
171838000 -24.950138 -127.18808 -0.094620764 -34.624184 -0.093721882 -34.616844 -24.768995 -121.35248
172837000 -24.884592 -127.50523 -0.095516928 -34.81934 -0.094398543 -34.81451 -24.706348 -121.61974
173836000 -24.808517 -127.90118 -0.097498558 -35.017159 -0.095754825 -35.015965 -24.662794 -121.8043
174835000 -24.761223 -128.2634 -0.097503588 -35.215397 -0.096622631 -35.215839 -24.6194 -122.1254
175834000 -24.708117 -128.65321 -0.098736912 -35.414421 -0.097460441 -35.411674 -24.557909 -122.38314
176833000 -24.662655 -129.00905 -0.099738814 -35.617069 -0.09803813 -35.614323 -24.513443 -122.54966
177832000 -24.621117 -129.41795 -0.1004021 -35.815147 -0.098428681 -35.815479 -24.49304 -122.63544
178831000 -24.568249 -129.65491 -0.10156682 -36.011623 -0.10084559 -36.006935 -24.452339 -122.7172
179830000 -24.501514 -130.05046 -0.1038288 -36.194374 -0.10164472 -36.196701 -24.387579 -122.80018
180829000 -24.455364 -130.40375 -0.10235098 -36.385147 -0.1009468 -36.386837 -24.348928 -123.13156
181828000 -24.432074 -130.83012 -0.1012107 -36.589371 -0.09985774 -36.586239 -24.325884 -123.31105
182827000 -24.408714 -131.19292 -0.10109915 -36.78688 -0.099701196 -36.784657 -24.308887 -123.4463
183826000 -24.364899 -131.52682 -0.10255507 -36.982441 -0.10013614 -36.982273 -24.307117 -123.58609
184825000 -24.368671 -131.89566 -0.10193782 -37.180584 -0.10108723 -37.179432 -24.29039 -123.69807
185824000 -24.33905 -132.23198 -0.1015276 -37.374065 -0.10049641 -37.372864 -24.284775 -123.7663
186823000 -24.318897 -132.61668 -0.10232422 -37.576946 -0.10122395 -37.575645 -24.275246 -123.81049
187822000 -24.300678 -132.9283 -0.10212015 -37.771713 -0.10138822 -37.769936 -24.236832 -123.85986
188821000 -24.273571 -133.18398 -0.10213446 -37.964352 -0.10175125 -37.97057 -24.219269 -123.99698
189820000 -24.257017 -133.50478 -0.10292587 -38.166466 -0.10171389 -38.166515 -24.202028 -124.18351
190819000 -24.223637 -133.8376 -0.10374343 -38.364925 -0.10266028 -38.362789 -24.161608 -124.24319
191818000 -24.19413 -134.12363 -0.1037991 -38.563751 -0.10296404 -38.564861 -24.132645 -124.26015
192817000 -24.151054 -134.39259 -0.10430657 -38.758099 -0.10375191 -38.761307 -24.091185 -124.33402
193816000 -24.115702 -134.63445 -0.10420051 -38.954273 -0.10299373 -38.953182 -24.039331 -124.48206
194815000 -24.053585 -135.00735 -0.10491673 -39.148468 -0.10400961 -39.153595 -23.974115 -124.54897
195814000 -23.999086 -135.21144 -0.10589936 -39.350117 -0.10447945 -39.347713 -23.918535 -124.64634
196813000 -23.944805 -135.54387 -0.10531453 -39.54258 -0.10385583 -39.545555 -23.840479 -124.80531
197812000 -23.88903 -135.75661 -0.10592218 -39.740009 -0.10468151 -39.739651 -23.770391 -124.89745
198811000 -23.834658 -135.89581 -0.10505489 -39.936531 -0.10428324 -39.937126 -23.701593 -125.04465
199810000 -23.765057 -136.2664 -0.10500716 -40.13348 -0.10406635 -40.131584 -23.626791 -125.1433
200809000 -23.708521 -136.49738 -0.10620547 -40.332054 -0.10445374 -40.329193 -23.547153 -125.34196
201808000 -23.650211 -136.6918 -0.10711809 -40.532192 -0.10584897 -40.534012 -23.477577 -125.39662
202807000 -23.593397 -137.0248 -0.10769255 -40.732571 -0.10607019 -40.735081 -23.428864 -125.58422
