!Keysight Technologies,E5080B,MY59205177,A.15.75.32
!Date: Friday, February 23, 2024 03:36:37
!Correction: S11(Cdelta 2-Port  ) 
!S21(Cdelta 2-Port  ) 
!S12(Cdelta 2-Port  ) 
!S22(Cdelta 2-Port  ) 
!S2P File: Measurements: S11, S21, S12, S22:
# Hz S  dB   R 50
10000000 -46.11031 -2.4706872 -0.015201446 -2.043952 -0.018167444 -2.0954456 -45.917343 -157.82591
10999000 -45.293987 -4.3250451 -0.016232844 -2.2614143 -0.018609891 -2.3147857 -45.873764 -151.38715
11998000 -44.402912 -7.6473012 -0.016530098 -2.4890618 -0.018019537 -2.5315957 -46.01651 -147.26529
12997000 -43.593704 -13.09656 -0.016423043 -2.6648669 -0.017531404 -2.698555 -45.64838 -141.19664
13996000 -43.295887 -17.198854 -0.015178067 -2.8478358 -0.0180055 -2.8688309 -45.367786 -136.25932
14995000 -42.922062 -21.596077 -0.017475264 -3.0563879 -0.018020056 -3.0848243 -45.086731 -132.74352
15994000 -42.744812 -25.939417 -0.018589353 -3.2784534 -0.020348407 -3.2977035 -45.012848 -129.50951
16993000 -42.718349 -30.611036 -0.017794179 -3.4720273 -0.019188887 -3.4847672 -44.145844 -129.07112
17992000 -42.712925 -36.029606 -0.017914524 -3.6731362 -0.020047251 -3.6739621 -43.582077 -129.11687
18991000 -42.958096 -41.435509 -0.019345153 -3.8837023 -0.021112056 -3.8795719 -42.929424 -128.15503
19990000 -42.746243 -46.937683 -0.021086825 -4.0928988 -0.022419622 -4.0885196 -42.290817 -129.1494
20989000 -42.594269 -50.427311 -0.023486311 -4.2964902 -0.024718311 -4.2871518 -41.740242 -128.13287
21988000 -42.359211 -55.828251 -0.02382024 -4.4901357 -0.025111958 -4.4799056 -41.469715 -127.57434
22987000 -42.038132 -60.773994 -0.025304891 -4.6924791 -0.026803071 -4.6837921 -41.235447 -127.09939
23986000 -41.976494 -64.66993 -0.024336414 -4.8869038 -0.025390554 -4.8846502 -41.10532 -126.72606
24985000 -41.576324 -67.380768 -0.026193112 -5.0972996 -0.025723329 -5.0919495 -40.940907 -124.56899
25984000 -41.235352 -69.531769 -0.026666071 -5.2999778 -0.025969151 -5.300981 -40.534935 -122.76633
26983000 -40.900547 -71.359779 -0.027125536 -5.504199 -0.02700806 -5.5166483 -40.463593 -122.31932
27982000 -40.760616 -72.251297 -0.028996978 -5.7007718 -0.02890108 -5.7378206 -40.195282 -120.61315
28981000 -40.710724 -73.523582 -0.0271284 -5.8973451 -0.029079065 -5.9200683 -39.953964 -119.88851
29980000 -40.314987 -74.842712 -0.027098967 -6.0907192 -0.029349055 -6.0998788 -39.672527 -119.20213
30979000 -39.886066 -74.003716 -0.025157783 -6.447917 -0.023359304 -6.4351888 -39.179684 -119.46693
31978000 -39.717552 -74.770805 -0.02354461 -6.6385536 -0.025030727 -6.630168 -38.9352 -118.77857
32977000 -39.515629 -76.400398 -0.023676828 -6.8528495 -0.025461897 -6.8494511 -38.70462 -118.70452
33976000 -39.34771 -77.542793 -0.024601161 -7.053153 -0.025939204 -7.0471406 -38.42028 -118.33566
34975000 -39.060631 -78.345253 -0.024635786 -7.2550511 -0.026644973 -7.2529044 -38.176121 -117.88046
35974000 -38.857113 -78.745277 -0.024145346 -7.44771 -0.026547566 -7.4527073 -37.921551 -117.04099
36973000 -38.64286 -79.618179 -0.024205217 -7.6484919 -0.026773378 -7.6494164 -37.63583 -116.10536
37972000 -38.453621 -79.346161 -0.023940753 -7.8554511 -0.027091673 -7.8679185 -37.434166 -115.3218
38971000 -38.12838 -78.862625 -0.024731329 -8.0614681 -0.027615789 -8.0698881 -37.264645 -113.77404
39970000 -37.802387 -79.161644 -0.023121437 -8.2544813 -0.02627671 -8.2714386 -37.01395 -113.15166
40969000 -37.527401 -78.926483 -0.023493337 -8.4470377 -0.026653569 -8.4642038 -36.769905 -111.6445
41968000 -37.181908 -78.844307 -0.023592759 -8.6550732 -0.026173059 -8.6738625 -36.585766 -110.50919
42967000 -36.912678 -78.791534 -0.023466529 -8.8662977 -0.026945807 -8.884758 -36.400166 -108.70516
43966000 -36.64053 -79.515152 -0.024021445 -9.0670757 -0.027673623 -9.084363 -36.132969 -107.93153
44965000 -36.390495 -80.257088 -0.024581896 -9.2714777 -0.02831636 -9.2879219 -35.913025 -107.68518
45964000 -36.150394 -81.310516 -0.025789991 -9.468338 -0.029539308 -9.4910898 -35.675884 -107.4407
46963000 -35.949112 -83.209198 -0.026341036 -9.6628542 -0.029821053 -9.686305 -35.52121 -107.57838
47962000 -35.779114 -84.532684 -0.027619176 -9.8652706 -0.031395104 -9.8811388 -35.298649 -107.63323
48961000 -35.572151 -86.060234 -0.029511681 -10.062768 -0.032561801 -10.085469 -35.078449 -107.75944
49960000 -35.329468 -87.292923 -0.031407878 -10.264254 -0.033570461 -10.285113 -34.940136 -107.78523
50959000 -35.105125 -88.542908 -0.031336177 -10.477427 -0.034548044 -10.487992 -34.76479 -108.08169
51958000 -34.908501 -89.668221 -0.033285603 -10.673802 -0.035679571 -10.682654 -34.582287 -108.61205
52957000 -34.679935 -90.696236 -0.034829594 -10.875428 -0.037191782 -10.880481 -34.436714 -108.29246
53956000 -34.517227 -91.333031 -0.03626398 -11.074521 -0.037904605 -11.080859 -34.287148 -108.32643
54955000 -34.345222 -91.809387 -0.037004586 -11.280706 -0.038504198 -11.275625 -34.136154 -108.30109
55954000 -34.170151 -92.627441 -0.038520388 -11.478496 -0.039078016 -11.477847 -34.022282 -107.97417
56953000 -34.06218 -92.641121 -0.037166715 -11.678602 -0.038001746 -11.664263 -33.966045 -108.14422
57952000 -33.881893 -93.138176 -0.039101001 -11.874811 -0.039081149 -11.86931 -33.850189 -108.28669
58951000 -33.77652 -93.565224 -0.039840523 -12.080023 -0.039829027 -12.058953 -33.698059 -108.30909
59950000 -33.638458 -93.950378 -0.040502306 -12.286374 -0.04080933 -12.261401 -33.617664 -108.56232
60949000 -33.535938 -94.444901 -0.040598199 -12.484593 -0.041710656 -12.458941 -33.534958 -108.82762
61948000 -33.455853 -94.741112 -0.040828664 -12.678411 -0.040999822 -12.663346 -33.444389 -108.91539
62947000 -33.385635 -95.025276 -0.041425526 -12.894773 -0.041614741 -12.874101 -33.304485 -109.17255
63946000 -33.299515 -95.735992 -0.043175552 -13.093842 -0.042726412 -13.075846 -33.197849 -109.33958
64945000 -33.190975 -95.868973 -0.043220785 -13.296638 -0.043255817 -13.278493 -33.086353 -109.7891
65944000 -33.095318 -96.172302 -0.043883868 -13.492991 -0.043933552 -13.47686 -32.989754 -110.22707
66943000 -32.948746 -96.586449 -0.041540779 -13.695586 -0.042107679 -13.677666 -32.879601 -110.49982
67942000 -32.89793 -96.584755 -0.044069268 -13.890087 -0.043846998 -13.879965 -32.753101 -110.82882
68941000 -32.776016 -96.663673 -0.043423671 -14.081914 -0.04249062 -14.07552 -32.647713 -110.79811
69940000 -32.68787 -96.755501 -0.043865565 -14.286056 -0.044010952 -14.280733 -32.510159 -111.04836
70939000 -32.579834 -96.631447 -0.043513093 -14.481935 -0.043326411 -14.473057 -32.365055 -110.92431
71938000 -32.428661 -96.155647 -0.043287978 -14.676682 -0.043394651 -14.67318 -32.253925 -110.85301
72937000 -32.273399 -95.991562 -0.043003786 -14.879344 -0.04328144 -14.875498 -32.11285 -110.50874
73936000 -32.151016 -95.667213 -0.042907842 -15.073125 -0.042294048 -15.067455 -31.99045 -110.3554
74935000 -32.021542 -95.934616 -0.042144012 -15.272455 -0.041262452 -15.266344 -31.836346 -109.91333
75934000 -31.897182 -96.08876 -0.042534798 -15.480443 -0.041562207 -15.47506 -31.756889 -109.85238
76933000 -31.765242 -96.461761 -0.043197777 -15.67565 -0.042859476 -15.66656 -31.584816 -110.18875
77932000 -31.64695 -97.233498 -0.044635452 -15.871091 -0.044697959 -15.86395 -31.481903 -110.20578
78931000 -31.579454 -97.999962 -0.04295307 -16.069294 -0.043662656 -16.069813 -31.381683 -110.02131
79930000 -31.464306 -98.770103 -0.045932069 -16.261959 -0.045978896 -16.261465 -31.286232 -110.35544
80929000 -31.354424 -99.612816 -0.048007671 -16.461264 -0.047491819 -16.457251 -31.18191 -110.57078
81928000 -31.251076 -100.30305 -0.047767926 -16.654051 -0.048389561 -16.650766 -31.059019 -110.53427
82927000 -31.151051 -101.07994 -0.049259741 -16.853168 -0.049925841 -16.849535 -30.947914 -110.88598
83926000 -31.03429 -101.75108 -0.050663806 -17.049891 -0.050297163 -17.05382 -30.838171 -111.09301
84925000 -30.932085 -102.20517 -0.051980037 -17.250204 -0.050444864 -17.247826 -30.735403 -111.11512
85924000 -30.833693 -102.51653 -0.05245005 -17.450111 -0.052080639 -17.446161 -30.652344 -111.03663
86923000 -30.731281 -103.05447 -0.052529439 -17.649872 -0.051748458 -17.641331 -30.554722 -110.95017
87922000 -30.617033 -103.34559 -0.052434854 -17.856749 -0.05179666 -17.845398 -30.459435 -110.9489
88921000 -30.554556 -103.59661 -0.053968109 -18.053696 -0.053121883 -18.046644 -30.371452 -110.91109
89920000 -30.440235 -104.17664 -0.05392696 -18.253956 -0.054170452 -18.2456 -30.320305 -111.07652
90919000 -30.346556 -104.41813 -0.054731403 -18.44812 -0.054455373 -18.443262 -30.234585 -111.1968
91918000 -30.239767 -104.73684 -0.055246279 -18.650467 -0.054513041 -18.643747 -30.161631 -111.25985
92917000 -30.164358 -105.06751 -0.05652535 -18.847517 -0.056736469 -18.843035 -30.098715 -111.36115
93916000 -30.076239 -105.39582 -0.056291692 -19.041506 -0.055974133 -19.036303 -30.009996 -111.90925
94915000 -29.997843 -106.02972 -0.057816867 -19.242361 -0.057027329 -19.237137 -29.951481 -111.80029
95914000 -29.92971 -106.22598 -0.058606546 -19.437052 -0.05826626 -19.43466 -29.861401 -112.06345
96913000 -29.850805 -106.43202 -0.059867449 -19.6376 -0.059034768 -19.632925 -29.797472 -112.40133
97912000 -29.771574 -106.9046 -0.060697142 -19.83309 -0.059214778 -19.835939 -29.71718 -112.67451
98911000 -29.659792 -107.06197 -0.061610226 -20.03792 -0.060205504 -20.032642 -29.671003 -112.8235
99910000 -29.596535 -107.2182 -0.062010381 -20.235329 -0.059966657 -20.237204 -29.565548 -113.17151
100909000 -29.507505 -107.48952 -0.061462931 -20.446581 -0.059785567 -20.437807 -29.481958 -113.39262
101908000 -29.42001 -107.66563 -0.062355429 -20.642696 -0.061008744 -20.641413 -29.371384 -113.17397
102907000 -29.279692 -107.67997 -0.063502364 -20.84547 -0.060784295 -20.841976 -29.305971 -113.12113
103906000 -29.185207 -107.74487 -0.063451409 -21.049162 -0.06032493 -21.042204 -29.156258 -113.05186
104905000 -29.036875 -107.65304 -0.064392656 -21.244236 -0.060981967 -21.242922 -29.028166 -112.82897
105904000 -28.902369 -107.73874 -0.064019077 -21.452244 -0.061219029 -21.446947 -28.926435 -112.6568
106903000 -28.792051 -107.77469 -0.064730011 -21.6586 -0.061231107 -21.647038 -28.798264 -112.58195
107902000 -28.622704 -108.11956 -0.064667739 -21.855888 -0.06267792 -21.846077 -28.66684 -112.54371
108901000 -28.515985 -108.37492 -0.06573014 -22.059467 -0.062767468 -22.050619 -28.528711 -112.48328
109900000 -28.385937 -108.8449 -0.066532299 -22.256142 -0.064757332 -22.248594 -28.385941 -112.53537
110899000 -28.26713 -109.42283 -0.067962475 -22.455154 -0.065000124 -22.445553 -28.259949 -112.83315
111898000 -28.175821 -110.05117 -0.06894809 -22.658394 -0.066602223 -22.65061 -28.142284 -112.92854
112897000 -28.056349 -110.62065 -0.070522182 -22.855024 -0.067308843 -22.844255 -28.001873 -113.10809
113896000 -27.945362 -111.20128 -0.071366809 -23.056902 -0.069174804 -23.045986 -27.901804 -113.20996
114895000 -27.844812 -111.79078 -0.072340831 -23.255251 -0.069857389 -23.242853 -27.792442 -113.28746
115894000 -27.721653 -112.15544 -0.073825315 -23.458048 -0.071126558 -23.446289 -27.719316 -113.4789
116893000 -27.635099 -112.65371 -0.074542858 -23.656361 -0.071961828 -23.638954 -27.59104 -113.55959
117892000 -27.560694 -113.10246 -0.074663997 -23.849251 -0.072862804 -23.835533 -27.519945 -113.72272
118891000 -27.502522 -113.51485 -0.075207844 -24.050282 -0.072917029 -24.036448 -27.427441 -113.87447
119890000 -27.414633 -113.88298 -0.076464616 -24.251133 -0.073181331 -24.233028 -27.413364 -113.99793
120889000 -27.3636 -114.34991 -0.077057704 -24.449787 -0.07370235 -24.43816 -27.345921 -113.92095
121888000 -27.323828 -114.6983 -0.077309869 -24.647722 -0.074512571 -24.636131 -27.282564 -114.18133
122887000 -27.29034 -114.93042 -0.078467622 -24.853235 -0.074684009 -24.842947 -27.241089 -114.20235
123886000 -27.237488 -115.31402 -0.078904659 -25.055365 -0.07497476 -25.034758 -27.221163 -114.38175
124885000 -27.201704 -115.7975 -0.078704849 -25.256584 -0.075518116 -25.241547 -27.194855 -114.40289
125884000 -27.15571 -115.99977 -0.079730876 -25.45116 -0.076282576 -25.443069 -27.164118 -114.54284
126883000 -27.133823 -116.41655 -0.080332585 -25.656471 -0.077183656 -25.641235 -27.12908 -114.57957
127882000 -27.084921 -116.68669 -0.08052139 -25.85465 -0.077452697 -25.836033 -27.087523 -114.68893
128881000 -27.053637 -116.99194 -0.080335483 -26.057947 -0.077058494 -26.040121 -27.051514 -114.77573
129880000 -27.001875 -117.34796 -0.081252702 -26.25736 -0.07761845 -26.240803 -27.008978 -114.72539
130879000 -26.941677 -117.47694 -0.080863424 -26.45892 -0.078569628 -26.44257 -26.93289 -114.76178
131878000 -26.883474 -117.76552 -0.081395917 -26.662806 -0.078396983 -26.641932 -26.878302 -114.64238
132877000 -26.816435 -117.80011 -0.081173316 -26.864273 -0.078827158 -26.845367 -26.79656 -114.61402
133876000 -26.727837 -117.94031 -0.081923462 -27.06604 -0.079151928 -27.045214 -26.71475 -114.46327
134875000 -26.632668 -118.09901 -0.082117356 -27.265167 -0.079599582 -27.248529 -26.618196 -114.36884
135874000 -26.554186 -118.11759 -0.082027137 -27.463099 -0.079583235 -27.447666 -26.516161 -114.29257
136873000 -26.441734 -118.06641 -0.082366392 -27.666349 -0.078893587 -27.64642 -26.433144 -114.27171
137872000 -26.358959 -118.18321 -0.08186543 -27.864368 -0.079065986 -27.856663 -26.335554 -114.20461
138871000 -26.286905 -118.39384 -0.083055533 -28.069515 -0.078783669 -28.050013 -26.24172 -114.32786
139870000 -26.188999 -118.68536 -0.083416238 -28.266201 -0.081010848 -28.251322 -26.154934 -114.5059
140869000 -26.114561 -119.22493 -0.084342822 -28.466343 -0.081445508 -28.445642 -26.058094 -114.72025
141868000 -26.026031 -119.63611 -0.085081644 -28.665897 -0.0827033 -28.648693 -26.012848 -114.97401
142867000 -25.946007 -119.84351 -0.08350227 -28.860851 -0.08194378 -28.84351 -25.930876 -115.08089
143866000 -25.877573 -120.32833 -0.085547067 -29.059164 -0.083068728 -29.044693 -25.860725 -115.57105
144865000 -25.816055 -120.82052 -0.086875759 -29.257683 -0.08530286 -29.242151 -25.803194 -115.81048
145864000 -25.763166 -121.11137 -0.08765173 -29.456629 -0.086010687 -29.44722 -25.769228 -116.09543
146863000 -25.712736 -121.48179 -0.088713162 -29.658945 -0.086615376 -29.644472 -25.717403 -116.36877
147862000 -25.67638 -121.82927 -0.089654088 -29.854145 -0.087164424 -29.845379 -25.68882 -116.68346
148861000 -25.644188 -122.22699 -0.090294696 -30.054667 -0.088277251 -30.040241 -25.665493 -116.84935
149860000 -25.612892 -122.41283 -0.091131546 -30.246756 -0.088756226 -30.23564 -25.609652 -116.98036
150859000 -25.589464 -122.8753 -0.091133662 -30.445499 -0.088185586 -30.430845 -25.588463 -117.32933
151858000 -25.576323 -123.24821 -0.090519883 -30.645615 -0.088285178 -30.629608 -25.578169 -117.67519
152857000 -25.559834 -123.55699 -0.090731077 -30.844767 -0.0888125 -30.833014 -25.56135 -117.84537
153856000 -25.559713 -123.76878 -0.090510897 -31.042213 -0.088228114 -31.031961 -25.584497 -118.15636
154855000 -25.554836 -123.91193 -0.090745084 -31.244896 -0.088205658 -31.231033 -25.574854 -118.37132
155854000 -25.569885 -124.17193 -0.091454327 -31.445543 -0.088564947 -31.431322 -25.564367 -118.66517
156853000 -25.559519 -124.87408 -0.088992961 -31.632017 -0.088272497 -31.622639 -25.557695 -118.9858
157852000 -25.566294 -125.07081 -0.090112336 -31.833805 -0.089479677 -31.82136 -25.543808 -119.31567
158851000 -25.564425 -125.26825 -0.090733454 -32.033386 -0.089911215 -32.021633 -25.527346 -119.58325
159850000 -25.551865 -125.39079 -0.091887914 -32.230976 -0.090186603 -32.221931 -25.531729 -119.78452
160849000 -25.536356 -125.53829 -0.09173853 -32.429279 -0.090973996 -32.425026 -25.490978 -120.07116
161848000 -25.518412 -125.57251 -0.091978602 -32.632095 -0.090645172 -32.624397 -25.460711 -120.20747
162847000 -25.47459 -125.77608 -0.092454016 -32.829102 -0.091846406 -32.827724 -25.429663 -120.42827
163846000 -25.438097 -125.94887 -0.092641771 -33.034546 -0.091506146 -33.026237 -25.3566 -120.42063
164845000 -25.378719 -125.9444 -0.092475705 -33.232277 -0.092126407 -33.22113 -25.287788 -120.55176
165844000 -25.329975 -126.0015 -0.092895113 -33.429379 -0.092291929 -33.422123 -25.214703 -120.69396
166843000 -25.269457 -126.04206 -0.092368871 -33.627281 -0.091616914 -33.62339 -25.149561 -120.86903
167842000 -25.208241 -126.16064 -0.093169093 -33.827271 -0.092576452 -33.82299 -25.068607 -120.75161
168841000 -25.13554 -126.32517 -0.093344182 -34.026672 -0.092935309 -34.023529 -24.996967 -120.81461
169840000 -25.068047 -126.54118 -0.093576141 -34.223274 -0.093538843 -34.220829 -24.912048 -121.01175
170839000 -25.008022 -126.78913 -0.094330288 -34.422268 -0.093293138 -34.420101 -24.833126 -121.16935
171838000 -24.944685 -127.18535 -0.094259389 -34.624973 -0.094733998 -34.617447 -24.764282 -121.41993
172837000 -24.878315 -127.47745 -0.095865704 -34.818741 -0.095505022 -34.813454 -24.705734 -121.60036
173836000 -24.811449 -127.89342 -0.097038209 -35.017891 -0.096003845 -35.015308 -24.659019 -121.82623
174835000 -24.756861 -128.29056 -0.097573213 -35.215935 -0.096953765 -35.215393 -24.612961 -122.14883
175834000 -24.708792 -128.68361 -0.098675743 -35.416759 -0.098346859 -35.411446 -24.557888 -122.39085
176833000 -24.653809 -129.02347 -0.099864364 -35.614216 -0.098352157 -35.613052 -24.510099 -122.53443
177832000 -24.609673 -129.43103 -0.1004286 -35.812515 -0.099228695 -35.81179 -24.48698 -122.65288
178831000 -24.56579 -129.66908 -0.10282595 -36.010456 -0.1015117 -36.005463 -24.447878 -122.71626
179830000 -24.495428 -130.03242 -0.10388288 -36.196064 -0.1021228 -36.198219 -24.384254 -122.79368
180829000 -24.447836 -130.40343 -0.10199744 -36.384129 -0.10108776 -36.384907 -24.345352 -123.13636
181828000 -24.424212 -130.83464 -0.10177246 -36.587879 -0.099713385 -36.585758 -24.328352 -123.32517
182827000 -24.400072 -131.17828 -0.10106736 -36.78212 -0.10075869 -36.781898 -24.314083 -123.44759
183826000 -24.359547 -131.51971 -0.10251292 -36.983391 -0.10047071 -36.980614 -24.302404 -123.57809
184825000 -24.362249 -131.87846 -0.10229241 -37.179279 -0.10163413 -37.18182 -24.284306 -123.69875
185824000 -24.335686 -132.26279 -0.10219488 -37.374794 -0.10176557 -37.380249 -24.275837 -123.77373
186823000 -24.318874 -132.62527 -0.10179233 -37.576042 -0.10169322 -37.572842 -24.27389 -123.77882
187822000 -24.296383 -132.95694 -0.10234383 -37.769592 -0.10218322 -37.76955 -24.237696 -123.87273
188821000 -24.274933 -133.21069 -0.10220734 -37.968918 -0.10221025 -37.970848 -24.21607 -123.98027
189820000 -24.257803 -133.49956 -0.10221767 -38.167267 -0.1022834 -38.164856 -24.198477 -124.19619
190819000 -24.223061 -133.80655 -0.10321693 -38.363678 -0.10256752 -38.363892 -24.160463 -124.22932
191818000 -24.19298 -134.10439 -0.10318512 -38.562366 -0.10263378 -38.563251 -24.132334 -124.26062
192817000 -24.148777 -134.35628 -0.10342317 -38.758476 -0.10295769 -38.758938 -24.089132 -124.36313
193816000 -24.113743 -134.64282 -0.10392211 -38.954956 -0.10366707 -38.955719 -24.038528 -124.51451
194815000 -24.054953 -135.02499 -0.10415597 -39.148499 -0.1034693 -39.152454 -23.971041 -124.54852
195814000 -24.00404 -135.22238 -0.10483532 -39.348484 -0.1038378 -39.349548 -23.916645 -124.65979
196813000 -23.947018 -135.5554 -0.10412123 -39.540825 -0.10423763 -39.543972 -23.840366 -124.78865
197812000 -23.886873 -135.75929 -0.10439778 -39.738342 -0.10436225 -39.737793 -23.767815 -124.89281
198811000 -23.836336 -135.92981 -0.10478546 -39.934643 -0.10375986 -39.939087 -23.70072 -125.05128
199810000 -23.762691 -136.25714 -0.10564208 -40.12833 -0.10416604 -40.127274 -23.623205 -125.13239
200809000 -23.705397 -136.53474 -0.1063519 -40.328999 -0.10472102 -40.327694 -23.54458 -125.32669
201808000 -23.647415 -136.744 -0.10643308 -40.531548 -0.10562882 -40.533195 -23.480137 -125.36576
202807000 -23.593021 -137.06371 -0.1066997 -40.730671 -0.10697641 -40.732136 -23.427189 -125.57239
