!Keysight Technologies,E5080B,MY59205177,A.15.75.32
!Date: Friday, February 23, 2024 02:58:23
!Correction: S11(Cdelta 2-Port  ) 
!S21(Cdelta 2-Port  ) 
!S12(Cdelta 2-Port  ) 
!S22(Cdelta 2-Port  ) 
!S2P File: Measurements: S11, S21, S12, S22:
# Hz S  dB   R 50
10000000 -44.097313 -3.7636905 -0.028229335 -2.0416818 -0.030979246 -2.0948501 -48.221783 -149.59697
10999000 -43.421455 -5.4491677 -0.02940196 -2.2579935 -0.030640854 -2.311733 -47.857563 -141.83731
11998000 -42.627983 -8.0098743 -0.029803069 -2.4805243 -0.030841332 -2.5220377 -48.023594 -136.83417
12997000 -42.049065 -12.459105 -0.028947465 -2.6623518 -0.030330902 -2.6959097 -47.41045 -130.31464
13996000 -41.77356 -15.787342 -0.028141532 -2.8386149 -0.031124987 -2.8601427 -46.966057 -124.16026
14995000 -41.502327 -19.721085 -0.030455505 -3.0464528 -0.030409105 -3.072212 -46.517616 -120.94833
15994000 -41.337048 -23.402912 -0.031289507 -3.2658339 -0.033452291 -3.2881563 -46.270927 -117.50062
16993000 -41.317677 -27.297445 -0.030179452 -3.4665337 -0.032146875 -3.4694555 -45.379723 -118.50636
17992000 -41.424427 -31.916538 -0.030893994 -3.6637523 -0.032653082 -3.6675746 -44.744366 -119.03551
18991000 -41.69521 -36.182384 -0.03176276 -3.8703704 -0.033653419 -3.8683898 -44.008865 -118.5496
19990000 -41.585163 -41.165432 -0.034383927 -4.0814433 -0.035508625 -4.0727663 -43.339172 -120.44468
20989000 -41.454369 -44.413025 -0.036407288 -4.2852397 -0.037950564 -4.2721677 -42.694481 -120.51389
21988000 -41.372391 -48.978886 -0.037266713 -4.4787469 -0.038237818 -4.4677534 -42.421448 -119.89716
22987000 -41.173119 -53.255749 -0.038425848 -4.6795406 -0.039402436 -4.6722994 -42.175179 -119.38958
23986000 -41.141415 -56.948318 -0.037717119 -4.8721232 -0.038110118 -4.868145 -42.041042 -119.55957
24985000 -40.865719 -59.679981 -0.038754921 -5.0826268 -0.038808987 -5.0751181 -41.787144 -117.21384
25984000 -40.62114 -62.033344 -0.03959104 -5.2878237 -0.038378317 -5.286818 -41.432785 -115.66365
26983000 -40.346783 -63.714397 -0.040276561 -5.4848094 -0.039875008 -5.4993529 -41.315704 -115.03077
27982000 -40.192574 -64.723022 -0.041698895 -5.6819677 -0.041178305 -5.7118373 -41.01646 -113.32164
28981000 -40.215366 -66.152168 -0.039935615 -5.8789439 -0.041745942 -5.9017396 -40.728764 -112.7167
29980000 -39.770256 -67.717133 -0.039758492 -6.0764322 -0.04208912 -6.0807633 -40.380253 -112.09823
30979000 -39.442417 -66.82991 -0.036671206 -6.4295592 -0.036550079 -6.4130468 -39.91877 -112.73402
31978000 -39.284763 -68.107056 -0.037029911 -6.6196818 -0.037403267 -6.6116152 -39.644131 -112.30929
32977000 -39.108219 -69.601791 -0.037128337 -6.8300071 -0.038230505 -6.8289976 -39.420731 -112.39955
33976000 -38.937923 -70.751495 -0.037409794 -7.0338573 -0.038501061 -7.0231619 -39.07346 -112.00193
34975000 -38.688759 -71.670914 -0.037219979 -7.2303572 -0.039469831 -7.2295427 -38.838043 -111.9253
35974000 -38.473969 -72.530556 -0.036274944 -7.4264784 -0.038698509 -7.425961 -38.524727 -111.10182
36973000 -38.259476 -73.255951 -0.037071943 -7.6287851 -0.039355416 -7.6302085 -38.245049 -110.18334
37972000 -38.08374 -73.221992 -0.037453134 -7.8350196 -0.039168391 -7.8402104 -37.990891 -109.47926
38971000 -37.765789 -73.086456 -0.037900425 -8.0352421 -0.039548721 -8.0484543 -37.800781 -108.03936
39970000 -37.467064 -73.515236 -0.035585877 -8.2347879 -0.038592994 -8.2500038 -37.518604 -107.69452
40969000 -37.160961 -73.389214 -0.036098491 -8.4250717 -0.038399734 -8.4402342 -37.260551 -106.32368
41968000 -36.836147 -73.685287 -0.035966415 -8.6292744 -0.038974058 -8.6460419 -37.053776 -105.18387
42967000 -36.575325 -73.959961 -0.036836457 -8.8436041 -0.039225332 -8.859725 -36.835419 -103.3849
43966000 -36.30991 -74.859306 -0.036672249 -9.0387278 -0.040514328 -9.0565186 -36.529655 -102.94601
44965000 -36.085129 -75.626701 -0.038113512 -9.2402544 -0.040375587 -9.2631531 -36.311813 -102.83647
45964000 -35.88377 -76.842804 -0.038951073 -9.4423103 -0.04206638 -9.4607744 -36.067043 -102.48524
46963000 -35.703045 -78.811417 -0.039375532 -9.6375246 -0.042327244 -9.6586838 -35.869972 -102.99696
47962000 -35.553825 -80.386612 -0.040752888 -9.8370056 -0.043314908 -9.8518209 -35.695225 -103.15653
48961000 -35.359619 -81.815369 -0.04262786 -10.033471 -0.044729866 -10.056221 -35.467854 -103.55986
49960000 -35.150566 -83.244698 -0.043553881 -10.233482 -0.045712583 -10.25703 -35.322922 -103.72498
50959000 -34.939041 -84.637108 -0.04434333 -10.447927 -0.047760598 -10.457682 -35.13776 -104.04541
51958000 -34.751202 -85.766502 -0.04623241 -10.643766 -0.048501335 -10.653473 -34.964489 -104.66486
52957000 -34.544025 -86.865578 -0.047363583 -10.845357 -0.050106786 -10.849266 -34.800491 -104.39014
53956000 -34.394463 -87.59716 -0.049161561 -11.0447 -0.050282761 -11.049851 -34.672409 -104.55168
54955000 -34.236023 -88.20771 -0.050219126 -11.24652 -0.051015809 -11.243019 -34.517879 -104.54062
55954000 -34.079948 -89.026955 -0.051088884 -11.44445 -0.051380415 -11.443131 -34.404835 -104.24961
56953000 -33.963684 -89.221344 -0.050493315 -11.643303 -0.050698899 -11.633584 -34.336945 -104.50064
57952000 -33.799553 -89.77507 -0.052043959 -11.836241 -0.05245791 -11.831103 -34.231953 -104.64862
58951000 -33.685364 -90.090149 -0.052572932 -12.044674 -0.05323692 -12.026027 -34.069553 -104.77196
59950000 -33.557026 -90.483688 -0.053521521 -12.247541 -0.053325232 -12.226783 -34.00555 -105.03622
60949000 -33.447094 -91.102539 -0.053781502 -12.447579 -0.053836539 -12.427363 -33.912434 -105.30097
61948000 -33.401329 -91.390617 -0.054453015 -12.643346 -0.054026034 -12.626007 -33.828064 -105.38748
62947000 -33.308968 -91.616394 -0.05462943 -12.856113 -0.054493643 -12.832434 -33.692062 -105.61507
63946000 -33.250027 -92.41098 -0.055479359 -13.055292 -0.055705633 -13.033753 -33.586514 -105.882
64945000 -33.148975 -92.474174 -0.056048606 -13.254315 -0.056070894 -13.235999 -33.473064 -106.37357
65944000 -33.044468 -92.810219 -0.056770563 -13.450517 -0.056145892 -13.433942 -33.400497 -106.88786
66943000 -32.90456 -93.329643 -0.055127516 -13.653951 -0.054591421 -13.639253 -33.2827 -107.08297
67942000 -32.852119 -93.206207 -0.057123587 -13.850713 -0.056323946 -13.838783 -33.161583 -107.38815
68941000 -32.749657 -93.372452 -0.055891011 -14.045047 -0.055656601 -14.037663 -33.059761 -107.37421
69940000 -32.643147 -93.390862 -0.056356203 -14.243454 -0.056283038 -14.231198 -32.911278 -107.69157
70939000 -32.536968 -93.324707 -0.055672593 -14.44085 -0.056289069 -14.430945 -32.773479 -107.6166
71938000 -32.386452 -92.964279 -0.056504108 -14.637787 -0.05591435 -14.625966 -32.645859 -107.42355
72937000 -32.238312 -92.797905 -0.055266205 -14.830545 -0.056375608 -14.827515 -32.504471 -107.22366
73936000 -32.098843 -92.547256 -0.055511869 -15.032025 -0.054871913 -15.025877 -32.392532 -107.14135
74935000 -31.981176 -92.724991 -0.055311825 -15.22808 -0.053914119 -15.224998 -32.24435 -106.71052
75934000 -31.858904 -93.063553 -0.054990143 -15.430511 -0.054456424 -15.427007 -32.14822 -106.6291
76933000 -31.732834 -93.475815 -0.056144841 -15.625645 -0.055418268 -15.627871 -31.979712 -107.12829
77932000 -31.625664 -94.208832 -0.05708503 -15.82452 -0.056649398 -15.819225 -31.880167 -107.06044
78931000 -31.552893 -95.009193 -0.055836998 -16.027681 -0.056536365 -16.018837 -31.78993 -106.98473
79930000 -31.446844 -95.8162 -0.058721732 -16.216221 -0.059489533 -16.218891 -31.695726 -107.34469
80929000 -31.326746 -96.779564 -0.06015642 -16.411125 -0.061149985 -16.409321 -31.586195 -107.64736
81928000 -31.251032 -97.598167 -0.059955899 -16.606291 -0.06098827 -16.600904 -31.469309 -107.7591
82927000 -31.154449 -98.378555 -0.061869115 -16.800282 -0.061843645 -16.80242 -31.372614 -108.09179
83926000 -31.042742 -99.102043 -0.062883556 -17.000948 -0.063172199 -17.000944 -31.244347 -108.35789
84925000 -30.944036 -99.500717 -0.063877746 -17.199924 -0.063198201 -17.19854 -31.153719 -108.41734
85924000 -30.854885 -100.02493 -0.064608097 -17.397781 -0.064513773 -17.397207 -31.079908 -108.42482
86923000 -30.757872 -100.5377 -0.065124676 -17.593956 -0.065132558 -17.592274 -30.97094 -108.34418
87922000 -30.648815 -100.92602 -0.065360382 -17.801264 -0.064414203 -17.789871 -30.886835 -108.40023
88921000 -30.569275 -101.27032 -0.066134356 -18.001675 -0.065702543 -17.994061 -30.799139 -108.39832
89920000 -30.478474 -101.7594 -0.067390613 -18.195127 -0.065744594 -18.190498 -30.749533 -108.62778
90919000 -30.375086 -102.1228 -0.067309633 -18.396477 -0.066851422 -18.394176 -30.653395 -108.75932
91918000 -30.292028 -102.44514 -0.06810762 -18.595068 -0.067303061 -18.584999 -30.59621 -108.78132
92917000 -30.211647 -102.77856 -0.068888389 -18.792379 -0.068206228 -18.789001 -30.525034 -108.89835
93916000 -30.119474 -103.17593 -0.068566233 -18.988472 -0.067868337 -18.980511 -30.444344 -109.54185
94915000 -30.041216 -103.86745 -0.069961295 -19.184731 -0.069010161 -19.182985 -30.386784 -109.39171
95914000 -29.983875 -104.05493 -0.071336284 -19.382807 -0.070008643 -19.378948 -30.298277 -109.68513
96913000 -29.900633 -104.28856 -0.072399259 -19.582296 -0.07097552 -19.578901 -30.226303 -110.06437
97912000 -29.821075 -104.81369 -0.073605992 -19.776598 -0.071032882 -19.778473 -30.155745 -110.3232
98911000 -29.719566 -105.01781 -0.073863752 -19.976942 -0.072320037 -19.972168 -30.117588 -110.5155
99910000 -29.659212 -105.1161 -0.07479725 -20.175764 -0.072096579 -20.174061 -30.013983 -110.81811
100909000 -29.566002 -105.43365 -0.073834792 -20.384195 -0.072034203 -20.37726 -29.909958 -110.98606
101908000 -29.478729 -105.65083 -0.075122245 -20.583942 -0.073298223 -20.580339 -29.805628 -110.78543
102907000 -29.348482 -105.71705 -0.074967116 -20.784004 -0.073739216 -20.784439 -29.737226 -110.74779
103906000 -29.254177 -105.7543 -0.075502314 -20.990456 -0.073232934 -20.984846 -29.589397 -110.65989
104905000 -29.108646 -105.61588 -0.076483585 -21.186102 -0.074022524 -21.186121 -29.457861 -110.41179
105904000 -28.978392 -105.7431 -0.076971807 -21.38821 -0.073812671 -21.384056 -29.339252 -110.26743
106903000 -28.86375 -105.86854 -0.076455131 -21.594936 -0.073609412 -21.589752 -29.214689 -110.15406
107902000 -28.696596 -106.26065 -0.076640874 -21.792585 -0.075025588 -21.784267 -29.07892 -110.08505
108901000 -28.589369 -106.47984 -0.078124456 -21.992437 -0.075738326 -21.987352 -28.942383 -110.05232
109900000 -28.471466 -107.00971 -0.078817405 -22.19305 -0.076501243 -22.186478 -28.793501 -110.18723
110899000 -28.350044 -107.64941 -0.080424875 -22.391281 -0.077233195 -22.381371 -28.665325 -110.47993
111898000 -28.259306 -108.30835 -0.081504852 -22.593712 -0.078673743 -22.589479 -28.546984 -110.64147
112897000 -28.137753 -108.91771 -0.08330515 -22.791752 -0.08022394 -22.779512 -28.416271 -110.75774
113896000 -28.027685 -109.49297 -0.084150948 -22.990685 -0.080949664 -22.981298 -28.303972 -110.92496
114895000 -27.93618 -110.17602 -0.085121237 -23.190454 -0.082674272 -23.175854 -28.19421 -111.03974
115894000 -27.804052 -110.46581 -0.086367421 -23.39065 -0.084194228 -23.377941 -28.126549 -111.21909
116893000 -27.723442 -111.06137 -0.087028146 -23.587149 -0.085096687 -23.57061 -27.993164 -111.38535
117892000 -27.637911 -111.54342 -0.086837471 -23.78162 -0.084527314 -23.767931 -27.922926 -111.59154
118891000 -27.580378 -112.00018 -0.087545812 -23.981226 -0.084958628 -23.971205 -27.824799 -111.73763
119890000 -27.487082 -112.39782 -0.088393755 -24.181763 -0.08576224 -24.171154 -27.814781 -111.89325
120889000 -27.433237 -112.86864 -0.088985033 -24.382038 -0.086235128 -24.369312 -27.739048 -111.84226
121888000 -27.396681 -113.22635 -0.089195095 -24.580618 -0.08692383 -24.567551 -27.680105 -112.1675
122887000 -27.355309 -113.37782 -0.090958662 -24.783478 -0.087773494 -24.767582 -27.630627 -112.18034
123886000 -27.301411 -113.82912 -0.09107127 -24.982624 -0.087190837 -24.964485 -27.613005 -112.3413
124885000 -27.256353 -114.3493 -0.091479704 -25.183321 -0.088152826 -25.170431 -27.580854 -112.40959
125884000 -27.206692 -114.55437 -0.091975428 -25.379593 -0.088472478 -25.36648 -27.554419 -112.63485
126883000 -27.187019 -114.88964 -0.092331327 -25.583576 -0.088822275 -25.57037 -27.505409 -112.63398
127882000 -27.136152 -115.2328 -0.09298344 -25.779213 -0.090031728 -25.765165 -27.473776 -112.83173
128881000 -27.103621 -115.5601 -0.093147412 -25.981586 -0.088926375 -25.967134 -27.42705 -112.90079
129880000 -27.044065 -115.88988 -0.093241036 -26.186142 -0.089837223 -26.163973 -27.3883 -112.87487
130879000 -26.981939 -116.02198 -0.093215644 -26.383354 -0.090807468 -26.367016 -27.313581 -112.97992
131878000 -26.915157 -116.20695 -0.093542814 -26.585052 -0.091046691 -26.566538 -27.245613 -112.84992
132877000 -26.850895 -116.31501 -0.093383856 -26.791142 -0.091450624 -26.768764 -27.155649 -112.84963
133876000 -26.767584 -116.45359 -0.09364517 -26.989647 -0.090559006 -26.967857 -27.068802 -112.78948
134875000 -26.665924 -116.57368 -0.094120242 -27.187782 -0.091604225 -27.169861 -26.96751 -112.6347
135874000 -26.593685 -116.61815 -0.094310179 -27.38809 -0.091538928 -27.370636 -26.86445 -112.61945
136873000 -26.478273 -116.55853 -0.094669707 -27.590059 -0.090540767 -27.570168 -26.779869 -112.61851
137872000 -26.396624 -116.6791 -0.094261773 -27.790947 -0.091271654 -27.772947 -26.671026 -112.59103
138871000 -26.326246 -116.83458 -0.095020011 -27.990477 -0.091978073 -27.976004 -26.572212 -112.74512
139870000 -26.230673 -117.1148 -0.095837653 -28.192375 -0.093397081 -28.169638 -26.494772 -112.89244
140869000 -26.139162 -117.58282 -0.09810432 -28.384039 -0.094504893 -28.365278 -26.386177 -113.02459
141868000 -26.039879 -118.05671 -0.09802065 -28.578897 -0.095494434 -28.562386 -26.325245 -113.36292
142867000 -25.96534 -118.33229 -0.096481033 -28.775782 -0.094044589 -28.760889 -26.244223 -113.55688
143866000 -25.898125 -118.85144 -0.097480558 -28.970825 -0.095765941 -28.954115 -26.170073 -114.0238
144865000 -25.843536 -119.34756 -0.099176258 -29.171474 -0.096947677 -29.154961 -26.112827 -114.38373
145864000 -25.791195 -119.7028 -0.099894561 -29.371309 -0.098307937 -29.359747 -26.076376 -114.64095
146863000 -25.742752 -120.06212 -0.10033163 -29.572001 -0.09767276 -29.557392 -26.025263 -114.92542
147862000 -25.703402 -120.42208 -0.10122792 -29.7665 -0.098077312 -29.755173 -25.993914 -115.26574
148861000 -25.67071 -120.92564 -0.10061086 -29.968634 -0.098953798 -29.951168 -25.966324 -115.52339
149860000 -25.661137 -121.12691 -0.10252193 -30.163237 -0.098757036 -30.151306 -25.94002 -115.68661
150859000 -25.643719 -121.51701 -0.10213605 -30.361872 -0.099694841 -30.349201 -25.935642 -115.96516
151858000 -25.627016 -121.83399 -0.10227677 -30.562635 -0.099575654 -30.550735 -25.921955 -116.2
152857000 -25.609512 -122.19183 -0.10274643 -30.761227 -0.099781193 -30.74695 -25.906544 -116.37107
153856000 -25.59758 -122.38226 -0.10256328 -30.956787 -0.099445075 -30.944767 -25.919849 -116.63294
154855000 -25.594173 -122.5367 -0.10286226 -31.15472 -0.099775895 -31.14555 -25.915545 -116.86086
155854000 -25.607357 -122.78445 -0.10304993 -31.355022 -0.10043018 -31.343082 -25.908188 -117.13644
156853000 -25.59322 -123.52496 -0.10095634 -31.54291 -0.099374361 -31.53285 -25.904091 -117.43721
157852000 -25.594542 -123.75184 -0.10209046 -31.745155 -0.10102098 -31.734589 -25.893229 -117.77145
158851000 -25.589178 -123.9402 -0.10291898 -31.940886 -0.10165824 -31.929789 -25.876963 -118.06158
159850000 -25.579445 -124.09358 -0.10295928 -32.140594 -0.10093064 -32.132343 -25.880598 -118.19846
160849000 -25.565474 -124.2235 -0.10354353 -32.338284 -0.10251769 -32.333549 -25.849586 -118.51742
161848000 -25.542152 -124.30771 -0.10398787 -32.541882 -0.10213128 -32.533363 -25.810225 -118.62212
162847000 -25.500725 -124.48695 -0.10429252 -32.738266 -0.10276419 -32.730099 -25.779146 -118.85473
163846000 -25.456163 -124.73364 -0.10384417 -32.938335 -0.10307061 -32.928444 -25.702967 -118.87873
164845000 -25.399527 -124.72752 -0.10487217 -33.13921 -0.10340064 -33.129631 -25.633034 -118.94218
165844000 -25.34771 -124.78709 -0.10482418 -33.332592 -0.10365779 -33.328873 -25.556145 -119.10123
166843000 -25.284962 -124.91192 -0.10438002 -33.534828 -0.10339719 -33.52866 -25.483662 -119.27935
167842000 -25.221287 -125.01429 -0.10460991 -33.730888 -0.10350403 -33.725048 -25.403019 -119.21423
168841000 -25.145121 -125.22817 -0.10528668 -33.931873 -0.10414218 -33.92606 -25.327824 -119.26625
169840000 -25.074051 -125.48377 -0.10538641 -34.124557 -0.10435165 -34.124454 -25.238743 -119.47172
170839000 -25.02277 -125.76431 -0.10684668 -34.322811 -0.10481092 -34.318531 -25.152014 -119.64774
171838000 -24.96014 -126.15795 -0.10588717 -34.524021 -0.10621953 -34.518597 -25.088715 -119.88833
172837000 -24.892805 -126.51031 -0.10760631 -34.721115 -0.10622033 -34.713955 -25.021856 -120.12836
173836000 -24.826769 -126.95309 -0.10888285 -34.919548 -0.10765301 -34.916706 -24.976891 -120.37057
174835000 -24.773335 -127.35957 -0.10940472 -35.111271 -0.10837273 -35.112144 -24.927134 -120.69906
175834000 -24.721087 -127.76917 -0.11017835 -35.311855 -0.10946498 -35.30843 -24.870459 -120.9909
176833000 -24.669394 -128.14787 -0.11073862 -35.509354 -0.1099163 -35.508438 -24.817402 -121.15301
177832000 -24.626719 -128.62056 -0.11154701 -35.705509 -0.10984754 -35.706291 -24.791117 -121.29939
178831000 -24.58604 -129.02109 -0.11118051 -35.903297 -0.11039183 -35.8997 -24.754885 -121.59847
179830000 -24.548151 -129.43871 -0.11248732 -36.097427 -0.11053256 -36.10215 -24.723143 -121.681
180829000 -24.506712 -129.62619 -0.11317647 -36.29427 -0.1113765 -36.296234 -24.697439 -121.87282
181828000 -24.485041 -129.98598 -0.11277264 -36.492531 -0.11144768 -36.488148 -24.680002 -121.99389
182827000 -24.461554 -130.37807 -0.11333908 -36.689663 -0.11148407 -36.686707 -24.662037 -122.05521
183826000 -24.415842 -130.65375 -0.11359788 -36.8848 -0.11208089 -36.885021 -24.659405 -122.20997
184825000 -24.419386 -131.01489 -0.1136303 -37.08007 -0.11247404 -37.083458 -24.63772 -122.29408
185824000 -24.391905 -131.3387 -0.11313582 -37.276272 -0.11298545 -37.27874 -24.635105 -122.35516
186823000 -24.382023 -131.67462 -0.11355112 -37.474728 -0.11285021 -37.473526 -24.63545 -122.3356
187822000 -24.358414 -132.01447 -0.1141554 -37.671188 -0.11377008 -37.672737 -24.602287 -122.40083
188821000 -24.33975 -132.27811 -0.11484616 -37.864468 -0.11380303 -37.870266 -24.583122 -122.49573
189820000 -24.323387 -132.51233 -0.11476987 -38.067867 -0.11409056 -38.067242 -24.572586 -122.66281
190819000 -24.290974 -132.75137 -0.11556785 -38.26659 -0.11466568 -38.265671 -24.546001 -122.62151
191818000 -24.258558 -132.9472 -0.1171068 -38.460121 -0.11625218 -38.460274 -24.509842 -122.52731
192817000 -24.186239 -133.22845 -0.11799033 -38.648258 -0.11694725 -38.647751 -24.434269 -122.59929
193816000 -24.149761 -133.556 -0.11658613 -38.839417 -0.11511967 -38.836956 -24.378052 -122.87222
194815000 -24.092287 -134.01723 -0.11610381 -39.036263 -0.11589378 -39.040817 -24.313509 -122.98267
195814000 -24.038864 -134.25677 -0.11690629 -39.234814 -0.11544105 -39.234539 -24.263039 -123.09126
196813000 -23.98966 -134.5784 -0.11618358 -39.429161 -0.11529617 -39.432476 -24.183092 -123.23978
197812000 -23.931175 -134.80135 -0.11710893 -39.627598 -0.11586852 -39.627472 -24.116852 -123.35232
198811000 -23.877459 -134.99213 -0.11647446 -39.827065 -0.11630323 -39.823071 -24.04866 -123.53085
199810000 -23.806686 -135.38519 -0.11678929 -40.017788 -0.11535226 -40.016399 -23.9685 -123.64359
200809000 -23.751408 -135.642 -0.1170967 -40.216946 -0.11580339 -40.215343 -23.887939 -123.84631
201808000 -23.690348 -135.83153 -0.11808103 -40.41449 -0.11654147 -40.419586 -23.819818 -123.88461
202807000 -23.633234 -136.23659 -0.11852713 -40.610989 -0.11771557 -40.618557 -23.765562 -124.12637
203806000 -23.580872 -136.67026 -0.119536 -40.819103 -0.11810205 -40.813686 -23.700653 -124.28319
