!Keysight Technologies,E5080B,MY59205177,A.15.75.32
!Date: Friday, February 23, 2024 03:26:21
!Correction: S11(Cdelta 2-Port  ) 
!S21(Cdelta 2-Port  ) 
!S12(Cdelta 2-Port  ) 
!S22(Cdelta 2-Port  ) 
!S2P File: Measurements: S11, S21, S12, S22:
# Hz S  dB   R 50
10000000 -45.951134 -0.45423353 -0.016442273 -2.0599029 -0.019503245 -2.1142037 -46.245846 -159.47414
10999000 -45.173153 -2.3214977 -0.017738555 -2.2787383 -0.018805394 -2.3321152 -46.183826 -153.25598
11998000 -44.226082 -5.648468 -0.018415697 -2.5038815 -0.018859211 -2.5480776 -46.425373 -148.99783
12997000 -43.474499 -11.15125 -0.017832907 -2.6859868 -0.019040426 -2.7152801 -46.078846 -142.74306
13996000 -43.209621 -14.907354 -0.01664911 -2.8656967 -0.018323673 -2.8872445 -45.894402 -137.67561
14995000 -42.789379 -19.222593 -0.019081244 -3.0772495 -0.018422715 -3.1014323 -45.592503 -133.83781
15994000 -42.718948 -23.336554 -0.020739838 -3.2966917 -0.021044945 -3.3177533 -45.519764 -130.1499
16993000 -42.64645 -28.071701 -0.019160025 -3.4902458 -0.02021239 -3.5003951 -44.637886 -129.73178
17992000 -42.767326 -33.007507 -0.020703685 -3.6955786 -0.021274375 -3.6968784 -44.071636 -129.78737
18991000 -43.030518 -38.156174 -0.021469736 -3.9059792 -0.021859188 -3.9049072 -43.440804 -128.8838
19990000 -42.849293 -44.26733 -0.023442326 -4.1140723 -0.023576884 -4.1112847 -42.762291 -129.54416
20989000 -42.716087 -47.162476 -0.02604988 -4.3232527 -0.026235823 -4.3113375 -42.211739 -128.54111
21988000 -42.574017 -52.498005 -0.026364475 -4.5225363 -0.026934607 -4.5073586 -42.005192 -127.9054
22987000 -42.315685 -57.174572 -0.028379936 -4.7212605 -0.027664505 -4.7121859 -41.705078 -127.39897
23986000 -42.285378 -61.192131 -0.027527217 -4.9101019 -0.027271928 -4.9152575 -41.576321 -127.2897
24985000 -41.905075 -64.235748 -0.02852142 -5.1229076 -0.026401456 -5.1238756 -41.419579 -124.72934
25984000 -41.519234 -66.340591 -0.029962584 -5.3282509 -0.028257476 -5.3289032 -41.080776 -123.11718
26983000 -41.246704 -68.724907 -0.029979266 -5.5281987 -0.029223701 -5.5468631 -40.985401 -122.52667
27982000 -41.069462 -69.404831 -0.03145716 -5.7358823 -0.030273814 -5.7632804 -40.714706 -120.66975
28981000 -41.048138 -70.851875 -0.029342018 -5.9272265 -0.03080353 -5.9555354 -40.428219 -119.84248
29980000 -40.619339 -72.269608 -0.030079359 -6.1280394 -0.030783456 -6.1301236 -40.209736 -119.2153
30979000 -40.229527 -71.242355 -0.027647311 -6.4783874 -0.025996495 -6.4697824 -39.690342 -119.52313
31978000 -40.061958 -72.552094 -0.02667154 -6.6751847 -0.026696805 -6.6656733 -39.437199 -118.64438
32977000 -39.853283 -73.936768 -0.02693695 -6.8873482 -0.027496478 -6.883007 -39.220963 -118.82901
33976000 -39.698574 -75.223083 -0.027879955 -7.0890546 -0.027984688 -7.0810843 -38.89077 -118.12174
34975000 -39.381359 -75.922073 -0.027598076 -7.2881408 -0.029428542 -7.2902827 -38.680279 -117.68128
35974000 -39.180428 -76.485229 -0.026938254 -7.4856348 -0.029010007 -7.4876695 -38.396828 -116.76517
36973000 -38.936222 -77.21566 -0.027890116 -7.6869893 -0.029978225 -7.6942434 -38.131245 -115.67381
37972000 -38.78318 -76.993073 -0.027063802 -7.8990746 -0.029611502 -7.9062362 -37.888439 -114.95712
38971000 -38.43734 -76.649353 -0.02838671 -8.1041346 -0.029938865 -8.1083326 -37.729561 -113.46721
39970000 -38.072128 -76.879051 -0.027028117 -8.2915745 -0.029165585 -8.3150997 -37.450039 -112.70605
40969000 -37.784878 -76.583122 -0.027620999 -8.4929399 -0.028367167 -8.5091686 -37.211884 -111.29565
41968000 -37.446613 -76.626747 -0.027164347 -8.7029762 -0.028600633 -8.7142239 -37.036636 -109.90833
42967000 -37.174278 -76.580231 -0.027047392 -8.9092999 -0.029275041 -8.926569 -36.803989 -108.01171
43966000 -36.872669 -77.323273 -0.027814044 -9.1101704 -0.031149235 -9.1303978 -36.527458 -107.21981
44965000 -36.63303 -78.140717 -0.028897433 -9.3129854 -0.030517809 -9.3320055 -36.308819 -106.87697
45964000 -36.395668 -79.331566 -0.02989612 -9.51472 -0.032323949 -9.5326185 -36.061104 -106.54636
46963000 -36.218895 -81.12397 -0.030357491 -9.7107401 -0.032824963 -9.7304363 -35.885815 -106.93351
47962000 -36.047684 -82.613754 -0.031975545 -9.9130545 -0.034085706 -9.9306688 -35.685337 -106.82906
48961000 -35.830788 -84.151878 -0.033744466 -10.1129 -0.036310181 -10.133698 -35.452484 -106.99484
49960000 -35.590126 -85.445572 -0.035383616 -10.310104 -0.037104316 -10.334263 -35.314461 -107.00378
50959000 -35.37426 -86.654961 -0.03575474 -10.522444 -0.038100716 -10.537244 -35.135201 -107.29636
51958000 -35.173656 -87.912521 -0.038546246 -10.72639 -0.0400571 -10.733824 -34.950829 -107.79
52957000 -34.9632 -88.862427 -0.039212532 -10.924943 -0.041229784 -10.933559 -34.780804 -107.49381
53956000 -34.794865 -89.708313 -0.040936846 -11.128295 -0.041897271 -11.12774 -34.659168 -107.46749
54955000 -34.614754 -90.126549 -0.04195974 -11.326966 -0.042362273 -11.323192 -34.504917 -107.36716
55954000 -34.447697 -91.012093 -0.042791769 -11.530095 -0.043420795 -11.527887 -34.392387 -107.01035
56953000 -34.340084 -91.025017 -0.042113427 -11.728085 -0.042383704 -11.715676 -34.31781 -107.15699
57952000 -34.165577 -91.561378 -0.043597549 -11.927916 -0.04334968 -11.918909 -34.200432 -107.18752
58951000 -34.042397 -91.793823 -0.044092804 -12.133594 -0.044471212 -12.113014 -34.050304 -107.34408
59950000 -33.920937 -92.272957 -0.045742404 -12.334847 -0.044901703 -12.315021 -33.993423 -107.62268
60949000 -33.808273 -92.880493 -0.046112847 -12.533813 -0.045871112 -12.517201 -33.895355 -107.91184
61948000 -33.741341 -93.178497 -0.046463173 -12.736017 -0.045866929 -12.718244 -33.807636 -107.96382
62947000 -33.651794 -93.37606 -0.046800446 -12.94784 -0.046592429 -12.930645 -33.679192 -108.27201
63946000 -33.585411 -94.191925 -0.047490247 -13.144717 -0.047612727 -13.12926 -33.573093 -108.35557
64945000 -33.478226 -94.301903 -0.047591005 -13.349957 -0.047729976 -13.33332 -33.454334 -108.7936
65944000 -33.35862 -94.535118 -0.048817821 -13.551916 -0.048628293 -13.534243 -33.362766 -109.23293
66943000 -33.219017 -94.903625 -0.047163911 -13.752728 -0.04704066 -13.735743 -33.256493 -109.51365
67942000 -33.168205 -94.889343 -0.049611893 -13.947642 -0.049022544 -13.933309 -33.131706 -109.86262
68941000 -33.048405 -94.982079 -0.04881756 -14.143372 -0.048140898 -14.132477 -33.02869 -109.82821
69940000 -32.961624 -94.932701 -0.049258694 -14.344026 -0.048640858 -14.337795 -32.872375 -110.21075
70939000 -32.839806 -94.841866 -0.04944694 -14.539393 -0.048554737 -14.530315 -32.736187 -109.96478
71938000 -32.69783 -94.517509 -0.04921183 -14.743303 -0.048986677 -14.728835 -32.602951 -109.86565
72937000 -32.520554 -94.297012 -0.048280932 -14.93811 -0.04826235 -14.928277 -32.45602 -109.55653
73936000 -32.393723 -93.89637 -0.048472278 -15.136459 -0.047993276 -15.129757 -32.334579 -109.37963
74935000 -32.249954 -94.143982 -0.047950875 -15.332236 -0.046788931 -15.328499 -32.178596 -109.02099
75934000 -32.136066 -94.420166 -0.048173353 -15.541187 -0.047072586 -15.535979 -32.092884 -108.88589
76933000 -31.995529 -94.723503 -0.049826339 -15.736138 -0.048301611 -15.729812 -31.911602 -109.23923
77932000 -31.896391 -95.546227 -0.050810207 -15.931561 -0.049974024 -15.92701 -31.817715 -109.21835
78931000 -31.82686 -96.269646 -0.049180936 -16.136299 -0.049858283 -16.129936 -31.716719 -109.06764
79930000 -31.702856 -97.116928 -0.052444022 -16.328379 -0.051622193 -16.326975 -31.606501 -109.3399
80929000 -31.593264 -97.953285 -0.05390678 -16.528175 -0.053619012 -16.521822 -31.500154 -109.62177
81928000 -31.487936 -98.692719 -0.053905729 -16.717129 -0.054391939 -16.716593 -31.372881 -109.62447
82927000 -31.388241 -99.518135 -0.055305533 -16.916576 -0.055186503 -16.914848 -31.262594 -109.91174
83926000 -31.273787 -100.14191 -0.057141159 -17.1161 -0.056476049 -17.117542 -31.143414 -110.04386
84925000 -31.171682 -100.56829 -0.057849657 -17.313385 -0.057062473 -17.30932 -31.053682 -110.12363
85924000 -31.072485 -100.97288 -0.058884677 -17.514467 -0.058565881 -17.517609 -30.952166 -110.05343
86923000 -30.969355 -101.48895 -0.059481662 -17.71463 -0.058131147 -17.710148 -30.85157 -109.93939
87922000 -30.852549 -101.8766 -0.058689985 -17.921001 -0.058439419 -17.912392 -30.763428 -109.94142
88921000 -30.780212 -102.09987 -0.060558543 -18.117004 -0.059287731 -18.113068 -30.663853 -109.91158
89920000 -30.668282 -102.66737 -0.061220869 -18.318682 -0.060028601 -18.311373 -30.614237 -110.00864
90919000 -30.572268 -102.91868 -0.062194455 -18.516872 -0.060440946 -18.512806 -30.519569 -110.15855
91918000 -30.474211 -103.2374 -0.062726505 -18.717657 -0.06073232 -18.716066 -30.453411 -110.20934
92917000 -30.375635 -103.60984 -0.064169608 -18.916599 -0.062478326 -18.919769 -30.383146 -110.32169
93916000 -30.292351 -103.97327 -0.063379176 -19.10878 -0.062900104 -19.106594 -30.30056 -110.8718
94915000 -30.213747 -104.5917 -0.065480217 -19.314068 -0.06347321 -19.309389 -30.23938 -110.7337
95914000 -30.142994 -104.79869 -0.066175357 -19.506622 -0.064641729 -19.505285 -30.15197 -111.00674
96913000 -30.059462 -104.98748 -0.0678147 -19.71138 -0.065915681 -19.706837 -30.086498 -111.3835
97912000 -29.985109 -105.524 -0.069204792 -19.907948 -0.066216886 -19.909908 -30.001045 -111.64711
98911000 -29.87468 -105.62247 -0.069553569 -20.108908 -0.06780865 -20.10482 -29.964998 -111.82773
99910000 -29.801113 -105.77016 -0.070284352 -20.304531 -0.067816541 -20.304583 -29.853262 -112.13683
100909000 -29.713539 -106.06285 -0.070283823 -20.515167 -0.067021243 -20.508318 -29.764647 -112.35625
101908000 -29.615047 -106.28144 -0.071215235 -20.717789 -0.069268174 -20.715782 -29.65065 -112.19305
102907000 -29.478195 -106.27034 -0.071534432 -20.91684 -0.068859458 -20.915051 -29.583578 -112.11814
103906000 -29.386642 -106.349 -0.071615227 -21.124374 -0.068376891 -21.121845 -29.432444 -112.05721
104905000 -29.238419 -106.28401 -0.072516657 -21.317682 -0.068538621 -21.321383 -29.307234 -111.78295
105904000 -29.104156 -106.30858 -0.073007323 -21.525406 -0.069218993 -21.523037 -29.190878 -111.5902
106903000 -28.987543 -106.36644 -0.072601676 -21.730461 -0.069402583 -21.723875 -29.063383 -111.48552
107902000 -28.812447 -106.71821 -0.073391415 -21.929808 -0.070120715 -21.920105 -28.921936 -111.44381
108901000 -28.710024 -106.98129 -0.074526265 -22.132526 -0.071501017 -22.125795 -28.799212 -111.40771
109900000 -28.576914 -107.42471 -0.075099595 -22.332354 -0.07284832 -22.325548 -28.634123 -111.48468
110899000 -28.459404 -108.07062 -0.077393405 -22.531836 -0.073391944 -22.525032 -28.511175 -111.75354
111898000 -28.370567 -108.77435 -0.078310534 -22.732937 -0.074260823 -22.725775 -28.386456 -111.91054
112897000 -28.243393 -109.26254 -0.080028817 -22.933842 -0.075539984 -22.921591 -28.256969 -112.07828
113896000 -28.141544 -109.90539 -0.080775872 -23.135349 -0.077005796 -23.123022 -28.143518 -112.21318
114895000 -28.037891 -110.52592 -0.082544468 -23.332571 -0.078587554 -23.320293 -28.030525 -112.293
115894000 -27.920822 -110.90881 -0.083204083 -23.534401 -0.07928928 -23.523897 -27.962355 -112.50575
116893000 -27.846453 -111.39759 -0.083964616 -23.734726 -0.080674872 -23.716536 -27.837797 -112.51447
117892000 -27.758577 -111.90141 -0.084030859 -23.930504 -0.080313861 -23.918058 -27.758648 -112.7017
118891000 -27.701466 -112.32834 -0.084772795 -24.132538 -0.081560507 -24.116983 -27.664942 -112.88264
119890000 -27.615156 -112.70505 -0.085603826 -24.334682 -0.081894979 -24.317686 -27.653429 -112.95224
120889000 -27.567854 -113.17891 -0.087134317 -24.534451 -0.082487486 -24.519135 -27.579218 -112.8773
121888000 -27.521912 -113.45613 -0.086790465 -24.730709 -0.083321773 -24.716085 -27.518482 -113.19906
122887000 -27.483681 -113.70804 -0.086996451 -24.931158 -0.084128775 -24.922743 -27.476946 -113.21363
123886000 -27.421974 -114.11222 -0.088579476 -25.13459 -0.084437579 -25.118258 -27.45611 -113.30211
124885000 -27.393494 -114.61582 -0.088917129 -25.335501 -0.085095629 -25.323303 -27.424576 -113.36713
125884000 -27.341429 -114.83596 -0.089129299 -25.532894 -0.085135497 -25.523878 -27.393148 -113.53575
126883000 -27.322407 -115.23408 -0.090082735 -25.740847 -0.085780986 -25.723093 -27.354082 -113.53648
127882000 -27.272095 -115.49377 -0.090510368 -25.93594 -0.086864673 -25.921391 -27.319086 -113.66047
128881000 -27.238743 -115.81418 -0.090855047 -26.142132 -0.087043464 -26.123405 -27.277943 -113.79916
129880000 -27.180765 -116.16325 -0.091797493 -26.342255 -0.086693808 -26.32276 -27.233952 -113.72321
130879000 -27.122662 -116.29806 -0.090945445 -26.540192 -0.087717764 -26.526941 -27.15958 -113.77168
131878000 -27.055477 -116.54012 -0.091794848 -26.746181 -0.087755799 -26.726982 -27.095747 -113.6529
132877000 -26.985369 -116.57423 -0.09191224 -26.950634 -0.088027351 -26.927513 -27.009964 -113.6104
133876000 -26.895695 -116.7892 -0.092296951 -27.145599 -0.088300236 -27.13063 -26.924763 -113.49216
134875000 -26.79491 -116.89645 -0.09252198 -27.349113 -0.089142509 -27.332186 -26.814762 -113.31686
135874000 -26.714573 -116.9399 -0.09250664 -27.551678 -0.08908359 -27.533749 -26.723936 -113.28928
136873000 -26.602459 -116.88444 -0.092659749 -27.754763 -0.088373676 -27.737204 -26.63798 -113.28749
137872000 -26.519384 -117.02605 -0.092547625 -27.953451 -0.089051619 -27.941111 -26.525127 -113.22607
138871000 -26.441532 -117.23677 -0.093595974 -28.152847 -0.089454308 -28.141037 -26.428244 -113.38923
139870000 -26.336914 -117.56535 -0.09357217 -28.355492 -0.089850962 -28.334543 -26.345007 -113.52431
140869000 -26.261747 -118.10397 -0.094880573 -28.553789 -0.090544201 -28.535179 -26.243568 -113.77739
141868000 -26.178335 -118.4837 -0.09608642 -28.749329 -0.092342697 -28.735737 -26.188375 -114.00105
142867000 -26.089178 -118.70107 -0.094974235 -28.948736 -0.091642827 -28.931158 -26.112528 -114.12759
143866000 -26.021534 -119.21041 -0.096572079 -29.145327 -0.093100861 -29.130384 -26.034935 -114.58618
144865000 -25.964979 -119.70226 -0.098666735 -29.345341 -0.095095679 -29.33053 -25.981157 -114.90059
145864000 -25.908976 -120.04951 -0.098847605 -29.547522 -0.096050426 -29.532755 -25.945784 -115.16572
146863000 -25.863892 -120.40606 -0.099244319 -29.74555 -0.096762128 -29.736734 -25.892677 -115.45241
147862000 -25.827497 -120.71212 -0.10064848 -29.94396 -0.096924648 -29.93342 -25.860336 -115.76601
148861000 -25.797241 -121.17734 -0.10162327 -30.142794 -0.098436624 -30.127651 -25.839243 -115.87639
149860000 -25.761463 -121.35153 -0.10302979 -30.337751 -0.099698283 -30.327906 -25.789457 -115.98074
150859000 -25.739576 -121.80439 -0.10250815 -30.533098 -0.099469706 -30.519667 -25.768597 -116.32716
151858000 -25.728386 -122.13808 -0.10158802 -30.736156 -0.098782726 -30.719866 -25.758383 -116.66476
152857000 -25.715454 -122.49075 -0.10164288 -30.93265 -0.098876469 -30.919344 -25.753262 -116.84532
153856000 -25.714682 -122.71774 -0.10263219 -31.135281 -0.099014446 -31.121716 -25.767168 -117.14083
154855000 -25.708921 -122.83882 -0.10237298 -31.332397 -0.09880656 -31.321398 -25.759295 -117.35948
155854000 -25.731585 -123.12939 -0.10320076 -31.536579 -0.099993095 -31.519451 -25.753922 -117.62492
156853000 -25.715256 -123.81809 -0.10059761 -31.720974 -0.099278748 -31.715467 -25.748512 -117.94868
157852000 -25.725855 -124.00433 -0.102488 -31.923365 -0.10032395 -31.912167 -25.74151 -118.30103
158851000 -25.723207 -124.23516 -0.10310958 -32.122734 -0.1007171 -32.113323 -25.725208 -118.55045
159850000 -25.713989 -124.34439 -0.10335955 -32.322971 -0.10049986 -32.314308 -25.72587 -118.76084
160849000 -25.699663 -124.42095 -0.10380784 -32.521614 -0.10147938 -32.516682 -25.696037 -119.03165
161848000 -25.684958 -124.52897 -0.1037771 -32.724209 -0.10204435 -32.71545 -25.661167 -119.16338
162847000 -25.642378 -124.72207 -0.1043596 -32.920967 -0.10249887 -32.918644 -25.633978 -119.42205
163846000 -25.603493 -124.92382 -0.10495093 -33.120651 -0.10212757 -33.115749 -25.553181 -119.4028
164845000 -25.54401 -124.90162 -0.10524372 -33.323673 -0.10306875 -33.320148 -25.49226 -119.51025
165844000 -25.491482 -124.92379 -0.10480137 -33.527164 -0.10358329 -33.516949 -25.418222 -119.64337
166843000 -25.426186 -124.98422 -0.10568903 -33.72242 -0.10341124 -33.714928 -25.349401 -119.80906
167842000 -25.371469 -125.09787 -0.10586037 -33.918846 -0.10350853 -33.919449 -25.267992 -119.73067
168841000 -25.294165 -125.25245 -0.10630628 -34.120087 -0.10392556 -34.117363 -25.19503 -119.80633
169840000 -25.225521 -125.54597 -0.10593093 -34.315258 -0.10449748 -34.312836 -25.108143 -120.03391
170839000 -25.165489 -125.73959 -0.10733195 -34.512909 -0.10492469 -34.51416 -25.027794 -120.19366
171838000 -25.110138 -126.1545 -0.10681669 -34.720482 -0.10584313 -34.709229 -24.962637 -120.46086
172837000 -25.03606 -126.51198 -0.10882287 -34.912582 -0.10681696 -34.909809 -24.892559 -120.65404
173836000 -24.971951 -126.89906 -0.10987914 -35.115189 -0.10814024 -35.112751 -24.851082 -120.87781
174835000 -24.915064 -127.30968 -0.11084271 -35.308167 -0.10901451 -35.311752 -24.79995 -121.16414
175834000 -24.863327 -127.67194 -0.11174966 -35.511402 -0.11029889 -35.507267 -24.744701 -121.44811
176833000 -24.812468 -128.05751 -0.1125176 -35.708954 -0.11084908 -35.708263 -24.691048 -121.60291
177832000 -24.769356 -128.47813 -0.11365103 -35.909187 -0.11136455 -35.909142 -24.668669 -121.72115
178831000 -24.724604 -128.75659 -0.11443711 -36.105705 -0.11288236 -36.105534 -24.632479 -121.88642
179830000 -24.665764 -129.08575 -0.11659092 -36.294582 -0.11458275 -36.298618 -24.582886 -121.83508
180829000 -24.601412 -129.39848 -0.11550192 -36.488052 -0.11422237 -36.480545 -24.522207 -122.13181
181828000 -24.575182 -129.87289 -0.11542536 -36.682682 -0.11315601 -36.679653 -24.497883 -122.33971
182827000 -24.553135 -130.2872 -0.11527278 -36.883091 -0.11316293 -36.883305 -24.485939 -122.48413
183826000 -24.509537 -130.58786 -0.1162325 -37.082077 -0.11405973 -37.075417 -24.478619 -122.64629
184825000 -24.511911 -130.95123 -0.11578 -37.277905 -0.11373606 -37.275826 -24.456123 -122.76987
185824000 -24.48564 -131.29161 -0.11494476 -37.471451 -0.11451843 -37.474144 -24.453569 -122.8368
186823000 -24.464029 -131.66508 -0.11552638 -37.672932 -0.11431433 -37.672581 -24.440886 -122.84056
187822000 -24.441776 -132.01749 -0.11637262 -37.8689 -0.11532966 -37.865215 -24.403906 -122.91024
188821000 -24.418594 -132.2486 -0.11671484 -38.064579 -0.1152143 -38.06897 -24.382641 -123.06456
189820000 -24.395809 -132.55568 -0.11653828 -38.266064 -0.11494902 -38.263588 -24.367863 -123.26388
190819000 -24.360796 -132.85095 -0.11745519 -38.463234 -0.11596344 -38.461742 -24.323229 -123.30975
191818000 -24.327389 -133.16342 -0.11746743 -38.66124 -0.11658029 -38.662571 -24.296751 -123.3433
192817000 -24.281324 -133.43187 -0.11772196 -38.855125 -0.11656486 -38.85965 -24.251287 -123.42645
193816000 -24.249567 -133.68999 -0.11862715 -39.055222 -0.11605729 -39.053181 -24.196709 -123.61476
194815000 -24.187319 -134.06039 -0.11874102 -39.248692 -0.11747913 -39.255501 -24.131739 -123.66047
195814000 -24.12579 -134.28893 -0.11954505 -39.447281 -0.11748232 -39.448502 -24.07699 -123.73409
196813000 -24.07148 -134.61264 -0.1187349 -39.641396 -0.11689353 -39.640678 -23.990093 -123.94787
197812000 -24.012272 -134.8423 -0.11952775 -39.841175 -0.11745732 -39.841125 -23.920332 -124.0036
198811000 -23.958204 -134.97397 -0.11929068 -40.036156 -0.11823957 -40.038414 -23.851143 -124.19682
199810000 -23.890766 -135.34474 -0.12011451 -40.234016 -0.11812599 -40.230167 -23.768095 -124.29578
200809000 -23.830641 -135.59776 -0.12052382 -40.432743 -0.11813849 -40.429989 -23.688667 -124.51672
201808000 -23.772846 -135.79872 -0.12139952 -40.631111 -0.11953174 -40.634209 -23.620125 -124.54809
202807000 -23.71146 -136.13939 -0.12205122 -40.832165 -0.12018316 -40.835754 -23.567776 -124.77548
203806000 -23.661871 -136.56831 -0.12387 -41.034458 -0.12124353 -41.032993 -23.502111 -124.93448
