!Keysight Technologies,E5080B,MY59205177,A.15.75.32
!Date: Friday, February 23, 2024 02:47:02
!Correction: S11(Cdelta 2-Port  ) 
!S21(Cdelta 2-Port  ) 
!S12(Cdelta 2-Port  ) 
!S22(Cdelta 2-Port  ) 
!S2P File: Measurements: S11, S21, S12, S22:
# Hz S  dB   R 50
10000000 -39.809929 -3.341001 -0.063959442 -2.0545437 -0.067153998 -2.1099303 -54.258827 -68.877571
10999000 -39.372219 -4.475203 -0.065685987 -2.2729847 -0.067626186 -2.3259087 -52.197308 -68.484657
11998000 -38.890099 -6.1820784 -0.065798469 -2.4959276 -0.066936329 -2.5407388 -51.050652 -64.825378
12997000 -38.495655 -9.3904133 -0.065036647 -2.6742954 -0.066813566 -2.7066824 -49.470757 -66.041443
13996000 -38.327141 -11.915043 -0.064324349 -2.8563921 -0.067087755 -2.8771138 -48.306335 -65.197197
14995000 -38.150661 -14.51217 -0.066245534 -3.0649569 -0.066968665 -3.0880265 -47.602421 -65.563507
15994000 -38.098927 -17.24682 -0.066965774 -3.2852564 -0.069476232 -3.3046818 -47.00943 -64.097527
16993000 -38.122753 -19.778774 -0.066245273 -3.4806075 -0.068093158 -3.4903846 -46.523209 -69.792229
17992000 -38.256882 -22.896765 -0.067329355 -3.6783831 -0.069252923 -3.6831291 -46.18576 -73.767975
18991000 -38.485767 -25.734331 -0.067855194 -3.8929937 -0.069890268 -3.8899579 -45.514137 -77.248985
19990000 -38.496765 -29.397247 -0.070256986 -4.1064491 -0.072117634 -4.0970335 -45.202435 -81.972198
20989000 -38.501255 -31.459688 -0.071746811 -4.3040009 -0.074512042 -4.2951131 -44.599941 -85.139084
21988000 -38.555756 -34.828274 -0.072851747 -4.5045676 -0.074655302 -4.4898248 -44.281357 -85.719589
22987000 -38.515499 -38.170734 -0.074166559 -4.7017803 -0.076087624 -4.689642 -43.979118 -86.198997
23986000 -38.628456 -41.01535 -0.073800035 -4.8978891 -0.074781448 -4.8984022 -43.910683 -86.899338
24985000 -38.464298 -43.459614 -0.07540407 -5.1087871 -0.075312145 -5.1027613 -43.360119 -85.546509
25984000 -38.353405 -45.318684 -0.076708063 -5.3131127 -0.075389579 -5.3163295 -43.000778 -85.517586
26983000 -38.210072 -47.202919 -0.077418178 -5.5104747 -0.076704636 -5.5305281 -42.753559 -85.203468
27982000 -38.149189 -48.163548 -0.078114174 -5.7126174 -0.077907287 -5.749414 -42.296078 -84.82885
28981000 -38.143719 -49.415783 -0.076245956 -5.9141078 -0.077530175 -5.9347582 -41.980934 -84.952721
29980000 -37.944668 -51.280346 -0.076627173 -6.105123 -0.079092875 -6.1124496 -41.615681 -85.331436
30979000 -37.594749 -51.17923 -0.074158661 -6.4632478 -0.073713414 -6.4476018 -41.174267 -88.114204
31978000 -37.480434 -52.464539 -0.073473297 -6.6553702 -0.074215539 -6.6464157 -40.856945 -88.447014
32977000 -37.399078 -53.991192 -0.073533848 -6.868454 -0.074768022 -6.8636813 -40.612831 -89.123848
33976000 -37.30323 -55.203861 -0.074349828 -7.064868 -0.07576941 -7.060483 -40.260925 -89.496521
34975000 -37.103947 -56.414253 -0.074820429 -7.2680359 -0.076743633 -7.2656803 -40.005844 -90.030052
35974000 -36.969059 -57.21312 -0.073430911 -7.4626083 -0.076187469 -7.4642415 -39.63998 -89.94104
36973000 -36.811695 -58.391636 -0.074629493 -7.6631632 -0.077208161 -7.6672273 -39.280415 -89.919319
37972000 -36.632473 -58.592499 -0.074085191 -7.8703022 -0.077071406 -7.8848209 -39.011806 -89.67305
38971000 -36.370037 -58.895821 -0.074315861 -8.0754747 -0.07730592 -8.0818319 -38.715187 -88.35833
39970000 -36.104271 -59.957996 -0.073523059 -8.2701578 -0.076892495 -8.2850571 -38.39653 -88.609276
40969000 -35.834385 -60.082764 -0.074167877 -8.4589291 -0.076400332 -8.4898281 -38.055725 -87.772812
41968000 -35.544689 -60.88842 -0.074178405 -8.6723547 -0.076572113 -8.6898146 -37.805302 -87.03936
42967000 -35.323315 -61.370998 -0.073806614 -8.8793907 -0.075929567 -8.9029284 -37.464756 -85.749062
43966000 -35.112652 -62.554283 -0.074704811 -9.0797253 -0.078537211 -9.0999355 -37.136421 -85.716431
44965000 -34.929924 -63.562119 -0.07534112 -9.2878027 -0.078463934 -9.3025513 -36.924377 -85.971382
45964000 -34.778236 -64.830772 -0.076650359 -9.4826527 -0.080254532 -9.5035324 -36.677784 -86.152405
46963000 -34.665611 -66.7864 -0.077361256 -9.6772909 -0.080010891 -9.6989155 -36.506546 -86.878075
47962000 -34.577503 -68.385704 -0.07769461 -9.8803635 -0.081573166 -9.897397 -36.324806 -87.423195
48961000 -34.431789 -69.849129 -0.080740005 -10.077758 -0.083208308 -10.099284 -36.106487 -88.107567
49960000 -34.290096 -71.375488 -0.082158774 -10.279434 -0.083923973 -10.300673 -35.978794 -88.639977
50959000 -34.125641 -72.873253 -0.082525477 -10.493401 -0.085401334 -10.500707 -35.810993 -89.283386
51958000 -33.990139 -74.143837 -0.084227219 -10.691661 -0.086764321 -10.699914 -35.660297 -90.121048
52957000 -33.836033 -75.421829 -0.086138748 -10.89313 -0.08777006 -10.894252 -35.498974 -90.22599
53956000 -33.695705 -76.302017 -0.08708176 -11.098465 -0.089385077 -11.09514 -35.382915 -90.347351
54955000 -33.574879 -76.946625 -0.088593744 -11.291322 -0.090262718 -11.294121 -35.210041 -90.759804
55954000 -33.440086 -78.016563 -0.08977221 -11.490675 -0.090716802 -11.492435 -35.098251 -90.579529
56953000 -33.323925 -78.234177 -0.089028098 -11.691702 -0.089511916 -11.685765 -35.019535 -90.958336
57952000 -33.194988 -79.004066 -0.090344913 -11.888066 -0.090495571 -11.882685 -34.937366 -91.212311
58951000 -33.081959 -79.439812 -0.091745675 -12.099875 -0.092044175 -12.077465 -34.778004 -91.659027
59950000 -32.978462 -79.969719 -0.092337146 -12.297508 -0.092255175 -12.275111 -34.722626 -92.01619
60949000 -32.893398 -80.65416 -0.092651814 -12.500551 -0.092962548 -12.475249 -34.642139 -92.402489
61948000 -32.834812 -81.027153 -0.093711831 -12.699363 -0.092952766 -12.678728 -34.561256 -92.681427
62947000 -32.758442 -81.30896 -0.093003541 -12.911092 -0.094174735 -12.88957 -34.412643 -93.180321
63946000 -32.711044 -82.086517 -0.094565734 -13.107298 -0.094719976 -13.089098 -34.326138 -93.437355
64945000 -32.600376 -82.38221 -0.09506578 -13.312875 -0.09582442 -13.288451 -34.219761 -94.149582
65944000 -32.519852 -82.813812 -0.096089862 -13.511643 -0.096112885 -13.491611 -34.151791 -94.718063
66943000 -32.392937 -83.285927 -0.093643054 -13.71045 -0.094615743 -13.694627 -34.064026 -95.129402
67942000 -32.326336 -83.362106 -0.095395468 -13.908746 -0.096677162 -13.896185 -33.945862 -95.611954
68941000 -32.216095 -83.581909 -0.09594404 -14.103435 -0.095243588 -14.091406 -33.815014 -95.630043
69940000 -32.121967 -83.746597 -0.096369073 -14.300185 -0.096044607 -14.290935 -33.686638 -96.078598
70939000 -32.01178 -83.85672 -0.095978178 -14.495542 -0.096239917 -14.489618 -33.554512 -96.256424
71938000 -31.860607 -83.599861 -0.095901959 -14.696021 -0.096243888 -14.687471 -33.398094 -96.307327
72937000 -31.70816 -83.640053 -0.095770702 -14.88989 -0.095828392 -14.889385 -33.251942 -96.141624
73936000 -31.558243 -83.612022 -0.095351547 -15.08884 -0.094317324 -15.083191 -33.118729 -96.035492
74935000 -31.437048 -83.953918 -0.09450727 -15.290985 -0.094278969 -15.28334 -32.946205 -95.935516
75934000 -31.321861 -84.330338 -0.095112085 -15.494843 -0.094548807 -15.491405 -32.868015 -95.849556
76933000 -31.210608 -84.829315 -0.095728889 -15.689423 -0.096056513 -15.685234 -32.706409 -96.564003
77932000 -31.130089 -85.638092 -0.096993737 -15.886414 -0.097803548 -15.881165 -32.593052 -96.626915
78931000 -31.064823 -86.403587 -0.096088536 -16.088465 -0.097237274 -16.083584 -32.49445 -96.648605
79930000 -30.985777 -87.357521 -0.098969683 -16.283058 -0.099246174 -16.278872 -32.407211 -97.068985
80929000 -30.871305 -88.368546 -0.10046807 -16.474619 -0.10151806 -16.471439 -32.296551 -97.535164
81928000 -30.811663 -89.232658 -0.10047363 -16.6677 -0.10160763 -16.662592 -32.185493 -97.777298
82927000 -30.735735 -90.017036 -0.10264915 -16.86904 -0.10273397 -16.865295 -32.087948 -98.254845
83926000 -30.638309 -90.818794 -0.10453752 -17.064367 -0.10352232 -17.067568 -31.972691 -98.653488
84925000 -30.539764 -91.367661 -0.10532487 -17.267199 -0.10422888 -17.262226 -31.86879 -98.813148
85924000 -30.458288 -91.935867 -0.10589539 -17.463432 -0.1056511 -17.463993 -31.794815 -98.901085
86923000 -30.374735 -92.566734 -0.10612298 -17.660206 -0.10611263 -17.655979 -31.68635 -98.936401
87922000 -30.270473 -93.057709 -0.10579512 -17.867319 -0.10570176 -17.863243 -31.599911 -99.053749
88921000 -30.207888 -93.440491 -0.10672782 -18.064087 -0.10656387 -18.059576 -31.505276 -99.237114
89920000 -30.10371 -94.041565 -0.10783505 -18.270468 -0.10781728 -18.256325 -31.45612 -99.442482
90919000 -30.025927 -94.416901 -0.10882366 -18.461241 -0.10816518 -18.458614 -31.36516 -99.758812
91918000 -29.94401 -94.907936 -0.10925394 -18.662193 -0.10887064 -18.658907 -31.296463 -99.81218
92917000 -29.857449 -95.269943 -0.11026067 -18.865139 -0.11062842 -18.857212 -31.229525 -99.992714
93916000 -29.779655 -95.786095 -0.1101526 -19.055691 -0.11019959 -19.050032 -31.160183 -100.7294
94915000 -29.714346 -96.455261 -0.11171088 -19.255245 -0.11113562 -19.249397 -31.095736 -100.62872
95914000 -29.652706 -96.723427 -0.11242516 -19.451721 -0.1121465 -19.450539 -31.000454 -101.06054
96913000 -29.576162 -96.991951 -0.11403582 -19.652884 -0.11338611 -19.647396 -30.94372 -101.52846
97912000 -29.511265 -97.569077 -0.11485838 -19.846811 -0.11341508 -19.849562 -30.864273 -101.82563
98911000 -29.404369 -97.847954 -0.11515608 -20.048597 -0.11431512 -20.044836 -30.824944 -102.05978
99910000 -29.341452 -98.01387 -0.11620033 -20.248714 -0.11499102 -20.246387 -30.717381 -102.45969
100909000 -29.251324 -98.421432 -0.11502344 -20.456072 -0.11433505 -20.45031 -30.633455 -102.77774
101908000 -29.164444 -98.703354 -0.11658508 -20.654198 -0.1155309 -20.652328 -30.502731 -102.55898
102907000 -29.030025 -98.84024 -0.11764403 -20.855467 -0.11614237 -20.85553 -30.428032 -102.59168
103906000 -28.93935 -99.001091 -0.11789671 -21.062008 -0.11569386 -21.05398 -30.268585 -102.66338
104905000 -28.784477 -99.015343 -0.1182808 -21.257586 -0.11603629 -21.257217 -30.114765 -102.41608
105904000 -28.650267 -99.265991 -0.11847499 -21.46369 -0.11665155 -21.45784 -29.996498 -102.33169
106903000 -28.54545 -99.41465 -0.11878385 -21.665682 -0.116893 -21.663607 -29.852453 -102.33702
107902000 -28.377361 -99.881119 -0.12009002 -21.869776 -0.11706612 -21.859745 -29.708488 -102.41248
108901000 -28.275126 -100.23859 -0.12018982 -22.064268 -0.11830261 -22.062109 -29.568914 -102.48862
109900000 -28.152334 -100.81144 -0.12087674 -22.267895 -0.11923507 -22.259377 -29.414299 -102.70521
110899000 -28.046198 -101.53892 -0.12249985 -22.468187 -0.12044185 -22.458933 -29.291214 -103.09791
111898000 -27.963577 -102.28558 -0.12383751 -22.668482 -0.12196043 -22.664019 -29.168018 -103.37065
112897000 -27.847359 -102.88346 -0.12528402 -22.865274 -0.12297729 -22.857906 -29.025326 -103.65379
113896000 -27.752502 -103.53207 -0.12636375 -23.071093 -0.12406764 -23.059671 -28.918728 -103.91004
114895000 -27.660055 -104.29057 -0.12750986 -23.267929 -0.12533331 -23.252684 -28.798347 -104.09203
115894000 -27.526031 -104.66836 -0.12889306 -23.467382 -0.12721771 -23.455919 -28.73184 -104.39822
116893000 -27.457178 -105.31739 -0.12911598 -23.663408 -0.12796545 -23.645296 -28.597321 -104.65186
117892000 -27.379948 -105.83779 -0.12933147 -23.860077 -0.12851469 -23.848665 -28.520605 -104.98779
118891000 -27.32546 -106.31172 -0.13070911 -24.060059 -0.1288088 -24.050674 -28.421513 -105.17092
119890000 -27.232826 -106.76568 -0.13161275 -24.26251 -0.12908025 -24.246603 -28.414215 -105.37828
120889000 -27.185108 -107.29499 -0.13255768 -24.460899 -0.1293312 -24.449806 -28.330025 -105.41734
121888000 -27.14394 -107.64838 -0.13245146 -24.661688 -0.13048102 -24.648027 -28.271549 -105.77087
122887000 -27.103666 -107.86933 -0.133498 -24.867586 -0.13120133 -24.846653 -28.220957 -105.79282
123886000 -27.041895 -108.34579 -0.13382155 -25.062622 -0.13174002 -25.046532 -28.211472 -106.02267
124885000 -27.016886 -108.85018 -0.13437098 -25.263618 -0.1322425 -25.249941 -28.176857 -106.1105
125884000 -26.966244 -109.09846 -0.13545565 -25.460106 -0.1324608 -25.446182 -28.146006 -106.26556
126883000 -26.940327 -109.46384 -0.13488311 -25.662025 -0.13311949 -25.650091 -28.108246 -106.35209
127882000 -26.884916 -109.86441 -0.13594493 -25.861553 -0.13364856 -25.847874 -28.063913 -106.57096
128881000 -26.858639 -110.18095 -0.13661592 -26.066872 -0.13437125 -26.047613 -28.018557 -106.76406
129880000 -26.801029 -110.5015 -0.13711068 -26.265501 -0.13407357 -26.246489 -27.973669 -106.71452
130879000 -26.735447 -110.67716 -0.13683711 -26.465387 -0.13472718 -26.448954 -27.885092 -106.83704
131878000 -26.673429 -110.9554 -0.13718387 -26.666864 -0.13541479 -26.648664 -27.812746 -106.76997
132877000 -26.600317 -111.11105 -0.13707328 -26.871893 -0.13549945 -26.851519 -27.731064 -106.81008
133876000 -26.518496 -111.31442 -0.1374083 -27.072237 -0.13588244 -27.052576 -27.624781 -106.73617
134875000 -26.416317 -111.48691 -0.13777517 -27.267576 -0.13576867 -27.253319 -27.512936 -106.69888
135874000 -26.332087 -111.58164 -0.13771932 -27.473343 -0.13642973 -27.449205 -27.405426 -106.74954
136873000 -26.217373 -111.59458 -0.13869791 -27.671938 -0.13575476 -27.654186 -27.318964 -106.76223
137872000 -26.136623 -111.74648 -0.13839619 -27.876266 -0.13614979 -27.859224 -27.203867 -106.76637
138871000 -26.068716 -111.99334 -0.13940781 -28.075861 -0.13670835 -28.05888 -27.104418 -106.99287
139870000 -25.968763 -112.30712 -0.13998175 -28.275204 -0.1380886 -28.260529 -27.018936 -107.22871
140869000 -25.878546 -112.82762 -0.14168423 -28.468168 -0.13907583 -28.447865 -26.913965 -107.42294
141868000 -25.793205 -113.33797 -0.1425578 -28.661852 -0.1397588 -28.649174 -26.844814 -107.79993
142867000 -25.72094 -113.66689 -0.14100899 -28.858942 -0.139028 -28.843565 -26.769695 -108.0423
143866000 -25.653818 -114.18087 -0.1426779 -29.05892 -0.14017077 -29.04122 -26.698938 -108.61875
144865000 -25.598877 -114.73551 -0.14372584 -29.255047 -0.14142482 -29.241827 -26.647486 -109.01195
145864000 -25.552664 -115.09369 -0.14466886 -29.45846 -0.14267656 -29.447268 -26.611223 -109.29073
146863000 -25.511539 -115.50357 -0.14562681 -29.655449 -0.14213945 -29.642403 -26.566364 -109.63717
147862000 -25.464664 -115.9263 -0.14622299 -29.853176 -0.14405364 -29.843693 -26.541531 -109.98418
148861000 -25.441059 -116.45194 -0.14629582 -30.05302 -0.14471008 -30.035378 -26.518963 -110.25735
149860000 -25.428089 -116.62353 -0.14720404 -30.251465 -0.14424255 -30.23984 -26.491688 -110.45697
150859000 -25.415728 -117.05956 -0.14788105 -30.447779 -0.14485995 -30.436375 -26.48815 -110.76331
151858000 -25.399569 -117.38342 -0.14740033 -30.650826 -0.14617427 -30.636425 -26.480656 -111.04787
152857000 -25.378574 -117.68214 -0.14892891 -30.848379 -0.14563082 -30.838772 -26.46644 -111.18381
153856000 -25.371668 -117.95308 -0.14847298 -31.049101 -0.1451699 -31.031954 -26.492949 -111.45669
154855000 -25.366428 -118.14398 -0.14883354 -31.24345 -0.14602435 -31.234234 -26.491877 -111.72642
155854000 -25.377487 -118.36745 -0.14854504 -31.444965 -0.14647681 -31.432991 -26.483316 -111.98503
156853000 -25.371494 -119.06405 -0.14686128 -31.633413 -0.14488029 -31.62549 -26.488047 -112.28903
157852000 -25.375214 -119.28558 -0.14777929 -31.83003 -0.14737488 -31.822607 -26.480158 -112.62205
158851000 -25.371378 -119.55742 -0.14888337 -32.029827 -0.14749487 -32.020077 -26.466372 -112.90509
159850000 -25.357285 -119.68076 -0.149424 -32.229176 -0.14780821 -32.221382 -26.471605 -113.03831
160849000 -25.333641 -119.81319 -0.14989986 -32.429195 -0.14906366 -32.423111 -26.444231 -113.39018
161848000 -25.312895 -119.94148 -0.1501871 -32.633148 -0.14866853 -32.62373 -26.403246 -113.4789
162847000 -25.271305 -120.15505 -0.15075524 -32.829887 -0.14974391 -32.82703 -26.375801 -113.7632
163846000 -25.2274 -120.39938 -0.15056978 -33.028854 -0.14998318 -33.020748 -26.291132 -113.804
164845000 -25.165823 -120.43855 -0.15088683 -33.227657 -0.14990307 -33.220165 -26.222317 -113.91827
165844000 -25.10783 -120.58773 -0.15050225 -33.427746 -0.1500258 -33.419765 -26.141357 -114.15909
166843000 -25.04883 -120.6796 -0.15036853 -33.625275 -0.14998667 -33.61808 -26.06811 -114.33826
167842000 -24.984938 -120.87449 -0.15128672 -33.823528 -0.15039827 -33.816723 -25.976202 -114.30504
168841000 -24.908569 -121.09418 -0.15184294 -34.018684 -0.15076327 -34.017807 -25.899246 -114.44154
169840000 -24.844669 -121.38583 -0.15229385 -34.216393 -0.15151858 -34.214931 -25.809023 -114.67772
170839000 -24.785749 -121.70031 -0.15293036 -34.416561 -0.15148105 -34.412132 -25.720278 -114.92789
171838000 -24.733858 -122.1431 -0.15271184 -34.618347 -0.15216891 -34.614658 -25.659119 -115.22171
172837000 -24.663481 -122.56632 -0.15489975 -34.812393 -0.15372117 -34.807266 -25.589365 -115.49545
173836000 -24.600485 -123.00389 -0.1559823 -35.012329 -0.15455075 -35.006599 -25.547356 -115.77319
174835000 -24.54427 -123.44693 -0.15619214 -35.204937 -0.15557876 -35.205189 -25.499838 -116.15917
175834000 -24.498833 -123.90659 -0.157169 -35.407013 -0.15629518 -35.400932 -25.438927 -116.4802
176833000 -24.445881 -124.26271 -0.15793991 -35.602947 -0.15729059 -35.599346 -25.383327 -116.69372
177832000 -24.404203 -124.76879 -0.1588044 -35.798058 -0.15762477 -35.799633 -25.363104 -116.91023
178831000 -24.362274 -125.17007 -0.15853295 -35.996948 -0.15785615 -35.993671 -25.326466 -117.15358
179830000 -24.330711 -125.62238 -0.15992096 -36.193565 -0.1585802 -36.194653 -25.297533 -117.31145
180829000 -24.29357 -125.86006 -0.16040979 -36.390316 -0.15981998 -36.388638 -25.270151 -117.51887
181828000 -24.266012 -126.23039 -0.16065314 -36.592075 -0.15982428 -36.584702 -25.255743 -117.66946
182827000 -24.241819 -126.61454 -0.16032921 -36.783039 -0.15982535 -36.782707 -25.240011 -117.7606
183826000 -24.201845 -126.9669 -0.16131344 -36.979141 -0.16024218 -36.978359 -25.231779 -117.89149
184825000 -24.209194 -127.26733 -0.16168205 -37.176041 -0.16046566 -37.176056 -25.212723 -118.03644
185824000 -24.174408 -127.64317 -0.16119605 -37.371796 -0.16114634 -37.375706 -25.208492 -118.09911
186823000 -24.161591 -127.9752 -0.16234897 -37.573463 -0.16093037 -37.573826 -25.201042 -118.07411
187822000 -24.142662 -128.31004 -0.1627983 -37.767815 -0.1614733 -37.766659 -25.169777 -118.15643
188821000 -24.120464 -128.56856 -0.1625489 -37.962399 -0.16202518 -37.967594 -25.149977 -118.29101
189820000 -24.10148 -128.84251 -0.16299878 -38.165462 -0.16222697 -38.163876 -25.141678 -118.42198
190819000 -24.07004 -129.10878 -0.16426724 -38.365044 -0.16348581 -38.363483 -25.103783 -118.41897
191818000 -24.037085 -129.30824 -0.16541883 -38.55761 -0.16477001 -38.561543 -25.069422 -118.30048
192817000 -23.967892 -129.61034 -0.16590263 -38.74675 -0.16540082 -38.747463 -24.994627 -118.39211
193816000 -23.927929 -129.97884 -0.16497247 -38.938007 -0.16412342 -38.937309 -24.931189 -118.704
194815000 -23.868622 -130.4586 -0.16537742 -39.129284 -0.16460735 -39.13752 -24.866108 -118.83923
195814000 -23.816511 -130.65166 -0.16549413 -39.33186 -0.16440032 -39.33667 -24.805996 -118.99136
196813000 -23.761158 -131.05969 -0.1652263 -39.530235 -0.1641304 -39.527397 -24.728689 -119.20314
197812000 -23.705095 -131.30617 -0.16621435 -39.723038 -0.1651381 -39.725376 -24.650892 -119.32943
198811000 -23.651434 -131.4959 -0.1665059 -39.920673 -0.16457562 -39.927956 -24.578407 -119.55029
199810000 -23.582479 -131.90741 -0.1658362 -40.114655 -0.16483696 -40.118382 -24.497061 -119.69186
200809000 -23.528696 -132.22963 -0.16685505 -40.315723 -0.16511981 -40.316238 -24.414923 -119.91877
201808000 -23.468662 -132.47701 -0.16768956 -40.518665 -0.16619982 -40.521362 -24.343439 -120.02567
202807000 -23.412086 -132.87418 -0.1679554 -40.715153 -0.16662802 -40.716705 -24.28499 -120.27512
203806000 -23.361834 -133.31635 -0.17016177 -40.915665 -0.1674372 -40.921135 -24.219767 -120.50429
204805000 -23.31012 -133.72865 -0.17078017 -41.115105 -0.16857214 -41.118702 -24.156122 -120.72598
