!Keysight Technologies,E5080B,MY59205177,A.15.75.32
!Date: Friday, February 23, 2024 03:36:44
!Correction: S11(Cdelta 2-Port  ) 
!S21(Cdelta 2-Port  ) 
!S12(Cdelta 2-Port  ) 
!S22(Cdelta 2-Port  ) 
!S2P File: Measurements: S11, S21, S12, S22:
# Hz S  dB   R 50
10000000 -46.060535 -2.7911851 -0.015203524 -2.0444045 -0.01834213 -2.0956779 -45.896397 -157.67035
10999000 -45.285946 -4.7185221 -0.015736859 -2.261379 -0.017780142 -2.3176503 -45.819435 -151.45473
11998000 -44.356945 -7.9428611 -0.016551407 -2.4879386 -0.017949615 -2.5301669 -45.990124 -147.30327
12997000 -43.631596 -13.454437 -0.015662817 -2.6684 -0.017201336 -2.6987238 -45.665176 -141.50534
13996000 -43.269646 -17.182112 -0.015135465 -2.8486028 -0.017467208 -2.8691976 -45.418751 -136.13878
14995000 -42.902908 -21.644157 -0.017032413 -3.054935 -0.017402234 -3.0808797 -45.106052 -132.71696
15994000 -42.74218 -26.193773 -0.018370984 -3.2786064 -0.019543288 -3.298595 -44.958248 -129.42899
16993000 -42.626846 -30.774521 -0.017807955 -3.4753387 -0.019181086 -3.4813087 -44.131168 -129.31107
17992000 -42.695362 -35.679924 -0.018419078 -3.6720691 -0.019424979 -3.6748099 -43.522144 -129.35841
18991000 -42.982811 -41.278858 -0.019048745 -3.8833847 -0.020558814 -3.8775573 -42.927593 -128.07468
19990000 -42.761063 -46.852959 -0.02143774 -4.0927181 -0.022528647 -4.0859714 -42.28701 -128.80034
20989000 -42.539181 -50.268707 -0.024031335 -4.2984147 -0.024590489 -4.2842641 -41.761944 -128.07086
21988000 -42.399952 -55.832607 -0.024123741 -4.4915552 -0.02544263 -4.4811845 -41.472145 -127.78604
22987000 -42.015335 -60.538918 -0.025214802 -4.6895838 -0.027184144 -4.6852508 -41.235432 -126.84022
23986000 -41.95694 -64.400963 -0.024708157 -4.8835082 -0.024804745 -4.8866525 -41.066795 -126.99165
24985000 -41.571613 -67.256531 -0.026155612 -5.0939012 -0.025137214 -5.0915852 -40.878338 -124.39474
25984000 -41.2309 -69.405357 -0.027287038 -5.3030214 -0.026224364 -5.3046427 -40.56131 -122.8528
26983000 -40.878174 -71.35379 -0.027943525 -5.5019794 -0.027114855 -5.5183043 -40.464809 -121.97595
27982000 -40.765556 -72.353477 -0.02957762 -5.7011714 -0.027944306 -5.7330976 -40.175949 -120.59371
28981000 -40.711231 -73.835388 -0.026799165 -5.8958139 -0.028677762 -5.922576 -39.949379 -119.88692
29980000 -40.304489 -75.032906 -0.02678588 -6.0940385 -0.029241422 -6.0999227 -39.693497 -119.32476
30979000 -39.898724 -73.913986 -0.024000362 -6.447011 -0.023903012 -6.4396272 -39.186874 -119.40087
31978000 -39.696964 -74.91433 -0.024310643 -6.6416607 -0.024984645 -6.6340632 -38.937115 -118.70041
32977000 -39.519356 -76.638374 -0.024093807 -6.8521442 -0.024953663 -6.8493452 -38.700184 -118.75997
33976000 -39.351238 -77.621277 -0.024184654 -7.0538073 -0.02635536 -7.04775 -38.398453 -118.17998
34975000 -39.033104 -78.461174 -0.024732631 -7.2537718 -0.026336348 -7.2536507 -38.185612 -117.7997
35974000 -38.843399 -79.050133 -0.023224233 -7.4487805 -0.026182955 -7.4516649 -37.922874 -116.93439
36973000 -38.619411 -79.656281 -0.024204956 -7.6481719 -0.027530603 -7.6486788 -37.65387 -116.07346
37972000 -38.443748 -79.415794 -0.023590157 -7.8565311 -0.027057812 -7.8650398 -37.423492 -115.29033
38971000 -38.117466 -78.827744 -0.025073947 -8.0586596 -0.027088808 -8.0716715 -37.270252 -113.72752
39970000 -37.783783 -79.254059 -0.023365811 -8.2573423 -0.025935559 -8.2746887 -37.00312 -113.0516
40969000 -37.522049 -78.769104 -0.023599265 -8.4492807 -0.026228009 -8.4692822 -36.769459 -111.63977
41968000 -37.163845 -78.717468 -0.023786664 -8.6574316 -0.026484277 -8.6733789 -36.593414 -110.48678
42967000 -36.903851 -78.832504 -0.02379187 -8.8630648 -0.02662049 -8.888485 -36.38258 -108.66665
43966000 -36.616524 -79.471191 -0.024699306 -9.0687647 -0.028449506 -9.0892801 -36.138897 -107.848
44965000 -36.375614 -80.342178 -0.024757363 -9.2667122 -0.028390097 -9.2926102 -35.923622 -107.62568
45964000 -36.145283 -81.253761 -0.02672259 -9.468854 -0.029849464 -9.4896975 -35.678665 -107.31481
46963000 -35.94553 -83.188148 -0.026555119 -9.6635408 -0.030062417 -9.6844177 -35.492912 -107.58298
47962000 -35.798588 -84.647583 -0.028527673 -9.8659477 -0.030338721 -9.8824701 -35.281338 -107.69199
48961000 -35.551895 -85.956329 -0.029974576 -10.057969 -0.032957986 -10.082867 -35.071548 -107.82208
49960000 -35.345009 -87.241661 -0.031299151 -10.262248 -0.033410553 -10.28512 -34.938564 -107.9813
50959000 -35.118572 -88.543312 -0.032182865 -10.477396 -0.03500678 -10.487839 -34.755604 -108.09147
51958000 -34.896851 -89.556862 -0.033716813 -10.676627 -0.036088049 -10.68831 -34.583755 -108.57429
52957000 -34.695274 -90.655609 -0.035669655 -10.875774 -0.03686909 -10.879907 -34.425724 -108.34122
53956000 -34.529163 -91.391106 -0.036548775 -11.076365 -0.038245652 -11.079434 -34.288216 -108.25479
54955000 -34.353249 -91.820656 -0.037753936 -11.27891 -0.03882936 -11.276747 -34.137268 -108.24729
55954000 -34.177963 -92.620422 -0.037739314 -11.473981 -0.03895238 -11.47505 -34.027634 -107.92309
56953000 -34.065781 -92.653488 -0.038101237 -11.677467 -0.038057107 -11.669384 -33.961338 -108.2295
57952000 -33.900627 -93.280022 -0.039202347 -11.876553 -0.038774773 -11.864178 -33.854958 -108.23695
58951000 -33.775169 -93.618622 -0.040188774 -12.083704 -0.040889289 -12.06154 -33.682796 -108.25034
59950000 -33.642994 -93.977638 -0.040223263 -12.280541 -0.04053941 -12.257867 -33.636147 -108.54645
60949000 -33.538429 -94.511276 -0.040670317 -12.481787 -0.041324388 -12.460212 -33.534737 -108.85236
61948000 -33.459301 -94.807144 -0.041771814 -12.679252 -0.041321773 -12.664091 -33.452045 -108.93304
62947000 -33.376476 -95.086693 -0.042069778 -12.893815 -0.041537642 -12.875751 -33.300888 -109.22106
63946000 -33.291981 -95.798927 -0.04261845 -13.095625 -0.042548914 -13.072692 -33.189148 -109.27263
64945000 -33.180553 -95.94001 -0.043567739 -13.294373 -0.043297913 -13.274666 -33.086098 -109.78915
65944000 -33.090763 -96.268661 -0.044525869 -13.490856 -0.043698739 -13.476914 -32.985928 -110.20946
66943000 -32.932343 -96.647499 -0.042397298 -13.695403 -0.042392071 -13.678764 -32.875816 -110.54961
67942000 -32.881851 -96.57132 -0.04371338 -13.88975 -0.043434653 -13.880357 -32.762131 -110.7893
68941000 -32.77219 -96.700348 -0.044094633 -14.082937 -0.04245716 -14.077515 -32.649441 -110.74944
69940000 -32.670918 -96.644325 -0.043873411 -14.283325 -0.043658473 -14.274907 -32.502876 -110.98018
70939000 -32.569023 -96.584808 -0.044382032 -14.478699 -0.043082219 -14.474575 -32.376572 -110.91293
71938000 -32.436432 -96.230278 -0.043594148 -14.677558 -0.043685663 -14.667281 -32.243446 -110.80251
72937000 -32.274715 -95.968254 -0.044224862 -14.877916 -0.043099735 -14.869957 -32.112396 -110.46603
73936000 -32.128036 -95.624466 -0.043251898 -15.075621 -0.042929802 -15.060843 -31.990568 -110.26312
74935000 -32.008289 -95.850128 -0.04266838 -15.270975 -0.041857544 -15.274183 -31.851196 -109.97118
75934000 -31.886036 -96.071014 -0.042654 -15.476652 -0.041578412 -15.474872 -31.748674 -109.87082
76933000 -31.751745 -96.466644 -0.044174913 -15.674345 -0.043562509 -15.667527 -31.585445 -110.21374
77932000 -31.654404 -97.163078 -0.045371994 -15.869277 -0.044960551 -15.865613 -31.483755 -110.15078
78931000 -31.58511 -97.918045 -0.043654289 -16.071886 -0.043731946 -16.066757 -31.373384 -110.03061
79930000 -31.463129 -98.787613 -0.045925267 -16.263918 -0.046199966 -16.263136 -31.275898 -110.34653
80929000 -31.357794 -99.593781 -0.047620319 -16.459841 -0.047743324 -16.462542 -31.188911 -110.63528
81928000 -31.256313 -100.26334 -0.048101634 -16.655172 -0.048224658 -16.649792 -31.048935 -110.57486
82927000 -31.163591 -101.04198 -0.049188789 -16.853731 -0.049361326 -16.849827 -30.959366 -110.87334
83926000 -31.042126 -101.70449 -0.051241852 -17.050436 -0.050138209 -17.051153 -30.835583 -110.99349
84925000 -30.936605 -102.15278 -0.05139849 -17.248882 -0.050521336 -17.246239 -30.738796 -111.05209
85924000 -30.851301 -102.52222 -0.052586295 -17.449266 -0.051803209 -17.445581 -30.656487 -111.04246
86923000 -30.731623 -103.027 -0.052746911 -17.645069 -0.052136965 -17.644566 -30.553007 -110.92141
87922000 -30.61931 -103.36119 -0.052691102 -17.853651 -0.051967464 -17.845531 -30.459438 -110.96265
88921000 -30.553877 -103.67802 -0.054046478 -18.047857 -0.053245831 -18.050894 -30.372627 -110.94354
89920000 -30.452986 -104.17563 -0.054679759 -18.252234 -0.053327069 -18.245201 -30.322104 -111.03471
90919000 -30.351006 -104.39696 -0.055046245 -18.45014 -0.053544581 -18.441641 -30.234137 -111.24402
91918000 -30.256979 -104.82016 -0.055252049 -18.647604 -0.055303697 -18.64138 -30.169003 -111.23525
92917000 -30.152866 -105.07362 -0.056801774 -18.846218 -0.055792686 -18.841118 -30.097084 -111.32588
93916000 -30.075089 -105.47105 -0.056766365 -19.039389 -0.055529699 -19.038237 -30.013781 -111.92155
94915000 -29.998434 -106.05982 -0.057823688 -19.244244 -0.05705959 -19.235685 -29.946692 -111.83594
95914000 -29.919937 -106.25558 -0.059045002 -19.436131 -0.058000762 -19.434036 -29.863602 -112.07448
96913000 -29.834591 -106.44476 -0.05973649 -19.636354 -0.058427349 -19.635483 -29.801012 -112.38699
97912000 -29.763889 -106.95386 -0.061343472 -19.832821 -0.05894975 -19.836145 -29.714634 -112.64807
98911000 -29.658367 -107.0812 -0.061306193 -20.036705 -0.05988976 -20.033695 -29.675493 -112.87585
99910000 -29.587345 -107.21638 -0.062334944 -20.234978 -0.060477171 -20.23304 -29.56572 -113.19572
100909000 -29.491898 -107.51524 -0.061629392 -20.441254 -0.059528112 -20.435549 -29.48254 -113.33955
101908000 -29.40992 -107.72673 -0.062794782 -20.643459 -0.061029483 -20.642241 -29.378122 -113.1655
102907000 -29.272814 -107.68773 -0.063510507 -20.839725 -0.060976978 -20.84207 -29.304083 -113.14335
103906000 -29.182068 -107.73927 -0.063827567 -21.049854 -0.060558282 -21.041773 -29.160887 -113.09203
104905000 -29.03681 -107.61277 -0.064521916 -21.246649 -0.061721027 -21.247562 -29.030424 -112.78243
105904000 -28.895542 -107.72147 -0.06464278 -21.454275 -0.061465558 -21.443548 -28.921787 -112.6691
106903000 -28.780983 -107.78006 -0.064181432 -21.658558 -0.06165066 -21.651533 -28.7911 -112.60217
107902000 -28.618595 -108.12174 -0.065209284 -21.856241 -0.062578388 -21.844643 -28.659395 -112.51947
108901000 -28.513893 -108.31173 -0.066005044 -22.058371 -0.063796043 -22.052395 -28.54125 -112.46082
109900000 -28.389437 -108.78937 -0.066843532 -22.259321 -0.065271303 -22.249939 -28.379385 -112.55848
110899000 -28.270309 -109.40079 -0.068243302 -22.455799 -0.065178283 -22.449551 -28.257597 -112.83132
111898000 -28.173494 -110.07097 -0.069367342 -22.658094 -0.066725507 -22.6534 -28.143005 -112.93827
112897000 -28.058191 -110.58923 -0.071339443 -22.859365 -0.067359589 -22.845724 -28.008154 -113.06618
113896000 -27.948071 -111.1413 -0.071865767 -23.054926 -0.068875507 -23.044397 -27.898142 -113.24529
114895000 -27.844534 -111.83017 -0.072924137 -23.254002 -0.070311449 -23.242945 -27.788036 -113.26223
115894000 -27.722319 -112.15025 -0.074119158 -23.456493 -0.071819976 -23.444801 -27.715084 -113.4914
116893000 -27.640841 -112.63806 -0.075142786 -23.654606 -0.072677225 -23.636055 -27.596073 -113.5595
117892000 -27.563812 -113.11587 -0.074990295 -23.850201 -0.072826475 -23.839539 -27.515881 -113.72306
118891000 -27.50342 -113.53785 -0.074858353 -24.048254 -0.072767511 -24.036255 -27.426004 -113.8607
119890000 -27.416571 -113.92688 -0.076111071 -24.253099 -0.073708668 -24.241528 -27.412861 -114.01554
120889000 -27.368656 -114.41925 -0.077323578 -24.45042 -0.073267683 -24.4356 -27.339783 -113.94296
121888000 -27.324785 -114.7469 -0.077800289 -24.650003 -0.073658645 -24.639095 -27.284109 -114.19875
122887000 -27.292562 -114.94109 -0.078493193 -24.853558 -0.075681165 -24.839399 -27.239412 -114.2388
123886000 -27.234079 -115.37206 -0.078658454 -25.055676 -0.075587131 -25.036562 -27.214848 -114.34566
124885000 -27.194847 -115.86516 -0.079195164 -25.253717 -0.076086834 -25.243401 -27.187899 -114.39144
125884000 -27.153162 -116.07325 -0.07988064 -25.451494 -0.075814456 -25.436674 -27.15974 -114.57906
126883000 -27.131645 -116.40746 -0.080060989 -25.658226 -0.07732331 -25.64082 -27.123577 -114.58738
127882000 -27.075993 -116.72752 -0.080878988 -25.853598 -0.077844568 -25.839361 -27.08494 -114.73637
128881000 -27.055922 -117.03596 -0.08093226 -26.059809 -0.077376276 -26.041653 -27.047581 -114.79872
129880000 -26.993624 -117.36948 -0.081438124 -26.258413 -0.077574179 -26.23715 -27.008026 -114.76266
130879000 -26.93891 -117.51434 -0.080698602 -26.458815 -0.077965535 -26.443186 -26.932362 -114.7477
131878000 -26.869762 -117.73412 -0.081363745 -26.660889 -0.078370623 -26.644156 -26.872786 -114.6588
132877000 -26.805759 -117.77876 -0.081078894 -26.864279 -0.078265727 -26.844263 -26.797527 -114.62428
133876000 -26.72065 -118.01388 -0.081455529 -27.066086 -0.077850364 -27.044281 -26.714251 -114.52572
134875000 -26.627499 -118.09591 -0.081754647 -27.268282 -0.078817405 -27.245621 -26.614313 -114.34701
135874000 -26.546482 -118.12074 -0.08185488 -27.464132 -0.078934185 -27.448374 -26.513994 -114.2952
136873000 -26.434563 -118.08554 -0.082495399 -27.666948 -0.078846663 -27.649096 -26.430136 -114.26416
137872000 -26.359306 -118.17234 -0.082917273 -27.869574 -0.079408176 -27.854101 -26.331413 -114.20497
138871000 -26.286739 -118.35353 -0.082790628 -28.062181 -0.080020644 -28.052881 -26.231276 -114.33346
139870000 -26.185341 -118.70372 -0.082920179 -28.268385 -0.080353417 -28.249189 -26.158752 -114.5172
140869000 -26.109098 -119.21922 -0.084128246 -28.468651 -0.081424937 -28.445299 -26.058502 -114.74697
141868000 -26.030533 -119.61812 -0.085229211 -28.663483 -0.082517035 -28.648836 -26.007986 -114.99525
142867000 -25.947262 -119.80846 -0.08381208 -28.862017 -0.082251899 -28.842428 -25.929434 -115.08164
143866000 -25.880985 -120.28732 -0.085655838 -29.059454 -0.083309636 -29.046244 -25.854532 -115.57154
144865000 -25.821466 -120.81269 -0.087194532 -29.258413 -0.08467856 -29.243832 -25.801367 -115.84798
145864000 -25.765299 -121.09888 -0.087669954 -29.459524 -0.086026005 -29.446066 -25.768606 -116.10156
146863000 -25.719309 -121.50457 -0.08880537 -29.659557 -0.086328603 -29.647758 -25.712616 -116.38899
147862000 -25.684483 -121.8338 -0.089805506 -29.859173 -0.086263642 -29.84124 -25.679031 -116.71529
148861000 -25.643093 -122.26757 -0.090618737 -30.057854 -0.088234454 -30.040167 -25.658424 -116.85947
149860000 -25.617287 -122.42961 -0.091718175 -30.248346 -0.088711046 -30.237165 -25.608902 -116.95647
150859000 -25.590197 -122.92899 -0.091401719 -30.444834 -0.088479877 -30.431246 -25.594696 -117.29745
151858000 -25.574175 -123.27126 -0.090450108 -30.642084 -0.088321365 -30.629366 -25.579571 -117.66447
152857000 -25.561966 -123.59757 -0.090972409 -30.84952 -0.088898368 -30.831017 -25.560295 -117.86774
153856000 -25.56036 -123.78925 -0.09037663 -31.044098 -0.087683693 -31.029928 -25.578115 -118.16871
154855000 -25.555912 -123.95672 -0.0913774 -31.241035 -0.088381603 -31.23424 -25.569756 -118.39896
155854000 -25.572659 -124.21489 -0.091153748 -31.445021 -0.089210153 -31.42774 -25.557291 -118.69413
156853000 -25.558048 -124.92541 -0.089099176 -31.632885 -0.088040292 -31.62517 -25.557552 -118.99658
157852000 -25.563274 -125.0954 -0.090536803 -31.833012 -0.089187957 -31.827757 -25.539797 -119.34125
158851000 -25.561039 -125.29713 -0.09101788 -32.03141 -0.089711167 -32.02132 -25.528124 -119.61793
159850000 -25.550333 -125.4258 -0.091899283 -32.231701 -0.089638233 -32.22139 -25.530018 -119.8157
160849000 -25.534006 -125.52605 -0.091435559 -32.427372 -0.090529926 -32.423836 -25.497601 -120.08745
161848000 -25.512344 -125.61894 -0.092490509 -32.632553 -0.090319015 -32.624702 -25.452087 -120.18035
162847000 -25.474737 -125.77311 -0.091848515 -32.830162 -0.090504028 -32.824928 -25.429174 -120.43346
163846000 -25.43466 -125.99323 -0.091876015 -33.032909 -0.090929322 -33.024055 -25.352175 -120.4538
164845000 -25.37421 -125.96864 -0.0929242 -33.229996 -0.090980865 -33.222073 -25.288303 -120.55827
165844000 -25.326302 -125.99017 -0.093013592 -33.428078 -0.091576993 -33.421227 -25.213844 -120.65927
166843000 -25.257908 -126.05133 -0.092944302 -33.63073 -0.091456704 -33.625061 -25.144787 -120.81909
167842000 -25.206398 -126.14514 -0.093415588 -33.828854 -0.091452211 -33.825558 -25.067841 -120.77117
168841000 -25.130951 -126.31622 -0.093931377 -34.02578 -0.0926698 -34.021183 -24.994148 -120.8358
169840000 -25.064201 -126.53848 -0.093147941 -34.222778 -0.09234111 -34.22221 -24.913788 -121.02187
170839000 -25.00493 -126.76535 -0.09466812 -34.41864 -0.093030252 -34.421104 -24.82819 -121.17955
171838000 -24.949028 -127.13577 -0.094774477 -34.625198 -0.094100937 -34.617733 -24.767761 -121.41813
172837000 -24.874826 -127.48078 -0.095903546 -34.816746 -0.095035881 -34.81591 -24.704447 -121.60049
173836000 -24.811354 -127.89291 -0.09733972 -35.020866 -0.095955156 -35.017361 -24.657328 -121.84377
174835000 -24.761618 -128.30203 -0.097231977 -35.214806 -0.096499555 -35.215508 -24.61533 -122.14653
175834000 -24.70825 -128.67297 -0.098558165 -35.414276 -0.098079428 -35.411854 -24.551998 -122.39259
176833000 -24.656796 -128.99477 -0.099916808 -35.612934 -0.098148271 -35.613186 -24.507698 -122.54384
177832000 -24.619762 -129.4183 -0.10030303 -35.812214 -0.098872758 -35.814262 -24.484932 -122.6606
178831000 -24.568855 -129.66391 -0.10218401 -36.007858 -0.1004633 -36.009293 -24.445274 -122.69041
179830000 -24.500353 -130.06406 -0.10338977 -36.196751 -0.1020788 -36.196743 -24.383877 -122.81658
180829000 -24.45413 -130.40802 -0.1020356 -36.385254 -0.10092269 -36.388741 -24.344093 -123.13076
181828000 -24.427212 -130.85349 -0.10148468 -36.588768 -0.1000829 -36.582809 -24.324381 -123.31349
182827000 -24.409603 -131.2316 -0.10150773 -36.782768 -0.10102814 -36.783318 -24.314285 -123.44093
183826000 -24.362711 -131.56528 -0.10204647 -36.979279 -0.10060556 -36.979988 -24.305069 -123.56796
184825000 -24.366171 -131.92529 -0.10251955 -37.176502 -0.10115612 -37.178661 -24.283569 -123.69776
185824000 -24.335285 -132.25916 -0.10153662 -37.372738 -0.10132993 -37.378727 -24.273989 -123.78382
186823000 -24.319841 -132.62227 -0.10159385 -37.576427 -0.101654 -37.574085 -24.274364 -123.79736
187822000 -24.298864 -132.96138 -0.10231997 -37.772228 -0.10165638 -37.770435 -24.238329 -123.87869
188821000 -24.268665 -133.21881 -0.10243924 -37.965515 -0.10221158 -37.971149 -24.215866 -123.99147
189820000 -24.253948 -133.55547 -0.10245514 -38.169075 -0.10211855 -38.165779 -24.198204 -124.18298
190819000 -24.223316 -133.83621 -0.10318539 -38.365791 -0.10210743 -38.363403 -24.160948 -124.24327
191818000 -24.191607 -134.09492 -0.10286094 -38.562698 -0.10273397 -38.561481 -24.135912 -124.25154
192817000 -24.147421 -134.39969 -0.10366972 -38.759693 -0.10335372 -38.758717 -24.086699 -124.34201
193816000 -24.111612 -134.63475 -0.10425831 -38.955994 -0.1025866 -38.953403 -24.04014 -124.49923
194815000 -24.050846 -135.02376 -0.10449961 -39.149994 -0.10350642 -39.151524 -23.972593 -124.5653
195814000 -23.999086 -135.21774 -0.10498435 -39.346199 -0.10368881 -39.349548 -23.916933 -124.62925
196813000 -23.943419 -135.55888 -0.1048019 -39.54314 -0.10359337 -39.543858 -23.838362 -124.80621
197812000 -23.886141 -135.73726 -0.10494828 -39.740707 -0.10428005 -39.73933 -23.767803 -124.89374
198811000 -23.833021 -135.92587 -0.10506921 -39.938786 -0.10351437 -39.93922 -23.69743 -125.04746
199810000 -23.763676 -136.2558 -0.10491699 -40.131828 -0.10419203 -40.132748 -23.622557 -125.15604
200809000 -23.704247 -136.49788 -0.10587709 -40.327785 -0.10436915 -40.332756 -23.542734 -125.32961
201808000 -23.649155 -136.71434 -0.10659278 -40.532158 -0.10538508 -40.53503 -23.480705 -125.38339
202807000 -23.590214 -137.04906 -0.10718655 -40.733494 -0.10553678 -40.733044 -23.422789 -125.59167
