!Keysight Technologies,E5080B,MY59205177,A.15.75.32
!Date: Friday, February 23, 2024 02:58:29
!Correction: S11(Cdelta 2-Port  ) 
!S21(Cdelta 2-Port  ) 
!S12(Cdelta 2-Port  ) 
!S22(Cdelta 2-Port  ) 
!S2P File: Measurements: S11, S21, S12, S22:
# Hz S  dB   R 50
10000000 -44.087658 -3.7252154 -0.027456881 -2.0428884 -0.031141672 -2.0965064 -48.143547 -150.00255
10999000 -43.415401 -5.618597 -0.028950593 -2.2576997 -0.030742787 -2.3117001 -47.919258 -142.27484
11998000 -42.646336 -7.6023974 -0.029230215 -2.4816151 -0.030409105 -2.5249791 -48.064281 -136.79353
12997000 -42.013111 -12.497995 -0.028362738 -2.6625206 -0.030252701 -2.6925285 -47.408802 -130.37062
13996000 -41.808468 -15.765465 -0.02804826 -2.8389771 -0.030185187 -2.862355 -46.907341 -124.44056
14995000 -41.487038 -19.873085 -0.030082226 -3.0466835 -0.029422548 -3.075418 -46.487667 -121.40667
15994000 -41.343441 -23.384945 -0.031664714 -3.2645228 -0.032417316 -3.2893384 -46.195271 -117.47408
16993000 -41.374222 -27.216301 -0.030756082 -3.4630306 -0.031892881 -3.4716601 -45.306557 -118.87532
17992000 -41.451233 -32.1908 -0.031525996 -3.6609592 -0.031775013 -3.6635783 -44.717899 -119.19495
18991000 -41.689522 -36.412975 -0.031976327 -3.8717866 -0.033101186 -3.8683412 -44.062748 -119.09982
19990000 -41.575008 -41.309788 -0.034492988 -4.0782013 -0.034830637 -4.07372 -43.26012 -120.27054
20989000 -41.427135 -44.269245 -0.036033235 -4.2856264 -0.036968559 -4.2732382 -42.712654 -120.41734
21988000 -41.354031 -48.880302 -0.036707494 -4.4793181 -0.037938811 -4.4676099 -42.455246 -119.77828
22987000 -41.157631 -53.52396 -0.037977982 -4.6813073 -0.038203083 -4.6689253 -42.156246 -119.35089
23986000 -41.199699 -56.865997 -0.037750017 -4.8742094 -0.038105156 -4.8731132 -42.029968 -119.46127
24985000 -40.855885 -59.835724 -0.03829997 -5.0786467 -0.038019761 -5.0749149 -41.753902 -117.10638
25984000 -40.61161 -61.745152 -0.039846793 -5.288476 -0.037820783 -5.2909093 -41.398304 -115.98763
26983000 -40.331429 -63.814972 -0.040776927 -5.4826465 -0.03949726 -5.5041661 -41.258072 -114.74062
27982000 -40.189564 -64.626106 -0.041804746 -5.6810179 -0.040901307 -5.7169271 -40.984207 -113.42037
28981000 -40.163982 -66.093674 -0.039490208 -5.8856668 -0.040936586 -5.9048319 -40.733772 -112.53067
29980000 -39.763241 -67.655342 -0.03889152 -6.0742168 -0.041684259 -6.0800753 -40.432098 -111.89379
30979000 -39.450825 -66.894173 -0.036758661 -6.4284992 -0.03589803 -6.4226193 -39.910343 -112.70686
31978000 -39.259872 -68.0513 -0.036287732 -6.6222138 -0.037104841 -6.6144118 -39.639698 -112.25025
32977000 -39.09573 -69.515907 -0.036275465 -6.8298531 -0.037265148 -6.8290625 -39.390167 -112.30982
33976000 -38.955223 -70.798561 -0.036527369 -7.0329633 -0.038351156 -7.026731 -39.080853 -111.90988
34975000 -38.688168 -71.765678 -0.037083693 -7.2293353 -0.038878724 -7.2313304 -38.830585 -111.82449
35974000 -38.49947 -72.485901 -0.03604994 -7.4237719 -0.038414095 -7.4275184 -38.540565 -110.96249
36973000 -38.284119 -73.180222 -0.036729161 -7.6247153 -0.039108574 -7.6303144 -38.230694 -110.16904
37972000 -38.122002 -73.281845 -0.036083873 -7.8326526 -0.038986333 -7.8434725 -38.010159 -109.55918
38971000 -37.790371 -73.067429 -0.037409533 -8.0349245 -0.039124507 -8.0467005 -37.797012 -108.08937
39970000 -37.459488 -73.551422 -0.035635464 -8.2317772 -0.037877709 -8.2478695 -37.521599 -107.66913
40969000 -37.194515 -73.471565 -0.035313413 -8.4195423 -0.037893374 -8.4418411 -37.246792 -106.37168
41968000 -36.846119 -73.61129 -0.035732295 -8.6274948 -0.038567398 -8.6429424 -37.049934 -105.22197
42967000 -36.609467 -73.965141 -0.035477828 -8.8412266 -0.038515687 -8.859828 -36.820019 -103.49211
43966000 -36.331238 -74.863426 -0.036769103 -9.0394926 -0.040173098 -9.0619173 -36.520752 -103.04447
44965000 -36.08955 -75.766693 -0.03780172 -9.2399769 -0.039815444 -9.262042 -36.302315 -102.89854
45964000 -35.876373 -76.967926 -0.038807943 -9.4440145 -0.041138582 -9.4625483 -36.064384 -102.68999
46963000 -35.69762 -78.886024 -0.039006185 -9.6319056 -0.041540254 -9.6576033 -35.894009 -103.05529
47962000 -35.548496 -80.367752 -0.040477745 -9.8388977 -0.043210063 -9.851366 -35.679588 -103.15286
48961000 -35.348125 -81.877579 -0.043023396 -10.033966 -0.044400603 -10.05445 -35.461842 -103.51495
49960000 -35.127594 -83.347458 -0.043620817 -10.231559 -0.046292063 -10.253435 -35.314545 -103.76038
50959000 -34.934227 -84.67099 -0.044418383 -10.445895 -0.046463959 -10.454294 -35.13562 -104.06752
51958000 -34.747787 -85.775154 -0.046782654 -10.644378 -0.048358414 -10.651648 -34.961376 -104.56538
52957000 -34.533607 -86.890686 -0.047745418 -10.845623 -0.04873798 -10.851139 -34.78989 -104.47688
53956000 -34.3853 -87.6325 -0.049269687 -11.041635 -0.050315756 -11.044656 -34.657822 -104.45657
54955000 -34.212097 -88.177238 -0.049721338 -11.247461 -0.050890092 -11.240919 -34.492477 -104.51995
55954000 -34.054764 -88.977913 -0.051054049 -11.447335 -0.050880924 -11.443953 -34.390305 -104.21996
56953000 -33.954914 -89.143867 -0.050362635 -11.644369 -0.049964335 -11.629785 -34.327137 -104.49768
57952000 -33.79604 -89.726021 -0.052270841 -11.845143 -0.051732477 -11.831329 -34.223793 -104.58416
58951000 -33.673008 -90.089142 -0.052838095 -12.047269 -0.052632932 -12.02476 -34.061817 -104.70695
59950000 -33.551025 -90.494461 -0.053822123 -12.245113 -0.05407295 -12.225646 -34.004696 -104.97997
60949000 -33.45031 -91.090477 -0.053780977 -12.447189 -0.052678261 -12.424639 -33.907448 -105.29182
61948000 -33.398235 -91.402306 -0.054731924 -12.644887 -0.05277285 -12.628399 -33.820953 -105.39474
62947000 -33.319073 -91.523506 -0.054003231 -12.85574 -0.053837851 -12.833045 -33.691933 -105.61778
63946000 -33.250751 -92.298553 -0.055099204 -13.056257 -0.054894719 -13.032181 -33.591713 -105.87833
64945000 -33.145836 -92.437073 -0.056087937 -13.255511 -0.055468347 -13.235683 -33.483658 -106.36826
65944000 -33.048386 -92.777885 -0.056969363 -13.453373 -0.055691998 -13.437498 -33.380798 -106.82291
66943000 -32.911221 -93.268265 -0.054488141 -13.654531 -0.053787265 -13.637042 -33.288303 -107.12008
67942000 -32.850613 -93.269951 -0.056770824 -13.852623 -0.055300549 -13.839106 -33.169842 -107.40705
68941000 -32.744633 -93.308174 -0.055684395 -14.044862 -0.055306055 -14.032403 -33.051609 -107.36488
69940000 -32.643326 -93.329941 -0.056270711 -14.244256 -0.056245014 -14.23272 -32.920731 -107.63685
70939000 -32.551834 -93.305901 -0.055701699 -14.437171 -0.055925101 -14.433125 -32.784683 -107.6485
71938000 -32.389534 -92.950089 -0.056181028 -14.636558 -0.055620681 -14.623884 -32.652824 -107.50298
72937000 -32.236191 -92.857201 -0.054672156 -14.833287 -0.055083998 -14.824019 -32.511093 -107.22765
73936000 -32.105331 -92.550835 -0.055276167 -15.030385 -0.055616222 -15.024178 -32.398746 -107.01685
74935000 -31.972919 -92.820786 -0.055311825 -15.226287 -0.053490333 -15.225946 -32.239002 -106.7392
75934000 -31.849373 -93.116295 -0.054713577 -15.438116 -0.053842042 -15.429873 -32.147587 -106.74463
76933000 -31.716076 -93.505417 -0.055544905 -15.626721 -0.055842504 -15.619621 -31.97666 -107.18372
77932000 -31.627039 -94.331726 -0.0572946 -15.825007 -0.056511451 -15.815756 -31.882156 -107.10867
78931000 -31.562475 -95.123161 -0.056176573 -16.026871 -0.056309786 -16.017502 -31.787462 -107.03735
79930000 -31.447784 -95.864914 -0.058689985 -16.21726 -0.058578998 -16.218975 -31.690027 -107.32869
80929000 -31.321938 -96.829132 -0.060548045 -16.40947 -0.059773494 -16.408693 -31.581778 -107.70535
81928000 -31.241524 -97.712883 -0.05971523 -16.603951 -0.060159307 -16.600588 -31.464947 -107.83421
82927000 -31.15448 -98.371193 -0.06168348 -16.801813 -0.061309341 -16.800014 -31.365416 -108.1135
83926000 -31.042732 -99.113823 -0.06319426 -17.000847 -0.062263254 -17.002357 -31.243017 -108.33119
84925000 -30.944107 -99.592857 -0.064314105 -17.196945 -0.06259992 -17.192165 -31.156595 -108.4196
85924000 -30.84462 -100.02137 -0.064963862 -17.396202 -0.064178802 -17.397593 -31.065229 -108.4629
86923000 -30.750725 -100.56421 -0.065256059 -17.595499 -0.064064786 -17.589933 -30.969301 -108.36777
87922000 -30.648935 -100.94777 -0.065447107 -17.799547 -0.063644476 -17.795685 -30.882927 -108.3909
88921000 -30.578026 -101.26511 -0.0655898 -17.998186 -0.065081581 -17.997492 -30.787142 -108.3968
89920000 -30.473778 -101.78014 -0.067085646 -18.199789 -0.06572856 -18.190203 -30.742393 -108.5815
90919000 -30.379936 -102.05386 -0.067063041 -18.393282 -0.066147499 -18.391171 -30.661907 -108.72088
91918000 -30.284784 -102.40129 -0.06823121 -18.596436 -0.06711667 -18.590179 -30.590786 -108.7771
92917000 -30.204252 -102.77233 -0.068550974 -18.790558 -0.067135863 -18.786455 -30.526562 -108.87105
93916000 -30.122143 -103.11128 -0.068760842 -18.986673 -0.067694545 -18.981579 -30.43856 -109.59112
94915000 -30.042028 -103.87592 -0.069687977 -19.189083 -0.068823956 -19.183979 -30.380407 -109.41261
95914000 -29.985159 -104.02512 -0.071259968 -19.381727 -0.0698466 -19.377594 -30.294424 -109.70958
96913000 -29.901091 -104.28998 -0.071858399 -19.579319 -0.070508242 -19.578825 -30.228621 -110.02909
97912000 -29.829773 -104.78692 -0.072937563 -19.777027 -0.071098402 -19.776396 -30.147692 -110.27884
98911000 -29.730284 -104.98734 -0.073837683 -19.977077 -0.072297402 -19.973288 -30.107174 -110.50432
99910000 -29.660019 -105.13421 -0.073927999 -20.17366 -0.072622731 -20.172148 -30.001551 -110.80009
100909000 -29.571484 -105.38441 -0.073820047 -20.384933 -0.071786813 -20.377926 -29.915396 -111.00786
101908000 -29.489902 -105.66862 -0.074674793 -20.585602 -0.073475137 -20.583555 -29.804026 -110.81608
102907000 -29.357939 -105.70187 -0.075051397 -20.782318 -0.07301601 -20.782175 -29.730427 -110.72841
103906000 -29.265961 -105.75835 -0.07526052 -20.990059 -0.073230296 -20.985565 -29.583309 -110.67754
104905000 -29.112736 -105.6875 -0.076111861 -21.183508 -0.073487513 -21.186819 -29.446503 -110.39397
105904000 -28.974785 -105.83452 -0.076614 -21.389132 -0.073256098 -21.383188 -29.340261 -110.27119
106903000 -28.862526 -105.91878 -0.076651148 -21.594179 -0.073901139 -21.587389 -29.216583 -110.12822
107902000 -28.697599 -106.2765 -0.076993674 -21.792713 -0.074370898 -21.782944 -29.08116 -110.12384
108901000 -28.594011 -106.57516 -0.077547304 -21.995281 -0.075784951 -21.985571 -28.938482 -110.07323
109900000 -28.460911 -107.02145 -0.078749664 -22.196775 -0.076617956 -22.187529 -28.794132 -110.18661
110899000 -28.346481 -107.65758 -0.080194935 -22.389914 -0.077210531 -22.384375 -28.666195 -110.48168
111898000 -28.258501 -108.32863 -0.081902362 -22.592325 -0.07830473 -22.586199 -28.543772 -110.6009
112897000 -28.136139 -108.9068 -0.083125718 -22.792717 -0.078925744 -22.779253 -28.41448 -110.78555
113896000 -28.023968 -109.51745 -0.084095255 -22.990295 -0.080876611 -22.981375 -28.301895 -110.93297
114895000 -27.933807 -110.12568 -0.085384175 -23.187386 -0.082103901 -23.175858 -28.192404 -111.0184
115894000 -27.793161 -110.51286 -0.086305894 -23.389853 -0.083612047 -23.378345 -28.123966 -111.22218
116893000 -27.71365 -111.09735 -0.086822681 -23.585779 -0.084611252 -23.566038 -27.992508 -111.34882
117892000 -27.638176 -111.57864 -0.086195782 -23.780277 -0.084905043 -23.768129 -27.923838 -111.58558
118891000 -27.579861 -111.99568 -0.087489814 -23.984026 -0.085253499 -23.972404 -27.830561 -111.7471
119890000 -27.485079 -112.38732 -0.088414885 -24.180422 -0.086359493 -24.164928 -27.812565 -111.86601
120889000 -27.439049 -112.85359 -0.089384548 -24.382668 -0.085885271 -24.366928 -27.734692 -111.82714
121888000 -27.39152 -113.16236 -0.089693196 -24.575527 -0.086859919 -24.56621 -27.675112 -112.13487
122887000 -27.350506 -113.39741 -0.090062916 -24.77927 -0.087704554 -24.765997 -27.631153 -112.19012
123886000 -27.297997 -113.81849 -0.090526231 -24.986824 -0.087325796 -24.963156 -27.616777 -112.34267
124885000 -27.260607 -114.37645 -0.091669261 -25.180899 -0.087958403 -25.166656 -27.5821 -112.41882
125884000 -27.207403 -114.46465 -0.091527559 -25.381586 -0.08772067 -25.367739 -27.557209 -112.5909
126883000 -27.18429 -114.90717 -0.092215776 -25.583117 -0.088972352 -25.565514 -27.513472 -112.63114
127882000 -27.139601 -115.19226 -0.092559792 -25.782841 -0.089034446 -25.766197 -27.472456 -112.80724
128881000 -27.111217 -115.49982 -0.092584118 -25.981361 -0.089484438 -25.965059 -27.422525 -112.92052
129880000 -27.04842 -115.856 -0.093484357 -26.183949 -0.089305803 -26.165936 -27.385023 -112.908
130879000 -26.985176 -116.02262 -0.093131803 -26.382597 -0.090050489 -26.367577 -27.309443 -113.01421
131878000 -26.920624 -116.24837 -0.093207709 -26.587769 -0.090301834 -26.570301 -27.247189 -112.86804
132877000 -26.854401 -116.30179 -0.092888497 -26.785732 -0.091014177 -26.770443 -27.158195 -112.88119
133876000 -26.770317 -116.4803 -0.094131358 -26.989601 -0.090084054 -26.972029 -27.069729 -112.78191
134875000 -26.669962 -116.58361 -0.093110383 -27.186518 -0.091184154 -27.164608 -26.958456 -112.64256
135874000 -26.589388 -116.63139 -0.09320242 -27.389286 -0.091772377 -27.37215 -26.866119 -112.62695
136873000 -26.475492 -116.54989 -0.093406864 -27.589289 -0.090522528 -27.572115 -26.779881 -112.64162
137872000 -26.398132 -116.69761 -0.093701251 -27.79073 -0.090846851 -27.775789 -26.671427 -112.57377
138871000 -26.326036 -116.89639 -0.094698809 -27.988432 -0.0914924 -27.973347 -26.574203 -112.74899
139870000 -26.22578 -117.13068 -0.094710715 -28.188822 -0.092394792 -28.173052 -26.494665 -112.90216
140869000 -26.137686 -117.59899 -0.096875943 -28.386148 -0.094132148 -28.364729 -26.394018 -113.0307
141868000 -26.044867 -118.12881 -0.097023122 -28.579062 -0.094838239 -28.560217 -26.317995 -113.33229
142867000 -25.964188 -118.35795 -0.095686018 -28.774662 -0.093765259 -28.761917 -26.244587 -113.55347
143866000 -25.89687 -118.86705 -0.097867616 -28.971279 -0.095099121 -28.955105 -26.168764 -114.03672
144865000 -25.83847 -119.39197 -0.099155597 -29.168427 -0.096501149 -29.154373 -26.112421 -114.36536
145864000 -25.786289 -119.65189 -0.098948233 -29.369478 -0.097745299 -29.3599 -26.077019 -114.62956
146863000 -25.737709 -120.08305 -0.099994689 -29.571049 -0.097467586 -29.556723 -26.026751 -114.95116
147862000 -25.697952 -120.45364 -0.10037562 -29.765896 -0.097885355 -29.756096 -25.995651 -115.31425
148861000 -25.668116 -120.97775 -0.10100244 -29.963898 -0.098238826 -29.950178 -25.972742 -115.50713
149860000 -25.654186 -121.15292 -0.10199612 -30.162485 -0.099005707 -30.154814 -25.934975 -115.66821
150859000 -25.636747 -121.52938 -0.10231123 -30.358931 -0.098328322 -30.351984 -25.930195 -115.94227
151858000 -25.618332 -121.86633 -0.10209417 -30.564154 -0.09989509 -30.545723 -25.923298 -116.25615
152857000 -25.602867 -122.16037 -0.10252564 -30.759491 -0.099076152 -30.748236 -25.902992 -116.37781
153856000 -25.595705 -122.3792 -0.10291687 -30.956703 -0.099055491 -30.945528 -25.924923 -116.67747
154855000 -25.59713 -122.50025 -0.10256911 -31.155508 -0.098862432 -31.14373 -25.917145 -116.87328
155854000 -25.60288 -122.77056 -0.10276339 -31.357706 -0.1001915 -31.343479 -25.899937 -117.13435
156853000 -25.591017 -123.50607 -0.10077671 -31.543911 -0.09871652 -31.53274 -25.898272 -117.4195
157852000 -25.590837 -123.69165 -0.1021864 -31.745523 -0.10032448 -31.735334 -25.890165 -117.80405
158851000 -25.594021 -123.95134 -0.10285219 -31.944304 -0.10065961 -31.931032 -25.876383 -118.06632
159850000 -25.586952 -124.04867 -0.10355254 -32.138924 -0.10138849 -32.132343 -25.876429 -118.20219
160849000 -25.561432 -124.166 -0.10336538 -32.340965 -0.10191078 -32.334908 -25.843967 -118.50346
161848000 -25.541918 -124.25648 -0.10374872 -32.539494 -0.1016283 -32.529881 -25.807299 -118.62505
162847000 -25.502316 -124.50334 -0.10363101 -32.739388 -0.10234754 -32.732628 -25.77672 -118.8573
163846000 -25.459188 -124.74652 -0.10381182 -32.936947 -0.1025935 -32.926136 -25.699245 -118.87339
164845000 -25.399443 -124.75819 -0.10442828 -33.136734 -0.10254367 -33.131283 -25.631264 -118.9798
165844000 -25.343248 -124.82571 -0.10452294 -33.335079 -0.10268759 -33.323658 -25.553316 -119.12171
166843000 -25.283775 -124.89721 -0.1042501 -33.532856 -0.10329275 -33.528496 -25.480852 -119.2486
167842000 -25.224625 -125.03919 -0.10462211 -33.731182 -0.10317929 -33.723324 -25.403305 -119.21204
168841000 -25.146778 -125.21623 -0.10514771 -33.927826 -0.1034518 -33.927532 -25.325356 -119.27745
169840000 -25.08143 -125.5163 -0.10556888 -34.124767 -0.10443597 -34.122871 -25.235527 -119.4847
170839000 -25.014631 -125.76144 -0.10647022 -34.324406 -0.10443756 -34.316269 -25.153339 -119.6733
171838000 -24.960604 -126.15701 -0.10595693 -34.523041 -0.10513472 -34.51609 -25.086285 -119.89954
172837000 -24.888971 -126.55778 -0.10712552 -34.719975 -0.10631371 -34.7136 -25.020014 -120.16506
173836000 -24.821262 -126.96838 -0.10823897 -34.915161 -0.10679255 -34.914986 -24.976265 -120.39342
174835000 -24.764704 -127.4167 -0.10944056 -35.11195 -0.10772599 -35.110897 -24.92474 -120.74277
175834000 -24.714964 -127.79101 -0.10951357 -35.309643 -0.10865671 -35.307091 -24.862686 -120.9903
176833000 -24.666031 -128.16014 -0.11041997 -35.507881 -0.10886639 -35.506737 -24.813833 -121.1731
177832000 -24.620153 -128.6268 -0.11122672 -35.702896 -0.10943605 -35.705837 -24.794004 -121.33843
178831000 -24.579737 -128.97066 -0.11179535 -35.899769 -0.10948543 -35.90062 -24.752096 -121.56496
179830000 -24.541765 -129.40788 -0.11196721 -36.09708 -0.10995958 -36.103344 -24.723297 -121.67304
180829000 -24.503763 -129.62494 -0.11271951 -36.300209 -0.11044865 -36.294807 -24.695644 -121.85966
181828000 -24.479027 -129.97766 -0.11228888 -36.494087 -0.11063665 -36.494858 -24.674963 -121.99458
182827000 -24.451355 -130.33826 -0.11275351 -36.687038 -0.11223974 -36.687378 -24.663399 -122.08551
183826000 -24.41003 -130.67992 -0.11395184 -36.888748 -0.11232103 -36.884193 -24.656124 -122.20874
184825000 -24.414375 -130.97957 -0.11314937 -37.083183 -0.11183546 -37.084385 -24.637428 -122.31496
185824000 -24.393263 -131.34778 -0.11325007 -37.274796 -0.11208992 -37.276798 -24.635414 -122.33634
186823000 -24.374636 -131.68657 -0.1132599 -37.47607 -0.11231358 -37.477718 -24.632317 -122.3356
187822000 -24.355642 -132.00447 -0.11386255 -37.669949 -0.11287785 -37.668808 -24.597673 -122.38755
188821000 -24.33791 -132.24683 -0.11418916 -37.866215 -0.11335901 -37.870319 -24.583401 -122.52509
189820000 -24.320995 -132.5139 -0.11484721 -38.069309 -0.1133808 -38.068291 -24.571732 -122.66879
190819000 -24.294605 -132.78258 -0.1156476 -38.267342 -0.11424603 -38.263958 -24.539831 -122.60925
191818000 -24.258989 -132.90987 -0.11642288 -38.461967 -0.11585949 -38.461899 -24.507607 -122.51062
192817000 -24.186199 -133.21114 -0.11682174 -38.646023 -0.11601953 -38.648655 -24.437273 -122.59098
193816000 -24.150728 -133.55571 -0.11584859 -38.837872 -0.11493625 -38.840965 -24.377365 -122.84094
194815000 -24.092739 -134.0222 -0.11573002 -39.037678 -0.11472734 -39.041252 -24.314754 -122.98173
195814000 -24.039967 -134.25627 -0.11667655 -39.235313 -0.11550591 -39.237442 -24.263092 -123.09122
196813000 -23.992102 -134.60588 -0.11630589 -39.427334 -0.11511435 -39.429668 -24.187263 -123.27169
197812000 -23.931177 -134.81499 -0.11608547 -39.62344 -0.11492669 -39.625435 -24.113657 -123.36009
198811000 -23.881329 -134.99329 -0.11674462 -39.822994 -0.1149841 -39.827682 -24.044695 -123.54595
199810000 -23.807056 -135.41397 -0.11692278 -40.017681 -0.1154429 -40.016186 -23.971163 -123.63936
200809000 -23.748257 -135.66882 -0.11774563 -40.213093 -0.11516672 -40.212837 -23.887999 -123.85049
201808000 -23.692369 -135.88077 -0.11793607 -40.415379 -0.11614902 -40.41827 -23.822174 -123.91704
202807000 -23.632372 -136.26653 -0.11854149 -40.613712 -0.11706479 -40.620586 -23.76288 -124.1275
203806000 -23.579618 -136.70177 -0.12016906 -40.81506 -0.1175153 -40.815105 -23.701075 -124.32666
