!Keysight Technologies,E5080B,MY59205177,A.15.75.32
!Date: Friday, February 23, 2024 02:58:35
!Correction: S11(Cdelta 2-Port  ) 
!S21(Cdelta 2-Port  ) 
!S12(Cdelta 2-Port  ) 
!S22(Cdelta 2-Port  ) 
!S2P File: Measurements: S11, S21, S12, S22:
# Hz S  dB   R 50
10000000 -44.064911 -3.9099917 -0.028312452 -2.0420389 -0.031144802 -2.0943654 -48.146122 -149.74323
10999000 -43.438801 -5.4892564 -0.02992036 -2.2554827 -0.030767031 -2.3135467 -47.866722 -141.92902
11998000 -42.625404 -7.8434668 -0.029580748 -2.4808793 -0.030565254 -2.5243366 -47.958656 -136.58202
12997000 -42.019882 -12.698491 -0.028781211 -2.6614416 -0.029935217 -2.6889832 -47.362999 -130.10635
13996000 -41.787983 -16.097599 -0.028043831 -2.8370686 -0.029967537 -2.8613362 -46.849434 -124.58746
14995000 -41.480789 -19.518932 -0.029993342 -3.0464449 -0.02995633 -3.0721395 -46.4314 -120.85091
15994000 -41.372066 -23.540575 -0.031340871 -3.2629867 -0.032127317 -3.2871323 -46.200577 -117.69096
16993000 -41.333214 -27.366266 -0.030078577 -3.4655523 -0.031217543 -3.4715142 -45.331123 -118.82715
17992000 -41.426945 -31.913263 -0.031318188 -3.6610792 -0.032659866 -3.6666074 -44.725201 -119.35458
18991000 -41.688751 -36.399548 -0.031624559 -3.871805 -0.033155702 -3.8647609 -43.974773 -118.89981
19990000 -41.529812 -41.321461 -0.034319218 -4.0797682 -0.035023481 -4.0744514 -43.295586 -120.70163
20989000 -41.440033 -44.266777 -0.036332108 -4.2830811 -0.036847685 -4.2702355 -42.682301 -120.39401
21988000 -41.39156 -48.680466 -0.037087608 -4.476759 -0.037438776 -4.4701247 -42.438866 -120.11628
22987000 -41.189259 -53.240952 -0.038531099 -4.6751766 -0.038466852 -4.6699195 -42.129013 -119.56336
23986000 -41.186787 -56.917686 -0.037145045 -4.8706813 -0.038042482 -4.867907 -42.061024 -119.32758
24985000 -40.856819 -59.820881 -0.038452487 -5.0795889 -0.037835926 -5.0755792 -41.789543 -116.89947
25984000 -40.636818 -61.981182 -0.0395866 -5.2858467 -0.03860971 -5.2887592 -41.423882 -115.97033
26983000 -40.34362 -63.671783 -0.040525038 -5.4820333 -0.039486811 -5.5019274 -41.289082 -114.71684
27982000 -40.235516 -64.67086 -0.042012535 -5.6825304 -0.041592788 -5.7183561 -41.008942 -113.41035
28981000 -40.211998 -66.082031 -0.039923601 -5.877501 -0.040818475 -5.9025598 -40.743896 -112.81649
29980000 -39.840694 -67.742744 -0.040230319 -6.0706253 -0.041897532 -6.0812473 -40.362453 -111.91476
30979000 -39.463718 -66.906059 -0.037667245 -6.4242892 -0.036065079 -6.4162693 -39.903236 -112.89439
31978000 -39.280514 -67.944992 -0.036930703 -6.619782 -0.037113715 -6.6151247 -39.624039 -112.15697
32977000 -39.125835 -69.648888 -0.036239441 -6.8323803 -0.037781615 -6.8260612 -39.398727 -112.46771
33976000 -38.956772 -70.809196 -0.037469845 -7.0333962 -0.038283259 -7.0241261 -39.095535 -111.91647
34975000 -38.680149 -71.81971 -0.037466191 -7.2320018 -0.039254587 -7.2297153 -38.861115 -111.72183
35974000 -38.478638 -72.615181 -0.036544856 -7.4265928 -0.038548857 -7.4301009 -38.530548 -110.92493
36973000 -38.28503 -73.334679 -0.036606725 -7.6267395 -0.040217254 -7.6284976 -38.247612 -110.21813
37972000 -38.111469 -73.371216 -0.037011895 -7.8317862 -0.039589994 -7.8447099 -38.00016 -109.65582
38971000 -37.779423 -73.031334 -0.037694663 -8.0362034 -0.040055793 -8.0459356 -37.806259 -108.10771
39970000 -37.460617 -73.593605 -0.035632595 -8.2286825 -0.038779475 -8.2453375 -37.539871 -107.72614
40969000 -37.18261 -73.462738 -0.036291648 -8.4260283 -0.038476512 -8.4422436 -37.24979 -106.48077
41968000 -36.8335 -73.563614 -0.036815051 -8.6274319 -0.039270785 -8.6467934 -37.046658 -105.26445
42967000 -36.572258 -74.026833 -0.035721071 -8.8433485 -0.038974579 -8.8594141 -36.815201 -103.60358
43966000 -36.30164 -74.789268 -0.0375957 -9.0374155 -0.040464159 -9.0562439 -36.532257 -102.84711
44965000 -36.088951 -75.768509 -0.037878752 -9.2388811 -0.040383425 -9.2647228 -36.309353 -102.83784
45964000 -35.874493 -76.927376 -0.038929135 -9.4423561 -0.042122316 -9.4600115 -36.07053 -102.57398
46963000 -35.690536 -78.893539 -0.038988948 -9.6367579 -0.042113166 -9.6576061 -35.896969 -103.05189
47962000 -35.559593 -80.370834 -0.040494207 -9.8362703 -0.043719135 -9.8548613 -35.701694 -103.17928
48961000 -35.358833 -81.862579 -0.042571131 -10.031758 -0.044742681 -10.055274 -35.457321 -103.5303
49960000 -35.140724 -83.271202 -0.044400338 -10.233418 -0.046119649 -10.255164 -35.319939 -103.65666
50959000 -34.933819 -84.555855 -0.044684883 -10.444789 -0.046997223 -10.45783 -35.13871 -104.16035
51958000 -34.74733 -85.767067 -0.046694998 -10.643994 -0.048052166 -10.653832 -34.959293 -104.61283
52957000 -34.539902 -86.83947 -0.04835213 -10.843389 -0.049188003 -10.852603 -34.79427 -104.44692
53956000 -34.387135 -87.624695 -0.049419448 -11.044444 -0.050172776 -11.045393 -34.656162 -104.37827
54955000 -34.230133 -88.147789 -0.050405845 -11.246363 -0.050742377 -11.239781 -34.504765 -104.59576
55954000 -34.071758 -89.070541 -0.051320955 -11.447151 -0.051457688 -11.44263 -34.387691 -104.24459
56953000 -33.949043 -89.147865 -0.050724827 -11.641286 -0.050174084 -11.633143 -34.32159 -104.48772
57952000 -33.804379 -89.790314 -0.05187656 -11.840377 -0.051048286 -11.832514 -34.213543 -104.63897
58951000 -33.6828 -90.062943 -0.052590486 -12.044729 -0.052366469 -12.026071 -34.068275 -104.6681
59950000 -33.564274 -90.56823 -0.053543009 -12.244363 -0.053392846 -12.222924 -33.994789 -105.00326
60949000 -33.454159 -91.134109 -0.053536981 -12.443808 -0.05355192 -12.422913 -33.912426 -105.30985
61948000 -33.395229 -91.425735 -0.053864583 -12.646718 -0.054186702 -12.626212 -33.832195 -105.43058
62947000 -33.312046 -91.620712 -0.053695798 -12.856484 -0.054440171 -12.834825 -33.682751 -105.72332
63946000 -33.248318 -92.34462 -0.054596137 -13.051891 -0.05601006 -13.03177 -33.591526 -105.82847
64945000 -33.138977 -92.495499 -0.055700388 -13.253734 -0.055993278 -13.236061 -33.469616 -106.38253
65944000 -33.058418 -92.913315 -0.056029201 -13.454457 -0.056280416 -13.43678 -33.384052 -106.82104
66943000 -32.903625 -93.275002 -0.054475032 -13.655714 -0.054824725 -13.636598 -33.280392 -107.12172
67942000 -32.85104 -93.230476 -0.0567724 -13.848888 -0.057064835 -13.838666 -33.155098 -107.36926
68941000 -32.739639 -93.327065 -0.055754665 -14.046035 -0.055625923 -14.033855 -33.053726 -107.38207
69940000 -32.641819 -93.380981 -0.05627019 -14.242854 -0.05631372 -14.232502 -32.917774 -107.64185
70939000 -32.535923 -93.335754 -0.05639239 -14.438781 -0.055996422 -14.432313 -32.781891 -107.59752
71938000 -32.391769 -92.948219 -0.055658959 -14.638429 -0.056779478 -14.628775 -32.650124 -107.53915
72937000 -32.225533 -92.853439 -0.055405159 -14.832301 -0.055510558 -14.82886 -32.501015 -107.30984
73936000 -32.093327 -92.502602 -0.055368453 -15.030168 -0.05468107 -15.022303 -32.393974 -107.09303
74935000 -31.966341 -92.805138 -0.055135645 -15.224483 -0.054094967 -15.223665 -32.237 -106.75149
75934000 -31.851183 -93.061562 -0.05512647 -15.433517 -0.054055911 -15.425752 -32.144379 -106.70635
76933000 -31.727777 -93.447815 -0.056739353 -15.629793 -0.055278789 -15.620494 -31.974419 -107.10793
77932000 -31.622072 -94.279922 -0.057668652 -15.826416 -0.057087917 -15.819391 -31.890392 -107.05797
78931000 -31.563358 -95.020485 -0.0560528 -16.028467 -0.056075089 -16.019142 -31.785353 -107.03502
79930000 -31.447931 -95.846581 -0.058465131 -16.215895 -0.058650367 -16.215437 -31.682329 -107.37041
80929000 -31.332476 -96.775688 -0.060398687 -16.410713 -0.060187656 -16.407843 -31.585764 -107.69048
81928000 -31.250332 -97.683273 -0.059798427 -16.604061 -0.06031128 -16.601019 -31.467524 -107.75997
82927000 -31.145172 -98.388634 -0.061866488 -16.802723 -0.061453741 -16.797659 -31.359819 -108.11105
83926000 -31.041756 -99.107086 -0.063098662 -17.002542 -0.062623292 -16.999889 -31.241236 -108.33244
84925000 -30.927807 -99.561913 -0.064086854 -17.196688 -0.063210286 -17.197073 -31.156271 -108.41899
85924000 -30.856987 -100.03795 -0.064705051 -17.39608 -0.064342998 -17.397764 -31.067438 -108.45932
86923000 -30.747023 -100.60313 -0.06507422 -17.595984 -0.064677723 -17.591267 -30.965729 -108.36149
87922000 -30.641891 -100.93665 -0.065299153 -17.80188 -0.064090006 -17.795895 -30.887613 -108.39945
88921000 -30.578516 -101.2716 -0.067219459 -17.998901 -0.064687185 -17.99371 -30.793076 -108.38713
89920000 -30.47348 -101.83656 -0.066911884 -18.197872 -0.065806881 -18.192247 -30.736664 -108.58212
90919000 -30.374294 -102.1161 -0.067611456 -18.392067 -0.06645292 -18.39012 -30.652815 -108.77412
91918000 -30.289061 -102.49557 -0.068037935 -18.597792 -0.066360921 -18.588705 -30.596277 -108.78009
92917000 -30.202766 -102.83754 -0.068923898 -18.792751 -0.067948535 -18.793034 -30.526705 -108.8961
93916000 -30.121346 -103.24886 -0.06899149 -18.984348 -0.067851514 -18.98107 -30.434612 -109.5778
94915000 -30.044355 -103.87189 -0.069797933 -19.186081 -0.068883918 -19.178276 -30.381702 -109.47347
95914000 -29.979599 -104.07574 -0.070980519 -19.381117 -0.069785833 -19.374779 -30.290802 -109.68958
96913000 -29.901484 -104.35377 -0.071967877 -19.582197 -0.070851326 -19.579845 -30.227652 -110.06951
97912000 -29.823399 -104.81342 -0.073095508 -19.777151 -0.070787393 -19.777861 -30.149363 -110.33817
98911000 -29.727398 -104.97761 -0.073743165 -19.977859 -0.072176851 -19.977486 -30.100891 -110.51087
99910000 -29.659153 -105.14675 -0.07398013 -20.174385 -0.07262484 -20.178102 -30.006113 -110.80549
100909000 -29.573944 -105.46477 -0.073137105 -20.384388 -0.071959198 -20.374123 -29.911554 -111.01608
101908000 -29.481209 -105.70068 -0.074439891 -20.583698 -0.072955199 -20.580427 -29.804428 -110.81121
102907000 -29.348679 -105.69754 -0.075218908 -20.781483 -0.072997317 -20.781343 -29.726982 -110.79249
103906000 -29.261202 -105.76643 -0.074917078 -20.988268 -0.071870238 -20.980618 -29.577152 -110.73087
104905000 -29.10816 -105.69971 -0.076150328 -21.186981 -0.072837532 -21.185274 -29.445305 -110.42298
105904000 -28.977043 -105.76448 -0.076360025 -21.389566 -0.073408797 -21.385889 -29.337172 -110.29985
106903000 -28.859285 -105.91129 -0.07603547 -21.590174 -0.074010149 -21.586864 -29.20602 -110.17177
107902000 -28.700727 -106.25938 -0.077064551 -21.795536 -0.07408572 -21.783689 -29.071594 -110.14066
108901000 -28.587927 -106.50349 -0.077607386 -21.990826 -0.075418815 -21.985859 -28.937504 -110.10184
109900000 -28.462799 -106.99595 -0.078792363 -22.196905 -0.076832682 -22.183611 -28.78627 -110.20629
110899000 -28.346216 -107.61996 -0.080443338 -22.391768 -0.076867729 -22.383368 -28.662233 -110.46215
111898000 -28.25489 -108.3586 -0.08118017 -22.592678 -0.077695407 -22.587429 -28.543121 -110.63343
112897000 -28.133255 -108.91027 -0.082871363 -22.7908 -0.079825796 -22.78112 -28.410715 -110.80211
113896000 -28.022522 -109.51826 -0.083727628 -22.992147 -0.081558928 -22.980762 -28.300386 -110.97404
114895000 -27.917246 -110.1651 -0.084751152 -23.190619 -0.082399897 -23.176184 -28.196045 -111.06955
115894000 -27.79355 -110.497 -0.086333089 -23.390192 -0.083950102 -23.376072 -28.126064 -111.20895
116893000 -27.72039 -111.09083 -0.086686149 -23.582428 -0.084875211 -23.567297 -27.995491 -111.35794
117892000 -27.635412 -111.58976 -0.086626202 -23.782793 -0.084823474 -23.765968 -27.921314 -111.57022
118891000 -27.572056 -111.99065 -0.087356165 -23.983786 -0.085115433 -23.969051 -27.822992 -111.74045
119890000 -27.486658 -112.34483 -0.088154413 -24.183203 -0.085475519 -24.168442 -27.812796 -111.87926
120889000 -27.431854 -112.92009 -0.088998243 -24.383406 -0.086225092 -24.367504 -27.735655 -111.84169
121888000 -27.39336 -113.20722 -0.089198261 -24.579979 -0.086313553 -24.566324 -27.672871 -112.17287
122887000 -27.349686 -113.42683 -0.089485228 -24.783079 -0.087237582 -24.77006 -27.631144 -112.16123
123886000 -27.299469 -113.82673 -0.090828083 -24.978968 -0.087249994 -24.962635 -27.609947 -112.34143
124885000 -27.257456 -114.35608 -0.090998583 -25.185034 -0.088189282 -25.164558 -27.588718 -112.46201
125884000 -27.204317 -114.57528 -0.091665037 -25.381075 -0.088079914 -25.365238 -27.550396 -112.6003
126883000 -27.18564 -114.92766 -0.092053428 -25.582287 -0.08892823 -25.56851 -27.503431 -112.64314
127882000 -27.136402 -115.23126 -0.092237189 -25.78026 -0.08964695 -25.764025 -27.472366 -112.80556
128881000 -27.106035 -115.56216 -0.092264958 -25.983072 -0.089334607 -25.965221 -27.431627 -112.92959
129880000 -27.050081 -115.84377 -0.093093984 -26.184155 -0.089346766 -26.166945 -27.381811 -112.94318
130879000 -26.986385 -116.03326 -0.09246248 -26.383009 -0.090518825 -26.367489 -27.305769 -113.02435
131878000 -26.922749 -116.27923 -0.092851475 -26.584393 -0.090681382 -26.566666 -27.241512 -112.86925
132877000 -26.858282 -116.30845 -0.092614532 -26.788641 -0.090738744 -26.767456 -27.15958 -112.89891
133876000 -26.769751 -116.46963 -0.093390204 -26.986015 -0.090827025 -26.966648 -27.071188 -112.73808
134875000 -26.668512 -116.5982 -0.093148202 -27.185028 -0.091393255 -27.169294 -26.964161 -112.66153
135874000 -26.587284 -116.62975 -0.093711831 -27.387386 -0.091802776 -27.371239 -26.861959 -112.63506
136873000 -26.474882 -116.57551 -0.094015755 -27.587774 -0.090883859 -27.571404 -26.778551 -112.64946
137872000 -26.399529 -116.70701 -0.093633004 -27.791525 -0.090938047 -27.774431 -26.675404 -112.59027
138871000 -26.32238 -116.9046 -0.094576053 -27.989614 -0.092016146 -27.977938 -26.574125 -112.74478
139870000 -26.223068 -117.15294 -0.095333815 -28.189644 -0.093221463 -28.172894 -26.497044 -112.92435
140869000 -26.134779 -117.60097 -0.097657405 -28.385279 -0.094448008 -28.363264 -26.384611 -113.01374
141868000 -26.039333 -118.11334 -0.097547799 -28.57579 -0.09534017 -28.557796 -26.315767 -113.37722
142867000 -25.963934 -118.33087 -0.096130088 -28.771366 -0.09396603 -28.759106 -26.243011 -113.59184
143866000 -25.896427 -118.80798 -0.097545952 -28.971678 -0.095344134 -28.956388 -26.168282 -114.08162
144865000 -25.837318 -119.37014 -0.098834626 -29.170807 -0.097478703 -29.153994 -26.110487 -114.37878
145864000 -25.785452 -119.69934 -0.099215984 -29.370316 -0.097932488 -29.358646 -26.078829 -114.6602
146863000 -25.739973 -120.0949 -0.099812448 -29.569433 -0.098335735 -29.556265 -26.026901 -114.96856
147862000 -25.703266 -120.44349 -0.10069458 -29.765873 -0.099197708 -29.754921 -25.995625 -115.33862
148861000 -25.671041 -120.94681 -0.10092667 -29.965952 -0.099416472 -29.949896 -25.97031 -115.54317
149860000 -25.654202 -121.14013 -0.10147938 -30.15988 -0.098989546 -30.152998 -25.940178 -115.72461
150859000 -25.634068 -121.55933 -0.10186891 -30.363743 -0.099618293 -30.345318 -25.933769 -115.98087
151858000 -25.621918 -121.86658 -0.10152549 -30.56381 -0.1002421 -30.54266 -25.92568 -116.26334
152857000 -25.606276 -122.16684 -0.1018599 -30.758015 -0.10021243 -30.746998 -25.900581 -116.36739
153856000 -25.59897 -122.35217 -0.1017502 -30.957529 -0.10016713 -30.943237 -25.925163 -116.70487
154855000 -25.594557 -122.57354 -0.10211591 -31.154333 -0.099840522 -31.144266 -25.913599 -116.91492
155854000 -25.600134 -122.80128 -0.10246044 -31.356522 -0.10024316 -31.340357 -25.908161 -117.16653
156853000 -25.588095 -123.50564 -0.10086679 -31.542204 -0.099814035 -31.536528 -25.89852 -117.46438
157852000 -25.600107 -123.7399 -0.10181724 -31.742199 -0.10117943 -31.734537 -25.890413 -117.81293
158851000 -25.596624 -123.95068 -0.10238677 -31.939909 -0.10140359 -31.932138 -25.879141 -118.04684
159850000 -25.5777 -124.08589 -0.10283761 -32.13921 -0.10149369 -32.129704 -25.87672 -118.26112
160849000 -25.560123 -124.22833 -0.1030213 -32.338573 -0.10223517 -32.333088 -25.843023 -118.54319
161848000 -25.544138 -124.33498 -0.10347036 -32.541309 -0.10249861 -32.533539 -25.802 -118.62235
162847000 -25.498802 -124.50085 -0.10353027 -32.735229 -0.10310878 -32.731972 -25.772913 -118.88061
163846000 -25.45414 -124.72497 -0.10428695 -32.937721 -0.10241856 -32.929211 -25.694086 -118.8885
164845000 -25.398489 -124.74895 -0.10476054 -33.136124 -0.10312945 -33.129753 -25.630169 -118.97781
165844000 -25.343098 -124.80029 -0.10446354 -33.332634 -0.104559 -33.331154 -25.552469 -119.11722
166843000 -25.281744 -124.91226 -0.10377099 -33.533833 -0.10369199 -33.528622 -25.480904 -119.28516
167842000 -25.22134 -125.04776 -0.10484672 -33.732796 -0.10395075 -33.72501 -25.400597 -119.19365
168841000 -25.144825 -125.25197 -0.10461257 -33.932507 -0.10412043 -33.927818 -25.326864 -119.24061
169840000 -25.078243 -125.47546 -0.10515673 -34.125309 -0.10481251 -34.122936 -25.232 -119.48167
170839000 -25.019407 -125.76946 -0.10602907 -34.32206 -0.10482683 -34.322605 -25.148666 -119.65714
171838000 -24.960228 -126.19073 -0.1055161 -34.524204 -0.10605746 -34.517067 -25.089764 -119.92613
172837000 -24.890831 -126.56272 -0.10696924 -34.718372 -0.10669652 -34.712009 -25.017828 -120.14275
173836000 -24.823051 -126.93526 -0.10851286 -34.917892 -0.10758509 -34.915089 -24.974915 -120.35907
174835000 -24.77286 -127.39759 -0.10921943 -35.113407 -0.108274 -35.111057 -24.927856 -120.70837
175834000 -24.718399 -127.79754 -0.10984834 -35.313305 -0.10945676 -35.307529 -24.86725 -121.01777
176833000 -24.666109 -128.14017 -0.11069374 -35.506348 -0.10971134 -35.507336 -24.81035 -121.15858
177832000 -24.621849 -128.66461 -0.11086077 -35.705414 -0.10995904 -35.708076 -24.789249 -121.3339
178831000 -24.583176 -129.02559 -0.11114386 -35.900883 -0.11048954 -35.901447 -24.757107 -121.5748
179830000 -24.542833 -129.45468 -0.11178101 -36.099262 -0.11105383 -36.098019 -24.729094 -121.69191
180829000 -24.505972 -129.64221 -0.11222433 -36.295334 -0.11166388 -36.291641 -24.695421 -121.88469
181828000 -24.483747 -130.01822 -0.11256542 -36.493942 -0.11122751 -36.49313 -24.68004 -121.98173
182827000 -24.455774 -130.32132 -0.11230189 -36.688576 -0.11138925 -36.684036 -24.664293 -122.08044
183826000 -24.417044 -130.64749 -0.11317435 -36.884449 -0.11200173 -36.883045 -24.656656 -122.20572
184825000 -24.418739 -130.98238 -0.11248174 -37.079159 -0.11256383 -37.082336 -24.63953 -122.30742
185824000 -24.390408 -131.34547 -0.11296552 -37.277431 -0.1126685 -37.277424 -24.635208 -122.36392
186823000 -24.3762 -131.72919 -0.11329232 -37.475323 -0.1135389 -37.472195 -24.63146 -122.36985
187822000 -24.35857 -132.01512 -0.11394865 -37.670834 -0.11378708 -37.671467 -24.595814 -122.42835
188821000 -24.33283 -132.263 -0.1142245 -37.864552 -0.11344005 -37.870716 -24.584347 -122.52113
189820000 -24.323746 -132.51733 -0.11410225 -38.068012 -0.11354687 -38.070015 -24.570499 -122.67109
190819000 -24.291456 -132.78906 -0.11559629 -38.267155 -0.11470289 -38.267487 -24.5385 -122.61035
191818000 -24.257177 -132.95599 -0.11674887 -38.459999 -0.11603735 -38.460083 -24.510151 -122.51
192817000 -24.186188 -133.21098 -0.11751025 -38.64819 -0.11622133 -38.64893 -24.433561 -122.59997
193816000 -24.149397 -133.56937 -0.11640347 -38.83926 -0.11526135 -38.84256 -24.373167 -122.86172
194815000 -24.088808 -134.02737 -0.1160517 -39.033741 -0.11555722 -39.035358 -24.315969 -122.99905
195814000 -24.038054 -134.24158 -0.11677281 -39.232674 -0.11558007 -39.234596 -24.258062 -123.11979
196813000 -23.987589 -134.61137 -0.11639416 -39.426228 -0.11541526 -39.431839 -24.185448 -123.25584
197812000 -23.924633 -134.82375 -0.11650637 -39.62685 -0.11556865 -39.623383 -24.110691 -123.36968
198811000 -23.876734 -134.99466 -0.11638406 -39.822556 -0.115692 -39.826199 -24.043762 -123.54654
199810000 -23.805105 -135.36003 -0.11660422 -40.017483 -0.11575394 -40.014614 -23.965019 -123.63554
200809000 -23.744841 -135.6666 -0.11713447 -40.211689 -0.1159225 -40.21545 -23.888811 -123.81882
201808000 -23.692556 -135.88977 -0.11717542 -40.41555 -0.11708792 -40.416615 -23.820412 -123.93799
202807000 -23.635233 -136.22589 -0.11831725 -40.615032 -0.1179999 -40.61412 -23.765665 -124.11899
203806000 -23.580891 -136.70209 -0.11982072 -40.81237 -0.11769828 -40.817429 -23.699694 -124.30961
