!Keysight Technologies,E5080B,MY59205177,A.15.75.32
!Date: Friday, February 23, 2024 03:36:50
!Correction: S11(Cdelta 2-Port  ) 
!S21(Cdelta 2-Port  ) 
!S12(Cdelta 2-Port  ) 
!S22(Cdelta 2-Port  ) 
!S2P File: Measurements: S11, S21, S12, S22:
# Hz S  dB   R 50
10000000 -46.122372 -2.7706645 -0.015237814 -2.0439761 -0.017898668 -2.0992215 -45.916573 -157.49806
10999000 -45.299675 -4.7730598 -0.016545171 -2.2621274 -0.017656162 -2.3139837 -45.818771 -151.60445
11998000 -44.361176 -7.7945776 -0.016123198 -2.4863656 -0.01759924 -2.5312531 -46.036274 -147.47366
12997000 -43.567413 -13.084085 -0.015938729 -2.6684437 -0.017113755 -2.6988585 -45.622761 -141.18903
13996000 -43.29694 -17.377607 -0.014872593 -2.8423958 -0.017100241 -2.8660853 -45.437241 -136.1579
14995000 -42.871586 -21.61587 -0.016967963 -3.0574906 -0.017110636 -3.0820644 -45.083252 -133.28313
15994000 -42.742939 -25.849524 -0.018500704 -3.2795987 -0.020201467 -3.2969079 -44.985863 -129.30499
16993000 -42.668938 -30.758121 -0.017579488 -3.4719841 -0.018843353 -3.4832182 -44.140934 -129.06071
17992000 -42.727539 -36.359081 -0.018013038 -3.6698654 -0.020002261 -3.6740856 -43.554451 -129.35432
18991000 -43.006454 -41.396793 -0.018862331 -3.8804231 -0.02013489 -3.8789563 -42.949699 -128.15263
19990000 -42.758694 -47.185524 -0.020712789 -4.090188 -0.022509912 -4.0865197 -42.27916 -129.02271
20989000 -42.587013 -50.653435 -0.02329346 -4.2938275 -0.024160184 -4.2863231 -41.735443 -128.21538
21988000 -42.359467 -55.621712 -0.023686977 -4.490056 -0.025121853 -4.4801803 -41.461357 -127.53751
22987000 -42.042927 -60.512436 -0.025118468 -4.6924796 -0.026423855 -4.6828156 -41.229588 -127.06614
23986000 -41.943043 -64.76136 -0.024667807 -4.887383 -0.025195535 -4.8855772 -41.115852 -126.6908
24985000 -41.580238 -67.389061 -0.025317909 -5.0949926 -0.025203086 -5.0928016 -40.861408 -124.44978
25984000 -41.229343 -69.384117 -0.027229208 -5.2991462 -0.025503298 -5.304822 -40.562218 -122.87576
26983000 -40.903664 -71.346169 -0.027910437 -5.4996796 -0.026795257 -5.5154943 -40.418415 -122.25349
27982000 -40.738117 -72.194237 -0.028142836 -5.7002525 -0.028361175 -5.7341499 -40.177277 -120.83646
28981000 -40.674652 -73.78598 -0.026594447 -5.900187 -0.028604802 -5.9207845 -39.946873 -119.99866
29980000 -40.268799 -75.273483 -0.026872095 -6.0939798 -0.028974306 -6.1005769 -39.676212 -119.19979
30979000 -39.930279 -73.951195 -0.024222137 -6.4437509 -0.023523267 -6.437696 -39.16135 -119.46111
31978000 -39.687645 -75.040726 -0.023960015 -6.6438804 -0.024145607 -6.6310592 -38.947567 -118.80632
32977000 -39.507908 -76.523102 -0.023801241 -6.850018 -0.02471753 -6.8487191 -38.709564 -118.8147
33976000 -39.347328 -77.676376 -0.024287475 -7.0524726 -0.025911601 -7.0498652 -38.409016 -118.14355
34975000 -39.016159 -78.408333 -0.024296325 -7.2508693 -0.026900485 -7.2529225 -38.20097 -117.7858
35974000 -38.847248 -78.958076 -0.023422286 -7.4468904 -0.026134256 -7.4515247 -37.911854 -116.95134
36973000 -38.6068 -79.711708 -0.02382024 -7.6477008 -0.027005976 -7.6506181 -37.652061 -116.11694
37972000 -38.457218 -79.523872 -0.023329634 -7.8581662 -0.027413638 -7.8673229 -37.425045 -115.31399
38971000 -38.114704 -78.946861 -0.024689674 -8.0586252 -0.027518621 -8.0728455 -37.269741 -113.73904
39970000 -37.810078 -79.173538 -0.022677487 -8.2562342 -0.026388956 -8.2733498 -37.011368 -113.23433
40969000 -37.510834 -78.833038 -0.023331456 -8.4521351 -0.026467349 -8.4674253 -36.761211 -111.7291
41968000 -37.184284 -78.792763 -0.023627635 -8.6564417 -0.025552511 -8.6697721 -36.5886 -110.45631
42967000 -36.90517 -78.903839 -0.023687499 -8.8627872 -0.025815511 -8.883461 -36.388428 -108.67936
43966000 -36.602962 -79.567245 -0.024292942 -9.0654411 -0.028093332 -9.084446 -36.126423 -107.85957
44965000 -36.365559 -80.219826 -0.025576469 -9.2677383 -0.02778773 -9.2868414 -35.907227 -107.59445
45964000 -36.15366 -81.244308 -0.026279574 -9.4691944 -0.028824989 -9.4883547 -35.682739 -107.41319
46963000 -35.962578 -83.373573 -0.026339995 -9.661787 -0.029246112 -9.6879702 -35.493343 -107.57777
47962000 -35.782185 -84.661545 -0.027783561 -9.8663101 -0.030339243 -9.8813524 -35.302021 -107.59388
48961000 -35.575096 -85.973091 -0.029786387 -10.063521 -0.03219486 -10.084032 -35.069462 -107.72453
49960000 -35.333172 -87.332306 -0.030791277 -10.263574 -0.033162221 -10.284732 -34.938824 -107.78135
50959000 -35.102421 -88.619522 -0.031410486 -10.474009 -0.034127712 -10.485068 -34.762676 -108.12113
51958000 -34.894695 -89.685051 -0.033832904 -10.674793 -0.035859141 -10.684787 -34.586788 -108.57181
52957000 -34.681229 -90.646881 -0.035538897 -10.875277 -0.036940362 -10.884127 -34.417931 -108.32974
53956000 -34.51614 -91.323753 -0.036305223 -11.076485 -0.03796884 -11.077005 -34.283451 -108.30946
54955000 -34.351791 -91.697289 -0.036886841 -11.279395 -0.037727561 -11.275216 -34.130184 -108.26376
55954000 -34.160801 -92.676697 -0.038438383 -11.47957 -0.039304741 -11.478464 -34.034611 -107.95321
56953000 -34.056446 -92.671867 -0.037771169 -11.679287 -0.038045354 -11.662733 -33.948738 -108.19612
57952000 -33.881992 -93.192314 -0.038929917 -11.875939 -0.039344706 -11.868943 -33.843456 -108.24723
58951000 -33.776188 -93.525185 -0.038830664 -12.08398 -0.039717738 -12.060584 -33.691753 -108.28403
59950000 -33.643753 -93.963036 -0.040446393 -12.281647 -0.040271599 -12.257827 -33.628113 -108.5994
60949000 -33.51989 -94.485893 -0.041128654 -12.484636 -0.040654901 -12.461779 -33.527542 -108.84268
61948000 -33.459827 -94.840698 -0.042044424 -12.683026 -0.040894512 -12.664968 -33.442181 -108.9577
62947000 -33.368416 -95.026794 -0.041859895 -12.894261 -0.042222425 -12.87071 -33.302338 -109.2797
63946000 -33.29641 -95.733971 -0.042856339 -13.090682 -0.042430233 -13.072811 -33.193398 -109.38739
64945000 -33.18697 -95.853477 -0.042912025 -13.294932 -0.04278288 -13.275742 -33.074715 -109.83537
65944000 -33.08136 -96.255684 -0.044748958 -13.494806 -0.043276735 -13.475185 -32.986961 -110.19923
66943000 -32.935173 -96.573013 -0.041595925 -13.693856 -0.041881587 -13.677189 -32.873604 -110.53642
67942000 -32.888111 -96.5793 -0.044285797 -13.891038 -0.044220679 -13.881612 -32.752274 -110.80382
68941000 -32.774647 -96.662949 -0.044283703 -14.080776 -0.042624984 -14.073353 -32.65255 -110.76687
69940000 -32.669167 -96.636887 -0.044225387 -14.2823 -0.043357 -14.273643 -32.505985 -111.07629
70939000 -32.571548 -96.65197 -0.044018015 -14.482188 -0.043729592 -14.476064 -32.378834 -110.89046
71938000 -32.427845 -96.157379 -0.04375051 -14.68222 -0.043475181 -14.668613 -32.237801 -110.83952
72937000 -32.267799 -95.980171 -0.042964049 -14.876003 -0.043407202 -14.866612 -32.101276 -110.50262
73936000 -32.145065 -95.63092 -0.043422367 -15.075785 -0.041661263 -15.066206 -31.989601 -110.30533
74935000 -32.003754 -95.873505 -0.042521205 -15.272991 -0.041489817 -15.269247 -31.85075 -109.94469
75934000 -31.884867 -96.074959 -0.041883681 -15.478797 -0.041391551 -15.477145 -31.755001 -109.86676
76933000 -31.752642 -96.484161 -0.042641453 -15.675448 -0.042593874 -15.669282 -31.583998 -110.2439
77932000 -31.65271 -97.187126 -0.044530056 -15.87274 -0.044129938 -15.866095 -31.478733 -110.17708
78931000 -31.572884 -97.945534 -0.043244053 -16.070824 -0.044161316 -16.064901 -31.375349 -110.0247
79930000 -31.468628 -98.7855 -0.0454196 -16.263269 -0.045679882 -16.263332 -31.286692 -110.33428
80929000 -31.349039 -99.646721 -0.047207352 -16.461809 -0.047598857 -16.460291 -31.186045 -110.58769
81928000 -31.254892 -100.38441 -0.047299992 -16.652365 -0.047916327 -16.648525 -31.053263 -110.5807
82927000 -31.150248 -101.07648 -0.048950814 -16.852953 -0.049319696 -16.849398 -30.943478 -110.87244
83926000 -31.030355 -101.67305 -0.050678995 -17.046785 -0.050435174 -17.049419 -30.834377 -111.06812
84925000 -30.935585 -102.18729 -0.05155199 -17.251078 -0.050759662 -17.244219 -30.731886 -111.08787
85924000 -30.839474 -102.54721 -0.051942576 -17.447994 -0.052318525 -17.448908 -30.662848 -111.06721
86923000 -30.730778 -103.07715 -0.052731976 -17.648539 -0.052260622 -17.64262 -30.550646 -110.90016
87922000 -30.617352 -103.39233 -0.052375901 -17.853397 -0.051380415 -17.848991 -30.464834 -110.94723
88921000 -30.549988 -103.71696 -0.053618487 -18.051163 -0.053333882 -18.044977 -30.371027 -110.91629
89920000 -30.448702 -104.15757 -0.054178052 -18.253914 -0.053435039 -18.246023 -30.316 -111.07253
90919000 -30.349594 -104.41266 -0.054412384 -18.450047 -0.053721484 -18.442085 -30.226887 -111.26258
91918000 -30.251379 -104.79886 -0.056384262 -18.643654 -0.055150587 -18.642757 -30.16098 -111.27812
92917000 -30.160547 -105.09824 -0.056637857 -18.845293 -0.056584619 -18.842947 -30.100254 -111.36366
93916000 -30.074888 -105.45795 -0.05625524 -19.040142 -0.055657387 -19.033907 -30.0121 -111.98194
94915000 -29.992458 -106.04173 -0.058023848 -19.241953 -0.056226395 -19.236877 -29.955683 -111.85524
95914000 -29.930714 -106.25662 -0.058795463 -19.433401 -0.058129575 -19.433758 -29.860624 -112.08558
96913000 -29.844704 -106.4301 -0.059449121 -19.638693 -0.058619667 -19.63415 -29.793148 -112.42245
97912000 -29.763264 -106.9715 -0.061455842 -19.83268 -0.059112702 -19.833197 -29.718386 -112.67319
98911000 -29.655533 -107.09422 -0.0614351 -20.035479 -0.060220465 -20.034096 -29.677044 -112.90161
99910000 -29.591034 -107.2361 -0.062018521 -20.232038 -0.060004454 -20.231924 -29.564907 -113.13609
100909000 -29.499712 -107.4922 -0.062050819 -20.442196 -0.059684001 -20.435959 -29.48814 -113.36211
101908000 -29.408937 -107.72971 -0.062479902 -20.645666 -0.061188839 -20.639879 -29.369352 -113.14716
102907000 -29.278099 -107.67608 -0.063305631 -20.841978 -0.061030533 -20.842533 -29.303738 -113.19807
103906000 -29.179277 -107.79774 -0.062984936 -21.046116 -0.060424149 -21.041172 -29.15218 -113.09679
104905000 -29.031775 -107.66769 -0.063941576 -21.243858 -0.060729433 -21.247477 -29.026957 -112.82983
105904000 -28.893646 -107.71872 -0.064482249 -21.450027 -0.061851259 -21.441387 -28.922651 -112.69478
106903000 -28.778599 -107.78641 -0.064632796 -21.651018 -0.061826579 -21.648754 -28.793045 -112.53902
107902000 -28.617956 -108.13007 -0.064975157 -21.853275 -0.062575497 -21.84527 -28.656624 -112.51231
108901000 -28.507471 -108.34772 -0.065608725 -22.056725 -0.063546762 -22.052212 -28.526114 -112.4859
109900000 -28.383114 -108.83525 -0.066674247 -22.2554 -0.065008789 -22.247015 -28.380232 -112.55388
110899000 -28.26437 -109.43433 -0.068323508 -22.455761 -0.065722778 -22.44829 -28.260962 -112.79576
111898000 -28.175278 -110.08578 -0.069598809 -22.656883 -0.066424534 -22.64938 -28.133518 -112.92302
112897000 -28.04454 -110.62546 -0.071104191 -22.856514 -0.067671672 -22.846897 -28.007502 -113.10484
113896000 -27.940437 -111.19137 -0.071952879 -23.056259 -0.069261342 -23.044432 -27.895119 -113.2013
114895000 -27.842739 -111.75947 -0.073355347 -23.252911 -0.070261195 -23.239527 -27.787075 -113.28522
115894000 -27.719671 -112.14293 -0.074976072 -23.45734 -0.071808919 -23.44367 -27.718386 -113.49787
116893000 -27.637863 -112.67023 -0.075479135 -23.650908 -0.072039731 -23.635622 -27.593224 -113.51984
117892000 -27.557163 -113.16 -0.075332955 -23.85062 -0.072688542 -23.835884 -27.519415 -113.76239
118891000 -27.496773 -113.54198 -0.07601624 -24.050083 -0.073243991 -24.037043 -27.417902 -113.86653
119890000 -27.416304 -113.89165 -0.076313131 -24.250851 -0.073988296 -24.235197 -27.407825 -114.00791
120889000 -27.359938 -114.40739 -0.077926263 -24.451063 -0.07400199 -24.434935 -27.335814 -113.97536
121888000 -27.32548 -114.74335 -0.077742048 -24.647436 -0.074177094 -24.634674 -27.276278 -114.18376
122887000 -27.286316 -114.9417 -0.078174531 -24.850109 -0.074938938 -24.836159 -27.231804 -114.20457
123886000 -27.229151 -115.35779 -0.079191469 -25.057293 -0.075276323 -25.03742 -27.218668 -114.38718
124885000 -27.193592 -115.88971 -0.079756185 -25.254097 -0.075971194 -25.239933 -27.190836 -114.44314
125884000 -27.149261 -116.01993 -0.080281429 -25.449999 -0.076227248 -25.438944 -27.155664 -114.57456
126883000 -27.123373 -116.43869 -0.0801422 -25.654196 -0.077344656 -25.640862 -27.118505 -114.56738
127882000 -27.077789 -116.70071 -0.080110028 -25.855015 -0.077422917 -25.838446 -27.077902 -114.73299
128881000 -27.052505 -117.04707 -0.080616325 -26.057306 -0.07760264 -26.039745 -27.043085 -114.80631
129880000 -26.992048 -117.36788 -0.081759922 -26.258112 -0.077703573 -26.242598 -27.004648 -114.77271
130879000 -26.936342 -117.50677 -0.080931202 -26.461683 -0.077775516 -26.441446 -26.931484 -114.79063
131878000 -26.868608 -117.72962 -0.081530437 -26.661835 -0.078753091 -26.645243 -26.870399 -114.6852
132877000 -26.807274 -117.83377 -0.081099205 -26.862375 -0.07838697 -26.84609 -26.792295 -114.59059
133876000 -26.722067 -118.0034 -0.081273012 -27.065258 -0.078299195 -27.045809 -26.710173 -114.48978
134875000 -26.63102 -118.12852 -0.081873871 -27.264566 -0.079203069 -27.24614 -26.60887 -114.35381
135874000 -26.549967 -118.12935 -0.082146637 -27.463001 -0.078600466 -27.445156 -26.515509 -114.31662
136873000 -26.437225 -118.05943 -0.082307033 -27.665478 -0.078936554 -27.649817 -26.426823 -114.26461
137872000 -26.359783 -118.17303 -0.08291015 -27.868261 -0.079105005 -27.852488 -26.330847 -114.20232
138871000 -26.286127 -118.39505 -0.083361618 -28.06978 -0.079425842 -28.052656 -26.232208 -114.32001
139870000 -26.188147 -118.71663 -0.083370328 -28.269789 -0.080568597 -28.249163 -26.149708 -114.50594
140869000 -26.106112 -119.20667 -0.084607296 -28.465351 -0.081560507 -28.445864 -26.054344 -114.69775
141868000 -26.029261 -119.59654 -0.085515387 -28.661949 -0.082071193 -28.649267 -26.010647 -114.95013
142867000 -25.946106 -119.80966 -0.083596475 -28.862402 -0.081858836 -28.845198 -25.929644 -115.05441
143866000 -25.877411 -120.30421 -0.085795507 -29.057606 -0.083460048 -29.044004 -25.852049 -115.55624
144865000 -25.813524 -120.8071 -0.087216191 -29.255781 -0.084524676 -29.244032 -25.794195 -115.80305
145864000 -25.759871 -121.09348 -0.087490082 -29.460262 -0.085490301 -29.444054 -25.76355 -116.07613
146863000 -25.710154 -121.48176 -0.088348053 -29.656788 -0.086351044 -29.644722 -25.716148 -116.39594
147862000 -25.674852 -121.8249 -0.089734688 -29.855167 -0.086613528 -29.842846 -25.683182 -116.68819
148861000 -25.645741 -122.24125 -0.090241835 -30.056131 -0.087789871 -30.039497 -25.660582 -116.85625
149860000 -25.61245 -122.46476 -0.091223009 -30.248777 -0.089023612 -30.234356 -25.616484 -116.93717
150859000 -25.584587 -122.91463 -0.091558754 -30.445938 -0.08813592 -30.428572 -25.592136 -117.32712
151858000 -25.578373 -123.2739 -0.090818569 -30.645369 -0.088823862 -30.632257 -25.576996 -117.68376
152857000 -25.563742 -123.58342 -0.09128011 -30.841709 -0.088553585 -30.830139 -25.561428 -117.85814
153856000 -25.560339 -123.81866 -0.090654157 -31.041977 -0.088184789 -31.032774 -25.579735 -118.15556
154855000 -25.55274 -123.94802 -0.091146879 -31.241812 -0.088020742 -31.231907 -25.568777 -118.43261
155854000 -25.572634 -124.22108 -0.091616653 -31.441444 -0.088641033 -31.428082 -25.565268 -118.69801
156853000 -25.561064 -124.88093 -0.089261413 -31.629148 -0.08826457 -31.623882 -25.554928 -119.01314
157852000 -25.563295 -125.13129 -0.090972938 -31.833408 -0.089857571 -31.823174 -25.547062 -119.35685
158851000 -25.560011 -125.32536 -0.091615334 -32.032806 -0.090008207 -32.022369 -25.526859 -119.62464
159850000 -25.548271 -125.47189 -0.091925196 -32.231041 -0.090098329 -32.224361 -25.521517 -119.81862
160849000 -25.535431 -125.54975 -0.091505617 -32.428555 -0.090712838 -32.423717 -25.498508 -120.09343
161848000 -25.518036 -125.5759 -0.092139892 -32.630947 -0.090571955 -32.623814 -25.457884 -120.22948
162847000 -25.471645 -125.78152 -0.092464067 -32.830925 -0.090960249 -32.823509 -25.430393 -120.42353
163846000 -25.433994 -125.95251 -0.092397429 -33.027668 -0.090869322 -33.026226 -25.347263 -120.42194
164845000 -25.376434 -125.96577 -0.09304744 -33.231579 -0.09104801 -33.223385 -25.289801 -120.53465
165844000 -25.328201 -125.98743 -0.093159042 -33.433365 -0.091784537 -33.422226 -25.20949 -120.67812
166843000 -25.26421 -126.04635 -0.092728771 -33.626984 -0.091446392 -33.627892 -25.144873 -120.84026
167842000 -25.202215 -126.15173 -0.093828209 -33.828053 -0.092083044 -33.822559 -25.069304 -120.72156
168841000 -25.129807 -126.29875 -0.094094053 -34.026772 -0.092591263 -34.024975 -24.996901 -120.83962
169840000 -25.062185 -126.52219 -0.093328044 -34.223125 -0.092990577 -34.217068 -24.908386 -121.01295
170839000 -25.001457 -126.77999 -0.095083244 -34.424946 -0.09313789 -34.418072 -24.827667 -121.17384
171838000 -24.946573 -127.17083 -0.094437167 -34.624908 -0.094114162 -34.613628 -24.767258 -121.41562
172837000 -24.87554 -127.50215 -0.096278824 -34.818951 -0.09462209 -34.812092 -24.696503 -121.63074
173836000 -24.810001 -127.91051 -0.097138532 -35.020859 -0.095591813 -35.014767 -24.656218 -121.81595
174835000 -24.760643 -128.32224 -0.097838759 -35.21624 -0.096350811 -35.21381 -24.612522 -122.17145
175834000 -24.704403 -128.65553 -0.098651908 -35.41626 -0.097727299 -35.412121 -24.553915 -122.4124
176833000 -24.658901 -129.0211 -0.099692196 -35.613182 -0.098223999 -35.611923 -24.497965 -122.52361
177832000 -24.612959 -129.42639 -0.10111796 -35.815144 -0.099175729 -35.81654 -24.481375 -122.66724
178831000 -24.562868 -129.64906 -0.10190045 -36.010189 -0.10090176 -36.005672 -24.4506 -122.73422
179830000 -24.495012 -130.06314 -0.1035536 -36.194618 -0.10154801 -36.195366 -24.3834 -122.78938
180829000 -24.441027 -130.40993 -0.1025373 -36.386696 -0.10139432 -36.388062 -24.341747 -123.13107
181828000 -24.425827 -130.84052 -0.1016018 -36.591099 -0.10048052 -36.584831 -24.319035 -123.3187
182827000 -24.40226 -131.23625 -0.10119639 -36.783543 -0.1009839 -36.782562 -24.311029 -123.45103
183826000 -24.361059 -131.56587 -0.10234012 -36.981915 -0.10083076 -36.978943 -24.301779 -123.61681
184825000 -24.362873 -131.87151 -0.10176768 -37.177231 -0.10096217 -37.183277 -24.286413 -123.74613
185824000 -24.336452 -132.26666 -0.1026412 -37.377216 -0.10126077 -37.378708 -24.27809 -123.77303
186823000 -24.32217 -132.6089 -0.10139777 -37.571724 -0.10081698 -37.573112 -24.27182 -123.79039
187822000 -24.299761 -132.9686 -0.10244719 -37.770412 -0.10165267 -37.772392 -24.23115 -123.86753
188821000 -24.278 -133.18643 -0.10221476 -37.965103 -0.1020046 -37.969994 -24.217348 -124.0155
189820000 -24.253111 -133.49509 -0.10281429 -38.167774 -0.10199215 -38.165993 -24.197754 -124.19658
190819000 -24.221462 -133.79208 -0.10340064 -38.364777 -0.10204832 -38.364536 -24.159527 -124.22977
191818000 -24.186398 -134.10426 -0.10358515 -38.56287 -0.10288506 -38.564537 -24.131573 -124.27776
192817000 -24.14743 -134.34998 -0.10359284 -38.758652 -0.10334206 -38.761978 -24.086332 -124.35072
193816000 -24.115595 -134.6188 -0.10436994 -38.953854 -0.10224152 -38.95406 -24.037142 -124.49155
194815000 -24.052595 -135.04543 -0.10469451 -39.149132 -0.10382667 -39.152325 -23.972319 -124.57373
195814000 -23.997519 -135.22406 -0.10510873 -39.34882 -0.10419043 -39.349255 -23.917753 -124.67648
196813000 -23.943594 -135.56137 -0.1046192 -39.541142 -0.10354724 -39.545254 -23.837078 -124.80187
197812000 -23.887285 -135.77274 -0.10479739 -39.73756 -0.10396083 -39.736736 -23.768213 -124.90108
198811000 -23.834465 -135.9227 -0.10533495 -39.934937 -0.10402843 -39.937187 -23.700499 -125.07698
199810000 -23.76194 -136.28419 -0.10532752 -40.13102 -0.10331528 -40.130322 -23.623737 -125.15106
200809000 -23.703548 -136.55038 -0.10580228 -40.329174 -0.10423604 -40.327225 -23.546318 -125.33833
201808000 -23.647959 -136.72972 -0.10671959 -40.530701 -0.10528933 -40.532814 -23.474415 -125.41043
202807000 -23.592035 -137.05133 -0.10750442 -40.732521 -0.10613624 -40.736431 -23.422934 -125.60133
