!Keysight Technologies,E5080B,MY59205177,A.15.75.32
!Date: Friday, February 23, 2024 03:36:57
!Correction: S11(Cdelta 2-Port  ) 
!S21(Cdelta 2-Port  ) 
!S12(Cdelta 2-Port  ) 
!S22(Cdelta 2-Port  ) 
!S2P File: Measurements: S11, S21, S12, S22:
# Hz S  dB   R 50
10000000 -46.087791 -2.7610798 -0.015445634 -2.0431845 -0.018145867 -2.0974593 -45.871334 -157.71739
10999000 -45.28376 -4.7629862 -0.016015114 -2.2637217 -0.018038513 -2.3159966 -45.806858 -151.43158
11998000 -44.350582 -7.7194195 -0.017209131 -2.4870319 -0.017485401 -2.5302 -46.004688 -147.14415
12997000 -43.632675 -13.186661 -0.016233884 -2.6626987 -0.017508533 -2.6980784 -45.595497 -141.08607
13996000 -43.255974 -17.290545 -0.015106891 -2.8489239 -0.017318806 -2.8693249 -45.465069 -136.40218
14995000 -42.86372 -21.634706 -0.017163392 -3.0586662 -0.017141042 -3.0806773 -45.136303 -132.71213
15994000 -42.751247 -26.195658 -0.018457811 -3.2764564 -0.020164799 -3.2995486 -44.997475 -129.34283
16993000 -42.729172 -30.673103 -0.01778898 -3.4732957 -0.018859992 -3.4833531 -44.134167 -128.85489
17992000 -42.741184 -36.15485 -0.01845937 -3.6726396 -0.019654581 -3.674401 -43.60107 -129.30048
18991000 -42.92762 -41.407894 -0.019085925 -3.8829963 -0.020441255 -3.8781619 -42.993591 -127.94418
19990000 -42.741798 -46.998867 -0.021741334 -4.0918384 -0.022567157 -4.0895386 -42.283947 -128.66316
20989000 -42.550167 -50.324501 -0.023550075 -4.2920413 -0.024510307 -4.2849083 -41.711323 -127.97202
21988000 -42.36272 -55.758957 -0.024151593 -4.490118 -0.025157001 -4.4800062 -41.462273 -127.54034
22987000 -42.069206 -60.619335 -0.025443411 -4.6925783 -0.026912468 -4.6822805 -41.229057 -126.934
23986000 -41.98035 -64.758713 -0.02489222 -4.8872809 -0.024661819 -4.8867679 -41.094437 -126.82301
24985000 -41.532711 -67.320122 -0.026065504 -5.0947051 -0.025397845 -5.0941944 -40.919472 -124.4866
25984000 -41.22496 -69.773392 -0.027674926 -5.3012977 -0.0260366 -5.301115 -40.577469 -122.8542
26983000 -40.873859 -71.18026 -0.028002666 -5.5015106 -0.027416764 -5.516727 -40.423134 -122.19215
27982000 -40.73019 -72.285774 -0.029122325 -5.7004118 -0.028999584 -5.7347021 -40.135662 -120.71049
28981000 -40.703629 -73.666023 -0.026977325 -5.8977413 -0.028832806 -5.9210196 -39.966408 -119.98223
29980000 -40.220154 -75.174904 -0.026925491 -6.0922613 -0.02905092 -6.0983939 -39.681957 -119.15937
30979000 -39.904346 -74.082794 -0.02485447 -6.4468584 -0.023667978 -6.4373879 -39.161011 -119.47101
31978000 -39.687691 -75.130692 -0.024203395 -6.6439466 -0.024420235 -6.6361866 -38.915764 -118.68044
32977000 -39.497414 -76.539642 -0.023686457 -6.8501387 -0.025375452 -6.8476305 -38.719872 -118.74708
33976000 -39.329983 -77.759727 -0.024950279 -7.0500493 -0.025442891 -7.0493498 -38.415539 -118.21241
34975000 -39.040623 -78.419609 -0.024987249 -7.2533622 -0.026398072 -7.2553635 -38.178761 -117.85197
35974000 -38.842373 -79.005035 -0.023921233 -7.4496722 -0.025984777 -7.4515991 -37.91608 -116.93533
36973000 -38.607811 -79.558983 -0.02441529 -7.6491666 -0.027121888 -7.6512752 -37.652485 -116.14352
37972000 -38.457874 -79.387245 -0.024160964 -7.8581414 -0.026678052 -7.8642287 -37.41246 -115.37285
38971000 -38.132275 -78.897591 -0.02531817 -8.0595427 -0.026843965 -8.0741119 -37.265076 -113.67693
39970000 -37.791695 -79.023254 -0.024053982 -8.2524395 -0.026061598 -8.2692785 -37.025982 -113.03555
40969000 -37.524315 -78.841881 -0.023368932 -8.4474611 -0.025612142 -8.469389 -36.77161 -111.63257
41968000 -37.175964 -78.751747 -0.024448872 -8.6579466 -0.025967849 -8.6750669 -36.576874 -110.43956
42967000 -36.91214 -78.747208 -0.023569595 -8.8654852 -0.026500685 -8.8860397 -36.393227 -108.72384
43966000 -36.611561 -79.513283 -0.025048431 -9.0622463 -0.027901059 -9.0832405 -36.137066 -107.93082
44965000 -36.372379 -80.178856 -0.026605126 -9.2707777 -0.027917732 -9.2890358 -35.914829 -107.69766
45964000 -36.136894 -81.241432 -0.027024731 -9.4690456 -0.029312829 -9.4928818 -35.68401 -107.38012
46963000 -35.955872 -83.273766 -0.026598353 -9.6607246 -0.029757457 -9.6864214 -35.512432 -107.55818
47962000 -35.784443 -84.612846 -0.028619394 -9.8642845 -0.030893212 -9.8823042 -35.293575 -107.63083
48961000 -35.566326 -85.987335 -0.030716196 -10.063256 -0.03201101 -10.081721 -35.062523 -107.72857
49960000 -35.329628 -87.306221 -0.031621169 -10.262125 -0.033159092 -10.285188 -34.926125 -107.8612
50959000 -35.10334 -88.545563 -0.032698467 -10.475338 -0.034601275 -10.484835 -34.747746 -108.10441
51958000 -34.896111 -89.596176 -0.034065098 -10.673739 -0.03641016 -10.683452 -34.585678 -108.52424
52957000 -34.685383 -90.601746 -0.035878718 -10.876645 -0.03723982 -10.881592 -34.423965 -108.26819
53956000 -34.521809 -91.388397 -0.037034869 -11.079086 -0.037093613 -11.078604 -34.280239 -108.30991
54955000 -34.347233 -91.733261 -0.037735656 -11.277782 -0.038488004 -11.275109 -34.134609 -108.23225
55954000 -34.18681 -92.683479 -0.038602397 -11.47984 -0.038803242 -11.476177 -34.01823 -107.96413
56953000 -34.062233 -92.634377 -0.038337838 -11.679068 -0.037401438 -11.666801 -33.952522 -108.19547
57952000 -33.900673 -93.245865 -0.039384414 -11.877551 -0.038486701 -11.86548 -33.855659 -108.22135
58951000 -33.778297 -93.587769 -0.040249128 -12.081591 -0.040214118 -12.060743 -33.702633 -108.35122
59950000 -33.637241 -94.010605 -0.040941551 -12.283545 -0.04070298 -12.256586 -33.621052 -108.57783
60949000 -33.5182 -94.564346 -0.041380838 -12.480136 -0.041340068 -12.463434 -33.527683 -108.86066
61948000 -33.456406 -94.841873 -0.041414026 -12.681964 -0.041188236 -12.663127 -33.426407 -108.9891
62947000 -33.37315 -95.013504 -0.041888908 -12.893689 -0.041457146 -12.876698 -33.304031 -109.17673
63946000 -33.291668 -95.802887 -0.043161698 -13.092505 -0.042659752 -13.074616 -33.18169 -109.31474
64945000 -33.181473 -95.982162 -0.043843076 -13.292717 -0.042740528 -13.276355 -33.077389 -109.88912
65944000 -33.08329 -96.278244 -0.04425703 -13.492554 -0.044110585 -13.475561 -32.974186 -110.26279
66943000 -32.937782 -96.586281 -0.042426053 -13.692261 -0.042136952 -13.676287 -32.879539 -110.52366
67942000 -32.888653 -96.636818 -0.04394532 -13.8905 -0.044142228 -13.880235 -32.748543 -110.85509
68941000 -32.771038 -96.702133 -0.044049393 -14.08403 -0.042778697 -14.078057 -32.648117 -110.71919
69940000 -32.676403 -96.676857 -0.044399295 -14.284595 -0.043628141 -14.275427 -32.509701 -111.0172
70939000 -32.566868 -96.531929 -0.044486903 -14.481028 -0.043310985 -14.473169 -32.375484 -110.96916
71938000 -32.428738 -96.231384 -0.043722793 -14.676999 -0.043044832 -14.664987 -32.228828 -110.79309
72937000 -32.281086 -96.015259 -0.043432303 -14.876567 -0.04322366 -14.871672 -32.097824 -110.52856
73936000 -32.12801 -95.652985 -0.043404587 -15.074292 -0.041869044 -15.06839 -31.990658 -110.28973
74935000 -32.007561 -95.821739 -0.04267988 -15.27007 -0.0422998 -15.269129 -31.835623 -109.93643
75934000 -31.885427 -96.082809 -0.042673346 -15.479777 -0.04140697 -15.475957 -31.748974 -109.88195
76933000 -31.760361 -96.510658 -0.043944273 -15.675451 -0.042315744 -15.668352 -31.582842 -110.26137
77932000 -31.643276 -97.205467 -0.044752099 -15.871157 -0.044508349 -15.865425 -31.473631 -110.11364
78931000 -31.580908 -97.908089 -0.043681741 -16.070555 -0.043876547 -16.066486 -31.374426 -109.99725
79930000 -31.464434 -98.818176 -0.046164125 -16.261869 -0.045895703 -16.264725 -31.286207 -110.32954
80929000 -31.349026 -99.565567 -0.047896959 -16.457996 -0.047774207 -16.461174 -31.177101 -110.64666
81928000 -31.250656 -100.32853 -0.047949303 -16.654413 -0.048521493 -16.64963 -31.050215 -110.57991
82927000 -31.151957 -101.11292 -0.049761925 -16.851992 -0.049670804 -16.849604 -30.952122 -110.84238
83926000 -31.03372 -101.72833 -0.051475763 -17.051994 -0.049931079 -17.050018 -30.827312 -111.01273
84925000 -30.935076 -102.17001 -0.05212963 -17.248056 -0.050134543 -17.242294 -30.729654 -111.07483
85924000 -30.840727 -102.57442 -0.053407259 -17.446936 -0.051833857 -17.448261 -30.645535 -111.02132
86923000 -30.735167 -103.06276 -0.053221721 -17.646036 -0.051962748 -17.642612 -30.547867 -110.93184
87922000 -30.616261 -103.36144 -0.052957583 -17.854609 -0.051951483 -17.848787 -30.457666 -110.99745
88921000 -30.556553 -103.68604 -0.054462977 -18.050648 -0.053003177 -18.047901 -30.364319 -110.94325
89920000 -30.450809 -104.18798 -0.055517901 -18.25016 -0.05320102 -18.243572 -30.319757 -111.12244
90919000 -30.349228 -104.45614 -0.055588167 -18.444454 -0.053796962 -18.442411 -30.225943 -111.21049
91918000 -30.249966 -104.74355 -0.055968102 -18.647282 -0.054330867 -18.639942 -30.168947 -111.19912
92917000 -30.154934 -105.201 -0.057308242 -18.845791 -0.055689376 -18.846817 -30.096697 -111.36309
93916000 -30.067667 -105.45145 -0.056165822 -19.039486 -0.055694882 -19.033461 -30.009024 -111.92833
94915000 -29.989468 -106.10143 -0.057951182 -19.243471 -0.056213547 -19.235149 -29.954058 -111.84701
95914000 -29.922274 -106.30232 -0.05944125 -19.437595 -0.05751992 -19.434107 -29.855549 -112.08517
96913000 -29.837486 -106.50403 -0.060396064 -19.633667 -0.058669519 -19.636795 -29.796099 -112.41339
97912000 -29.767838 -106.96539 -0.061046023 -19.83337 -0.058905143 -19.836109 -29.718773 -112.63214
98911000 -29.655329 -107.09008 -0.061562702 -20.03639 -0.060451448 -20.034035 -29.673603 -112.89416
99910000 -29.593876 -107.24829 -0.062745675 -20.233232 -0.06046221 -20.232552 -29.565149 -113.17799
100909000 -29.499285 -107.48933 -0.062267981 -20.441267 -0.060062721 -20.437391 -29.478779 -113.36236
101908000 -29.40819 -107.69528 -0.063774504 -20.642788 -0.061494175 -20.643433 -29.37326 -113.14862
102907000 -29.27668 -107.69985 -0.063284621 -20.842857 -0.061098266 -20.840134 -29.303164 -113.18825
103906000 -29.180649 -107.73653 -0.063749284 -21.047365 -0.060366929 -21.041397 -29.147932 -113.09637
104905000 -29.034945 -107.60258 -0.064656444 -21.248154 -0.061123993 -21.243433 -29.032461 -112.77798
105904000 -28.894775 -107.69382 -0.064909734 -21.447563 -0.061763037 -21.444351 -28.916256 -112.67998
106903000 -28.778969 -107.72198 -0.064396597 -21.653511 -0.06263905 -21.649298 -28.792187 -112.52435
107902000 -28.623112 -108.12796 -0.06531965 -21.856146 -0.062418189 -21.849033 -28.659981 -112.51527
108901000 -28.506542 -108.38662 -0.066962354 -22.06002 -0.063826777 -22.049715 -28.528172 -112.43665
109900000 -28.385874 -108.80286 -0.067100629 -22.259289 -0.065007478 -22.249401 -28.381168 -112.53087
110899000 -28.266769 -109.42648 -0.068409763 -22.457232 -0.066013977 -22.448034 -28.256413 -112.8028
111898000 -28.172373 -110.05159 -0.070211738 -22.655008 -0.067228399 -22.650713 -28.135744 -112.92136
112897000 -28.046217 -110.60767 -0.071340494 -22.856045 -0.068147063 -22.8477 -28.004389 -113.092
113896000 -27.94598 -111.18191 -0.072155274 -23.053352 -0.069639578 -23.046921 -27.894896 -113.21796
114895000 -27.840477 -111.82935 -0.073175542 -23.251591 -0.070454828 -23.242472 -27.78779 -113.30112
115894000 -27.715567 -112.15485 -0.074910499 -23.456146 -0.071839444 -23.441957 -27.723667 -113.51079
116893000 -27.64699 -112.6729 -0.075620055 -23.652796 -0.072382152 -23.636168 -27.594934 -113.52188
117892000 -27.564634 -113.15259 -0.075906388 -23.848631 -0.072677486 -23.835966 -27.516926 -113.74845
118891000 -27.503557 -113.56448 -0.075985946 -24.047667 -0.073404059 -24.033373 -27.424576 -113.88097
119890000 -27.414387 -113.92226 -0.07603652 -24.249105 -0.073790029 -24.236403 -27.410801 -114.0164
120889000 -27.365854 -114.41918 -0.077528588 -24.45026 -0.073277161 -24.438656 -27.338182 -113.98711
121888000 -27.325617 -114.71885 -0.077588409 -24.648825 -0.074205793 -24.635788 -27.280182 -114.20998
122887000 -27.289227 -114.94087 -0.078636318 -24.8496 -0.075167283 -24.838705 -27.230083 -114.2292
123886000 -27.234592 -115.35287 -0.078861952 -25.054632 -0.075119615 -25.03414 -27.215103 -114.41241
124885000 -27.19471 -115.82828 -0.079255268 -25.253267 -0.075457796 -25.240215 -27.187979 -114.40351
125884000 -27.145361 -116.04353 -0.080347352 -25.449488 -0.076488331 -25.436806 -27.15675 -114.58694
126883000 -27.127201 -116.40938 -0.080244511 -25.656096 -0.076839268 -25.635992 -27.123404 -114.58817
127882000 -27.075161 -116.70257 -0.080598392 -25.856274 -0.077466927 -25.837454 -27.076916 -114.74707
128881000 -27.049955 -117.06828 -0.081107378 -26.056688 -0.077667207 -26.039343 -27.041668 -114.8093
129880000 -26.992317 -117.39538 -0.081793949 -26.257433 -0.077416599 -26.239674 -27.002338 -114.75745
130879000 -26.937212 -117.52531 -0.081654146 -26.458591 -0.078292347 -26.442245 -26.92976 -114.75043
131878000 -26.872009 -117.74021 -0.081771523 -26.662434 -0.078302361 -26.639082 -26.870514 -114.64361
132877000 -26.806866 -117.81893 -0.081729323 -26.865986 -0.078592032 -26.845875 -26.792587 -114.6531
133876000 -26.720013 -117.97488 -0.082515709 -27.062122 -0.078735955 -27.045792 -26.704039 -114.50663
134875000 -26.625093 -118.09818 -0.081978336 -27.263229 -0.079214931 -27.243763 -26.609964 -114.36295
135874000 -26.551065 -118.13042 -0.082492232 -27.464247 -0.07886222 -27.445152 -26.509792 -114.32119
136873000 -26.435425 -118.08467 -0.082361639 -27.666653 -0.078847453 -27.65015 -26.427902 -114.2784
137872000 -26.360027 -118.19644 -0.082337104 -27.868053 -0.079479359 -27.85458 -26.331242 -114.18212
138871000 -26.286217 -118.38774 -0.083561115 -28.066706 -0.079476453 -28.049076 -26.233728 -114.33467
139870000 -26.188198 -118.67262 -0.08345899 -28.269928 -0.08040747 -28.253508 -26.153105 -114.53057
140869000 -26.102745 -119.23691 -0.084959947 -28.463919 -0.080593117 -28.449018 -26.052446 -114.73074
141868000 -26.0214 -119.61433 -0.08530999 -28.661646 -0.082336582 -28.6479 -26.002182 -114.98959
142867000 -25.950207 -119.79511 -0.084430449 -28.862659 -0.0816494 -28.848267 -25.929031 -115.10243
143866000 -25.874365 -120.33535 -0.086059272 -29.057985 -0.083221242 -29.04446 -25.853067 -115.55379
144865000 -25.816296 -120.81419 -0.087715648 -29.257347 -0.085048378 -29.239962 -25.796417 -115.85875
145864000 -25.759529 -121.11352 -0.087813117 -29.455822 -0.086574711 -29.447069 -25.766947 -116.108
146863000 -25.715027 -121.4554 -0.088444479 -29.65901 -0.086402275 -29.64753 -25.720005 -116.4194
147862000 -25.678722 -121.82872 -0.089535438 -29.852091 -0.086835355 -29.843485 -25.68737 -116.70245
148861000 -25.640083 -122.26887 -0.09112414 -30.056566 -0.088478558 -30.03989 -25.657478 -116.90231
149860000 -25.606466 -122.41583 -0.091479443 -30.246191 -0.088574722 -30.233997 -25.610277 -116.9705
150859000 -25.589279 -122.948 -0.091414675 -30.444439 -0.088659525 -30.432131 -25.58667 -117.32338
151858000 -25.579042 -123.26514 -0.091051973 -30.642712 -0.088076219 -30.629484 -25.578705 -117.69225
152857000 -25.565662 -123.58936 -0.091313422 -30.844807 -0.088059314 -30.826721 -25.561224 -117.8454
153856000 -25.559353 -123.80218 -0.0910118 -31.042784 -0.088091537 -31.029703 -25.579508 -118.14761
154855000 -25.554319 -123.99128 -0.091672964 -31.244646 -0.088110298 -31.233082 -25.570393 -118.40379
155854000 -25.569658 -124.21306 -0.091543421 -31.440918 -0.089106575 -31.428989 -25.559839 -118.68376
156853000 -25.555065 -124.86878 -0.089347027 -31.629848 -0.088125356 -31.620832 -25.557379 -119.01329
157852000 -25.563946 -125.10011 -0.090488695 -31.832773 -0.08899349 -31.823719 -25.545183 -119.32405
158851000 -25.558981 -125.33006 -0.090913199 -32.030693 -0.089611806 -32.023956 -25.520729 -119.63578
159850000 -25.549799 -125.4529 -0.092240363 -32.228825 -0.089544423 -32.223091 -25.524845 -119.79029
160849000 -25.532785 -125.52454 -0.091927305 -32.42907 -0.090091459 -32.424618 -25.496044 -120.09175
161848000 -25.514254 -125.59962 -0.092340313 -32.629032 -0.090648346 -32.623535 -25.453207 -120.21614
162847000 -25.470123 -125.78517 -0.092465654 -32.826347 -0.090621382 -32.823513 -25.426741 -120.4344
163846000 -25.433287 -125.9708 -0.09255477 -33.030991 -0.09092351 -33.020649 -25.349731 -120.44852
164845000 -25.376572 -125.96836 -0.093455002 -33.231186 -0.091411233 -33.223495 -25.285034 -120.5563
165844000 -25.325615 -125.96266 -0.093427494 -33.432312 -0.091892406 -33.422218 -25.209818 -120.6688
166843000 -25.257832 -126.04056 -0.093498111 -33.628666 -0.091421813 -33.623398 -25.144527 -120.83871
167842000 -25.205853 -126.1388 -0.092913091 -33.831596 -0.091835827 -33.820061 -25.06937 -120.75301
168841000 -25.124493 -126.31189 -0.093214586 -34.028458 -0.092377864 -34.024773 -24.991785 -120.81329
169840000 -25.059605 -126.54675 -0.094624996 -34.218857 -0.092683814 -34.218826 -24.904425 -121.03774
170839000 -25.00272 -126.78726 -0.093950421 -34.421501 -0.093294457 -34.41787 -24.820841 -121.18985
171838000 -24.944986 -127.16164 -0.094691671 -34.624065 -0.093736425 -34.615868 -24.761454 -121.42761
172837000 -24.872305 -127.50539 -0.096109182 -34.81728 -0.09480305 -34.81646 -24.695639 -121.61658
173836000 -24.807222 -127.89902 -0.097387902 -35.017429 -0.095861204 -35.01688 -24.656038 -121.83708
174835000 -24.755823 -128.30933 -0.097697914 -35.217995 -0.096185662 -35.215061 -24.611792 -122.14688
175834000 -24.705395 -128.67392 -0.098126031 -35.415848 -0.097483203 -35.410793 -24.554193 -122.40656
176833000 -24.653828 -129.00714 -0.099676304 -35.614525 -0.098303169 -35.612453 -24.504616 -122.55296
177832000 -24.607286 -129.43707 -0.1002866 -35.813301 -0.099235579 -35.812859 -24.487398 -122.64266
178831000 -24.564642 -129.66557 -0.1018493 -36.008427 -0.10128992 -36.007366 -24.445345 -122.72442
179830000 -24.49461 -130.07988 -0.10270958 -36.192387 -0.10185619 -36.191734 -24.380682 -122.83065
180829000 -24.447128 -130.43834 -0.10175867 -36.385548 -0.10072213 -36.386333 -24.335775 -123.12511
181828000 -24.422281 -130.81955 -0.10079287 -36.584766 -0.10026276 -36.584496 -24.323154 -123.34047
182827000 -24.398129 -131.23299 -0.10158219 -36.786083 -0.10100535 -36.785336 -24.310345 -123.46841
183826000 -24.359192 -131.56171 -0.10256434 -36.983822 -0.10010647 -36.981354 -24.302773 -123.59048
184825000 -24.361151 -131.88774 -0.10160233 -37.181252 -0.10111955 -37.177753 -24.282816 -123.70891
185824000 -24.333759 -132.24591 -0.10163731 -37.3769 -0.10126316 -37.373226 -24.27659 -123.79578
186823000 -24.319155 -132.63159 -0.10172582 -37.581127 -0.1009264 -37.572521 -24.276503 -123.80973
187822000 -24.29377 -132.95694 -0.10300752 -37.769749 -0.10159094 -37.768944 -24.234451 -123.89616
188821000 -24.270098 -133.23502 -0.10213499 -37.96574 -0.10215036 -37.970295 -24.214212 -124.00289
189820000 -24.252617 -133.51086 -0.10292111 -38.16626 -0.10134 -38.166279 -24.196915 -124.17995
190819000 -24.222836 -133.81664 -0.10366866 -38.361778 -0.10196935 -38.363346 -24.159445 -124.24375
191818000 -24.189962 -134.11421 -0.10374183 -38.560078 -0.10177537 -38.561214 -24.127441 -124.26678
192817000 -24.143654 -134.37544 -0.10481039 -38.756405 -0.1022357 -38.760345 -24.089375 -124.37343
193816000 -24.114294 -134.6487 -0.10467461 -38.953011 -0.1024297 -38.952526 -24.038054 -124.52048
194815000 -24.050587 -135.03131 -0.10396719 -39.15073 -0.10351649 -39.152023 -23.971052 -124.53253
195814000 -23.999153 -135.22348 -0.10509812 -39.346416 -0.10364559 -39.348686 -23.918304 -124.65469
196813000 -23.940893 -135.54637 -0.10515302 -39.539745 -0.10354724 -39.542439 -23.834299 -124.78551
197812000 -23.882727 -135.76294 -0.10529676 -39.738651 -0.10358701 -39.736546 -23.76886 -124.89188
198811000 -23.829741 -135.92642 -0.10532275 -39.935364 -0.10339455 -39.939011 -23.695902 -125.06855
199810000 -23.764769 -136.27145 -0.10538959 -40.128754 -0.10403533 -40.131424 -23.619228 -125.13139
200809000 -23.708635 -136.52493 -0.10590944 -40.331081 -0.1035324 -40.328438 -23.544188 -125.32944
201808000 -23.650467 -136.74434 -0.10650417 -40.529942 -0.10477724 -40.531361 -23.475765 -125.39039
202807000 -23.589989 -137.03775 -0.10764506 -40.728062 -0.10574711 -40.729038 -23.423206 -125.58714
