!Keysight Technologies,E5080B,MY59205177,A.15.75.32
!Date: Friday, February 23, 2024 02:58:42
!Correction: S11(Cdelta 2-Port  ) 
!S21(Cdelta 2-Port  ) 
!S12(Cdelta 2-Port  ) 
!S22(Cdelta 2-Port  ) 
!S2P File: Measurements: S11, S21, S12, S22:
# Hz S  dB   R 50
10000000 -44.054859 -3.5139735 -0.028134238 -2.0409925 -0.030887997 -2.0970898 -48.21133 -150.0255
10999000 -43.431114 -5.3489814 -0.029306052 -2.2562642 -0.031054333 -2.3125017 -47.933846 -141.96581
11998000 -42.695759 -7.6620798 -0.029589348 -2.4827628 -0.030761296 -2.5230179 -47.895569 -136.34744
12997000 -42.037403 -12.600262 -0.028723102 -2.6625385 -0.0303455 -2.6945336 -47.400826 -129.83154
13996000 -41.781914 -16.113182 -0.028566498 -2.836735 -0.03087418 -2.8598387 -46.924877 -124.45748
14995000 -41.48457 -19.545704 -0.030126538 -3.0483963 -0.030348888 -3.0737216 -46.487968 -121.12102
15994000 -41.382523 -23.473234 -0.031525213 -3.2678649 -0.033260301 -3.286607 -46.252663 -117.7173
16993000 -41.351505 -27.532997 -0.030857494 -3.4581568 -0.032498423 -3.4693162 -45.274353 -118.46645
17992000 -41.411369 -32.232952 -0.031066846 -3.6594503 -0.032878693 -3.6636751 -44.723263 -119.43567
18991000 -41.727699 -36.353935 -0.03164959 -3.8725359 -0.033303339 -3.8681684 -43.974018 -119.21403
19990000 -41.568947 -41.065601 -0.034970507 -4.0786633 -0.03572081 -4.0751157 -43.320293 -120.56544
20989000 -41.468559 -44.048126 -0.036538333 -4.2823224 -0.037300393 -4.2734046 -42.669941 -120.44157
21988000 -41.391594 -49.085163 -0.036743257 -4.4795499 -0.038280383 -4.4661741 -42.460186 -119.99768
22987000 -41.153992 -53.517239 -0.037792843 -4.675386 -0.039740466 -4.6672306 -42.196228 -119.5261
23986000 -41.169239 -57.092491 -0.037887368 -4.8721933 -0.037683956 -4.8706245 -42.048397 -119.6031
24985000 -40.864071 -59.720772 -0.03840182 -5.0777597 -0.038256358 -5.0742488 -41.756893 -117.03711
25984000 -40.60743 -61.800201 -0.039647207 -5.2881231 -0.038715225 -5.2873359 -41.418499 -115.84124
26983000 -40.340054 -63.821758 -0.040073298 -5.4803877 -0.039852802 -5.501123 -41.302834 -114.91335
27982000 -40.19548 -64.637199 -0.04119895 -5.6839757 -0.041995022 -5.7174697 -41.013969 -113.37733
28981000 -40.187408 -66.184044 -0.039974805 -5.8812866 -0.041283619 -5.9024096 -40.740543 -112.82941
29980000 -39.790924 -67.467201 -0.039040402 -6.0718193 -0.041386586 -6.0818224 -40.399933 -112.17299
30979000 -39.452126 -66.8871 -0.037151311 -6.4315848 -0.036227956 -6.4197221 -39.914757 -112.94405
31978000 -39.258949 -68.128555 -0.036145736 -6.6219239 -0.037343998 -6.6119995 -39.627804 -112.2402
32977000 -39.095699 -69.685593 -0.036148869 -6.831778 -0.038028382 -6.8258929 -39.392036 -112.40584
33976000 -38.960037 -70.740311 -0.037583686 -7.0347075 -0.038093925 -7.028264 -39.064545 -112.18345
34975000 -38.673653 -71.735687 -0.037010331 -7.2322245 -0.03922037 -7.2299566 -38.83955 -111.7827
35974000 -38.489281 -72.254692 -0.035888113 -7.42766 -0.03818376 -7.4289179 -38.529545 -111.09442
36973000 -38.285999 -73.385887 -0.037004586 -7.6261592 -0.039381538 -7.6311059 -38.229912 -110.14341
37972000 -38.105408 -73.322235 -0.036238398 -7.8344474 -0.039172046 -7.844779 -37.985893 -109.53748
38971000 -37.795895 -73.073936 -0.037541389 -8.0360203 -0.039568312 -8.0487442 -37.809093 -108.06571
39970000 -37.476246 -73.666786 -0.035401884 -8.2300549 -0.038428459 -8.245347 -37.517067 -107.70164
40969000 -37.175667 -73.493896 -0.036093008 -8.424057 -0.038595866 -8.4405966 -37.249531 -106.36218
41968000 -36.850689 -73.668198 -0.0361319 -8.6279745 -0.039101783 -8.6425104 -37.037155 -105.21032
42967000 -36.577412 -73.966064 -0.036371265 -8.8385658 -0.038783651 -8.8597012 -36.822697 -103.50629
43966000 -36.305969 -74.860481 -0.036787115 -9.042202 -0.040906012 -9.0585632 -36.524132 -102.96754
44965000 -36.084126 -75.721107 -0.037647922 -9.2410831 -0.040288318 -9.2623148 -36.293846 -102.80544
45964000 -35.864552 -76.877045 -0.039055027 -9.4409237 -0.042322017 -9.4625998 -36.068985 -102.57442
46963000 -35.695789 -78.973465 -0.038562436 -9.6372967 -0.04205906 -9.6575193 -35.883072 -102.97443
47962000 -35.553883 -80.375008 -0.040288843 -9.8409672 -0.043423936 -9.8528814 -35.676785 -103.1276
48961000 -35.351189 -81.841858 -0.042820524 -10.034282 -0.044977289 -10.052556 -35.462601 -103.50143
49960000 -35.146461 -83.234596 -0.043435179 -10.233222 -0.045594078 -10.253568 -35.313492 -103.673
50959000 -34.940918 -84.64975 -0.044464674 -10.445603 -0.047407549 -10.454403 -35.145889 -104.06915
51958000 -34.741753 -85.841194 -0.04659583 -10.643353 -0.048448719 -10.651038 -34.958504 -104.66917
52957000 -34.53397 -86.915077 -0.04777028 -10.845646 -0.049862735 -10.84924 -34.793076 -104.48805
53956000 -34.381844 -87.717758 -0.048824891 -11.045177 -0.050724827 -11.045472 -34.665524 -104.50608
54955000 -34.227135 -88.13179 -0.04991563 -11.245771 -0.050896376 -11.245117 -34.500656 -104.55596
55954000 -34.068035 -89.071419 -0.051389843 -11.445707 -0.05116275 -11.441608 -34.399605 -104.34734
56953000 -33.948429 -89.147087 -0.050743423 -11.644425 -0.050607234 -11.630801 -34.345917 -104.53924
57952000 -33.797512 -89.775803 -0.051507983 -11.841882 -0.051150963 -11.829461 -34.221046 -104.60261
58951000 -33.693367 -90.142456 -0.053061351 -12.046772 -0.05197506 -12.023721 -34.070534 -104.7858
59950000 -33.569244 -90.562599 -0.053441066 -12.24562 -0.052736431 -12.221648 -33.987637 -105.0912
60949000 -33.455059 -91.038246 -0.053398348 -12.447527 -0.0540145 -12.423605 -33.910099 -105.29692
61948000 -33.405167 -91.402809 -0.054330081 -12.646546 -0.05387323 -12.625635 -33.827251 -105.45121
62947000 -33.313179 -91.647499 -0.054091558 -12.852428 -0.054729305 -12.82938 -33.67823 -105.75858
63946000 -33.249634 -92.349358 -0.055159763 -13.053198 -0.054804277 -13.033233 -33.57996 -105.87952
64945000 -33.139526 -92.586891 -0.055804223 -13.25377 -0.055960763 -13.235654 -33.460564 -106.38783
65944000 -33.04335 -92.887772 -0.056857899 -13.453322 -0.055817332 -13.434923 -33.381256 -106.81107
66943000 -32.910957 -93.240303 -0.054445151 -13.655527 -0.054625496 -13.637884 -33.272392 -107.16743
67942000 -32.845181 -93.323509 -0.056394227 -13.850134 -0.056572556 -13.838481 -33.153889 -107.46503
68941000 -32.743759 -93.480453 -0.055761218 -14.044141 -0.055591051 -14.035224 -33.044308 -107.44291
69940000 -32.640545 -93.322548 -0.056937627 -14.241059 -0.05626547 -14.23405 -32.902821 -107.73442
70939000 -32.533089 -93.313843 -0.056062765 -14.439409 -0.056043886 -14.429393 -32.766479 -107.67484
71938000 -32.392311 -93.002243 -0.056339681 -14.63541 -0.055444226 -14.629229 -32.648006 -107.46574
72937000 -32.22403 -92.804764 -0.055267777 -14.831001 -0.055790849 -14.823947 -32.493626 -107.24519
73936000 -32.089741 -92.488251 -0.055852205 -15.027573 -0.05441422 -15.025212 -32.394035 -107.08521
74935000 -31.970335 -92.777466 -0.055040479 -15.227115 -0.054137953 -15.223498 -32.2276 -106.71305
75934000 -31.849163 -93.103859 -0.054817121 -15.43347 -0.054188799 -15.429553 -32.148315 -106.72089
76933000 -31.715574 -93.517975 -0.05580632 -15.626008 -0.055148229 -15.61872 -31.983448 -107.09204
77932000 -31.628365 -94.294632 -0.056799937 -15.824267 -0.05710208 -15.816138 -31.883205 -107.14988
78931000 -31.557903 -95.044281 -0.056012418 -16.024128 -0.05665648 -16.016119 -31.783009 -106.97957
79930000 -31.443867 -95.881134 -0.058973629 -16.215231 -0.058834821 -16.215441 -31.700371 -107.33504
80929000 -31.317196 -96.775467 -0.060243301 -16.410965 -0.060279783 -16.412701 -31.592079 -107.69102
81928000 -31.248135 -97.700462 -0.060064819 -16.605062 -0.060435697 -16.60063 -31.46513 -107.79349
82927000 -31.151239 -98.397934 -0.061700545 -16.800713 -0.061556924 -16.798883 -31.364262 -108.13415
83926000 -31.044744 -99.090492 -0.063193209 -16.99897 -0.062335994 -17.001116 -31.247189 -108.38708
84925000 -30.936434 -99.59903 -0.063966274 -17.199181 -0.06321948 -17.194166 -31.155386 -108.51434
85924000 -30.848454 -99.989464 -0.064166717 -17.399715 -0.064291507 -17.396433 -31.077644 -108.43073
86923000 -30.745392 -100.6424 -0.065159619 -17.59906 -0.064585499 -17.586763 -30.977804 -108.37434
87922000 -30.633272 -100.95399 -0.06461861 -17.803528 -0.064219519 -17.790937 -30.877378 -108.43094
88921000 -30.571262 -101.23711 -0.065610297 -18.001156 -0.064973317 -17.992189 -30.795191 -108.43233
89920000 -30.478405 -101.87376 -0.067052789 -18.198805 -0.065318339 -18.188021 -30.736679 -108.59885
90919000 -30.385492 -102.12872 -0.068125241 -18.390303 -0.065682836 -18.388426 -30.661531 -108.83784
91918000 -30.28414 -102.49023 -0.06809105 -18.594023 -0.067205787 -18.589851 -30.591152 -108.77787
92917000 -30.201344 -102.84142 -0.069018841 -18.795506 -0.067968786 -18.787243 -30.524128 -108.92143
93916000 -30.114666 -103.22608 -0.068930469 -18.9872 -0.068315357 -18.979845 -30.437744 -109.61066
94915000 -30.046444 -103.88696 -0.070602693 -19.185017 -0.068743482 -19.178671 -30.373983 -109.44562
95914000 -29.984316 -104.07706 -0.071458124 -19.377439 -0.069657207 -19.378708 -30.286814 -109.73042
96913000 -29.893944 -104.29998 -0.072398208 -19.580296 -0.070867904 -19.576241 -30.219614 -110.06416
97912000 -29.822451 -104.81371 -0.073331133 -19.772711 -0.070787922 -19.777412 -30.142939 -110.28084
98911000 -29.715269 -104.96794 -0.073822677 -19.97883 -0.072157905 -19.974739 -30.10128 -110.59417
99910000 -29.652325 -105.12114 -0.074916027 -20.177347 -0.072440058 -20.176277 -29.987417 -110.82848
100909000 -29.568409 -105.44784 -0.073750801 -20.385756 -0.071883135 -20.375864 -29.904194 -111.07777
101908000 -29.479126 -105.69158 -0.074967384 -20.585075 -0.073506467 -20.579971 -29.800224 -110.80305
102907000 -29.347841 -105.69386 -0.07524024 -20.775751 -0.073169224 -20.777662 -29.726557 -110.74078
103906000 -29.256491 -105.77021 -0.075505741 -20.990219 -0.072719604 -20.983801 -29.572451 -110.75793
104905000 -29.107924 -105.69292 -0.076231465 -21.184565 -0.073289007 -21.181757 -29.44669 -110.40045
105904000 -28.968264 -105.82341 -0.076298378 -21.384764 -0.073792659 -21.385664 -29.333702 -110.28276
106903000 -28.861135 -105.90521 -0.076728344 -21.592258 -0.073617049 -21.586411 -29.208 -110.14758
107902000 -28.69865 -106.28602 -0.076796323 -21.793684 -0.074420668 -21.787178 -29.0662 -110.16109
108901000 -28.583679 -106.56686 -0.07831686 -21.994574 -0.075545773 -21.988396 -28.936148 -110.04586
109900000 -28.457975 -107.06005 -0.079007469 -22.195656 -0.076959684 -22.183893 -28.784187 -110.16663
110899000 -28.341311 -107.65399 -0.080114253 -22.389235 -0.077774465 -22.383411 -28.67024 -110.44656
111898000 -28.248627 -108.35159 -0.081923462 -22.591969 -0.079041734 -22.585567 -28.549006 -110.63387
112897000 -28.129677 -108.94485 -0.083136007 -22.791389 -0.079485945 -22.778578 -28.413126 -110.81706
113896000 -28.029367 -109.54805 -0.084001034 -22.991913 -0.080951512 -22.978746 -28.299738 -111.00048
114895000 -27.920792 -110.14005 -0.08459647 -23.188202 -0.082851574 -23.175117 -28.187672 -111.0033
115894000 -27.79356 -110.51766 -0.087141179 -23.38941 -0.083392493 -23.377411 -28.124619 -111.2358
116893000 -27.710115 -111.08198 -0.086350515 -23.585958 -0.08435259 -23.566904 -27.99081 -111.4096
117892000 -27.637793 -111.59761 -0.086946271 -23.778736 -0.084836937 -23.768852 -27.915888 -111.63883
118891000 -27.576704 -112.01585 -0.087225169 -23.981207 -0.084701523 -23.967093 -27.825756 -111.72944
119890000 -27.484034 -112.36358 -0.088193245 -24.182964 -0.086047128 -24.17116 -27.809181 -111.90432
120889000 -27.433962 -112.88323 -0.088512637 -24.380836 -0.08627975 -24.373882 -27.732895 -111.8709
121888000 -27.394182 -113.22845 -0.089194298 -24.577938 -0.085935965 -24.565248 -27.669561 -112.14256
122887000 -27.349525 -113.42297 -0.090422615 -24.781818 -0.086425774 -24.768108 -27.625355 -112.18015
123886000 -27.292048 -113.85493 -0.090802975 -24.981405 -0.087287761 -24.965513 -27.610186 -112.33141
124885000 -27.25481 -114.34945 -0.090744026 -25.182508 -0.087725952 -25.167597 -27.577932 -112.42941
125884000 -27.207251 -114.54865 -0.091545537 -25.377029 -0.088211209 -25.365412 -27.552427 -112.62358
126883000 -27.188784 -114.90495 -0.092330001 -25.581501 -0.088933773 -25.567057 -27.506134 -112.6758
127882000 -27.134239 -115.2103 -0.092088595 -25.78121 -0.089527771 -25.762844 -27.464838 -112.83235
128881000 -27.102709 -115.55659 -0.092463538 -25.982368 -0.089369752 -25.965824 -27.419897 -112.955
129880000 -27.051313 -115.8509 -0.093354762 -26.185415 -0.089520901 -26.166582 -27.380104 -112.92352
130879000 -26.989878 -116.01579 -0.092990577 -26.383698 -0.090022482 -26.365095 -27.303759 -113.002
131878000 -26.917931 -116.25185 -0.0930961 -26.584015 -0.09078262 -26.568447 -27.239943 -112.92161
132877000 -26.8542 -116.30732 -0.093421146 -26.784733 -0.091213226 -26.767519 -27.154976 -112.87756
133876000 -26.767143 -116.51184 -0.093263246 -26.987286 -0.090427905 -26.964571 -27.05925 -112.79448
134875000 -26.672977 -116.63992 -0.093175441 -27.186363 -0.091202125 -27.168932 -26.963821 -112.71741
135874000 -26.589558 -116.64497 -0.093686171 -27.385109 -0.091032676 -27.372658 -26.858093 -112.62686
136873000 -26.473684 -116.56737 -0.093673475 -27.588549 -0.091257639 -27.571714 -26.776173 -112.65485
137872000 -26.400261 -116.70109 -0.093419291 -27.793924 -0.091516986 -27.773956 -26.670567 -112.59653
138871000 -26.326588 -116.88951 -0.094953336 -27.989374 -0.092037827 -27.97349 -26.572479 -112.74702
139870000 -26.225166 -117.17435 -0.095348373 -28.191132 -0.093015172 -28.173847 -26.489958 -112.90492
140869000 -26.135866 -117.63187 -0.097391076 -28.384855 -0.094216272 -28.367922 -26.383692 -113.03957
141868000 -26.045692 -118.11517 -0.097447202 -28.578016 -0.094961002 -28.560364 -26.31155 -113.38405
142867000 -25.969059 -118.35913 -0.096267447 -28.774481 -0.094186381 -28.756924 -26.242416 -113.56229
143866000 -25.896477 -118.85192 -0.09761399 -28.970739 -0.095163152 -28.955635 -26.166994 -114.08282
144865000 -25.839081 -119.38858 -0.098981872 -29.16991 -0.096399248 -29.155161 -26.107674 -114.38527
145864000 -25.785913 -119.70083 -0.099762648 -29.369127 -0.097201005 -29.357601 -26.076036 -114.64487
146863000 -25.735819 -120.09564 -0.099733517 -29.56835 -0.097600482 -29.55633 -26.026682 -114.93674
147862000 -25.698231 -120.46685 -0.10128727 -29.767864 -0.098252334 -29.752335 -25.994074 -115.2815
148861000 -25.667425 -120.95742 -0.10123454 -29.963869 -0.099172287 -29.948631 -25.967497 -115.56302
149860000 -25.655724 -121.18618 -0.10229294 -30.163189 -0.099375419 -30.150053 -25.936922 -115.726
150859000 -25.635952 -121.51303 -0.10177166 -30.360117 -0.099425212 -30.347788 -25.932108 -115.96189
151858000 -25.616449 -121.87937 -0.10223676 -30.563457 -0.099618822 -30.546539 -25.919786 -116.2494
152857000 -25.599916 -122.15298 -0.10182016 -30.754822 -0.10014038 -30.748116 -25.902061 -116.39921
153856000 -25.597656 -122.3978 -0.10193834 -30.955599 -0.099574327 -30.945057 -25.920996 -116.7065
154855000 -25.59454 -122.56058 -0.10300619 -31.155214 -0.099999987 -31.142416 -25.910629 -116.93814
155854000 -25.603451 -122.76552 -0.10323231 -31.356672 -0.10037826 -31.341648 -25.905769 -117.16654
156853000 -25.589617 -123.54115 -0.10063073 -31.541117 -0.09972398 -31.535707 -25.895519 -117.46431
157852000 -25.596628 -123.71896 -0.10184295 -31.740553 -0.10110418 -31.733984 -25.890982 -117.81313
158851000 -25.589804 -123.98506 -0.10302925 -31.939379 -0.10117042 -31.931845 -25.872551 -118.03696
159850000 -25.576368 -124.08717 -0.10293171 -32.139484 -0.10126157 -32.132515 -25.872829 -118.22726
160849000 -25.559465 -124.21232 -0.10358276 -32.339958 -0.10241645 -32.334801 -25.841373 -118.50693
161848000 -25.54505 -124.33268 -0.10354883 -32.537067 -0.1026428 -32.528526 -25.806053 -118.64339
162847000 -25.498781 -124.52908 -0.10362969 -32.73468 -0.10314218 -32.731228 -25.774786 -118.85849
163846000 -25.45495 -124.75678 -0.10391496 -32.937485 -0.10310029 -32.927654 -25.699463 -118.86337
164845000 -25.39922 -124.73795 -0.10405044 -33.134617 -0.10341548 -33.130001 -25.627213 -118.96549
165844000 -25.342825 -124.82656 -0.10415544 -33.333324 -0.10397302 -33.3251 -25.551109 -119.10648
166843000 -25.284239 -124.90984 -0.10405521 -33.534512 -0.10349316 -33.52626 -25.478945 -119.29413
167842000 -25.221201 -125.05264 -0.10470749 -33.731976 -0.10373335 -33.728432 -25.401884 -119.23262
168841000 -25.142944 -125.22078 -0.10490453 -33.931633 -0.10410453 -33.925758 -25.325727 -119.26318
169840000 -25.078897 -125.50388 -0.105449 -34.125526 -0.10548825 -34.122002 -25.234016 -119.47837
170839000 -25.018372 -125.77941 -0.10615931 -34.323364 -0.1042204 -34.320152 -25.144173 -119.70557
171838000 -24.960791 -126.21062 -0.10620414 -34.527039 -0.10546438 -34.514313 -25.086796 -119.91045
172837000 -24.890743 -126.54752 -0.10762409 -34.717495 -0.10693715 -34.714272 -25.022127 -120.15041
173836000 -24.820194 -126.96958 -0.10867317 -34.917004 -0.10747099 -34.915272 -24.978971 -120.37614
174835000 -24.770092 -127.42147 -0.10928367 -35.110744 -0.10819013 -35.11433 -24.928331 -120.73044
175834000 -24.712927 -127.79955 -0.11001746 -35.309937 -0.10950375 -35.307465 -24.870787 -121.00539
176833000 -24.663015 -128.19371 -0.11083847 -35.507885 -0.10954489 -35.507034 -24.813992 -121.2125
177832000 -24.61693 -128.64836 -0.11112739 -35.702118 -0.10973869 -35.705917 -24.790621 -121.35925
178831000 -24.578104 -129.0157 -0.11154436 -35.901215 -0.11022827 -35.89854 -24.754169 -121.58152
179830000 -24.541735 -129.43904 -0.11173771 -36.096191 -0.10997923 -36.103107 -24.727949 -121.6823
180829000 -24.502707 -129.65602 -0.11198898 -36.296562 -0.11160597 -36.297291 -24.694757 -121.8747
181828000 -24.480167 -130.01469 -0.11218926 -36.493073 -0.11102329 -36.489506 -24.678019 -121.99355
182827000 -24.454317 -130.33919 -0.11188008 -36.689499 -0.11178552 -36.688927 -24.662785 -122.09765
183826000 -24.41511 -130.66322 -0.11347646 -36.886284 -0.11218502 -36.881069 -24.654587 -122.21786
184825000 -24.419497 -130.99614 -0.11290866 -37.078983 -0.11242887 -37.08202 -24.638031 -122.30315
185824000 -24.391031 -131.34904 -0.1125277 -37.277294 -0.1124055 -37.279446 -24.632641 -122.37115
186823000 -24.378498 -131.6765 -0.11275458 -37.476242 -0.11273066 -37.478458 -24.630774 -122.36951
187822000 -24.357315 -131.99373 -0.11378124 -37.670403 -0.1132777 -37.671455 -24.598623 -122.41105
188821000 -24.336742 -132.28531 -0.11357583 -37.867775 -0.1136962 -37.867966 -24.581665 -122.52965
189820000 -24.322811 -132.53151 -0.11419579 -38.069592 -0.11331119 -38.067352 -24.572971 -122.697
190819000 -24.291859 -132.7744 -0.11553701 -38.265373 -0.11460136 -38.264297 -24.539444 -122.62898
191818000 -24.25848 -132.94588 -0.11616497 -38.461582 -0.11650903 -38.462467 -24.505217 -122.52721
192817000 -24.186777 -133.23672 -0.11720893 -38.645142 -0.11659411 -38.647827 -24.431774 -122.61061
193816000 -24.147314 -133.56769 -0.11589485 -38.837654 -0.11503248 -38.839035 -24.375296 -122.8862
194815000 -24.090864 -134.02142 -0.11584433 -39.0364 -0.11557955 -39.035107 -24.314077 -122.99241
195814000 -24.041698 -134.25351 -0.1164702 -39.234997 -0.11601448 -39.234264 -24.258411 -123.09434
196813000 -23.986599 -134.59818 -0.11598258 -39.427513 -0.11533444 -39.431637 -24.184341 -123.27905
197812000 -23.935377 -134.84383 -0.11664782 -39.627445 -0.1162995 -39.623215 -24.113411 -123.36502
198811000 -23.875008 -135.00191 -0.11626387 -39.823067 -0.11560241 -39.82708 -24.044804 -123.55565
199810000 -23.805038 -135.37633 -0.11592967 -40.020222 -0.11548198 -40.017071 -23.967121 -123.66279
200809000 -23.747095 -135.65837 -0.11754482 -40.211735 -0.11575235 -40.216427 -23.887512 -123.84156
201808000 -23.68804 -135.90341 -0.11772861 -40.412289 -0.1172068 -40.419518 -23.82122 -123.9173
202807000 -23.634666 -136.24884 -0.11876921 -40.616207 -0.11764296 -40.617989 -23.765497 -124.11084
203806000 -23.579443 -136.72369 -0.11989576 -40.814655 -0.11772542 -40.816151 -23.70228 -124.32288
