!Keysight Technologies,E5080B,MY59205177,A.15.75.32
!Date: Friday, February 23, 2024 02:58:49
!Correction: S11(Cdelta 2-Port  ) 
!S21(Cdelta 2-Port  ) 
!S12(Cdelta 2-Port  ) 
!S22(Cdelta 2-Port  ) 
!S2P File: Measurements: S11, S21, S12, S22:
# Hz S  dB   R 50
10000000 -44.070686 -3.7706392 -0.02749778 -2.0423806 -0.031221716 -2.1001458 -48.10487 -149.69362
10999000 -43.389744 -5.3029027 -0.028621478 -2.2586443 -0.03072584 -2.312721 -47.934429 -142.46147
11998000 -42.643837 -7.9097528 -0.0296029 -2.4803848 -0.030511031 -2.5227258 -47.990936 -136.80392
12997000 -42.00774 -12.66688 -0.02856233 -2.6593552 -0.030190401 -2.6920555 -47.310337 -130.3251
13996000 -41.814789 -15.759907 -0.027851298 -2.8357105 -0.030637726 -2.8611212 -46.938622 -124.41898
14995000 -41.475655 -19.639677 -0.029622449 -3.0477903 -0.030187273 -3.0708055 -46.474545 -120.98798
15994000 -41.382153 -23.518995 -0.030647371 -3.2670469 -0.032859132 -3.2876799 -46.227867 -117.52419
16993000 -41.36158 -27.406565 -0.029873965 -3.4592359 -0.031623516 -3.4721284 -45.300186 -118.69376
17992000 -41.441193 -32.076572 -0.030575942 -3.6588683 -0.032156263 -3.6634233 -44.691856 -119.43114
18991000 -41.685078 -36.290173 -0.032026395 -3.8724308 -0.033437941 -3.8692834 -43.956371 -118.8907
19990000 -41.555157 -41.444046 -0.033822991 -4.0739594 -0.0351918 -4.0746508 -43.277924 -120.39994
20989000 -41.463673 -44.29697 -0.035796762 -4.2833095 -0.037098836 -4.2767644 -42.699718 -120.76481
21988000 -41.415222 -48.917629 -0.036395021 -4.4791183 -0.037918966 -4.4677939 -42.419312 -119.90076
22987000 -41.195694 -53.306278 -0.038003571 -4.6774011 -0.039163165 -4.6701069 -42.163578 -119.6915
23986000 -41.179657 -56.95092 -0.037267234 -4.8717656 -0.037670378 -4.8682179 -41.988716 -119.03258
24985000 -40.890549 -59.658184 -0.037715551 -5.0795622 -0.038210656 -5.075243 -41.765465 -116.97903
25984000 -40.640808 -61.948521 -0.039454158 -5.2816486 -0.038714964 -5.2876625 -41.431648 -115.83308
26983000 -40.345394 -63.872871 -0.039853584 -5.4853854 -0.039932743 -5.504303 -41.287018 -115.0276
27982000 -40.166615 -64.848389 -0.041663092 -5.6833062 -0.04093397 -5.7174072 -40.982296 -113.24434
28981000 -40.209991 -66.041313 -0.038622506 -5.8827391 -0.040794697 -5.9035692 -40.719971 -112.60024
29980000 -39.844387 -67.655243 -0.038801413 -6.0685477 -0.041966796 -6.0808611 -40.392612 -111.86633
30979000 -39.437927 -67.083649 -0.036637008 -6.4274359 -0.03648299 -6.4174318 -39.878197 -112.79626
31978000 -39.251984 -68.08017 -0.035514887 -6.6215596 -0.036850553 -6.6099362 -39.616066 -112.16058
32977000 -39.101078 -69.735519 -0.035878979 -6.8342762 -0.037439819 -6.8294339 -39.357964 -112.40742
33976000 -38.937893 -70.733597 -0.036004264 -7.0302534 -0.038000438 -7.0262284 -39.075939 -111.97644
34975000 -38.668842 -71.761856 -0.036508311 -7.2327032 -0.039112754 -7.2282639 -38.831337 -111.81976
35974000 -38.479153 -72.534088 -0.035406843 -7.4270787 -0.038786266 -7.4267526 -38.526482 -111.01853
36973000 -38.275906 -73.31768 -0.036124591 -7.6227202 -0.040024705 -7.6300583 -38.22731 -110.28484
37972000 -38.110313 -73.358551 -0.035833042 -7.8336115 -0.039559171 -7.8459358 -37.994427 -109.61802
38971000 -37.786705 -73.193047 -0.037189171 -8.0345459 -0.039728448 -8.0480824 -37.806084 -108.1987
39970000 -37.464088 -73.667183 -0.034315825 -8.2288914 -0.038550947 -8.2441111 -37.525341 -107.61836
40969000 -37.168991 -73.526253 -0.036040023 -8.4220552 -0.0384329 -8.4395761 -37.256523 -106.42727
41968000 -36.844528 -73.717651 -0.035961457 -8.6308308 -0.038925216 -8.6438427 -37.045673 -105.19585
42967000 -36.587505 -74.08654 -0.034858558 -8.839716 -0.039175704 -8.8584795 -36.804691 -103.57407
43966000 -36.316624 -74.909622 -0.036431041 -9.036375 -0.040140182 -9.0559502 -36.508602 -102.87118
44965000 -36.087658 -75.714203 -0.036988661 -9.2417107 -0.040386822 -9.2636986 -36.304222 -102.88063
45964000 -35.876995 -76.958778 -0.037973281 -9.4433403 -0.040854011 -9.4603777 -36.070969 -102.7497
46963000 -35.684387 -78.889099 -0.038774248 -9.6309204 -0.042490881 -9.6538124 -35.865948 -102.98801
47962000 -35.559322 -80.451408 -0.039489944 -9.8392038 -0.043406941 -9.8534594 -35.67664 -103.20695
48961000 -35.359924 -81.989891 -0.041876882 -10.034625 -0.044305671 -10.056628 -35.443237 -103.61708
49960000 -35.14053 -83.416306 -0.043268628 -10.231871 -0.045351066 -10.253822 -35.30682 -103.76732
50959000 -34.931549 -84.658691 -0.043797579 -10.445193 -0.046809603 -10.454896 -35.12421 -104.10439
51958000 -34.743477 -85.823853 -0.045984916 -10.641286 -0.048381709 -10.653015 -34.948322 -104.66425
52957000 -34.554459 -86.972809 -0.047323283 -10.8416 -0.049141139 -10.849985 -34.799149 -104.4683
53956000 -34.373169 -87.630478 -0.04810556 -11.045516 -0.050299261 -11.043216 -34.655277 -104.512
54955000 -34.218777 -88.190758 -0.048809182 -11.244766 -0.051572423 -11.237831 -34.51564 -104.6105
55954000 -34.055046 -89.157509 -0.050446175 -11.448427 -0.051424682 -11.442701 -34.385914 -104.27476
56953000 -33.949398 -89.159866 -0.049971405 -11.640079 -0.049628388 -11.632746 -34.318481 -104.55903
57952000 -33.797512 -89.754387 -0.051183965 -11.835096 -0.051238447 -11.827985 -34.214958 -104.64754
58951000 -33.675087 -90.117874 -0.051739812 -12.044329 -0.052337125 -12.027333 -34.0662 -104.72054
59950000 -33.55394 -90.532173 -0.053060565 -12.24416 -0.05357236 -12.221809 -34.001637 -105.06263
60949000 -33.461658 -91.129471 -0.053152803 -12.44692 -0.053661466 -12.422464 -33.910614 -105.319
61948000 -33.395313 -91.372192 -0.053141013 -12.642826 -0.053078383 -12.626043 -33.813347 -105.40747
62947000 -33.303703 -91.661461 -0.053837325 -12.856808 -0.053903636 -12.836554 -33.675587 -105.7263
63946000 -33.250229 -92.360779 -0.054006375 -13.049145 -0.054809522 -13.031032 -33.572075 -105.82217
64945000 -33.146832 -92.524612 -0.055046771 -13.255343 -0.055433474 -13.234079 -33.473534 -106.32415
65944000 -33.04705 -92.844406 -0.05579216 -13.453227 -0.056054112 -13.43492 -33.381065 -106.86459
66943000 -32.900837 -93.273926 -0.053386293 -13.656034 -0.054525886 -13.635775 -33.276871 -107.06718
67942000 -32.843399 -93.182579 -0.055459958 -13.854351 -0.056139335 -13.839523 -33.146641 -107.48489
68941000 -32.741215 -93.356102 -0.055058304 -14.042772 -0.05545681 -14.032926 -33.051746 -107.40228
69940000 -32.643631 -93.341499 -0.055249427 -14.244808 -0.056174211 -14.230129 -32.904236 -107.82349
70939000 -32.537212 -93.295784 -0.054998796 -14.440748 -0.056311097 -14.430305 -32.769241 -107.67022
71938000 -32.391254 -93.044426 -0.054945577 -14.632892 -0.056203842 -14.629992 -32.639572 -107.60434
72937000 -32.236908 -92.873779 -0.054534011 -14.833669 -0.055462316 -14.825769 -32.501549 -107.31367
73936000 -32.096512 -92.553505 -0.054233357 -15.032024 -0.055468608 -15.023252 -32.391636 -107.11479
74935000 -31.967409 -92.775757 -0.053627398 -15.223922 -0.054561011 -15.22235 -32.223907 -106.83176
75934000 -31.849775 -93.120842 -0.05397309 -15.433221 -0.054109119 -15.427239 -32.148384 -106.7376
76933000 -31.718557 -93.537384 -0.054994863 -15.627717 -0.05610472 -15.621558 -31.980759 -107.12349
77932000 -31.634207 -94.355072 -0.055794518 -15.823887 -0.05763324 -15.819385 -31.883022 -107.19527
78931000 -31.558973 -95.077515 -0.054954492 -16.024544 -0.056490734 -16.020834 -31.780052 -107.05594
79930000 -31.45433 -95.899063 -0.057695933 -16.218681 -0.058975201 -16.21516 -31.689245 -107.39681
80929000 -31.31805 -96.818893 -0.058959983 -16.40839 -0.060415223 -16.408581 -31.583138 -107.7569
81928000 -31.242672 -97.701019 -0.059229739 -16.603451 -0.060575604 -16.59984 -31.465994 -107.78528
82927000 -31.150696 -98.411583 -0.06124581 -16.803595 -0.061535135 -16.799768 -31.35511 -108.1172
83926000 -31.046196 -99.14151 -0.062295292 -17.001066 -0.06345246 -17.00289 -31.24548 -108.33253
84925000 -30.941221 -99.609085 -0.063372873 -17.197851 -0.063090518 -17.192802 -31.152727 -108.45279
85924000 -30.852625 -100.03632 -0.064224251 -17.397367 -0.064270228 -17.394329 -31.068281 -108.43638
86923000 -30.748034 -100.56148 -0.064134404 -17.594839 -0.065285757 -17.591267 -30.96549 -108.34102
87922000 -30.644274 -100.98625 -0.064873472 -17.801653 -0.06425105 -17.792049 -30.879404 -108.39067
88921000 -30.57493 -101.28936 -0.06478256 -17.998566 -0.064973846 -17.993393 -30.79965 -108.41586
89920000 -30.471272 -101.82744 -0.065447368 -18.19902 -0.065940656 -18.189739 -30.738808 -108.59917
90919000 -30.386736 -102.11324 -0.066517584 -18.39579 -0.066083364 -18.386091 -30.649017 -108.78564
91918000 -30.277435 -102.50715 -0.06678912 -18.597347 -0.066991538 -18.585537 -30.588995 -108.8526
92917000 -30.204428 -102.91975 -0.06848418 -18.790581 -0.068847626 -18.791397 -30.520498 -108.9296
93916000 -30.115934 -103.19582 -0.068035573 -18.983831 -0.068066336 -18.97887 -30.438038 -109.58144
94915000 -30.044716 -103.88137 -0.06950254 -19.187197 -0.069648527 -19.17655 -30.363966 -109.43779
95914000 -29.981535 -104.09216 -0.070450358 -19.382854 -0.070597954 -19.378874 -30.285231 -109.73261
96913000 -29.901247 -104.33209 -0.071336806 -19.580465 -0.071421541 -19.576433 -30.221493 -110.07513
97912000 -29.827101 -104.81644 -0.072849639 -19.775808 -0.07159733 -19.774273 -30.147118 -110.31879
98911000 -29.724306 -105.00168 -0.073041543 -19.978247 -0.072595358 -19.973242 -30.099554 -110.57012
99910000 -29.649715 -105.13747 -0.074034639 -20.173334 -0.073240831 -20.173409 -29.995573 -110.84032
100909000 -29.569262 -105.43687 -0.073493831 -20.385221 -0.0723432 -20.374374 -29.916746 -111.10128
101908000 -29.478415 -105.6741 -0.074472807 -20.583235 -0.073363774 -20.579647 -29.798374 -110.8074
102907000 -29.350372 -105.69942 -0.075159647 -20.782784 -0.073364303 -20.782633 -29.721947 -110.759
103906000 -29.258038 -105.80202 -0.075503632 -20.989889 -0.073396683 -20.980183 -29.584425 -110.76067
104905000 -29.104469 -105.70413 -0.075700395 -21.180508 -0.073741585 -21.185186 -29.443773 -110.44914
105904000 -28.973215 -105.79518 -0.075585812 -21.38903 -0.073478825 -21.38143 -29.32695 -110.3158
106903000 -28.855366 -105.97762 -0.075431459 -21.592997 -0.073972493 -21.583612 -29.20783 -110.21346
107902000 -28.692638 -106.29826 -0.076283887 -21.794897 -0.075065091 -21.780449 -29.064438 -110.12515
108901000 -28.586765 -106.51761 -0.077197358 -21.996841 -0.075706191 -21.984634 -28.942066 -110.08188
109900000 -28.458441 -107.0775 -0.077579185 -22.194624 -0.07685376 -22.182827 -28.787828 -110.20382
110899000 -28.343704 -107.67805 -0.079705305 -22.389292 -0.07757023 -22.383629 -28.66696 -110.50027
111898000 -28.254541 -108.38022 -0.080543011 -22.592981 -0.07873068 -22.586985 -28.545723 -110.66626
112897000 -28.127588 -108.94865 -0.08278878 -22.790874 -0.080151163 -22.776899 -28.405241 -110.84053
113896000 -28.025742 -109.51986 -0.083185092 -22.990772 -0.081530966 -22.978775 -28.294678 -110.98626
114895000 -27.923077 -110.16789 -0.084166519 -23.190985 -0.082295954 -23.174078 -28.193253 -111.09841
115894000 -27.791716 -110.51001 -0.085260622 -23.392061 -0.084221147 -23.373861 -28.112564 -111.2988
116893000 -27.713865 -111.08183 -0.085882366 -23.583643 -0.084330678 -23.566292 -27.982491 -111.4239
117892000 -27.636673 -111.61196 -0.086387224 -23.780382 -0.084976315 -23.767012 -27.91132 -111.61829
118891000 -27.575684 -112.02465 -0.086768016 -23.983938 -0.085202016 -23.965734 -27.816519 -111.73455
119890000 -27.484873 -112.40675 -0.087429598 -24.182652 -0.085674584 -24.167479 -27.805943 -111.92633
120889000 -27.430443 -112.91624 -0.088634163 -24.385427 -0.085921973 -24.368792 -27.728531 -111.90836
121888000 -27.389481 -113.24032 -0.088374205 -24.578362 -0.08646512 -24.566116 -27.671274 -112.19173
122887000 -27.353964 -113.40933 -0.089178711 -24.781063 -0.08717525 -24.763805 -27.622065 -112.22333
123886000 -27.290972 -113.83327 -0.090285182 -24.984837 -0.087542638 -24.967552 -27.605093 -112.38663
124885000 -27.259363 -114.35033 -0.090361297 -25.183109 -0.088130109 -25.163786 -27.579765 -112.39037
125884000 -27.202686 -114.5438 -0.090926416 -25.382017 -0.088322163 -25.365671 -27.54925 -112.59521
126883000 -27.183804 -114.91844 -0.091118857 -25.579971 -0.089157306 -25.567926 -27.507483 -112.65203
127882000 -27.129679 -115.22906 -0.091521479 -25.783386 -0.089708261 -25.762474 -27.465263 -112.86446
128881000 -27.103298 -115.55011 -0.092088066 -25.982622 -0.089878708 -25.96488 -27.42016 -112.97852
129880000 -27.04641 -115.85189 -0.092594437 -26.184568 -0.089639284 -26.163956 -27.376818 -112.95748
130879000 -26.98358 -116.0602 -0.09225782 -26.384628 -0.090279631 -26.366766 -27.304995 -113.009
131878000 -26.919052 -116.25867 -0.092431806 -26.586048 -0.09075354 -26.565323 -27.238834 -112.91313
132877000 -26.852457 -116.36058 -0.09194582 -26.786003 -0.091303907 -26.767 -27.158106 -112.89976
133876000 -26.766573 -116.52876 -0.092564024 -26.986588 -0.091000691 -26.966497 -27.06085 -112.80791
134875000 -26.669327 -116.60746 -0.093123339 -27.18548 -0.09182737 -27.169619 -26.960299 -112.6867
135874000 -26.59001 -116.64584 -0.093023904 -27.388243 -0.090783149 -27.365582 -26.858648 -112.71156
136873000 -26.484632 -116.57021 -0.094015494 -27.588495 -0.091044046 -27.570732 -26.769392 -112.62892
137872000 -26.394587 -116.67369 -0.093168035 -27.791901 -0.091630928 -27.774609 -26.667698 -112.61338
138871000 -26.329081 -116.88246 -0.094660453 -27.986576 -0.09140119 -27.97431 -26.570751 -112.77629
139870000 -26.225536 -117.16814 -0.095034823 -28.190018 -0.093442567 -28.171789 -26.492132 -112.93128
140869000 -26.136969 -117.60245 -0.097059116 -28.382807 -0.094351448 -28.368221 -26.385666 -113.05192
141868000 -26.03828 -118.11027 -0.096736453 -28.574085 -0.095383562 -28.562666 -26.314501 -113.35516
142867000 -25.968605 -118.36124 -0.095614836 -28.771837 -0.093573496 -28.758829 -26.238867 -113.58866
143866000 -25.903126 -118.8601 -0.09687224 -28.971907 -0.095270574 -28.951834 -26.163755 -114.08439
144865000 -25.835678 -119.39679 -0.098822445 -29.171291 -0.096632689 -29.156443 -26.111948 -114.42846
145864000 -25.790424 -119.70834 -0.09895274 -29.369183 -0.097249448 -29.358772 -26.072163 -114.67805
146863000 -25.742529 -120.101 -0.099959984 -29.568626 -0.097768597 -29.555195 -26.019484 -114.98864
147862000 -25.70219 -120.47338 -0.1008085 -29.762987 -0.097868942 -29.750177 -25.986191 -115.27151
148861000 -25.670034 -120.96423 -0.1004739 -29.965393 -0.098947972 -29.947149 -25.964788 -115.56613
149860000 -25.65291 -121.15715 -0.10106762 -30.163286 -0.099196382 -30.154562 -25.93502 -115.70171
150859000 -25.636459 -121.5361 -0.10096774 -30.362448 -0.099036425 -30.348108 -25.931847 -115.98875
151858000 -25.627087 -121.84296 -0.10169269 -30.558571 -0.10004979 -30.540911 -25.92132 -116.22688
152857000 -25.602829 -122.18127 -0.10166726 -30.759371 -0.099794962 -30.746603 -25.904163 -116.36366
153856000 -25.599531 -122.39458 -0.10128488 -30.959274 -0.099271603 -30.940891 -25.91993 -116.67907
154855000 -25.592293 -122.55479 -0.10192721 -31.156794 -0.099534333 -31.143545 -25.911129 -116.88725
155854000 -25.605059 -122.81288 -0.10165215 -31.357826 -0.10025111 -31.339815 -25.902279 -117.15871
156853000 -25.588923 -123.50823 -0.099584654 -31.54351 -0.098821916 -31.531836 -25.896959 -117.45232
157852000 -25.597294 -123.73013 -0.10118685 -31.74309 -0.1007518 -31.73325 -25.888472 -117.79892
158851000 -25.590302 -123.9922 -0.10181645 -31.943155 -0.10094256 -31.929865 -25.87841 -118.05333
159850000 -25.578272 -124.09384 -0.10244189 -32.136253 -0.10069034 -32.130692 -25.872036 -118.19447
160849000 -25.558275 -124.23549 -0.10275306 -32.338108 -0.10188641 -32.331554 -25.847685 -118.50779
161848000 -25.539709 -124.33193 -0.10322064 -32.540016 -0.10161796 -32.530514 -25.803017 -118.63838
162847000 -25.497173 -124.55704 -0.10253863 -32.736801 -0.10245991 -32.732361 -25.775476 -118.90365
163846000 -25.455799 -124.74731 -0.10297094 -32.935165 -0.1027451 -32.925949 -25.696104 -118.86887
164845000 -25.396523 -124.76515 -0.10385743 -33.137367 -0.10279096 -33.125767 -25.631523 -118.99382
165844000 -25.341978 -124.8185 -0.10330971 -33.33736 -0.10304834 -33.32663 -25.547016 -119.13481
166843000 -25.279568 -124.9025 -0.10338739 -33.529579 -0.103306 -33.526394 -25.479313 -119.29485
167842000 -25.220018 -125.05731 -0.1042668 -33.733711 -0.10311858 -33.727062 -25.402157 -119.21169
168841000 -25.143661 -125.26234 -0.10393643 -33.930504 -0.10435748 -33.92485 -25.322664 -119.28439
169840000 -25.078756 -125.51021 -0.10490161 -34.122375 -0.10445267 -34.122608 -25.234783 -119.5181
170839000 -25.014254 -125.7739 -0.10568372 -34.321541 -0.10444127 -34.322014 -25.150282 -119.69034
171838000 -24.958765 -126.19652 -0.10495995 -34.521973 -0.10628346 -34.515991 -25.089581 -119.96218
172837000 -24.890587 -126.52748 -0.10701674 -34.718742 -0.10668484 -34.714348 -25.017923 -120.18513
173836000 -24.82431 -127.00913 -0.10732187 -34.918175 -0.10778543 -34.910397 -24.970879 -120.39648
174835000 -24.768927 -127.424 -0.10807018 -35.110332 -0.10874111 -35.112114 -24.928865 -120.72956
175834000 -24.719542 -127.79608 -0.10894231 -35.31237 -0.10889719 -35.306023 -24.862989 -121.03609
176833000 -24.666815 -128.17181 -0.11030792 -35.508881 -0.10978727 -35.506802 -24.811354 -121.18931
177832000 -24.617655 -128.66306 -0.11012048 -35.704777 -0.10962772 -35.702942 -24.787024 -121.35075
178831000 -24.578993 -129.0159 -0.11081828 -35.900795 -0.1106093 -35.896999 -24.75495 -121.57613
179830000 -24.543463 -129.45634 -0.11086661 -36.096478 -0.11106153 -36.096668 -24.726942 -121.73788
180829000 -24.506685 -129.66742 -0.11202272 -36.297745 -0.11101586 -36.293442 -24.697832 -121.87289
181828000 -24.479136 -130.01549 -0.11208382 -36.494202 -0.11139987 -36.491261 -24.674685 -122.00513
182827000 -24.45422 -130.38538 -0.11237255 -36.68919 -0.11187264 -36.687626 -24.660868 -122.09525
183826000 -24.412975 -130.68848 -0.11315894 -36.883652 -0.11239965 -36.881363 -24.651325 -122.22386
184825000 -24.420879 -131.01282 -0.11236778 -37.079998 -0.11158685 -37.081181 -24.635281 -122.29877
185824000 -24.391024 -131.35786 -0.11244375 -37.275742 -0.11259358 -37.275784 -24.629919 -122.34354
186823000 -24.377798 -131.70258 -0.11282817 -37.47546 -0.11215394 -37.47179 -24.631739 -122.36285
187822000 -24.358736 -132.02995 -0.11361914 -37.669296 -0.11296684 -37.668365 -24.593081 -122.41964
188821000 -24.334307 -132.26662 -0.11334439 -37.865215 -0.11367973 -37.869724 -24.581959 -122.51876
189820000 -24.324062 -132.51985 -0.11335423 -38.068508 -0.11331464 -38.067757 -24.570698 -122.67028
190819000 -24.293663 -132.75002 -0.11490542 -38.266304 -0.11451897 -38.266243 -24.537062 -122.63739
191818000 -24.256037 -132.93799 -0.11599986 -38.460049 -0.11580259 -38.460537 -24.508512 -122.51477
192817000 -24.184126 -133.24072 -0.11687173 -38.645653 -0.11601634 -38.648579 -24.428316 -122.60116
193816000 -24.148438 -133.56403 -0.11582679 -38.838512 -0.11472575 -38.837524 -24.376823 -122.88337
194815000 -24.089382 -134.03987 -0.11557476 -39.034458 -0.11514997 -39.038761 -24.312996 -123.00499
195814000 -24.039549 -134.23648 -0.11601502 -39.234585 -0.11516751 -39.231857 -24.25725 -123.1144
196813000 -23.987391 -134.60696 -0.11517761 -39.423798 -0.11523822 -39.427567 -24.18261 -123.29173
197812000 -23.929575 -134.83281 -0.11664411 -39.625206 -0.11561756 -39.624378 -24.111992 -123.36666
198811000 -23.874193 -135.01294 -0.11580312 -39.818405 -0.11537698 -39.822365 -24.041508 -123.55457
199810000 -23.804169 -135.38455 -0.1166808 -40.015842 -0.11604665 -40.013882 -23.967651 -123.65472
200809000 -23.746511 -135.67265 -0.11611286 -40.21299 -0.11599641 -40.212044 -23.88773 -123.85799
201808000 -23.68972 -135.90285 -0.1171084 -40.413273 -0.11648536 -40.420452 -23.818623 -123.92764
202807000 -23.633709 -136.27702 -0.11809088 -40.615273 -0.11654147 -40.61591 -23.763857 -124.14581
203806000 -23.582884 -136.70335 -0.119296 -40.812901 -0.11748472 -40.816315 -23.701733 -124.3088
