!Keysight Technologies,E5080B,MY59205177,A.15.75.32
!Date: Friday, February 23, 2024 03:37:03
!Correction: S11(Cdelta 2-Port  ) 
!S21(Cdelta 2-Port  ) 
!S12(Cdelta 2-Port  ) 
!S22(Cdelta 2-Port  ) 
!S2P File: Measurements: S11, S21, S12, S22:
# Hz S  dB   R 50
10000000 -46.088982 -2.6263926 -0.015222747 -2.0458999 -0.018158605 -2.0980327 -45.954529 -157.42256
10999000 -45.251091 -4.8931022 -0.016637677 -2.2635708 -0.017717242 -2.3162072 -45.855515 -151.49722
11998000 -44.327488 -7.7815895 -0.016030183 -2.4900043 -0.018028636 -2.5295157 -46.000942 -147.17535
12997000 -43.585915 -13.068404 -0.01603486 -2.6644845 -0.017757529 -2.6984651 -45.655685 -141.12378
13996000 -43.32806 -17.348227 -0.014917789 -2.8479919 -0.017909845 -2.8727207 -45.460236 -136.46956
14995000 -42.919861 -21.773594 -0.017189641 -3.0544333 -0.017270986 -3.0809493 -45.057571 -132.73347
15994000 -42.747704 -26.365219 -0.018669425 -3.2765226 -0.019847792 -3.2989557 -44.949959 -129.36803
16993000 -42.681927 -30.674526 -0.017548818 -3.4727626 -0.018697502 -3.4824834 -44.176796 -129.12129
17992000 -42.757732 -36.237442 -0.01813313 -3.6706278 -0.020111745 -3.6749227 -43.521603 -129.07408
18991000 -42.907143 -41.601681 -0.019325912 -3.8854074 -0.020432152 -3.8823829 -42.963104 -128.15318
19990000 -42.721859 -47.562851 -0.021455429 -4.0908198 -0.023017081 -4.0869169 -42.290485 -128.78659
20989000 -42.528084 -50.507622 -0.023073813 -4.2945423 -0.025151534 -4.2827935 -41.752201 -128.19499
21988000 -42.380905 -55.653351 -0.024902374 -4.4921594 -0.025502779 -4.4794688 -41.480057 -127.55486
22987000 -42.014336 -60.644077 -0.025843374 -4.6906261 -0.026231656 -4.6873479 -41.224571 -127.17741
23986000 -41.961395 -64.723862 -0.024615219 -4.8882799 -0.025453826 -4.8855262 -41.083481 -126.78075
24985000 -41.531628 -67.396606 -0.026085557 -5.0970078 -0.025504341 -5.0895267 -40.893032 -124.50417
25984000 -41.214424 -69.524185 -0.0270625 -5.3015213 -0.026637942 -5.3014865 -40.557579 -122.76669
26983000 -40.899033 -71.258575 -0.027992764 -5.5018039 -0.027350858 -5.5184741 -40.423527 -122.33649
27982000 -40.75634 -72.202362 -0.02902877 -5.6999993 -0.029433755 -5.733037 -40.13549 -120.50769
28981000 -40.694183 -73.668526 -0.02640927 -5.8992157 -0.028392181 -5.9222851 -39.967575 -119.79798
29980000 -40.300682 -75.207283 -0.027334187 -6.0931835 -0.029232822 -6.1002202 -39.661858 -118.89032
30979000 -39.910259 -74.045807 -0.024900552 -6.4468598 -0.023898067 -6.4387136 -39.182499 -119.53578
31978000 -39.698818 -74.885506 -0.023422806 -6.6399407 -0.02514164 -6.6334615 -38.913994 -118.73351
32977000 -39.473782 -76.580093 -0.023344209 -6.8534527 -0.025574906 -6.8487811 -38.692474 -118.65665
33976000 -39.349846 -77.50219 -0.024257539 -7.0543556 -0.025506945 -7.0492735 -38.41404 -118.08227
34975000 -39.043137 -78.333832 -0.024621988 -7.2513514 -0.027115637 -7.2547975 -38.187397 -117.81274
35974000 -38.840225 -78.990013 -0.023880888 -7.4454451 -0.02620483 -7.4495344 -37.918831 -116.93888
36973000 -38.60976 -79.590836 -0.023802802 -7.6481729 -0.027432654 -7.6530752 -37.628929 -116.0275
37972000 -38.450825 -79.350609 -0.024031857 -7.8590512 -0.027146375 -7.8666711 -37.417656 -115.36078
38971000 -38.122177 -78.974716 -0.025480386 -8.0600967 -0.027204202 -8.0749769 -37.267605 -113.73292
39970000 -37.806171 -79.12664 -0.023077715 -8.2549381 -0.026534803 -8.2726145 -37.000793 -113.23748
40969000 -37.501289 -78.772522 -0.023541486 -8.4455862 -0.026243374 -8.4699841 -36.777489 -111.59268
41968000 -37.193993 -78.694801 -0.024328344 -8.656024 -0.026237905 -8.6705122 -36.598728 -110.48238
42967000 -36.913773 -78.797935 -0.023747882 -8.8630981 -0.026799686 -8.8862906 -36.391247 -108.58012
43966000 -36.620556 -79.522812 -0.02430778 -9.0631733 -0.028209014 -9.0873137 -36.102077 -107.79266
44965000 -36.38995 -80.31176 -0.025506424 -9.2681055 -0.028383583 -9.2920923 -35.911415 -107.63748
45964000 -36.140652 -81.283279 -0.026235301 -9.4683409 -0.029418118 -9.4913015 -35.690723 -107.36188
46963000 -35.938343 -83.241806 -0.026128005 -9.6633463 -0.029909413 -9.6894674 -35.498379 -107.59109
47962000 -35.765835 -84.645737 -0.027331842 -9.8647881 -0.031678796 -9.8842297 -35.305367 -107.49448
48961000 -35.568443 -85.98288 -0.029975878 -10.063 -0.032317169 -10.08646 -35.076828 -107.75908
49960000 -35.321533 -87.312119 -0.031600308 -10.262624 -0.033165611 -10.28713 -34.934036 -107.83966
50959000 -35.112152 -88.545792 -0.031661324 -10.47862 -0.034451503 -10.489287 -34.76646 -108.09379
51958000 -34.885925 -89.662315 -0.033749681 -10.67356 -0.035847917 -10.683391 -34.582737 -108.51771
52957000 -34.685017 -90.730637 -0.034910489 -10.874304 -0.036926266 -10.884009 -34.421837 -108.34569
53956000 -34.511662 -91.391205 -0.035681661 -11.075768 -0.037615284 -11.076023 -34.287491 -108.27051
54955000 -34.34343 -91.793854 -0.037245043 -11.276527 -0.038187675 -11.277624 -34.130672 -108.20563
55954000 -34.17046 -92.633339 -0.038388241 -11.477136 -0.039478712 -11.479674 -34.025597 -107.99954
56953000 -34.06123 -92.692131 -0.038153987 -11.679518 -0.037662804 -11.670036 -33.954842 -108.1399
57952000 -33.882381 -93.260979 -0.039010625 -11.878477 -0.038934618 -11.869392 -33.845448 -108.2422
58951000 -33.778183 -93.576385 -0.039972976 -12.081145 -0.04051093 -12.060294 -33.705173 -108.25158
59950000 -33.644539 -93.960007 -0.040972646 -12.279909 -0.04011092 -12.261821 -33.622761 -108.63248
60949000 -33.522415 -94.532829 -0.041077957 -12.481941 -0.041683737 -12.461279 -33.526371 -108.88095
61948000 -33.46534 -94.860847 -0.042193674 -12.683617 -0.041170988 -12.661628 -33.444687 -108.9412
62947000 -33.366589 -95.068275 -0.041619182 -12.893547 -0.041738361 -12.872006 -33.29892 -109.1693
63946000 -33.286324 -95.794495 -0.042380568 -13.092265 -0.042630471 -13.072202 -33.18959 -109.37463
64945000 -33.185398 -95.914429 -0.043096073 -13.29135 -0.042891633 -13.275083 -33.077538 -109.75376
65944000 -33.086975 -96.208344 -0.044183545 -13.492886 -0.04346054 -13.477005 -32.983364 -110.25624
66943000 -32.936035 -96.63459 -0.041932557 -13.692054 -0.042349987 -13.677377 -32.872364 -110.57537
67942000 -32.882904 -96.565002 -0.044536855 -13.891705 -0.043730117 -13.880964 -32.745213 -110.75529
68941000 -32.762733 -96.707794 -0.044126015 -14.083526 -0.043013461 -14.076143 -32.637756 -110.78684
69940000 -32.6749 -96.702682 -0.043949764 -14.283084 -0.043916553 -14.275353 -32.501411 -111.04971
70939000 -32.571228 -96.638168 -0.043714952 -14.481941 -0.0439176 -14.474694 -32.375324 -110.95045
71938000 -32.429615 -96.212433 -0.04348224 -14.67642 -0.04408339 -14.670637 -32.239182 -110.76654
72937000 -32.272655 -95.991089 -0.042988885 -14.874983 -0.043241698 -14.871821 -32.098095 -110.49094
73936000 -32.132759 -95.634209 -0.042297706 -15.07637 -0.0425612 -15.066822 -31.97846 -110.26382
74935000 -32.009602 -95.921829 -0.042305809 -15.269385 -0.041645057 -15.269926 -31.831482 -109.97712
75934000 -31.892826 -96.084694 -0.04228542 -15.480771 -0.042507086 -15.477324 -31.749428 -109.87646
76933000 -31.74979 -96.460854 -0.043712072 -15.670439 -0.043149408 -15.666644 -31.574923 -110.22182
77932000 -31.654497 -97.231621 -0.044669975 -15.873975 -0.044834744 -15.862944 -31.487932 -110.14021
78931000 -31.575294 -98.018204 -0.04323804 -16.066721 -0.044041548 -16.068113 -31.38125 -110.00297
79930000 -31.469135 -98.837242 -0.046241827 -16.2607 -0.04630122 -16.2616 -31.275543 -110.29955
80929000 -31.346663 -99.562325 -0.047926009 -16.459505 -0.047894601 -16.458048 -31.177914 -110.61051
81928000 -31.246656 -100.38535 -0.048012383 -16.653378 -0.048206858 -16.64963 -31.049885 -110.56028
82927000 -31.138842 -101.03124 -0.048841383 -16.849007 -0.049552716 -16.849094 -30.947763 -110.83387
83926000 -31.036081 -101.74191 -0.050814137 -17.047077 -0.050197128 -17.049133 -30.829433 -111.02239
84925000 -30.935011 -102.13219 -0.051747933 -17.248575 -0.050096571 -17.245533 -30.735771 -111.11604
85924000 -30.842533 -102.6013 -0.05262062 -17.448729 -0.051624812 -17.448647 -30.638239 -111.02569
86923000 -30.727602 -103.05655 -0.052521314 -17.647215 -0.052153468 -17.641243 -30.549442 -110.90646
87922000 -30.613728 -103.371 -0.052448217 -17.854782 -0.052071467 -17.843981 -30.456736 -110.96867
88921000 -30.545513 -103.66847 -0.053425342 -18.052591 -0.052832071 -18.04825 -30.373665 -110.96075
89920000 -30.440548 -104.15801 -0.054121438 -18.254282 -0.053587038 -18.241467 -30.314648 -111.0755
90919000 -30.331316 -104.41457 -0.05512201 -18.448128 -0.053834967 -18.445919 -30.230373 -111.22514
91918000 -30.240162 -104.73391 -0.055937164 -18.648781 -0.054150008 -18.641333 -30.161499 -111.23563
92917000 -30.156008 -105.07026 -0.056975659 -18.847712 -0.055630118 -18.845051 -30.093193 -111.35635
93916000 -30.060261 -105.43295 -0.056364071 -19.041227 -0.055188078 -19.035557 -30.007328 -111.9334
94915000 -29.99399 -106.06104 -0.057835493 -19.2393 -0.056633923 -19.236193 -29.950186 -111.82632
95914000 -29.92919 -106.24723 -0.059048936 -19.437784 -0.057678882 -19.433016 -29.859612 -112.1317
96913000 -29.833738 -106.50336 -0.059848554 -19.638184 -0.05864118 -19.633308 -29.795788 -112.42663
97912000 -29.757122 -106.88367 -0.061139222 -19.831171 -0.058722258 -19.836311 -29.715422 -112.6346
98911000 -29.654095 -107.1036 -0.061735466 -20.035467 -0.059989754 -20.033077 -29.670504 -112.92134
99910000 -29.586929 -107.25046 -0.06265796 -20.231718 -0.060649104 -20.232092 -29.562183 -113.1885
100909000 -29.496881 -107.5153 -0.06226483 -20.440655 -0.060215216 -20.434299 -29.473606 -113.41066
101908000 -29.409145 -107.68951 -0.063125715 -20.643072 -0.061183851 -20.640377 -29.369459 -113.1797
102907000 -29.277063 -107.73207 -0.063026428 -20.841433 -0.060855173 -20.843193 -29.295727 -113.15434
103906000 -29.175602 -107.76644 -0.063275687 -21.045269 -0.060693469 -21.040588 -29.154131 -113.09615
104905000 -29.034149 -107.64686 -0.064055331 -21.241144 -0.060848083 -21.247068 -29.02656 -112.82127
105904000 -28.894289 -107.6925 -0.064159885 -21.44747 -0.061224282 -21.444231 -28.91786 -112.66049
106903000 -28.789173 -107.7937 -0.064928651 -21.655451 -0.061765138 -21.650564 -28.792765 -112.5404
107902000 -28.620504 -108.13028 -0.065035336 -21.853874 -0.061893009 -21.845579 -28.661928 -112.49237
108901000 -28.512081 -108.34906 -0.066164054 -22.055758 -0.063460074 -22.050016 -28.523338 -112.472
109900000 -28.379425 -108.85519 -0.066570155 -22.255522 -0.064705312 -22.248762 -28.377777 -112.56016
110899000 -28.262644 -109.44028 -0.068531521 -22.453243 -0.064858235 -22.447603 -28.25008 -112.78849
111898000 -28.174669 -110.08303 -0.069989443 -22.655378 -0.066038683 -22.649849 -28.133148 -112.93263
112897000 -28.043093 -110.61495 -0.071298651 -22.856054 -0.067205265 -22.844666 -28.005823 -113.09989
113896000 -27.948122 -111.16405 -0.072119474 -23.05615 -0.069038041 -23.045195 -27.893618 -113.20798
114895000 -27.839813 -111.80782 -0.073382996 -23.253849 -0.070149913 -23.24412 -27.783718 -113.30526
115894000 -27.716017 -112.1776 -0.074120477 -23.452618 -0.071172871 -23.442747 -27.719166 -113.50257
116893000 -27.639503 -112.664 -0.07555078 -23.652994 -0.072559826 -23.637423 -27.599861 -113.54304
117892000 -27.556534 -113.14426 -0.07502348 -23.850594 -0.073004425 -23.837753 -27.520435 -113.76524
118891000 -27.502823 -113.53343 -0.075067729 -24.049688 -0.072595097 -24.035563 -27.427052 -113.86945
119890000 -27.411913 -113.92149 -0.076216973 -24.251293 -0.073590979 -24.236202 -27.411453 -113.98911
120889000 -27.358656 -114.39357 -0.077390246 -24.450228 -0.074070185 -24.435125 -27.335655 -113.95856
121888000 -27.321268 -114.71066 -0.077861436 -24.642595 -0.074878365 -24.637186 -27.276104 -114.25265
122887000 -27.284496 -114.92247 -0.078252546 -24.851397 -0.075241558 -24.84321 -27.233328 -114.23228
123886000 -27.226719 -115.30947 -0.078846663 -25.053862 -0.075519696 -25.032679 -27.214834 -114.38229
124885000 -27.194771 -115.84767 -0.078838497 -25.252365 -0.076048113 -25.240461 -27.191011 -114.41782
125884000 -27.143671 -116.06838 -0.079629108 -25.448341 -0.076108962 -25.437826 -27.159431 -114.57901
126883000 -27.130432 -116.45557 -0.08070071 -25.652641 -0.076809764 -25.639444 -27.11647 -114.59701
127882000 -27.076551 -116.71968 -0.080514006 -25.855436 -0.077199988 -25.837776 -27.082806 -114.74322
128881000 -27.045599 -117.04652 -0.080777451 -26.056599 -0.077652186 -26.038866 -27.036734 -114.81816
129880000 -26.995216 -117.37098 -0.08167129 -26.258038 -0.077190503 -26.240499 -27.004948 -114.76266
130879000 -26.931257 -117.54944 -0.081154853 -26.455908 -0.078229092 -26.439602 -26.930798 -114.7924
131878000 -26.870384 -117.75898 -0.081733018 -26.660709 -0.07852561 -26.641056 -26.870342 -114.67385
132877000 -26.802031 -117.8167 -0.081103161 -26.859795 -0.078886993 -26.843771 -26.790524 -114.64675
133876000 -26.725832 -117.99022 -0.081846707 -27.062675 -0.07799083 -27.048256 -26.710186 -114.5375
134875000 -26.628883 -118.1064 -0.081949845 -27.261562 -0.079401322 -27.243156 -26.605648 -114.3463
135874000 -26.547684 -118.10973 -0.082302548 -27.460964 -0.079558447 -27.45051 -26.510172 -114.32661
136873000 -26.438257 -118.06262 -0.082332887 -27.666502 -0.079268977 -27.649042 -26.434887 -114.26191
137872000 -26.356142 -118.21854 -0.081842482 -27.863989 -0.079278998 -27.849901 -26.330694 -114.14031
138871000 -26.285007 -118.40862 -0.083183505 -28.066891 -0.079437703 -28.055254 -26.236652 -114.35681
139870000 -26.187477 -118.68563 -0.082966879 -28.268597 -0.080495812 -28.250559 -26.157913 -114.50006
140869000 -26.107395 -119.22388 -0.084271558 -28.465265 -0.081067555 -28.444479 -26.055702 -114.72998
141868000 -26.026522 -119.61206 -0.084879965 -28.660505 -0.082530752 -28.647993 -26.006023 -114.9978
142867000 -25.947906 -119.8484 -0.083650306 -28.860746 -0.081446297 -28.847219 -25.928585 -115.12257
143866000 -25.877737 -120.30075 -0.085912734 -29.054625 -0.082843922 -29.042278 -25.850637 -115.54
144865000 -25.818298 -120.84831 -0.087686859 -29.257164 -0.08440458 -29.24044 -25.794632 -115.86609
145864000 -25.763777 -121.13899 -0.087556906 -29.455366 -0.086007521 -29.442753 -25.760485 -116.11423
146863000 -25.713911 -121.52696 -0.088757016 -29.656288 -0.086264968 -29.641987 -25.718325 -116.41991
147862000 -25.680868 -121.83852 -0.089785956 -29.854702 -0.087225959 -29.843647 -25.682852 -116.73364
148861000 -25.644754 -122.24911 -0.09052676 -30.056705 -0.08831767 -30.035597 -25.657637 -116.91091
149860000 -25.613535 -122.44908 -0.092100754 -30.244751 -0.088732973 -30.236868 -25.60717 -116.98271
150859000 -25.587465 -122.88002 -0.090902098 -30.443035 -0.08823815 -30.426399 -25.588413 -117.31802
151858000 -25.573723 -123.26691 -0.089639284 -30.643654 -0.088318199 -30.633682 -25.576183 -117.68415
152857000 -25.564106 -123.6111 -0.091060966 -30.843052 -0.088666134 -30.827522 -25.562014 -117.84473
153856000 -25.554996 -123.80502 -0.090507194 -31.04208 -0.087710105 -31.030762 -25.578428 -118.17069
154855000 -25.551662 -123.95982 -0.090468079 -31.244387 -0.087499589 -31.232609 -25.563734 -118.39547
155854000 -25.57321 -124.21408 -0.091133662 -31.441647 -0.088708669 -31.429928 -25.558468 -118.67593
156853000 -25.553726 -124.88147 -0.089048445 -31.630539 -0.087874405 -31.623886 -25.553398 -118.99644
157852000 -25.561356 -125.1173 -0.09037187 -31.834269 -0.08905109 -31.821545 -25.543623 -119.35791
158851000 -25.557985 -125.33168 -0.090725526 -32.030006 -0.089583002 -32.020088 -25.530123 -119.60371
159850000 -25.550781 -125.41356 -0.091235697 -32.230328 -0.089686856 -32.222393 -25.522573 -119.77806
160849000 -25.529158 -125.49198 -0.091252089 -32.427258 -0.090562969 -32.423542 -25.490025 -120.09302
161848000 -25.507341 -125.62798 -0.092328683 -32.630955 -0.090052076 -32.624859 -25.449282 -120.22185
162847000 -25.472624 -125.78549 -0.092171885 -32.831959 -0.090843417 -32.821407 -25.42251 -120.45043
163846000 -25.430477 -126.01617 -0.092633836 -33.028271 -0.090138763 -33.026886 -25.351044 -120.4522
164845000 -25.376028 -125.92548 -0.093333073 -33.230728 -0.091154806 -33.222034 -25.285229 -120.53619
165844000 -25.322182 -126.00923 -0.092684612 -33.428787 -0.09143503 -33.420788 -25.207888 -120.70405
166843000 -25.260887 -126.05758 -0.092273153 -33.63195 -0.091281168 -33.619324 -25.140526 -120.87596
167842000 -25.201241 -126.14231 -0.093830332 -33.828758 -0.092285849 -33.820454 -25.064207 -120.77625
168841000 -25.126411 -126.28345 -0.093583547 -34.026546 -0.092605807 -34.023598 -24.986687 -120.8303
169840000 -25.060482 -126.55186 -0.093845144 -34.222305 -0.093210883 -34.221134 -24.90699 -121.00977
170839000 -25.001991 -126.77251 -0.094871581 -34.421471 -0.093175441 -34.418667 -24.824095 -121.18781
171838000 -24.946712 -127.16362 -0.094287433 -34.623611 -0.093818687 -34.613667 -24.755013 -121.44324
172837000 -24.871513 -127.52354 -0.096279353 -34.818047 -0.09574265 -34.813831 -24.693933 -121.62128
173836000 -24.803789 -127.88935 -0.097210534 -35.016521 -0.096317463 -35.01495 -24.651497 -121.83118
174835000 -24.756485 -128.345 -0.097826049 -35.215458 -0.09669701 -35.216225 -24.615458 -122.15842
175834000 -24.70339 -128.68166 -0.098349504 -35.41468 -0.097347133 -35.411549 -24.553806 -122.43042
176833000 -24.646782 -128.99915 -0.099085152 -35.615112 -0.098167866 -35.610817 -24.501549 -122.5888
177832000 -24.607689 -129.43044 -0.10062888 -35.810585 -0.099187911 -35.813747 -24.481659 -122.66295
178831000 -24.559511 -129.66969 -0.10244693 -36.009571 -0.10134424 -36.004131 -24.445276 -122.73356
179830000 -24.492472 -130.09564 -0.10339666 -36.190781 -0.10206343 -36.195457 -24.382122 -122.8287
180829000 -24.440882 -130.43175 -0.10270111 -36.38715 -0.10104907 -36.383873 -24.333664 -123.1473
181828000 -24.417936 -130.8546 -0.10172476 -36.587429 -0.10048529 -36.5839 -24.321964 -123.34195
182827000 -24.395174 -131.2265 -0.10082202 -36.783257 -0.10034965 -36.778492 -24.30831 -123.45616
183826000 -24.357222 -131.54857 -0.10187633 -36.982105 -0.1008909 -36.980217 -24.297861 -123.60804
184825000 -24.36128 -131.90437 -0.1020698 -37.177696 -0.10092878 -37.180202 -24.280666 -123.72823
185824000 -24.335867 -132.23921 -0.10181963 -37.375942 -0.10118526 -37.373684 -24.274103 -123.78075
186823000 -24.318272 -132.61449 -0.10264915 -37.574539 -0.10125097 -37.567822 -24.273533 -123.81016
187822000 -24.293734 -132.99609 -0.10327578 -37.769157 -0.10145235 -37.771378 -24.228327 -123.88911
188821000 -24.271698 -133.23044 -0.10245673 -37.964939 -0.10190734 -37.967209 -24.214085 -124.01756
189820000 -24.252602 -133.53415 -0.10295398 -38.166393 -0.10213101 -38.164371 -24.198917 -124.2066
190819000 -24.218912 -133.85176 -0.10344359 -38.363693 -0.1025002 -38.362247 -24.157928 -124.23901
191818000 -24.18713 -134.11937 -0.10330653 -38.56023 -0.10328268 -38.560402 -24.129719 -124.2821
192817000 -24.141821 -134.39682 -0.10412203 -38.758072 -0.10317637 -38.758026 -24.090286 -124.35928
193816000 -24.111624 -134.64325 -0.10433362 -38.952412 -0.10320102 -38.954205 -24.036827 -124.50831
194815000 -24.050901 -135.04425 -0.10475894 -39.149914 -0.10364798 -39.152409 -23.971106 -124.55916
195814000 -24.001186 -135.26254 -0.10519068 -39.343624 -0.10403454 -39.351017 -23.913456 -124.65498
196813000 -23.944189 -135.55037 -0.10486396 -39.538956 -0.10472076 -39.544533 -23.838556 -124.81537
197812000 -23.886145 -135.78288 -0.10482789 -39.740433 -0.10446619 -39.740776 -23.768461 -124.90595
198811000 -23.834309 -135.93355 -0.10506391 -39.934631 -0.10426362 -39.935604 -23.695852 -125.05749
199810000 -23.760191 -136.26956 -0.10543732 -40.127853 -0.10410771 -40.131039 -23.61816 -125.14351
200809000 -23.70467 -136.54767 -0.10563041 -40.32687 -0.10429596 -40.331306 -23.543118 -125.32005
201808000 -23.649855 -136.73149 -0.10629089 -40.531357 -0.10513154 -40.529263 -23.476 -125.38531
202807000 -23.591146 -137.06001 -0.10716213 -40.72961 -0.10632856 -40.731693 -23.421854 -125.57784
