!Keysight Technologies,E5080B,MY59205177,A.15.75.32
!Date: Friday, February 23, 2024 03:37:10
!Correction: S11(Cdelta 2-Port  ) 
!S21(Cdelta 2-Port  ) 
!S12(Cdelta 2-Port  ) 
!S22(Cdelta 2-Port  ) 
!S2P File: Measurements: S11, S21, S12, S22:
# Hz S  dB   R 50
10000000 -46.128006 -2.5497875 -0.015934831 -2.0399804 -0.017961312 -2.0985961 -45.927639 -157.79707
10999000 -45.285561 -4.6371408 -0.016313393 -2.2644517 -0.017440958 -2.3153954 -45.850555 -151.31528
11998000 -44.323948 -7.5819607 -0.01681594 -2.4890893 -0.017229924 -2.5278556 -46.045757 -147.24263
12997000 -43.590141 -13.516486 -0.0161788 -2.6657765 -0.016735902 -2.6983461 -45.625149 -141.17215
13996000 -43.326763 -17.361027 -0.015259634 -2.8478234 -0.016910272 -2.8696268 -45.364407 -136.0006
14995000 -42.934692 -21.412189 -0.016967183 -3.0554087 -0.016790474 -3.0830421 -45.056679 -132.95926
15994000 -42.786625 -26.423925 -0.018984266 -3.2759655 -0.019597374 -3.2994289 -44.946934 -129.22502
16993000 -42.720097 -30.791094 -0.01775649 -3.4714303 -0.018602353 -3.4787195 -44.188679 -128.94853
17992000 -42.715302 -36.077206 -0.018273761 -3.6706939 -0.019665243 -3.674051 -43.592686 -128.93794
18991000 -42.961391 -41.675652 -0.019154046 -3.8848879 -0.020172341 -3.8782046 -42.9594 -127.88091
19990000 -42.745487 -47.188915 -0.021265009 -4.0911021 -0.022154486 -4.0887222 -42.261803 -129.08406
20989000 -42.537914 -50.680412 -0.023920711 -4.2973146 -0.024668066 -4.2867513 -41.731876 -128.43962
21988000 -42.356716 -55.964439 -0.024595173 -4.4939604 -0.024904456 -4.4823384 -41.513638 -127.44255
22987000 -42.045574 -60.443138 -0.026089203 -4.6935897 -0.026319681 -4.6802554 -41.242477 -127.03205
23986000 -41.93499 -64.681824 -0.025362695 -4.8871875 -0.024786521 -4.8833647 -41.090981 -126.62209
24985000 -41.563019 -67.451759 -0.025883997 -5.098835 -0.025147889 -5.0916257 -40.913258 -124.24162
25984000 -41.194077 -69.529205 -0.027248746 -5.3007803 -0.02546268 -5.2997046 -40.565819 -123.04882
26983000 -40.895111 -71.229507 -0.028204584 -5.5008678 -0.026918979 -5.5139503 -40.458076 -122.22266
27982000 -40.716236 -72.133934 -0.029108252 -5.6978579 -0.028173579 -5.734005 -40.172764 -120.61929
28981000 -40.697762 -73.76796 -0.027686128 -5.9003615 -0.028006053 -5.9214983 -39.954315 -120.01354
29980000 -40.275482 -75.309402 -0.027947433 -6.0921082 -0.02899776 -6.0993609 -39.672787 -119.0993
30979000 -39.92131 -73.983299 -0.025303328 -6.4465275 -0.022879418 -6.4422388 -39.165985 -119.5396
31978000 -39.671635 -74.944641 -0.02404383 -6.6405473 -0.024409043 -6.6351595 -38.90918 -118.827
32977000 -39.498493 -76.597992 -0.023904053 -6.853775 -0.024469957 -6.8507032 -38.69165 -118.76735
33976000 -39.368023 -77.678757 -0.025049472 -7.0507598 -0.025548605 -7.0453153 -38.415245 -118.16778
34975000 -39.045769 -78.280495 -0.024805265 -7.2501774 -0.026605906 -7.2528148 -38.178268 -117.9894
35974000 -38.843384 -78.907234 -0.024486097 -7.4484553 -0.025902227 -7.4512773 -37.907749 -116.94469
36973000 -38.618015 -79.657822 -0.024652706 -7.6477699 -0.026489487 -7.650598 -37.63493 -115.9991
37972000 -38.453899 -79.389809 -0.024276802 -7.8575659 -0.026534542 -7.8642912 -37.423855 -115.27989
38971000 -38.133747 -78.857513 -0.025277032 -8.0581818 -0.026918197 -8.0731001 -37.278011 -113.76242
39970000 -37.796349 -79.256462 -0.024345525 -8.2569036 -0.025721766 -8.2679319 -37.018532 -113.11572
40969000 -37.502205 -78.88485 -0.023479804 -8.4477177 -0.026122797 -8.4650688 -36.772938 -111.77201
41968000 -37.176315 -78.779366 -0.024054242 -8.6556845 -0.026247021 -8.6766253 -36.591885 -110.4643
42967000 -36.917816 -78.77108 -0.023587814 -8.8657255 -0.026013421 -8.8829384 -36.393616 -108.68436
43966000 -36.601307 -79.655197 -0.024553262 -9.0697432 -0.027079431 -9.0820618 -36.103485 -107.84946
44965000 -36.374992 -80.301712 -0.025756139 -9.2711668 -0.027623344 -9.2935038 -35.901279 -107.64047
45964000 -36.140209 -81.244461 -0.026903871 -9.4685307 -0.029076459 -9.482913 -35.663185 -107.34174
46963000 -35.94569 -83.195969 -0.026805416 -9.6614037 -0.029441573 -9.6871796 -35.512531 -107.59126
47962000 -35.783291 -84.707832 -0.028602717 -9.8676739 -0.030378867 -9.8847694 -35.300587 -107.60606
48961000 -35.562099 -85.942955 -0.030484702 -10.059732 -0.032243367 -10.086798 -35.081055 -107.76163
49960000 -35.351795 -87.352432 -0.0316462 -10.261054 -0.032945987 -10.285957 -34.937 -107.69999
50959000 -35.100323 -88.591011 -0.032008141 -10.474378 -0.034237813 -10.486477 -34.761166 -108.14364
51958000 -34.896545 -89.613342 -0.033516463 -10.67587 -0.035475738 -10.684175 -34.584812 -108.54948
52957000 -34.68132 -90.727142 -0.035381526 -10.876067 -0.036817398 -10.882946 -34.415009 -108.29886
53956000 -34.513004 -91.42131 -0.036823664 -11.076739 -0.037779786 -11.079483 -34.270317 -108.30249
54955000 -34.345505 -91.767448 -0.037818953 -11.27453 -0.038463715 -11.274392 -34.133617 -108.30311
55954000 -34.159359 -92.667053 -0.038512293 -11.476384 -0.039255634 -11.475852 -34.031731 -108.00343
56953000 -34.050915 -92.719833 -0.03843734 -11.677363 -0.038018979 -11.665852 -33.952614 -108.22724
57952000 -33.891006 -93.341904 -0.039983686 -11.875726 -0.039997011 -11.864297 -33.852989 -108.30651
58951000 -33.759792 -93.487885 -0.041024908 -12.081095 -0.03919033 -12.061729 -33.684872 -108.35726
59950000 -33.641293 -93.988274 -0.041161839 -12.281322 -0.040850352 -12.260333 -33.61982 -108.56555
60949000 -33.520458 -94.574478 -0.041771553 -12.481276 -0.041266896 -12.460399 -33.518036 -108.91484
61948000 -33.458458 -94.794838 -0.042472843 -12.683498 -0.040980745 -12.664633 -33.444767 -108.99286
62947000 -33.377003 -95.00071 -0.042269476 -12.890873 -0.04136803 -12.873916 -33.296894 -109.17888
63946000 -33.292992 -95.729736 -0.043097906 -13.090645 -0.042622108 -13.076285 -33.191002 -109.34588
64945000 -33.18013 -95.939766 -0.043744758 -13.289301 -0.042618971 -13.27464 -33.072659 -109.85287
65944000 -33.077984 -96.135796 -0.044524562 -13.490339 -0.04358029 -13.474692 -32.971355 -110.2877
66943000 -32.945545 -96.67038 -0.042655569 -13.695272 -0.042118918 -13.676735 -32.866177 -110.54206
67942000 -32.89077 -96.537796 -0.044353791 -13.889185 -0.044043902 -13.876483 -32.73716 -110.79733
68941000 -32.769691 -96.660378 -0.044310901 -14.082326 -0.042714648 -14.076239 -32.641273 -110.75826
69940000 -32.67345 -96.666382 -0.044078421 -14.283905 -0.04388779 -14.272315 -32.492371 -111.10606
70939000 -32.561886 -96.608749 -0.044078682 -14.477302 -0.043369289 -14.472111 -32.36795 -110.93082
71938000 -32.433632 -96.239532 -0.043626834 -14.6761 -0.043357261 -14.668145 -32.231827 -110.83782
72937000 -32.275745 -95.972031 -0.043199345 -14.873019 -0.043229673 -14.871221 -32.095695 -110.48121
73936000 -32.132465 -95.662819 -0.04348198 -15.074153 -0.04171484 -15.068634 -31.975159 -110.34971
74935000 -32.011856 -95.912064 -0.042912025 -15.27047 -0.041737579 -15.267299 -31.838238 -109.95551
75934000 -31.888474 -96.206589 -0.042697657 -15.481087 -0.041646365 -15.473473 -31.751097 -109.88351
76933000 -31.756083 -96.594231 -0.043401971 -15.673511 -0.042693213 -15.664371 -31.577168 -110.17963
77932000 -31.643927 -97.270462 -0.0451167 -15.865939 -0.044258337 -15.865019 -31.476543 -110.16563
78931000 -31.576586 -98.022087 -0.043843601 -16.068371 -0.043459754 -16.063826 -31.373949 -110.02781
79930000 -31.464689 -98.848701 -0.045685638 -16.261095 -0.045665234 -16.260412 -31.275494 -110.34162
80929000 -31.338932 -99.578835 -0.048079126 -16.4617 -0.047560908 -16.456036 -31.180326 -110.60903
81928000 -31.248985 -100.36242 -0.048280932 -16.653772 -0.047599379 -16.647549 -31.055374 -110.55066
82927000 -31.148727 -101.06673 -0.049679182 -16.848038 -0.049118362 -16.84877 -30.951551 -110.89433
83926000 -31.039789 -101.81656 -0.051068194 -17.047565 -0.049910653 -17.047029 -30.81953 -111.06887
84925000 -30.922039 -102.16442 -0.052004926 -17.248758 -0.050621115 -17.242495 -30.731668 -111.12576
85924000 -30.841154 -102.57208 -0.052484635 -17.448629 -0.051794823 -17.446829 -30.652744 -111.00508
86923000 -30.738808 -103.04398 -0.052842025 -17.643019 -0.052668303 -17.639908 -30.552349 -110.951
87922000 -30.622681 -103.36585 -0.052758701 -17.853659 -0.051724881 -17.841311 -30.463047 -110.92419
88921000 -30.539948 -103.69116 -0.054445412 -18.051826 -0.052626383 -18.049826 -30.372612 -110.92356
89920000 -30.442499 -104.19392 -0.054444626 -18.249767 -0.053128432 -18.243118 -30.313227 -111.12477
90919000 -30.341646 -104.44633 -0.054928537 -18.446943 -0.053903636 -18.438389 -30.225809 -111.21262
91918000 -30.242714 -104.79751 -0.056455329 -18.64723 -0.053937182 -18.641712 -30.163012 -111.27585
92917000 -30.15592 -105.1022 -0.05725237 -18.843086 -0.055680986 -18.840763 -30.096508 -111.36434
93916000 -30.062246 -105.44528 -0.056834295 -19.038887 -0.055457074 -19.036051 -30.00803 -112.00877
94915000 -29.991003 -106.0715 -0.058339193 -19.240458 -0.056783415 -19.235949 -29.947882 -111.86501
95914000 -29.928989 -106.22716 -0.05913002 -19.43367 -0.057270471 -19.433767 -29.863071 -112.09701
96913000 -29.836349 -106.47598 -0.060304455 -19.638508 -0.058190439 -19.634443 -29.784618 -112.45393
97912000 -29.764059 -106.94163 -0.060949679 -19.83317 -0.058369365 -19.833788 -29.71039 -112.69507
98911000 -29.654877 -107.08122 -0.061915591 -20.032768 -0.059708145 -20.030525 -29.665699 -112.89933
99910000 -29.589025 -107.25819 -0.062887758 -20.234623 -0.060414698 -20.23423 -29.562891 -113.17612
100909000 -29.500338 -107.49596 -0.062075239 -20.438744 -0.058538333 -20.434324 -29.475492 -113.39489
101908000 -29.413021 -107.71561 -0.063463494 -20.640581 -0.060289234 -20.637011 -29.363798 -113.1459
102907000 -29.271626 -107.74566 -0.063420676 -20.839439 -0.060659342 -20.840033 -29.29443 -113.15684
103906000 -29.181091 -107.79305 -0.063958913 -21.045952 -0.06048977 -21.042191 -29.152714 -113.10191
104905000 -29.03344 -107.65505 -0.063947618 -21.24592 -0.060884051 -21.243109 -29.02928 -112.77129
105904000 -28.902689 -107.74728 -0.064068988 -21.449959 -0.061051011 -21.44315 -28.919687 -112.65412
106903000 -28.783337 -107.83685 -0.064010143 -21.653887 -0.061914276 -21.646221 -28.790049 -112.58111
107902000 -28.626699 -108.1224 -0.065584809 -21.857296 -0.062304482 -21.84894 -28.653843 -112.49744
108901000 -28.508682 -108.3741 -0.066431895 -22.053732 -0.063289873 -22.049011 -28.527489 -112.46843
109900000 -28.382622 -108.87724 -0.066575408 -22.25783 -0.064325921 -22.246428 -28.378025 -112.51385
110899000 -28.262821 -109.42269 -0.069111422 -22.456234 -0.064939946 -22.447895 -28.254457 -112.79243
111898000 -28.169638 -110.09377 -0.069831342 -22.653646 -0.066001363 -22.651278 -28.135981 -112.92525
112897000 -28.047287 -110.61936 -0.071226813 -22.855202 -0.067193963 -22.845133 -27.998337 -113.09096
113896000 -27.942368 -111.20409 -0.07226266 -23.053146 -0.068311937 -23.045645 -27.894943 -113.23339
114895000 -27.838232 -111.83308 -0.073028386 -23.254435 -0.069764793 -23.240236 -27.782768 -113.29004
115894000 -27.713015 -112.19077 -0.074380904 -23.458235 -0.071070775 -23.440857 -27.714678 -113.49454
116893000 -27.633923 -112.68953 -0.075135417 -23.652098 -0.071454436 -23.635693 -27.589954 -113.55782
117892000 -27.553478 -113.17214 -0.075356394 -23.849928 -0.071982622 -23.836607 -27.516834 -113.74098
118891000 -27.501507 -113.56721 -0.076315239 -24.046593 -0.072914399 -24.036854 -27.423262 -113.86371
119890000 -27.412891 -113.91807 -0.076099746 -24.251928 -0.073454604 -24.23551 -27.403687 -114.04449
120889000 -27.359306 -114.40603 -0.077677481 -24.449272 -0.073882185 -24.435835 -27.335442 -113.92604
121888000 -27.317282 -114.7281 -0.078114443 -24.64768 -0.073981188 -24.633743 -27.2792 -114.24309
122887000 -27.284744 -114.94512 -0.078994811 -24.847685 -0.074656092 -24.839346 -27.237801 -114.22486
123886000 -27.232533 -115.3677 -0.079595096 -25.054314 -0.07550969 -25.033115 -27.213963 -114.41344
124885000 -27.190907 -115.86578 -0.079302721 -25.253784 -0.075654827 -25.238314 -27.186214 -114.44418
125884000 -27.14222 -116.02007 -0.080283009 -25.450058 -0.075189933 -25.441587 -27.156342 -114.59129
126883000 -27.128628 -116.46294 -0.080340229 -25.655062 -0.076808706 -25.63888 -27.120117 -114.56805
127882000 -27.077803 -116.72576 -0.08076822 -25.854729 -0.076916471 -25.838207 -27.08079 -114.74403
128881000 -27.050339 -117.03841 -0.081239782 -26.05814 -0.076625064 -26.040562 -27.044485 -114.83885
129880000 -27.000109 -117.39784 -0.081835628 -26.255878 -0.076847173 -26.235643 -26.999245 -114.78906
130879000 -26.931189 -117.51601 -0.081173047 -26.455168 -0.077614762 -26.442289 -26.928692 -114.79993
131878000 -26.870331 -117.75442 -0.081634626 -26.658869 -0.078058042 -26.641739 -26.864809 -114.69058
132877000 -26.8013 -117.83462 -0.081234768 -26.861235 -0.078405678 -26.842756 -26.7845 -114.64929
133876000 -26.72448 -117.98209 -0.082238443 -27.06353 -0.078368254 -27.04134 -26.705896 -114.51145
134875000 -26.627563 -118.12094 -0.081760183 -27.260008 -0.078372732 -27.244732 -26.606176 -114.37584
135874000 -26.55249 -118.14951 -0.082130283 -27.464464 -0.078931019 -27.44795 -26.511909 -114.31476
136873000 -26.441462 -118.07411 -0.082604624 -27.666153 -0.077397883 -27.646225 -26.429235 -114.29637
137872000 -26.35355 -118.21197 -0.082762927 -27.862967 -0.078550383 -27.851547 -26.328005 -114.21527
138871000 -26.286455 -118.41175 -0.083684348 -28.06399 -0.079126619 -28.051712 -26.235027 -114.32127
139870000 -26.181963 -118.70372 -0.083711006 -28.268641 -0.079791255 -28.248533 -26.152964 -114.51041
140869000 -26.103785 -119.27346 -0.084316164 -28.461077 -0.080979735 -28.442698 -26.052313 -114.72428
141868000 -26.024649 -119.63829 -0.085806854 -28.66374 -0.082149535 -28.651052 -26.006598 -114.95038
142867000 -25.947212 -119.84092 -0.084231444 -28.859671 -0.081772581 -28.840611 -25.924776 -115.08628
143866000 -25.871731 -120.33649 -0.086101256 -29.058517 -0.083156854 -29.040749 -25.861458 -115.53465
144865000 -25.813105 -120.8363 -0.087460764 -29.255764 -0.084260739 -29.239525 -25.796635 -115.84694
145864000 -25.758368 -121.1421 -0.087635614 -29.457195 -0.085273296 -29.445171 -25.761379 -116.10927
146863000 -25.713171 -121.51096 -0.088983715 -29.660448 -0.085761972 -29.647686 -25.715715 -116.39965
147862000 -25.676056 -121.83527 -0.090057895 -29.852657 -0.086016499 -29.83959 -25.679916 -116.73199
148861000 -25.638868 -122.30479 -0.090361826 -30.051989 -0.087593615 -30.038357 -25.657635 -116.89033
149860000 -25.61342 -122.47143 -0.091642298 -30.24419 -0.088120066 -30.235903 -25.607874 -116.98114
150859000 -25.585482 -122.88139 -0.090512216 -30.445122 -0.087873347 -30.431904 -25.589169 -117.32126
151858000 -25.573496 -123.28086 -0.090916105 -30.644529 -0.087865159 -30.627447 -25.579523 -117.67605
152857000 -25.559204 -123.58257 -0.090345442 -30.841381 -0.087153062 -30.829824 -25.561758 -117.86452
153856000 -25.555372 -123.78676 -0.090318486 -31.039997 -0.086984567 -31.031099 -25.576836 -118.14182
154855000 -25.554874 -123.98943 -0.091036908 -31.241846 -0.087377824 -31.230259 -25.567934 -118.41271
155854000 -25.565372 -124.19996 -0.091208205 -31.44347 -0.087524153 -31.427879 -25.555103 -118.66702
156853000 -25.551725 -124.90991 -0.088658474 -31.631617 -0.087213017 -31.624311 -25.55435 -119.02017
157852000 -25.559269 -125.0975 -0.090467289 -31.832014 -0.088853717 -31.823751 -25.539152 -119.33974
158851000 -25.560291 -125.2937 -0.090299189 -32.03125 -0.08890973 -32.019794 -25.521725 -119.65932
159850000 -25.547565 -125.41956 -0.091008358 -32.226997 -0.089079097 -32.221226 -25.525324 -119.79815
160849000 -25.537727 -125.53194 -0.091394313 -32.430237 -0.089929983 -32.42263 -25.494684 -120.09975
161848000 -25.51112 -125.59654 -0.092115827 -32.630383 -0.090243421 -32.625011 -25.45356 -120.24054
162847000 -25.471989 -125.79436 -0.091924667 -32.82605 -0.090080358 -32.826046 -25.419945 -120.43808
163846000 -25.433157 -126.0154 -0.092337675 -33.026321 -0.089915179 -33.02298 -25.34984 -120.41792
164845000 -25.373798 -125.98926 -0.092020378 -33.229374 -0.090241835 -33.224312 -25.284027 -120.58251
165844000 -25.324562 -125.99934 -0.092003457 -33.424629 -0.091110393 -33.421448 -25.208559 -120.6979
166843000 -25.255165 -126.03489 -0.092701532 -33.626465 -0.09126848 -33.622643 -25.13962 -120.83578
167842000 -25.203573 -126.17204 -0.092422821 -33.826855 -0.090663671 -33.821476 -25.063934 -120.77668
168841000 -25.124817 -126.35151 -0.093156397 -34.025005 -0.091809921 -34.018547 -24.992622 -120.83706
169840000 -25.061062 -126.5692 -0.093300804 -34.22086 -0.092239305 -34.217892 -24.904871 -121.04117
170839000 -25.000662 -126.80017 -0.094220236 -34.419632 -0.0931646 -34.416164 -24.820936 -121.17457
171838000 -24.94405 -127.20017 -0.094780564 -34.62022 -0.093324609 -34.612648 -24.7596 -121.41291
172837000 -24.872175 -127.54914 -0.096018672 -34.818233 -0.094530284 -34.813221 -24.69276 -121.62421
173836000 -24.802273 -127.91479 -0.097009353 -35.020031 -0.094789028 -35.016609 -24.657516 -121.87452
174835000 -24.747663 -128.32436 -0.09731219 -35.2117 -0.095920488 -35.212921 -24.611713 -122.15176
175834000 -24.700726 -128.69693 -0.098084196 -35.414749 -0.096633486 -35.410347 -24.551994 -122.42304
176833000 -24.652935 -128.99452 -0.099617504 -35.611122 -0.097140118 -35.612522 -24.505165 -122.55205
177832000 -24.60569 -129.44933 -0.10006594 -35.810818 -0.09856876 -35.809711 -24.482155 -122.66978
178831000 -24.56175 -129.65179 -0.10226114 -36.006973 -0.10065457 -36.002029 -24.444271 -122.75641
179830000 -24.490108 -130.07237 -0.10257255 -36.190605 -0.10143221 -36.193459 -24.382582 -122.79
180829000 -24.440495 -130.4321 -0.10208304 -36.387424 -0.10009269 -36.38464 -24.338367 -123.15371
181828000 -24.421663 -130.84892 -0.10139406 -36.587166 -0.099726096 -36.582611 -24.319527 -123.34079
182827000 -24.397783 -131.23865 -0.10084082 -36.783825 -0.10019176 -36.782055 -24.3074 -123.4567
183826000 -24.358353 -131.56319 -0.10116618 -36.981598 -0.10001694 -36.977646 -24.300995 -123.58704
184825000 -24.359238 -131.90381 -0.10185434 -37.176987 -0.10064106 -37.17786 -24.279724 -123.74128
185824000 -24.333174 -132.26192 -0.10167123 -37.373943 -0.10071471 -37.375694 -24.276161 -123.82449
186823000 -24.316971 -132.6312 -0.10153078 -37.573242 -0.1008856 -37.572815 -24.2691 -123.82718
187822000 -24.293812 -132.97943 -0.10202421 -37.77039 -0.10125097 -37.769405 -24.231375 -123.90343
188821000 -24.273907 -133.20741 -0.10240134 -37.963039 -0.1009415 -37.968227 -24.211199 -124.02158
189820000 -24.250154 -133.52234 -0.10268997 -38.165787 -0.1012258 -38.166256 -24.196962 -124.22424
190819000 -24.220806 -133.8159 -0.10277452 -38.362461 -0.101835 -38.362595 -24.15793 -124.25461
191818000 -24.188089 -134.11624 -0.10304622 -38.559551 -0.10191397 -38.559292 -24.12862 -124.30722
192817000 -24.144342 -134.37772 -0.10365912 -38.758781 -0.10243924 -38.757248 -24.083538 -124.3934
193816000 -24.113178 -134.62038 -0.10407165 -38.952141 -0.10159067 -38.952656 -24.033987 -124.50304
194815000 -24.046921 -135.02451 -0.10398097 -39.149475 -0.10297465 -39.148571 -23.966476 -124.58521
195814000 -23.993608 -135.2399 -0.10500026 -39.345398 -0.10286703 -39.345135 -23.912743 -124.68188
196813000 -23.940115 -135.55666 -0.10483161 -39.53685 -0.10349846 -39.539143 -23.838711 -124.77962
197812000 -23.891783 -135.79005 -0.10471652 -39.738129 -0.10400404 -39.741199 -23.767481 -124.88713
198811000 -23.835308 -135.95155 -0.10426706 -39.933773 -0.10359708 -39.939659 -23.696617 -125.04306
199810000 -23.762932 -136.27391 -0.10491487 -40.129139 -0.10306054 -40.130337 -23.6213 -125.14555
200809000 -23.70384 -136.51123 -0.1054909 -40.327019 -0.10362279 -40.328369 -23.54369 -125.33079
201808000 -23.644648 -136.74431 -0.10673764 -40.528248 -0.10483001 -40.531017 -23.476301 -125.37264
202807000 -23.588341 -137.09581 -0.10659729 -40.728497 -0.1055527 -40.728844 -23.420263 -125.57954
