!Keysight Technologies,E5080B,MY59205177,A.15.75.32
!Date: Friday, February 23, 2024 02:58:56
!Correction: S11(Cdelta 2-Port  ) 
!S21(Cdelta 2-Port  ) 
!S12(Cdelta 2-Port  ) 
!S22(Cdelta 2-Port  ) 
!S2P File: Measurements: S11, S21, S12, S22:
# Hz S  dB   R 50
10000000 -44.090706 -3.8016932 -0.027209412 -2.0421224 -0.031474628 -2.0931535 -48.132526 -149.97493
10999000 -43.425911 -5.1482925 -0.02847478 -2.256722 -0.030996453 -2.3136232 -47.844662 -142.46193
11998000 -42.636292 -7.6551189 -0.029087145 -2.4855998 -0.03082256 -2.5250142 -48.028599 -136.39941
12997000 -42.06263 -12.598626 -0.028286917 -2.661489 -0.030031659 -2.697258 -47.330658 -130.28329
13996000 -41.775028 -15.963689 -0.028018298 -2.8399448 -0.030142959 -2.8599715 -46.914467 -124.73985
14995000 -41.472683 -19.689676 -0.029485097 -3.0453553 -0.030242274 -3.0713398 -46.448753 -121.29818
15994000 -41.377895 -23.540716 -0.030774852 -3.2658718 -0.032958508 -3.2893004 -46.243507 -117.52026
16993000 -41.348873 -27.452925 -0.030252701 -3.4597962 -0.031842813 -3.472739 -45.361172 -118.20597
17992000 -41.41539 -31.877432 -0.03063564 -3.6575356 -0.032915469 -3.6630263 -44.67889 -119.53539
18991000 -41.705906 -36.457447 -0.031405792 -3.8728337 -0.03361246 -3.8695536 -43.998234 -119.14508
19990000 -41.554417 -41.151161 -0.034192156 -4.0759015 -0.035676442 -4.0747032 -43.289711 -120.29683
20989000 -41.481976 -44.221298 -0.035922825 -4.2825599 -0.037516844 -4.2764082 -42.721798 -120.48918
21988000 -41.406288 -49.082195 -0.036586102 -4.4803128 -0.038456142 -4.4679918 -42.436092 -119.7304
22987000 -41.192657 -53.25856 -0.038767461 -4.674654 -0.039517373 -4.6709123 -42.154549 -119.55159
23986000 -41.196774 -57.056862 -0.037615545 -4.8721285 -0.0382245 -4.8684721 -42.000217 -119.57961
24985000 -40.891678 -59.695415 -0.038955774 -5.080462 -0.038170181 -5.0757332 -41.756119 -116.99591
25984000 -40.673325 -61.914524 -0.039533049 -5.2859244 -0.038606837 -5.2888885 -41.427673 -115.76208
26983000 -40.35519 -63.764248 -0.040306609 -5.4855523 -0.039959129 -5.4991446 -41.29047 -115.17239
27982000 -40.222244 -64.583565 -0.04088746 -5.6824641 -0.041512031 -5.7200961 -41.027084 -113.24146
28981000 -40.183807 -66.176491 -0.039805777 -5.8799362 -0.041205745 -5.9062452 -40.691742 -112.95068
29980000 -39.794174 -67.840431 -0.039877098 -6.0753546 -0.041731827 -6.0833778 -40.410839 -112.08974
30979000 -39.454853 -67.079727 -0.037195958 -6.4288778 -0.03608622 -6.4179087 -39.874863 -112.97186
31978000 -39.288902 -68.110748 -0.035889417 -6.6219225 -0.036892846 -6.6113353 -39.625546 -112.2222
32977000 -39.077438 -69.751961 -0.035658695 -6.8321304 -0.038149029 -6.8304987 -39.385021 -112.43307
33976000 -38.952202 -70.841713 -0.037050795 -7.0303364 -0.038231548 -7.0258098 -39.079685 -112.00418
34975000 -38.691128 -71.919449 -0.037026778 -7.2328801 -0.039125554 -7.2289057 -38.837154 -111.79005
35974000 -38.492428 -72.582581 -0.036739342 -7.4263997 -0.038496625 -7.4227867 -38.518429 -111.06228
36973000 -38.250149 -73.540131 -0.036623172 -7.6275983 -0.039827723 -7.6284871 -38.236652 -110.31826
37972000 -38.08564 -73.332443 -0.036181495 -7.8342013 -0.039695796 -7.8408694 -38.005249 -109.61243
38971000 -37.77634 -73.183487 -0.036682952 -8.0361099 -0.039075665 -8.0475626 -37.798344 -108.08643
39970000 -37.468254 -73.620392 -0.03578867 -8.2315741 -0.038499497 -8.2465525 -37.512058 -107.79544
40969000 -37.172253 -73.709206 -0.035247907 -8.4250612 -0.037472978 -8.4423876 -37.240379 -106.4569
41968000 -36.83387 -73.784195 -0.035830431 -8.6259346 -0.038825441 -8.6420097 -37.021717 -105.31313
42967000 -36.565094 -73.938522 -0.036534939 -8.8412886 -0.038785741 -8.858634 -36.805672 -103.40421
43966000 -36.301529 -74.880775 -0.036198203 -9.0391731 -0.039798986 -9.0564747 -36.509892 -102.96736
44965000 -36.081154 -75.775963 -0.037162017 -9.2417946 -0.040223002 -9.2576456 -36.298492 -102.8325
45964000 -35.867863 -76.967018 -0.038982417 -9.4398069 -0.041402265 -9.4572515 -36.047356 -102.65995
46963000 -35.692745 -78.917549 -0.038728282 -9.6331968 -0.042213276 -9.6560431 -35.872002 -103.08546
47962000 -35.550957 -80.271286 -0.040921953 -9.8377304 -0.043673638 -9.8527565 -35.668011 -103.26514
48961000 -35.362183 -81.858185 -0.042498723 -10.029621 -0.044671804 -10.052226 -35.460396 -103.57225
49960000 -35.148792 -83.307213 -0.043843336 -10.233557 -0.045583092 -10.254405 -35.319553 -103.73507
50959000 -34.93726 -84.624771 -0.044277951 -10.443893 -0.046947766 -10.454551 -35.130802 -104.09004
51958000 -34.747253 -85.810081 -0.046232931 -10.64185 -0.048917826 -10.652878 -34.964241 -104.75312
52957000 -34.549343 -87.022034 -0.047587864 -10.847761 -0.048942436 -10.846074 -34.798935 -104.52289
53956000 -34.391079 -87.741959 -0.048446625 -11.044664 -0.050579213 -11.046847 -34.647587 -104.5218
54955000 -34.228058 -88.268631 -0.04957157 -11.2443 -0.051217228 -11.243065 -34.495117 -104.55215
55954000 -34.073601 -89.13308 -0.050134543 -11.445715 -0.051573992 -11.4431 -34.39653 -104.27769
56953000 -33.950741 -89.196854 -0.050154444 -11.639937 -0.050518453 -11.63768 -34.313271 -104.49004
57952000 -33.797066 -89.827354 -0.051548846 -11.839302 -0.051146772 -11.831528 -34.229431 -104.61854
58951000 -33.682137 -90.161911 -0.051552251 -12.044796 -0.051635813 -12.026579 -34.070633 -104.7635
59950000 -33.568256 -90.624916 -0.052984308 -12.243776 -0.053279374 -12.225128 -34.00956 -105.07517
60949000 -33.450916 -91.19799 -0.052808225 -12.445498 -0.053856459 -12.421531 -33.899921 -105.242
61948000 -33.390839 -91.509018 -0.054309897 -12.644313 -0.053380005 -12.624877 -33.81831 -105.39415
62947000 -33.3158 -91.70372 -0.054136377 -12.85808 -0.054171763 -12.836113 -33.689644 -105.73167
63946000 -33.249718 -92.438805 -0.054847796 -13.056643 -0.055428755 -13.035751 -33.583443 -105.88494
64945000 -33.137173 -92.607765 -0.055253882 -13.256809 -0.055487487 -13.234227 -33.471386 -106.39517
65944000 -33.031807 -92.885605 -0.056647036 -13.45357 -0.056190733 -13.43611 -33.381393 -106.89792
66943000 -32.89872 -93.260559 -0.054326147 -13.654614 -0.054704402 -13.63494 -33.280151 -107.17011
67942000 -32.842323 -93.352783 -0.056733057 -13.849542 -0.055796355 -13.837994 -33.144993 -107.49598
68941000 -32.738937 -93.432564 -0.056279629 -14.042789 -0.055505317 -14.033163 -33.042934 -107.42192
69940000 -32.640953 -93.411415 -0.056201745 -14.243795 -0.056558657 -14.235368 -32.904514 -107.81232
70939000 -32.532654 -93.35952 -0.056081645 -14.438378 -0.055889178 -14.432927 -32.770096 -107.64185
71938000 -32.389328 -93.020988 -0.056331813 -14.634415 -0.055989604 -14.624523 -32.638939 -107.54986
72937000 -32.232574 -92.833221 -0.055335157 -14.834522 -0.055410404 -14.827576 -32.507149 -107.26028
73936000 -32.094208 -92.603462 -0.05519909 -15.029292 -0.054579098 -15.025095 -32.388668 -107.12263
74935000 -31.971714 -92.781006 -0.054777276 -15.225864 -0.053477492 -15.221932 -32.240658 -106.89446
75934000 -31.848316 -93.114922 -0.054893408 -15.432447 -0.053539079 -15.430199 -32.153324 -106.75993
76933000 -31.720268 -93.535912 -0.055821002 -15.627811 -0.055212721 -15.617763 -31.982244 -107.18404
77932000 -31.627737 -94.350578 -0.056747746 -15.827864 -0.056962281 -15.815659 -31.873724 -107.16581
78931000 -31.563824 -95.078972 -0.056075089 -16.023706 -0.056582786 -16.021214 -31.786585 -106.98914
79930000 -31.445766 -95.881737 -0.058696281 -16.216019 -0.058981501 -16.214075 -31.683376 -107.34784
80929000 -31.321613 -96.811775 -0.060183454 -16.40686 -0.060328867 -16.407597 -31.575047 -107.72679
81928000 -31.246717 -97.732643 -0.059851702 -16.60453 -0.060385827 -16.598333 -31.464346 -107.79281
82927000 -31.156155 -98.382309 -0.061413836 -16.800949 -0.06214115 -16.797079 -31.360329 -108.12936
83926000 -31.046917 -99.121437 -0.063123614 -16.999815 -0.062680803 -16.997889 -31.242918 -108.42091
84925000 -30.944132 -99.618225 -0.063509457 -17.199179 -0.063669167 -17.194389 -31.155651 -108.45583
85924000 -30.852058 -100.11037 -0.064339586 -17.403383 -0.064266287 -17.397038 -31.06208 -108.50567
86923000 -30.757669 -100.60911 -0.064713985 -17.594566 -0.064034574 -17.586969 -30.967192 -108.37845
87922000 -30.649691 -100.97168 -0.064435221 -17.805401 -0.06480936 -17.791784 -30.884048 -108.44373
88921000 -30.578648 -101.32121 -0.065674953 -17.996265 -0.065340154 -17.996651 -30.790741 -108.44065
89920000 -30.473097 -101.82455 -0.066307567 -18.194984 -0.065694138 -18.190479 -30.737095 -108.58869
90919000 -30.375635 -102.1422 -0.067795768 -18.396212 -0.066156171 -18.386776 -30.652323 -108.80058
91918000 -30.281027 -102.53107 -0.067985877 -18.595854 -0.066417694 -18.586681 -30.584038 -108.83232
92917000 -30.206682 -102.8654 -0.069074333 -18.792368 -0.068072908 -18.783548 -30.518339 -108.97922
93916000 -30.126892 -103.25006 -0.068240412 -18.982836 -0.067441352 -18.978096 -30.434422 -109.6445
94915000 -30.037489 -103.91974 -0.070321441 -19.186337 -0.06848681 -19.180193 -30.379612 -109.42244
95914000 -29.978079 -104.08935 -0.071078405 -19.379387 -0.069192953 -19.375286 -30.293901 -109.71876
96913000 -29.894415 -104.34858 -0.072102368 -19.580374 -0.069894217 -19.575504 -30.217009 -110.0927
97912000 -29.820328 -104.8475 -0.072956517 -19.77499 -0.070732139 -19.776785 -30.140829 -110.3028
98911000 -29.720308 -105.04495 -0.073946431 -19.977848 -0.071619436 -19.974533 -30.103683 -110.5518
99910000 -29.656929 -105.1765 -0.073516734 -20.172167 -0.072360307 -20.173628 -29.99934 -110.82036
100909000 -29.563459 -105.47922 -0.073606782 -20.381754 -0.071307339 -20.373716 -29.907055 -111.06931
101908000 -29.476191 -105.69862 -0.075448051 -20.581028 -0.073340341 -20.579117 -29.79344 -110.77484
102907000 -29.340313 -105.75554 -0.075412229 -20.782898 -0.073209763 -20.778183 -29.721088 -110.80183
103906000 -29.2481 -105.76424 -0.076246746 -20.987854 -0.071827866 -20.984077 -29.571388 -110.80717
104905000 -29.106197 -105.75293 -0.076882742 -21.186172 -0.07230714 -21.184212 -29.444551 -110.41247
105904000 -28.967464 -105.85476 -0.07641799 -21.389355 -0.072739869 -21.379688 -29.331718 -110.30298
106903000 -28.858795 -105.9444 -0.076136887 -21.591648 -0.073331654 -21.585396 -29.201414 -110.22134
107902000 -28.69755 -106.28005 -0.076713592 -21.793385 -0.073774755 -21.786798 -29.063843 -110.14829
108901000 -28.584993 -106.51723 -0.07758709 -21.995058 -0.074613169 -21.984877 -28.932001 -110.14428
109900000 -28.465511 -107.04636 -0.078544058 -22.19632 -0.076057859 -22.18469 -28.781313 -110.23476
110899000 -28.33893 -107.65575 -0.080079444 -22.387802 -0.076677762 -22.38055 -28.660618 -110.49641
111898000 -28.254646 -108.37786 -0.081480585 -22.592735 -0.078125775 -22.58535 -28.539896 -110.64857
112897000 -28.129503 -108.93575 -0.082811736 -22.790546 -0.079580069 -22.778675 -28.404537 -110.84003
113896000 -28.025871 -109.50288 -0.083676964 -22.991627 -0.08042039 -22.979628 -28.298672 -110.97083
114895000 -27.923006 -110.18591 -0.085180104 -23.189077 -0.081942461 -23.173302 -28.19142 -111.10714
115894000 -27.798601 -110.52051 -0.086321212 -23.389183 -0.082837589 -23.373667 -28.109734 -111.27338
116893000 -27.716825 -111.09892 -0.086674534 -23.583731 -0.084229857 -23.569012 -27.986382 -111.42697
117892000 -27.637362 -111.59902 -0.086181261 -23.78079 -0.083770379 -23.765474 -27.912556 -111.59724
118891000 -27.57477 -112.06303 -0.087591767 -23.983427 -0.084110826 -23.96484 -27.816586 -111.75629
119890000 -27.490015 -112.43184 -0.087870702 -24.182631 -0.085045479 -24.166443 -27.802307 -111.90605
120889000 -27.436102 -112.93373 -0.088825978 -24.38147 -0.085408993 -24.367159 -27.727701 -111.88239
121888000 -27.390507 -113.26884 -0.088794798 -24.577709 -0.085993528 -24.565445 -27.672434 -112.17625
122887000 -27.353483 -113.44661 -0.089266703 -24.78014 -0.086305633 -24.764944 -27.621498 -112.21518
123886000 -27.290573 -113.88505 -0.090596274 -24.984596 -0.087122433 -24.962666 -27.604937 -112.40496
124885000 -27.259064 -114.35693 -0.09095417 -25.181934 -0.087753683 -25.163641 -27.572056 -112.46783
125884000 -27.204096 -114.53956 -0.091154546 -25.380293 -0.087515697 -25.36326 -27.542536 -112.66052
126883000 -27.179684 -114.95689 -0.09173166 -25.581953 -0.088623598 -25.567785 -27.50351 -112.68446
127882000 -27.129055 -115.23306 -0.092098109 -25.780096 -0.089354426 -25.761934 -27.464573 -112.87022
128881000 -27.099371 -115.59177 -0.091817319 -25.982441 -0.089244507 -25.963745 -27.416014 -112.94727
129880000 -27.039936 -115.87367 -0.093320638 -26.184349 -0.089382432 -26.165281 -27.377563 -112.93834
130879000 -26.981819 -116.00714 -0.093243413 -26.383251 -0.089965925 -26.366362 -27.298838 -113.00655
131878000 -26.914026 -116.2541 -0.09361925 -26.587538 -0.090252675 -26.566463 -27.233196 -112.91517
132877000 -26.847773 -116.31337 -0.09296757 -26.784746 -0.090621643 -26.767445 -27.151117 -112.92332
133876000 -26.763657 -116.48199 -0.09366554 -26.989252 -0.090083525 -26.964645 -27.061558 -112.8532
134875000 -26.660547 -116.62511 -0.093527205 -27.185976 -0.09059865 -27.170446 -26.958359 -112.67882
135874000 -26.585623 -116.66989 -0.093837209 -27.383913 -0.090506144 -27.368593 -26.852131 -112.67854
136873000 -26.476007 -116.6058 -0.094421819 -27.586874 -0.090684287 -27.571623 -26.774612 -112.6779
137872000 -26.395342 -116.68503 -0.094438225 -27.787941 -0.090415746 -27.771915 -26.661243 -112.62066
138871000 -26.324379 -116.9041 -0.09510944 -27.98584 -0.090454333 -27.972763 -26.562382 -112.7878
139870000 -26.227934 -117.15265 -0.094935074 -28.186211 -0.092389502 -28.171263 -26.487856 -112.95291
140869000 -26.140108 -117.62585 -0.097160503 -28.383316 -0.093460821 -28.365351 -26.379826 -113.0793
141868000 -26.042181 -118.08609 -0.097486384 -28.576107 -0.094619446 -28.560831 -26.314713 -113.4285
142867000 -25.968382 -118.3727 -0.095927633 -28.772467 -0.093112238 -28.756008 -26.234911 -113.56068
143866000 -25.898512 -118.85787 -0.097889856 -28.971918 -0.094350919 -28.955273 -26.16081 -114.07461
144865000 -25.844631 -119.40742 -0.099320069 -29.168541 -0.095664322 -29.157255 -26.104469 -114.40691
145864000 -25.782429 -119.71355 -0.099381246 -29.368687 -0.09745647 -29.357027 -26.072901 -114.68203
146863000 -25.743965 -120.11298 -0.10009455 -29.568396 -0.097319335 -29.553579 -26.023867 -115.00024
147862000 -25.701122 -120.48042 -0.10100774 -29.759937 -0.0974795 -29.750006 -25.99189 -115.31141
148861000 -25.671974 -120.99027 -0.10174066 -29.96221 -0.098295227 -29.947105 -25.96657 -115.54951
149860000 -25.654819 -121.1644 -0.10164367 -30.161592 -0.099045426 -30.149029 -25.938108 -115.73753
150859000 -25.632902 -121.53823 -0.10187104 -30.362394 -0.099299937 -30.34828 -25.929501 -115.9613
151858000 -25.623278 -121.89105 -0.10176504 -30.559582 -0.099274248 -30.544453 -25.915756 -116.27494
152857000 -25.603683 -122.1948 -0.10219938 -30.75959 -0.10016501 -30.747931 -25.903046 -116.40045
153856000 -25.597034 -122.41945 -0.1019781 -30.957132 -0.099128053 -30.941778 -25.91861 -116.70865
154855000 -25.594984 -122.58094 -0.10277267 -31.154648 -0.09884204 -31.143518 -25.909781 -116.90958
155854000 -25.606171 -122.79771 -0.10298155 -31.355965 -0.10000899 -31.338301 -25.904385 -117.21061
156853000 -25.587988 -123.52669 -0.10053191 -31.543249 -0.099117465 -31.534874 -25.900581 -117.47763
157852000 -25.597286 -123.73583 -0.10208119 -31.741337 -0.10073803 -31.732727 -25.884199 -117.82303
158851000 -25.595167 -123.99165 -0.10236318 -31.940765 -0.10115532 -31.931606 -25.874424 -118.08006
159850000 -25.576021 -124.13145 -0.10346877 -32.138439 -0.10117095 -32.132458 -25.872442 -118.22383
160849000 -25.562189 -124.24073 -0.10322939 -32.340946 -0.10217156 -32.333508 -25.846914 -118.5507
161848000 -25.539742 -124.36394 -0.1037633 -32.537518 -0.10218852 -32.528645 -25.802851 -118.63723
162847000 -25.499969 -124.52111 -0.10401598 -32.736523 -0.10206794 -32.729965 -25.772728 -118.89799
163846000 -25.454044 -124.7608 -0.10346453 -32.933563 -0.10219965 -32.928761 -25.695429 -118.90508
164845000 -25.398853 -124.79897 -0.1038386 -33.136093 -0.10221396 -33.129059 -25.624861 -119.00101
165844000 -25.344305 -124.85896 -0.1040462 -33.333225 -0.1027451 -33.323975 -25.547892 -119.14884
166843000 -25.279434 -124.93758 -0.10412176 -33.531929 -0.10280687 -33.527584 -25.479424 -119.30672
167842000 -25.225885 -125.07366 -0.10490267 -33.732323 -0.10303561 -33.722961 -25.400646 -119.20184
168841000 -25.144838 -125.24198 -0.10478228 -33.925781 -0.103227 -33.929573 -25.322796 -119.31705
169840000 -25.076443 -125.5131 -0.1052591 -34.12431 -0.10361246 -34.120567 -25.233208 -119.48476
170839000 -25.019228 -125.7936 -0.10567816 -34.324024 -0.10410082 -34.317108 -25.153355 -119.69877
171838000 -24.960264 -126.21314 -0.10549806 -34.524326 -0.10518485 -34.515228 -25.085329 -119.93784
172837000 -24.891602 -126.56742 -0.10674135 -34.719521 -0.10556251 -34.71172 -25.017954 -120.16991
173836000 -24.820959 -126.99412 -0.10801073 -34.916851 -0.10721626 -34.913918 -24.97711 -120.39246
174835000 -24.766953 -127.40787 -0.10890568 -35.111385 -0.10801445 -35.110298 -24.931103 -120.73256
175834000 -24.723177 -127.84747 -0.10947295 -35.311905 -0.10833398 -35.305458 -24.865385 -121.00538
176833000 -24.666824 -128.20189 -0.11063798 -35.50684 -0.10945251 -35.504478 -24.81563 -121.17612
177832000 -24.624643 -128.64754 -0.11048954 -35.704506 -0.10977001 -35.700424 -24.792774 -121.34885
178831000 -24.579456 -129.00597 -0.11156082 -35.902966 -0.10972382 -35.896324 -24.75432 -121.59858
179830000 -24.545801 -129.44911 -0.11201979 -36.098625 -0.11012206 -36.099083 -24.730762 -121.73095
180829000 -24.503546 -129.67496 -0.11133985 -36.294022 -0.11114226 -36.294945 -24.697643 -121.90583
181828000 -24.480183 -130.03601 -0.11206867 -36.492401 -0.11107481 -36.485832 -24.680841 -122.0042
182827000 -24.455097 -130.38785 -0.11200599 -36.685551 -0.1117085 -36.687233 -24.665829 -122.1209
183826000 -24.416218 -130.69028 -0.11332846 -36.880569 -0.11133348 -36.881138 -24.652985 -122.22233
184825000 -24.419832 -130.99805 -0.11289086 -37.080326 -0.11202245 -37.080482 -24.641176 -122.33199
185824000 -24.391796 -131.37691 -0.11290069 -37.273933 -0.1126871 -37.277214 -24.633963 -122.3909
186823000 -24.379419 -131.71622 -0.11311909 -37.476967 -0.11292142 -37.473812 -24.627439 -122.38519
187822000 -24.360552 -132.05734 -0.11422344 -37.668861 -0.11314725 -37.667999 -24.596375 -122.43999
188821000 -24.335823 -132.26724 -0.11343899 -37.865303 -0.11313901 -37.87151 -24.579502 -122.55018
189820000 -24.321522 -132.53816 -0.11437731 -38.065998 -0.11302397 -38.064316 -24.568279 -122.69409
190819000 -24.289156 -132.77342 -0.11563963 -38.265736 -0.11399329 -38.263775 -24.537304 -122.64282
191818000 -24.254869 -132.96172 -0.11642128 -38.461655 -0.11576404 -38.461391 -24.502338 -122.56193
192817000 -24.184555 -133.21707 -0.1168438 -38.645645 -0.11626972 -38.643982 -24.428034 -122.62991
193816000 -24.144514 -133.60052 -0.11641703 -38.838688 -0.11485679 -38.838017 -24.371693 -122.89234
194815000 -24.089685 -134.05229 -0.11604745 -39.031555 -0.11536182 -39.033829 -24.312449 -123.02418
195814000 -24.038612 -134.26427 -0.11646808 -39.235783 -0.11465532 -39.234772 -24.25341 -123.16447
196813000 -23.98978 -134.61385 -0.11625616 -39.424885 -0.11439539 -39.426586 -24.181488 -123.28307
197812000 -23.926222 -134.82237 -0.11668824 -39.625225 -0.1151404 -39.619473 -24.110167 -123.36096
198811000 -23.876801 -135.02069 -0.1160626 -39.821991 -0.11480256 -39.822929 -24.042143 -123.55654
199810000 -23.806011 -135.40283 -0.11575767 -40.015339 -0.11461518 -40.016174 -23.962379 -123.66592
200809000 -23.74651 -135.70384 -0.11707968 -40.214817 -0.11548278 -40.212986 -23.884869 -123.83972
201808000 -23.691397 -135.92931 -0.11784989 -40.414879 -0.11651754 -40.417698 -23.816853 -123.92212
202807000 -23.63456 -136.2843 -0.11806189 -40.612782 -0.11623463 -40.61684 -23.761965 -124.1441
203806000 -23.580362 -136.73296 -0.11907091 -40.814091 -0.11675924 -40.812706 -23.691633 -124.34451
