!Keysight Technologies,E5080B,MY59205177,A.15.75.32
!Date: Friday, February 23, 2024 03:37:17
!Correction: S11(Cdelta 2-Port  ) 
!S21(Cdelta 2-Port  ) 
!S12(Cdelta 2-Port  ) 
!S22(Cdelta 2-Port  ) 
!S2P File: Measurements: S11, S21, S12, S22:
# Hz S  dB   R 50
10000000 -46.07983 -2.65359 -0.014957272 -2.0441668 -0.017695149 -2.0987647 -45.945587 -157.52299
10999000 -45.298626 -5.0293245 -0.016040316 -2.2629852 -0.01772478 -2.3158238 -45.839546 -151.45775
11998000 -44.355331 -8.0658731 -0.01644513 -2.4882946 -0.017724259 -2.5274489 -46.003284 -146.69623
12997000 -43.622433 -13.617671 -0.015372636 -2.6676772 -0.017495017 -2.7000158 -45.654659 -141.20636
13996000 -43.308258 -17.085243 -0.014639606 -2.8465855 -0.017641086 -2.8711636 -45.422176 -136.44952
14995000 -42.926647 -21.769796 -0.017366886 -3.0553918 -0.017180026 -3.0808725 -45.098938 -132.64873
15994000 -42.726017 -26.031462 -0.018249586 -3.2741444 -0.019681625 -3.2982275 -44.964813 -129.26823
16993000 -42.678558 -30.955528 -0.017804574 -3.4736092 -0.018785115 -3.4809632 -44.140018 -128.96011
17992000 -42.757057 -36.378574 -0.017844604 -3.6673677 -0.018922128 -3.676317 -43.589619 -129.17662
18991000 -42.969898 -41.335762 -0.018852711 -3.8832214 -0.020187683 -3.8794479 -42.957809 -127.98002
19990000 -42.673119 -47.554428 -0.021880781 -4.0889096 -0.023111288 -4.0876412 -42.263397 -128.72124
20989000 -42.575527 -50.513836 -0.023104781 -4.2987633 -0.024617562 -4.2877674 -41.742874 -128.42882
21988000 -42.348518 -55.927094 -0.023861887 -4.4933653 -0.024737837 -4.4779429 -41.492981 -127.32038
22987000 -42.055386 -60.565857 -0.024978656 -4.6929951 -0.025609538 -4.6859221 -41.195541 -126.85357
23986000 -41.947922 -64.837669 -0.024557685 -4.8846092 -0.024559248 -4.8822055 -41.077621 -126.90585
24985000 -41.563477 -67.36348 -0.02569104 -5.0960956 -0.025021354 -5.0914741 -40.872765 -124.31402
25984000 -41.197479 -69.875038 -0.027401654 -5.3038688 -0.025320774 -5.3032517 -40.547577 -122.74972
26983000 -40.887703 -71.141739 -0.026439741 -5.5011768 -0.026220197 -5.5186515 -40.460636 -122.18885
27982000 -40.735718 -72.485992 -0.028347105 -5.701313 -0.028157687 -5.7326102 -40.145138 -120.62957
28981000 -40.690342 -73.575844 -0.026697325 -5.8975587 -0.027320379 -5.9248638 -39.938988 -119.99297
29980000 -40.261063 -74.755981 -0.026873657 -6.0910468 -0.028755935 -6.0972486 -39.677708 -119.03645
30979000 -39.88641 -73.927666 -0.025050774 -6.4468775 -0.022666559 -6.4411845 -39.18272 -119.45786
31978000 -39.677715 -75.040161 -0.023663813 -6.6398087 -0.024806306 -6.6287599 -38.927723 -118.85942
32977000 -39.51086 -76.724808 -0.024000881 -6.8511896 -0.02499558 -6.8481674 -38.692547 -118.73514
33976000 -39.319847 -77.640762 -0.024651665 -7.0512261 -0.025074467 -7.0516071 -38.41375 -118.06851
34975000 -39.02887 -78.430977 -0.024796674 -7.2521658 -0.026112381 -7.2526765 -38.20018 -117.89509
35974000 -38.839535 -78.923332 -0.024114111 -7.4466162 -0.025909256 -7.4507914 -37.899857 -116.94099
36973000 -38.596741 -79.756828 -0.024370516 -7.6428237 -0.026747072 -7.6517024 -37.63937 -116.06337
37972000 -38.45055 -79.499481 -0.023677088 -7.8564448 -0.026892671 -7.8683062 -37.419353 -115.25946
38971000 -38.102524 -78.904839 -0.02485499 -8.0605736 -0.026528552 -8.0669041 -37.268887 -113.69433
39970000 -37.802673 -79.132912 -0.023590418 -8.2523336 -0.026020193 -8.2704649 -36.997089 -113.09852
40969000 -37.507816 -78.823708 -0.024151335 -8.447835 -0.02587332 -8.4674797 -36.764553 -111.67805
41968000 -37.168167 -78.786278 -0.023635965 -8.6544666 -0.026042327 -8.6707764 -36.58062 -110.54501
42967000 -36.911037 -78.849541 -0.023398602 -8.8649521 -0.026084255 -8.8839445 -36.396156 -108.72322
43966000 -36.578793 -79.582405 -0.024295025 -9.0653811 -0.027110167 -9.083128 -36.120472 -107.93655
44965000 -36.365696 -80.337051 -0.02495132 -9.2673559 -0.027186228 -9.2893991 -35.887642 -107.61827
45964000 -36.134453 -81.385147 -0.026102224 -9.4699001 -0.029268004 -9.4880638 -35.678295 -107.30419
46963000 -35.946697 -83.283592 -0.026981231 -9.6652584 -0.029515851 -9.6889944 -35.511971 -107.45868
47962000 -35.764305 -84.686798 -0.027716348 -9.8628292 -0.030516766 -9.8873405 -35.291714 -107.63857
48961000 -35.572628 -86.010231 -0.030384861 -10.062511 -0.031971373 -10.08347 -35.066311 -107.75371
49960000 -35.336861 -87.312592 -0.031637855 -10.261737 -0.033432726 -10.282651 -34.923805 -107.87003
50959000 -35.112122 -88.582657 -0.032495555 -10.474573 -0.034195807 -10.48677 -34.73476 -108.03743
51958000 -34.89473 -89.601181 -0.034070313 -10.673147 -0.035724986 -10.685588 -34.571838 -108.69655
52957000 -34.681965 -90.75779 -0.035955451 -10.87474 -0.036733858 -10.881729 -34.422066 -108.35076
53956000 -34.498444 -91.382538 -0.036548514 -11.078096 -0.037584472 -11.081145 -34.286282 -108.24265
54955000 -34.339771 -91.849228 -0.037568282 -11.277071 -0.038223453 -11.276705 -34.136429 -108.24774
55954000 -34.178051 -92.64473 -0.03886671 -11.480249 -0.038399734 -11.475731 -34.022243 -107.93385
56953000 -34.058472 -92.713936 -0.038166262 -11.676343 -0.03760327 -11.668588 -33.939922 -108.24876
57952000 -33.892731 -93.247215 -0.039596263 -11.872843 -0.038357165 -11.866079 -33.843109 -108.30965
58951000 -33.760777 -93.561989 -0.040424444 -12.078436 -0.039436918 -12.060639 -33.697021 -108.37799
59950000 -33.639961 -94.014648 -0.040765952 -12.280546 -0.040559791 -12.257406 -33.627777 -108.60578
60949000 -33.522415 -94.56868 -0.041551232 -12.480364 -0.041190848 -12.458787 -33.527809 -108.92067
61948000 -33.462166 -94.872551 -0.041845258 -12.683672 -0.040516157 -12.662093 -33.443699 -108.96813
62947000 -33.372276 -95.052971 -0.041932557 -12.890666 -0.041386846 -12.871552 -33.3004 -109.25835
63946000 -33.298496 -95.843605 -0.042958558 -13.092403 -0.042674389 -13.070964 -33.18581 -109.36092
64945000 -33.182613 -95.99099 -0.04368462 -13.294042 -0.043067578 -13.274753 -33.074547 -109.82051
65944000 -33.071774 -96.240013 -0.044232707 -13.491502 -0.043356739 -13.475826 -32.974693 -110.31242
66943000 -32.935959 -96.641556 -0.042505518 -13.694287 -0.04177051 -13.677588 -32.867031 -110.52581
67942000 -32.872044 -96.586288 -0.044485856 -13.891411 -0.043781888 -13.875407 -32.75423 -110.75751
68941000 -32.776016 -96.726814 -0.043920215 -14.079554 -0.042482514 -14.075297 -32.64801 -110.78515
69940000 -32.680408 -96.677422 -0.044195835 -14.283616 -0.043106794 -14.274969 -32.502151 -111.07251
70939000 -32.567997 -96.622139 -0.043669976 -14.482291 -0.043343145 -14.47181 -32.368912 -110.99152
71938000 -32.422581 -96.237816 -0.043987419 -14.673625 -0.043257125 -14.670886 -32.242725 -110.77611
72937000 -32.257126 -96.02504 -0.043695603 -14.874474 -0.042620279 -14.869939 -32.095478 -110.50865
73936000 -32.13237 -95.637276 -0.043660823 -15.072899 -0.041788019 -15.066735 -31.986849 -110.26353
74935000 -32.009548 -95.854622 -0.043387592 -15.269807 -0.041914783 -15.266781 -31.837307 -109.92161
75934000 -31.878088 -96.095749 -0.043264445 -15.476821 -0.042315219 -15.477441 -31.744318 -109.84852
76933000 -31.744797 -96.454597 -0.044420216 -15.672533 -0.043754958 -15.66473 -31.573536 -110.13914
77932000 -31.644476 -97.267258 -0.04450338 -15.869063 -0.044694822 -15.862183 -31.47666 -110.16608
78931000 -31.580671 -98.018669 -0.043659255 -16.068186 -0.043673113 -16.062597 -31.371027 -110.06203
79930000 -31.464602 -98.854721 -0.046233457 -16.261559 -0.046223253 -16.260672 -31.283358 -110.32943
80929000 -31.353937 -99.592125 -0.04801631 -16.459696 -0.047748558 -16.458838 -31.171135 -110.58887
81928000 -31.248676 -100.40694 -0.04812938 -16.654423 -0.047723696 -16.647318 -31.043287 -110.60381
82927000 -31.150728 -101.06864 -0.049277019 -16.851822 -0.049747262 -16.84889 -30.94441 -110.87754
83926000 -31.035589 -101.75778 -0.051197324 -17.045628 -0.049943388 -17.046713 -30.82415 -111.00819
84925000 -30.929333 -102.23277 -0.052278701 -17.248676 -0.050308164 -17.243681 -30.745098 -111.04929
85924000 -30.846577 -102.64574 -0.052428566 -17.44537 -0.051719904 -17.444557 -30.652309 -111.05074
86923000 -30.72513 -103.08656 -0.052642364 -17.641237 -0.052542012 -17.641403 -30.553423 -110.99208
87922000 -30.615612 -103.42094 -0.052744813 -17.852837 -0.051809233 -17.842058 -30.460564 -110.97636
88921000 -30.548651 -103.66014 -0.054256424 -18.048786 -0.052551445 -18.048727 -30.368135 -110.96561
89920000 -30.437452 -104.19453 -0.054628119 -18.252268 -0.053109828 -18.242798 -30.303162 -111.12199
90919000 -30.337296 -104.49212 -0.055734474 -18.448973 -0.054112788 -18.443426 -30.226049 -111.25305
91918000 -30.24465 -104.78565 -0.055778787 -18.646074 -0.053924076 -18.642456 -30.156864 -111.28596
92917000 -30.156477 -105.12691 -0.057355456 -18.844841 -0.055656075 -18.842396 -30.095339 -111.37782
93916000 -30.068087 -105.43446 -0.05648575 -19.038439 -0.055468608 -19.037893 -30.010668 -111.99293
94915000 -29.992781 -106.12497 -0.058747709 -19.239897 -0.056012418 -19.236887 -29.939596 -111.84145
95914000 -29.924702 -106.28406 -0.05966353 -19.434391 -0.057945933 -19.431479 -29.855042 -112.10887
96913000 -29.843388 -106.45862 -0.06022099 -19.636969 -0.058533084 -19.63257 -29.786894 -112.45674
97912000 -29.760778 -106.9781 -0.060973041 -19.83135 -0.058517341 -19.831852 -29.70993 -112.71357
98911000 -29.651976 -107.11354 -0.061588693 -20.031946 -0.059701845 -20.031305 -29.675007 -112.93353
99910000 -29.576145 -107.29308 -0.062649556 -20.231157 -0.059901308 -20.231466 -29.561193 -113.18935
100909000 -29.494469 -107.45793 -0.062175285 -20.443039 -0.059330504 -20.43379 -29.474827 -113.36977
101908000 -29.408312 -107.72913 -0.063290134 -20.641207 -0.060952302 -20.640989 -29.368216 -113.14989
102907000 -29.273438 -107.74399 -0.063480042 -20.839441 -0.060901638 -20.837091 -29.291029 -113.18093
103906000 -29.167454 -107.77745 -0.063772403 -21.046986 -0.060072955 -21.042751 -29.146313 -113.15267
104905000 -29.030113 -107.65965 -0.064551346 -21.244831 -0.060757518 -21.244715 -29.020996 -112.78954
105904000 -28.894522 -107.77069 -0.064205073 -21.448822 -0.060359579 -21.440338 -28.909945 -112.66329
106903000 -28.787163 -107.79178 -0.0646412 -21.655691 -0.061802421 -21.651278 -28.798944 -112.58736
107902000 -28.62056 -108.12702 -0.065630011 -21.852171 -0.061325621 -21.848648 -28.652519 -112.49979
108901000 -28.500074 -108.42801 -0.065721728 -22.056772 -0.06340912 -22.049417 -28.529545 -112.45576
109900000 -28.376656 -108.85756 -0.067350909 -22.25618 -0.063845165 -22.246172 -28.377398 -112.55975
110899000 -28.252861 -109.47006 -0.068535723 -22.453825 -0.065448418 -22.445683 -28.25334 -112.78682
111898000 -28.169376 -110.0855 -0.069699816 -22.654696 -0.066010825 -22.64912 -28.133085 -112.93467
112897000 -28.05163 -110.65926 -0.071450487 -22.854261 -0.067695066 -22.842154 -27.998394 -113.11594
113896000 -27.938959 -111.2321 -0.072411373 -23.055592 -0.068861827 -23.044558 -27.89747 -113.20642
114895000 -27.842459 -111.83704 -0.073287688 -23.2565 -0.070078358 -23.243402 -27.783142 -113.29124
115894000 -27.720819 -112.19824 -0.074250028 -23.456764 -0.071166553 -23.438904 -27.712502 -113.50122
116893000 -27.633875 -112.66721 -0.074937619 -23.652983 -0.071606278 -23.637503 -27.592222 -113.57136
117892000 -27.553465 -113.13193 -0.074717984 -23.84602 -0.072063416 -23.834707 -27.518114 -113.76945
118891000 -27.495665 -113.56374 -0.076049954 -24.046143 -0.072598778 -24.034 -27.418383 -113.90315
119890000 -27.407265 -113.93912 -0.07588321 -24.252863 -0.073135786 -24.235676 -27.401804 -114.02793
120889000 -27.354483 -114.42378 -0.077270344 -24.449898 -0.073754221 -24.438879 -27.332045 -113.97508
121888000 -27.320822 -114.74733 -0.077691711 -24.648809 -0.074334562 -24.632687 -27.268538 -114.2311
122887000 -27.281754 -114.96661 -0.07830447 -24.850893 -0.074863091 -24.836536 -27.226854 -114.21244
123886000 -27.230703 -115.34789 -0.078889899 -25.056952 -0.07474827 -25.036125 -27.212233 -114.38716
124885000 -27.195824 -115.87719 -0.079683423 -25.253822 -0.074907862 -25.237677 -27.182583 -114.4307
125884000 -27.1427 -116.03527 -0.080343395 -25.451523 -0.075774148 -25.435385 -27.15526 -114.61463
126883000 -27.126547 -116.45728 -0.080649026 -25.654297 -0.076500446 -25.639376 -27.117428 -114.60757
127882000 -27.071596 -116.75185 -0.08066722 -25.852976 -0.07680212 -25.837526 -27.076542 -114.76081
128881000 -27.046389 -117.04585 -0.081106059 -26.054533 -0.076482795 -26.036552 -27.038797 -114.79522
129880000 -26.98675 -117.36928 -0.081683427 -26.256155 -0.076547869 -26.238262 -26.998772 -114.79731
130879000 -26.934864 -117.52818 -0.080982372 -26.455025 -0.077544667 -26.440979 -26.927355 -114.79659
131878000 -26.868641 -117.75996 -0.081784189 -26.658627 -0.078327663 -26.638849 -26.864088 -114.66317
132877000 -26.799662 -117.84931 -0.08154732 -26.861101 -0.078562513 -26.842808 -26.788973 -114.63597
133876000 -26.719709 -118.00369 -0.082219183 -27.066664 -0.077197358 -27.042671 -26.701077 -114.50072
134875000 -26.619247 -118.1265 -0.082092293 -27.261139 -0.078724883 -27.243662 -26.604382 -114.36125
135874000 -26.54434 -118.15857 -0.081657313 -27.461914 -0.078590453 -27.446276 -26.511436 -114.2993
136873000 -26.43363 -118.08521 -0.081957228 -27.66399 -0.077838242 -27.646151 -26.429197 -114.26199
137872000 -26.35257 -118.20168 -0.081783921 -27.86466 -0.078472629 -27.854399 -26.327896 -114.21838
138871000 -26.285389 -118.4101 -0.082773745 -28.068569 -0.079484895 -28.053638 -26.232117 -114.35789
139870000 -26.181856 -118.7255 -0.083653212 -28.264851 -0.079481728 -28.250393 -26.1534 -114.54107
140869000 -26.104071 -119.27383 -0.084391125 -28.463306 -0.080982894 -28.447542 -26.049091 -114.75761
141868000 -26.026802 -119.66072 -0.085153446 -28.664816 -0.081848025 -28.645258 -26.005287 -114.99731
142867000 -25.94241 -119.81145 -0.084259681 -28.861897 -0.081787616 -28.843958 -25.92054 -115.09861
143866000 -25.869755 -120.32961 -0.085754842 -29.058859 -0.082998015 -29.041265 -25.85223 -115.54926
144865000 -25.812923 -120.8429 -0.087363563 -29.256317 -0.084511742 -29.241669 -25.793684 -115.86433
145864000 -25.76194 -121.1563 -0.087963156 -29.456015 -0.085323982 -29.445961 -25.764124 -116.10487
146863000 -25.709352 -121.506 -0.088600084 -29.656538 -0.085819267 -29.645432 -25.713097 -116.4352
147862000 -25.675049 -121.83247 -0.089809738 -29.853647 -0.086591609 -29.842777 -25.677439 -116.72646
148861000 -25.644821 -122.27063 -0.090460151 -30.054537 -0.086654723 -30.035152 -25.655851 -116.85253
149860000 -25.608776 -122.40449 -0.091376603 -30.246536 -0.088736407 -30.23592 -25.603537 -116.9987
150859000 -25.586231 -122.90236 -0.0909058 -30.442919 -0.087370433 -30.427073 -25.583141 -117.34705
151858000 -25.576559 -123.28522 -0.090114981 -30.645498 -0.087691613 -30.628563 -25.572369 -117.66352
152857000 -25.557457 -123.58318 -0.091218255 -30.839579 -0.087243654 -30.83271 -25.55788 -117.85616
153856000 -25.556463 -123.82504 -0.090385087 -31.041189 -0.087365679 -31.02664 -25.574478 -118.17512
154855000 -25.554165 -123.96923 -0.091254205 -31.24437 -0.08767207 -31.228834 -25.563532 -118.3908
155854000 -25.575994 -124.21384 -0.091221422 -31.441423 -0.087842703 -31.428997 -25.555868 -118.68171
156853000 -25.551762 -124.90884 -0.089035235 -31.631084 -0.087315232 -31.619507 -25.550657 -119.03927
157852000 -25.55847 -125.14591 -0.090301037 -31.829956 -0.089207776 -31.820206 -25.539017 -119.34709
158851000 -25.559738 -125.36971 -0.090749048 -32.029018 -0.089201167 -32.021233 -25.522076 -119.63612
159850000 -25.54562 -125.43823 -0.091288835 -32.229156 -0.089278325 -32.221283 -25.523378 -119.78468
160849000 -25.530735 -125.56259 -0.091925986 -32.429634 -0.090257168 -32.42173 -25.494566 -120.09326
161848000 -25.511374 -125.6224 -0.09229748 -32.630581 -0.089995787 -32.62307 -25.453201 -120.2009
162847000 -25.473028 -125.79987 -0.092350893 -32.828575 -0.09058702 -32.821163 -25.425409 -120.43546
163846000 -25.435219 -126.02107 -0.092574336 -33.032063 -0.090762265 -33.018681 -25.351034 -120.46248
164845000 -25.375381 -125.96989 -0.093011737 -33.226074 -0.090612926 -33.222401 -25.288662 -120.57562
165844000 -25.322704 -125.98991 -0.092562966 -33.431541 -0.091036379 -33.420868 -25.210276 -120.70192
166843000 -25.260637 -126.07986 -0.092513785 -33.62812 -0.091681957 -33.624115 -25.142286 -120.86775
167842000 -25.20455 -126.1548 -0.093499698 -33.824963 -0.090653628 -33.822704 -25.06419 -120.79952
168841000 -25.123802 -126.3327 -0.093332544 -34.029995 -0.092305146 -34.022175 -24.989983 -120.82823
169840000 -25.062368 -126.54615 -0.093827151 -34.222641 -0.092037298 -34.219681 -24.908192 -121.00303
170839000 -24.998533 -126.80415 -0.09466204 -34.419022 -0.092628017 -34.415504 -24.825033 -121.18149
171838000 -24.940865 -127.15874 -0.094188496 -34.622189 -0.093249232 -34.615112 -24.758528 -121.42414
172837000 -24.872866 -127.52447 -0.095382772 -34.81633 -0.093989037 -34.811565 -24.694908 -121.64117
173836000 -24.805103 -127.92642 -0.096658893 -35.016254 -0.095365308 -35.014057 -24.657587 -121.86932
174835000 -24.755457 -128.32617 -0.096768476 -35.214504 -0.095672257 -35.213001 -24.610855 -122.17159
175834000 -24.701244 -128.70349 -0.098193288 -35.41526 -0.096479177 -35.409882 -24.552128 -122.4296
176833000 -24.65204 -129.02322 -0.099370651 -35.613064 -0.097552039 -35.610603 -24.498768 -122.56651
177832000 -24.603508 -129.45262 -0.10019495 -35.811226 -0.098117031 -35.809868 -24.476065 -122.63396
178831000 -24.560431 -129.67299 -0.10172316 -36.006363 -0.1006151 -36.005905 -24.439117 -122.76121
179830000 -24.492603 -130.07922 -0.10317187 -36.193073 -0.10097753 -36.193962 -24.375828 -122.80149
180829000 -24.442333 -130.42152 -0.10194258 -36.387913 -0.10045297 -36.382507 -24.334923 -123.15674
181828000 -24.421503 -130.8537 -0.10064425 -36.585903 -0.099334106 -36.585129 -24.321733 -123.34174
182827000 -24.39518 -131.226 -0.10111637 -36.783035 -0.099872306 -36.782658 -24.302845 -123.46877
183826000 -24.358919 -131.58464 -0.1022357 -36.979408 -0.099962369 -36.976494 -24.29855 -123.62547
184825000 -24.357191 -131.89575 -0.10180028 -37.179081 -0.099674709 -37.179127 -24.278143 -123.72407
185824000 -24.332083 -132.29561 -0.1013824 -37.374222 -0.10088851 -37.376823 -24.274218 -123.79639
186823000 -24.314499 -132.64471 -0.10163413 -37.575787 -0.10068292 -37.571899 -24.263199 -123.82035
187822000 -24.29093 -132.97189 -0.10220071 -37.770084 -0.10119321 -37.771378 -24.228682 -123.9051
188821000 -24.267353 -133.22623 -0.10211299 -37.966286 -0.10128595 -37.965733 -24.207602 -124.01468
189820000 -24.246004 -133.51532 -0.10243712 -38.166275 -0.10151488 -38.164524 -24.190937 -124.20158
190819000 -24.217125 -133.83163 -0.10293251 -38.361439 -0.10225001 -38.360714 -24.152887 -124.26653
191818000 -24.185755 -134.11272 -0.10268732 -38.560619 -0.10151594 -38.559948 -24.12534 -124.28737
192817000 -24.140562 -134.40239 -0.10321932 -38.758194 -0.10217315 -38.756977 -24.082825 -124.37366
193816000 -24.107155 -134.64729 -0.10376543 -38.951878 -0.10176875 -38.948902 -24.031082 -124.53051
194815000 -24.05043 -135.03169 -0.10470644 -39.14822 -0.10321057 -39.152969 -23.966698 -124.58475
195814000 -23.993248 -135.24377 -0.10509627 -39.343586 -0.10347911 -39.347153 -23.911997 -124.66621
196813000 -23.937723 -135.56676 -0.10518961 -39.540924 -0.10293409 -39.542728 -23.831697 -124.80609
197812000 -23.881681 -135.78682 -0.10465393 -39.735573 -0.10368616 -39.734863 -23.761456 -124.92177
198811000 -23.825937 -135.93985 -0.10528085 -39.933037 -0.10357985 -39.934948 -23.696468 -125.07919
199810000 -23.759703 -136.26462 -0.1057678 -40.130161 -0.10340011 -40.125393 -23.615288 -125.161
200809000 -23.698296 -136.52725 -0.10589618 -40.326103 -0.10361299 -40.323521 -23.536631 -125.36533
201808000 -23.644112 -136.73549 -0.10701568 -40.527737 -0.10434528 -40.530262 -23.474693 -125.42104
202807000 -23.586731 -137.05949 -0.10697269 -40.728836 -0.10598212 -40.726635 -23.417913 -125.57854
