!Keysight Technologies,E5080B,MY59205177,A.15.75.32
!Date: Friday, February 23, 2024 02:59:03
!Correction: S11(Cdelta 2-Port  ) 
!S21(Cdelta 2-Port  ) 
!S12(Cdelta 2-Port  ) 
!S22(Cdelta 2-Port  ) 
!S2P File: Measurements: S11, S21, S12, S22:
# Hz S  dB   R 50
10000000 -44.087948 -3.8643067 -0.028614443 -2.0402346 -0.031489491 -2.0945408 -48.197243 -150.32079
10999000 -43.434807 -5.2648664 -0.029374855 -2.2559271 -0.031265259 -2.3101377 -47.874031 -142.44283
11998000 -42.685375 -7.8311391 -0.029989433 -2.4796274 -0.030976377 -2.5253336 -48.000946 -136.92969
12997000 -42.023628 -12.87098 -0.029462162 -2.6590185 -0.030413015 -2.692188 -47.342712 -130.82141
13996000 -41.815029 -15.803994 -0.028453153 -2.8395023 -0.030604878 -2.8616338 -46.983475 -124.90417
14995000 -41.498718 -19.667704 -0.030648414 -3.0472925 -0.030267298 -3.0726819 -46.481476 -121.54263
15994000 -41.391998 -23.471453 -0.031361207 -3.2682331 -0.03320187 -3.2891362 -46.275421 -117.81067
16993000 -41.363037 -27.491421 -0.030646849 -3.459379 -0.03185872 -3.4746814 -45.333225 -118.85188
17992000 -41.422783 -32.010242 -0.031288724 -3.6612213 -0.032996587 -3.6628268 -44.715218 -119.37937
18991000 -41.698303 -36.494637 -0.03250286 -3.8728018 -0.033812553 -3.868258 -43.959511 -119.16362
19990000 -41.599678 -41.450371 -0.034931626 -4.0822549 -0.03527322 -4.0752616 -43.308739 -120.59985
20989000 -41.446228 -44.296761 -0.036615081 -4.2827735 -0.037396997 -4.2709994 -42.73838 -120.09728
21988000 -41.403595 -48.866329 -0.03737611 -4.4781723 -0.037197001 -4.4684763 -42.392029 -120.12827
22987000 -41.182289 -53.232651 -0.038519606 -4.6752639 -0.039325114 -4.6690412 -42.145035 -119.47214
23986000 -41.192425 -57.155186 -0.038045615 -4.869597 -0.038268112 -4.8696084 -42.022266 -119.61127
24985000 -40.880291 -59.863373 -0.03895212 -5.0779476 -0.038594298 -5.0718722 -41.784073 -117.1434
25984000 -40.610943 -62.036369 -0.040002499 -5.2871604 -0.038658287 -5.2895279 -41.36969 -115.72584
26983000 -40.379707 -63.769535 -0.040832583 -5.483376 -0.040080089 -5.4994988 -41.267784 -114.96191
27982000 -40.233109 -64.701088 -0.042326983 -5.6824541 -0.04157031 -5.7185569 -40.944424 -113.39312
28981000 -40.177086 -66.301353 -0.039998841 -5.8825374 -0.041302435 -5.9032416 -40.699551 -112.66478
29980000 -39.81599 -67.787277 -0.040225092 -6.0704579 -0.041985091 -6.0787411 -40.393429 -111.84018
30979000 -39.45583 -67.192902 -0.03854781 -6.4275823 -0.036608294 -6.418674 -39.901955 -112.7387
31978000 -39.255756 -68.14135 -0.03729726 -6.6229987 -0.036920782 -6.6096845 -39.627365 -112.34264
32977000 -39.092617 -69.789139 -0.037124682 -6.8312526 -0.038298141 -6.82621 -39.361607 -112.56434
33976000 -38.959087 -70.86779 -0.037664894 -7.0328879 -0.038271245 -7.0251498 -39.062733 -111.97128
34975000 -38.693176 -71.701988 -0.037794407 -7.2324457 -0.038875327 -7.2310128 -38.834358 -111.99245
35974000 -38.499817 -72.609573 -0.036841158 -7.4231067 -0.038456928 -7.4298882 -38.533241 -110.91202
36973000 -38.265244 -73.504066 -0.03761946 -7.6234388 -0.039567009 -7.6309352 -38.231789 -110.30385
37972000 -38.093273 -73.291649 -0.036803301 -7.8345394 -0.038959693 -7.8433328 -37.999592 -109.70401
38971000 -37.772537 -73.212097 -0.037556794 -8.0333004 -0.039010365 -8.0453405 -37.777653 -108.35236
39970000 -37.469715 -73.721581 -0.036661547 -8.2284813 -0.038430288 -8.2439098 -37.509708 -107.71936
40969000 -37.175499 -73.477524 -0.036298957 -8.4235497 -0.038474686 -8.4437475 -37.247635 -106.47116
41968000 -36.837219 -73.82325 -0.03673673 -8.6273785 -0.038612321 -8.6436863 -37.020096 -105.28651
42967000 -36.575657 -74.073433 -0.03664536 -8.8405066 -0.039409488 -8.8569527 -36.810783 -103.47271
43966000 -36.323547 -74.930992 -0.037507184 -9.0412474 -0.040938936 -9.0605145 -36.514351 -102.98792
44965000 -36.069141 -75.714485 -0.038487483 -9.2417603 -0.04051302 -9.2596302 -36.292374 -102.86829
45964000 -35.870789 -76.910446 -0.03962918 -9.4442005 -0.041571096 -9.4584713 -36.051582 -102.64446
46963000 -35.705387 -78.887352 -0.039473489 -9.6339617 -0.042370636 -9.6568737 -35.864166 -103.00091
47962000 -35.551758 -80.460289 -0.041222207 -9.8349829 -0.043053985 -9.8533459 -35.665565 -103.18166
48961000 -35.344963 -81.957306 -0.04283255 -10.033305 -0.045065437 -10.053134 -35.438271 -103.50179
49960000 -35.152679 -83.344063 -0.044481933 -10.230786 -0.046029128 -10.254176 -35.302464 -103.79589
50959000 -34.929512 -84.694878 -0.04450861 -10.443117 -0.047435291 -10.456953 -35.117199 -104.11362
51958000 -34.736626 -85.887024 -0.046702322 -10.643157 -0.048652638 -10.652678 -34.95293 -104.66324
52957000 -34.542042 -86.955673 -0.047943808 -10.842875 -0.049715839 -10.846843 -34.787567 -104.55264
53956000 -34.383301 -87.709671 -0.048930917 -11.045144 -0.050430983 -11.044934 -34.659348 -104.57139
54955000 -34.218494 -88.230576 -0.050609071 -11.245046 -0.05071383 -11.242959 -34.498077 -104.62098
55954000 -34.071045 -89.162117 -0.051031001 -11.447356 -0.051288735 -11.444437 -34.392075 -104.26185
56953000 -33.960464 -89.25972 -0.050021682 -11.642184 -0.050234314 -11.630688 -34.31752 -104.56062
57952000 -33.790455 -89.783287 -0.05168768 -11.838083 -0.05125678 -11.831801 -34.227669 -104.70681
58951000 -33.685265 -90.184608 -0.052663587 -12.044264 -0.053417742 -12.028265 -34.053154 -104.76864
59950000 -33.558075 -90.551552 -0.053267319 -12.244256 -0.053401757 -12.22304 -33.992569 -105.04991
60949000 -33.45396 -91.113907 -0.05370995 -12.445142 -0.053354848 -12.427444 -33.898701 -105.25997
61948000 -33.404232 -91.482147 -0.054869816 -12.643745 -0.053191587 -12.622658 -33.810238 -105.51553
62947000 -33.302643 -91.699745 -0.054889999 -12.852706 -0.05364522 -12.834914 -33.677845 -105.64951
63946000 -33.251183 -92.425201 -0.055495612 -13.050152 -0.055402275 -13.034471 -33.572704 -105.83334
64945000 -33.135494 -92.589897 -0.056070633 -13.255992 -0.055444486 -13.233438 -33.472591 -106.41216
65944000 -33.045662 -92.820923 -0.056728862 -13.452187 -0.055770133 -13.43658 -33.375961 -106.81489
66943000 -32.908394 -93.372604 -0.054582506 -13.65134 -0.0540816 -13.635144 -33.272438 -107.07878
67942000 -32.852947 -93.297417 -0.056599569 -13.850747 -0.056033395 -13.838509 -33.163952 -107.40616
68941000 -32.744831 -93.408524 -0.056396324 -14.044499 -0.054652758 -14.032434 -33.047329 -107.40898
69940000 -32.644966 -93.380333 -0.056741975 -14.239647 -0.056081384 -14.233199 -32.907642 -107.74513
70939000 -32.540138 -93.393997 -0.056208827 -14.435834 -0.055836998 -14.427224 -32.777763 -107.67387
71938000 -32.394337 -93.01545 -0.056157954 -14.634942 -0.055926673 -14.628682 -32.649719 -107.54285
72937000 -32.228172 -92.871506 -0.05606224 -14.829975 -0.054575954 -14.821637 -32.498638 -107.26675
73936000 -32.103271 -92.664253 -0.056157954 -15.028046 -0.054829966 -15.020773 -32.386013 -107.1216
74935000 -31.972061 -92.80587 -0.055229764 -15.225182 -0.053592015 -15.221553 -32.228489 -106.74356
75934000 -31.85153 -93.16674 -0.054608721 -15.432702 -0.053669855 -15.429247 -32.149605 -106.74561
76933000 -31.724701 -93.51062 -0.056433566 -15.624928 -0.054819483 -15.621213 -31.972931 -107.19884
77932000 -31.630432 -94.365944 -0.057564776 -15.826118 -0.05727388 -15.822229 -31.872919 -107.19691
78931000 -31.558939 -95.124718 -0.056453496 -16.024576 -0.055436883 -16.018122 -31.780249 -107.11831
79930000 -31.440294 -95.957291 -0.05894319 -16.213522 -0.058621243 -16.214962 -31.670803 -107.38683
80929000 -31.318417 -96.867294 -0.061081201 -16.409105 -0.060316794 -16.407061 -31.577038 -107.72035
81928000 -31.25268 -97.769653 -0.060870398 -16.600096 -0.059745938 -16.602581 -31.456074 -107.80611
82927000 -31.154814 -98.469887 -0.061930031 -16.799906 -0.061183587 -16.797663 -31.351574 -108.13634
83926000 -31.03997 -99.201721 -0.06400121 -16.996239 -0.062619351 -16.997694 -31.234125 -108.40337
84925000 -30.938242 -99.635429 -0.064571314 -17.19721 -0.063003317 -17.192974 -31.137287 -108.51673
85924000 -30.847013 -100.13129 -0.065265521 -17.396097 -0.064026691 -17.394886 -31.059549 -108.46353
86923000 -30.75013 -100.63761 -0.065552488 -17.598295 -0.064268388 -17.592941 -30.958637 -108.36058
87922000 -30.628798 -100.98158 -0.065444738 -17.80435 -0.06385988 -17.790531 -30.879848 -108.46387
88921000 -30.576094 -101.29768 -0.066328064 -17.993977 -0.065479428 -17.994995 -30.78911 -108.46481
89920000 -30.4765 -101.86378 -0.067004152 -18.198812 -0.065976396 -18.194798 -30.735739 -108.64375
90919000 -30.380472 -102.17733 -0.067938283 -18.396666 -0.066256836 -18.39056 -30.652233 -108.77422
91918000 -30.28923 -102.55267 -0.06896624 -18.587816 -0.066418752 -18.585306 -30.58713 -108.83754
92917000 -30.199511 -102.87552 -0.069354452 -18.791204 -0.067386143 -18.787601 -30.524221 -108.94812
93916000 -30.118698 -103.25188 -0.069102213 -18.986351 -0.067722939 -18.981228 -30.440105 -109.63126
94915000 -30.045401 -103.90521 -0.070417732 -19.186466 -0.068968341 -19.180746 -30.369642 -109.4427
95914000 -29.984264 -104.11826 -0.071496807 -19.379084 -0.070004173 -19.377285 -30.290268 -109.75932
96913000 -29.904129 -104.37664 -0.073023379 -19.578991 -0.070836596 -19.57712 -30.225483 -110.1337
97912000 -29.82902 -104.77483 -0.07421685 -19.774006 -0.071013413 -19.776976 -30.13682 -110.32005
98911000 -29.727125 -105.04848 -0.074255824 -19.975105 -0.071874976 -19.972866 -30.095854 -110.53861
99910000 -29.658703 -105.1507 -0.074927613 -20.176241 -0.07226871 -20.173914 -30.001406 -110.83759
100909000 -29.571552 -105.49682 -0.073816098 -20.385092 -0.071651019 -20.378799 -29.905943 -111.02554
101908000 -29.478468 -105.7291 -0.075426981 -20.578959 -0.073152639 -20.579544 -29.793436 -110.86736
102907000 -29.350904 -105.73962 -0.075513907 -20.780983 -0.073961966 -20.780256 -29.728659 -110.81479
103906000 -29.259903 -105.8006 -0.075626113 -20.987221 -0.073208712 -20.980042 -29.578568 -110.74461
104905000 -29.104397 -105.75096 -0.076135576 -21.181784 -0.072875172 -21.182045 -29.44179 -110.45125
105904000 -28.971451 -105.8241 -0.076607682 -21.391829 -0.072546929 -21.381325 -29.328838 -110.30875
106903000 -28.861139 -105.96649 -0.076482795 -21.588167 -0.073602565 -21.584761 -29.19343 -110.23932
107902000 -28.69762 -106.32194 -0.077311188 -21.790426 -0.074395128 -21.78117 -29.067148 -110.15906
108901000 -28.588829 -106.55857 -0.078422554 -21.995003 -0.075728051 -21.985161 -28.937357 -110.11011
109900000 -28.457138 -107.08063 -0.079107374 -22.193842 -0.076160602 -22.185373 -28.783665 -110.24432
110899000 -28.339209 -107.73726 -0.081043817 -22.390549 -0.076922797 -22.381382 -28.653145 -110.51239
111898000 -28.254208 -108.3859 -0.081695028 -22.590199 -0.077915192 -22.586628 -28.537306 -110.68121
112897000 -28.13076 -108.94474 -0.083582491 -22.790272 -0.079503611 -22.778284 -28.407131 -110.84742
113896000 -28.024309 -109.54435 -0.08452943 -22.991522 -0.080760315 -22.977762 -28.292599 -110.99892
114895000 -27.920559 -110.20751 -0.085025944 -23.185371 -0.082209423 -23.175133 -28.183958 -111.11262
115894000 -27.793461 -110.52518 -0.086817399 -23.387119 -0.083445534 -23.374193 -28.113583 -111.25253
116893000 -27.71291 -111.15721 -0.087445706 -23.580839 -0.084273934 -23.565359 -27.988495 -111.39719
117892000 -27.633877 -111.60185 -0.087137751 -23.778471 -0.084127717 -23.769442 -27.91118 -111.61818
118891000 -27.570789 -112.07584 -0.087666258 -23.98233 -0.085272767 -23.964455 -27.81089 -111.79205
119890000 -27.482626 -112.43084 -0.089167349 -24.179596 -0.085213631 -24.165747 -27.799915 -111.94755
120889000 -27.426197 -112.9059 -0.089369223 -24.382708 -0.085438825 -24.366196 -27.727928 -111.87
121888000 -27.390684 -113.24867 -0.089535169 -24.578527 -0.086754814 -24.566481 -27.66967 -112.17417
122887000 -27.351482 -113.44377 -0.091096655 -24.779531 -0.087191887 -24.76516 -27.619766 -112.20945
123886000 -27.292227 -113.84418 -0.090516448 -24.979664 -0.087553203 -24.959814 -27.60463 -112.3743
124885000 -27.255552 -114.36501 -0.091297291 -25.178041 -0.087884173 -25.168388 -27.572916 -112.46253
125884000 -27.206211 -114.54885 -0.09170866 -25.378786 -0.088352278 -25.366596 -27.543043 -112.62455
126883000 -27.185783 -114.95131 -0.092168972 -25.581476 -0.089042634 -25.56496 -27.501404 -112.67594
127882000 -27.133799 -115.2077 -0.092833757 -25.779243 -0.089502931 -25.762047 -27.461687 -112.85865
128881000 -27.101685 -115.56912 -0.092602633 -25.981234 -0.089571901 -25.967014 -27.420183 -112.95979
129880000 -27.044197 -115.89044 -0.093791977 -26.185621 -0.089371338 -26.165337 -27.377918 -112.93953
130879000 -26.985073 -116.03724 -0.093702838 -26.382685 -0.090382971 -26.363434 -27.300907 -113.00082
131878000 -26.917597 -116.26395 -0.093061194 -26.585754 -0.090981394 -26.564917 -27.233086 -112.9021
132877000 -26.852278 -116.32874 -0.093053788 -26.787411 -0.091511957 -26.766802 -27.152058 -112.89133
133876000 -26.764181 -116.52008 -0.093948305 -26.988293 -0.090608165 -26.968096 -27.058113 -112.83562
134875000 -26.665474 -116.63365 -0.093827948 -27.181984 -0.091589689 -27.167566 -26.954016 -112.70054
135874000 -26.581602 -116.6495 -0.093979254 -27.384106 -0.092013769 -27.365475 -26.855972 -112.65997
136873000 -26.478487 -116.58295 -0.094336905 -27.58548 -0.091581754 -27.566166 -26.768774 -112.66294
137872000 -26.390816 -116.70768 -0.094502248 -27.788805 -0.091654196 -27.774261 -26.663891 -112.62063
138871000 -26.328817 -116.91167 -0.094705693 -27.988174 -0.091689885 -27.975399 -26.56502 -112.79034
139870000 -26.226124 -117.18725 -0.095529892 -28.186924 -0.09273459 -28.171478 -26.487263 -112.95195
140869000 -26.141146 -117.6166 -0.097983584 -28.383696 -0.094090089 -28.365458 -26.379683 -113.07412
141868000 -26.042376 -118.10553 -0.097629339 -28.57386 -0.095245972 -28.55875 -26.306868 -113.42139
142867000 -25.962418 -118.37333 -0.09628994 -28.772947 -0.093837738 -28.757071 -26.233822 -113.64153
143866000 -25.895683 -118.86563 -0.097663231 -28.969893 -0.095204696 -28.953104 -26.162783 -114.12427
144865000 -25.839874 -119.39581 -0.099112697 -29.169973 -0.096522324 -29.153622 -26.105619 -114.42164
145864000 -25.786352 -119.6991 -0.099549957 -29.369135 -0.097643636 -29.356987 -26.071894 -114.70029
146863000 -25.738581 -120.12051 -0.10028104 -29.5672 -0.097998939 -29.556049 -26.01819 -114.99614
147862000 -25.694536 -120.46595 -0.10122845 -29.763796 -0.09805163 -29.750895 -25.989504 -115.34359
148861000 -25.664301 -120.98581 -0.10128754 -29.961943 -0.099312387 -29.946531 -25.965654 -115.57907
149860000 -25.64679 -121.19726 -0.10165427 -30.16008 -0.099578038 -30.152298 -25.932482 -115.75477
150859000 -25.636776 -121.53761 -0.10164923 -30.360188 -0.099338874 -30.345657 -25.929911 -115.986
151858000 -25.618109 -121.86536 -0.10216573 -30.557457 -0.09964902 -30.542612 -25.918156 -116.26626
152857000 -25.597282 -122.19131 -0.10275093 -30.756346 -0.099988326 -30.746151 -25.896915 -116.39741
153856000 -25.59309 -122.39908 -0.10207138 -30.954868 -0.099410377 -30.943256 -25.917 -116.71392
154855000 -25.588293 -122.5957 -0.10270561 -31.156401 -0.099433161 -31.143587 -25.905567 -116.89955
155854000 -25.607347 -122.84806 -0.10276896 -31.353079 -0.099999718 -31.342003 -25.894756 -117.17567
156853000 -25.594538 -123.52557 -0.10065696 -31.539499 -0.099774569 -31.533495 -25.896915 -117.4398
157852000 -25.596163 -123.7565 -0.10232713 -31.740623 -0.10124037 -31.733511 -25.887133 -117.82105
158851000 -25.58972 -123.98839 -0.10305947 -31.939478 -0.10090441 -31.933504 -25.872702 -118.07214
159850000 -25.575251 -124.12199 -0.10320102 -32.139263 -0.10093726 -32.130711 -25.867764 -118.22515
160849000 -25.559504 -124.21718 -0.10378797 -32.339317 -0.10210478 -32.333725 -25.841438 -118.55579
161848000 -25.539167 -124.36356 -0.10433017 -32.536854 -0.10251239 -32.529526 -25.800037 -118.63094
162847000 -25.499874 -124.53379 -0.10415225 -32.734787 -0.10254154 -32.730736 -25.776867 -118.86981
163846000 -25.455378 -124.73994 -0.10408597 -32.937534 -0.10202845 -32.927055 -25.69561 -118.89677
164845000 -25.394274 -124.76304 -0.10479394 -33.133129 -0.10326571 -33.128704 -25.625923 -119.00384
165844000 -25.347857 -124.84025 -0.10440733 -33.330181 -0.1034306 -33.32428 -25.550673 -119.14219
166843000 -25.279657 -124.92605 -0.10398999 -33.531193 -0.10323549 -33.526638 -25.477993 -119.32592
167842000 -25.224171 -125.08537 -0.1044418 -33.731079 -0.10354167 -33.729465 -25.398626 -119.24374
168841000 -25.143824 -125.24573 -0.10514984 -33.932228 -0.10385265 -33.922531 -25.325964 -119.31676
169840000 -25.079866 -125.53088 -0.10562723 -34.124851 -0.10436703 -34.121826 -25.235529 -119.5106
170839000 -25.025661 -125.79664 -0.10604711 -34.319397 -0.10464704 -34.319016 -25.149813 -119.71486
171838000 -24.96236 -126.21999 -0.10613146 -34.520973 -0.10491381 -34.515167 -25.085512 -119.96958
172837000 -24.892756 -126.58432 -0.10738873 -34.718781 -0.10627656 -34.712509 -25.016111 -120.1859
173836000 -24.821833 -127.00105 -0.10842475 -34.914768 -0.10746223 -34.914047 -24.972015 -120.40871
174835000 -24.766111 -127.42949 -0.10892851 -35.109058 -0.10778358 -35.11282 -24.92799 -120.75373
175834000 -24.714539 -127.8302 -0.10961922 -35.30867 -0.109096 -35.3032 -24.861891 -121.01637
176833000 -24.66361 -128.19174 -0.11053256 -35.506042 -0.10934393 -35.503002 -24.812546 -121.21365
177832000 -24.616224 -128.64282 -0.11099833 -35.701038 -0.11015765 -35.704025 -24.789553 -121.36444
178831000 -24.575804 -129.05783 -0.11146361 -35.900177 -0.11044334 -35.899094 -24.75272 -121.60378
179830000 -24.543119 -129.46838 -0.11197358 -36.097656 -0.11049804 -36.099171 -24.719669 -121.71146
180829000 -24.503813 -129.67722 -0.11329923 -36.2957 -0.11050787 -36.293949 -24.689905 -121.87652
181828000 -24.478943 -130.02275 -0.11233032 -36.493088 -0.111044 -36.487118 -24.67654 -122.02487
182827000 -24.453905 -130.3882 -0.11283029 -36.685608 -0.11128355 -36.685478 -24.660538 -122.12007
183826000 -24.411324 -130.72577 -0.11427791 -36.88274 -0.11146893 -36.880939 -24.651569 -122.23061
184825000 -24.417238 -131.01865 -0.1135187 -37.081692 -0.11180013 -37.080494 -24.637547 -122.3289
185824000 -24.394253 -131.37003 -0.11343633 -37.270924 -0.11206814 -37.273018 -24.631981 -122.39016
186823000 -24.378187 -131.71898 -0.11336273 -37.475861 -0.1123699 -37.471813 -24.631681 -122.36705
187822000 -24.358152 -132.02573 -0.11382163 -37.668022 -0.11260447 -37.668682 -24.596123 -122.44338
188821000 -24.333422 -132.27426 -0.11375839 -37.864685 -0.11298677 -37.871208 -24.578348 -122.51888
189820000 -24.322998 -132.53732 -0.11410943 -38.068878 -0.11273465 -38.064007 -24.567997 -122.6848
190819000 -24.290827 -132.79773 -0.11537778 -38.265831 -0.11427233 -38.262421 -24.537138 -122.65192
191818000 -24.256798 -132.94862 -0.11710787 -38.461094 -0.11558087 -38.461525 -24.501133 -122.54527
192817000 -24.185246 -133.22305 -0.11734296 -38.644428 -0.11577574 -38.64706 -24.431131 -122.62787
193816000 -24.150249 -133.57602 -0.116471 -38.838642 -0.11436535 -38.835037 -24.37545 -122.89059
194815000 -24.092819 -134.06339 -0.1161421 -39.032169 -0.11517442 -39.035347 -24.312212 -123.01962
195814000 -24.038736 -134.24786 -0.11650477 -39.230518 -0.11563776 -39.230583 -24.259466 -123.10292
196813000 -23.987619 -134.60309 -0.11639522 -39.425541 -0.11575022 -39.426826 -24.179518 -123.27943
197812000 -23.926111 -134.85144 -0.1161421 -39.622066 -0.11609691 -39.622993 -24.113352 -123.37672
198811000 -23.876768 -135.01465 -0.11646356 -39.823494 -0.11547055 -39.823257 -24.040899 -123.5733
199810000 -23.803986 -135.39677 -0.11688449 -40.018394 -0.11483047 -40.01545 -23.964165 -123.66563
200809000 -23.748323 -135.70041 -0.11734137 -40.214417 -0.11564919 -40.212334 -23.885733 -123.87301
201808000 -23.689569 -135.91949 -0.11777489 -40.414074 -0.11645558 -40.416443 -23.814516 -123.96135
202807000 -23.63254 -136.27972 -0.11841939 -40.615421 -0.1170382 -40.614845 -23.76417 -124.15833
203806000 -23.579807 -136.72446 -0.11967277 -40.813675 -0.11716106 -40.813259 -23.694368 -124.3305
