!Keysight Technologies,E5080B,MY59205177,A.15.75.32
!Date: Friday, February 23, 2024 02:59:09
!Correction: S11(Cdelta 2-Port  ) 
!S21(Cdelta 2-Port  ) 
!S12(Cdelta 2-Port  ) 
!S22(Cdelta 2-Port  ) 
!S2P File: Measurements: S11, S21, S12, S22:
# Hz S  dB   R 50
10000000 -44.080685 -3.8188369 -0.027806228 -2.0367589 -0.031375024 -2.0956178 -48.110683 -149.75427
10999000 -43.450569 -5.5951076 -0.028198071 -2.2566278 -0.030832989 -2.3117857 -47.821308 -142.22954
11998000 -42.659275 -7.6091032 -0.029002711 -2.4820275 -0.030020971 -2.5230711 -47.888824 -136.61166
12997000 -42.083099 -12.562869 -0.028273629 -2.6596713 -0.029736867 -2.692564 -47.330349 -130.70168
13996000 -41.808605 -16.004881 -0.027104437 -2.8377852 -0.03022898 -2.8579996 -46.921253 -124.75727
14995000 -41.50906 -19.711468 -0.029642778 -3.0463047 -0.030031919 -3.0691822 -46.388008 -121.37144
15994000 -41.385979 -23.571882 -0.030617652 -3.2673678 -0.032424096 -3.2909288 -46.236237 -118.14583
16993000 -41.363884 -27.493069 -0.029563807 -3.4636905 -0.031485841 -3.4714165 -45.273151 -118.89529
17992000 -41.45121 -31.694534 -0.030195614 -3.6582515 -0.032691162 -3.666198 -44.708576 -119.48608
18991000 -41.713051 -36.403549 -0.031566933 -3.8701627 -0.033438202 -3.8697283 -43.950146 -119.04288
19990000 -41.568497 -41.506718 -0.033483334 -4.080215 -0.035407886 -4.0713339 -43.303421 -121.00109
20989000 -41.455555 -44.105785 -0.035942141 -4.2835879 -0.037349742 -4.2683287 -42.653904 -120.40369
21988000 -41.394661 -49.073284 -0.036548249 -4.47964 -0.037738528 -4.4648509 -42.421425 -119.8784
22987000 -41.178692 -53.60965 -0.037830967 -4.6745048 -0.038783651 -4.6670442 -42.151436 -119.63912
23986000 -41.189064 -57.059956 -0.03763565 -4.8712358 -0.038059454 -4.8678274 -42.013313 -119.50875
24985000 -40.855206 -59.45216 -0.038404435 -5.0800104 -0.037733044 -5.0737343 -41.739166 -117.00132
25984000 -40.623158 -61.904266 -0.039175183 -5.2873216 -0.038414881 -5.290947 -41.38591 -115.59774
26983000 -40.347469 -63.957066 -0.040491857 -5.4816179 -0.039761364 -5.5036874 -41.277821 -114.91082
27982000 -40.19883 -64.731758 -0.041425787 -5.6840234 -0.042029526 -5.7155766 -40.955212 -113.81046
28981000 -40.173996 -66.310661 -0.039408706 -5.8799949 -0.040878575 -5.905808 -40.699123 -112.69331
29980000 -39.840733 -67.963593 -0.038868539 -6.071722 -0.041748032 -6.0761113 -40.423882 -111.99626
30979000 -39.444977 -67.101524 -0.036763098 -6.4245944 -0.035854444 -6.4147453 -39.898643 -112.80848
31978000 -39.257557 -68.159424 -0.035790235 -6.6237764 -0.037281074 -6.6119618 -39.612759 -112.22806
32977000 -39.101845 -69.766968 -0.035922304 -6.8287487 -0.037351567 -6.8270721 -39.382755 -112.44356
33976000 -38.937103 -70.973145 -0.036476724 -7.0339823 -0.038026031 -7.0245461 -39.06245 -111.90862
34975000 -38.678364 -71.782333 -0.036331326 -7.2307901 -0.038461104 -7.2301974 -38.82053 -111.96856
35974000 -38.479744 -72.484711 -0.036078654 -7.4242845 -0.03866978 -7.428968 -38.532055 -111.04562
36973000 -38.26836 -73.331696 -0.035723943 -7.6233835 -0.03963545 -7.628715 -38.228535 -110.17795
37972000 -38.105648 -73.462776 -0.035457734 -7.8345404 -0.038366564 -7.8438644 -37.976051 -109.62254
38971000 -37.767258 -73.126755 -0.03648534 -8.0360088 -0.039767113 -8.0444069 -37.791 -108.22215
39970000 -37.452366 -73.70047 -0.034686077 -8.2288256 -0.038799062 -8.2448788 -37.496548 -107.76955
40969000 -37.192337 -73.594269 -0.035662867 -8.4213934 -0.038728282 -8.4399967 -37.241219 -106.3932
41968000 -36.82972 -73.851952 -0.035561342 -8.6347189 -0.039003573 -8.6429567 -37.019775 -105.37691
42967000 -36.574734 -73.989601 -0.035276875 -8.8411674 -0.039082192 -8.8515816 -36.809608 -103.64638
43966000 -36.303562 -74.934952 -0.035935353 -9.0427799 -0.040208634 -9.0551252 -36.520615 -102.95391
44965000 -36.08651 -75.90255 -0.036670163 -9.2382326 -0.039470877 -9.2569656 -36.295292 -102.92197
45964000 -35.863102 -77.064812 -0.038125787 -9.4351692 -0.041082136 -9.4571266 -36.051311 -102.72055
46963000 -35.698669 -79.050751 -0.038125001 -9.6355057 -0.04169419 -9.6545477 -35.881512 -103.14664
47962000 -35.531696 -80.489883 -0.040485322 -9.8366718 -0.043338437 -9.8525591 -35.668537 -103.35473
48961000 -35.343567 -81.977913 -0.042203866 -10.030858 -0.044784527 -10.056135 -35.430805 -103.53481
49960000 -35.136292 -83.43531 -0.04330628 -10.231179 -0.045127165 -10.254849 -35.302814 -103.66108
50959000 -34.938614 -84.664696 -0.044264875 -10.445352 -0.04715554 -10.453375 -35.124443 -104.12685
51958000 -34.735977 -85.892303 -0.046320841 -10.641143 -0.048528299 -10.649995 -34.943836 -104.71781
52957000 -34.535732 -86.922951 -0.047227241 -10.843024 -0.049195595 -10.851728 -34.781013 -104.5015
53956000 -34.388824 -87.817078 -0.048729077 -11.044137 -0.049798846 -11.043582 -34.645927 -104.64155
54955000 -34.225418 -88.253601 -0.048990343 -11.243707 -0.050541241 -11.239505 -34.508709 -104.56618
55954000 -34.06419 -89.173668 -0.050076149 -11.442115 -0.051769413 -11.442995 -34.394642 -104.31163
56953000 -33.957462 -89.209618 -0.050502218 -11.644348 -0.050132185 -11.63088 -34.300034 -104.61201
57952000 -33.791981 -89.889854 -0.051553298 -11.838227 -0.052140631 -11.82613 -34.216393 -104.6926
58951000 -33.678246 -90.197014 -0.051675633 -12.039516 -0.052147444 -12.019839 -34.059624 -104.8224
59950000 -33.564102 -90.556725 -0.052790932 -12.244707 -0.053257361 -12.221292 -33.995491 -105.04395
60949000 -33.464649 -91.16156 -0.052445073 -12.4477 -0.053003177 -12.42015 -33.891609 -105.31886
61948000 -33.395313 -91.501434 -0.053979378 -12.644623 -0.053304795 -12.626499 -33.814972 -105.37669
62947000 -33.311069 -91.627693 -0.053502388 -12.854357 -0.054086842 -12.832083 -33.67786 -105.76047
63946000 -33.239918 -92.380348 -0.054611865 -13.052165 -0.054892361 -13.036351 -33.571838 -105.96164
64945000 -33.135456 -92.525017 -0.054916739 -13.252777 -0.055539925 -13.236571 -33.466618 -106.43123
65944000 -33.045284 -92.913803 -0.055854566 -13.453673 -0.056079023 -13.435001 -33.360649 -106.90349
66943000 -32.905998 -93.296806 -0.054258782 -13.655615 -0.054467693 -13.633976 -33.26442 -107.13908
67942000 -32.847069 -93.267754 -0.05616818 -13.848039 -0.056013204 -13.835155 -33.150997 -107.46802
68941000 -32.728359 -93.467239 -0.055563785 -14.040126 -0.055005874 -14.033325 -33.038792 -107.46756
69940000 -32.642597 -93.411659 -0.055582661 -14.24554 -0.055863481 -14.234426 -32.904015 -107.83074
70939000 -32.528458 -93.462326 -0.055276692 -14.443181 -0.056300607 -14.432014 -32.766808 -107.73347
71938000 -32.384071 -93.01062 -0.055911988 -14.63541 -0.055803172 -14.625638 -32.640942 -107.59679
72937000 -32.234997 -92.907036 -0.055034447 -14.832717 -0.055316541 -14.825988 -32.508118 -107.35912
73936000 -32.09613 -92.601074 -0.054775704 -15.032921 -0.054268219 -15.023266 -32.387428 -107.09078
74935000 -31.969099 -92.864708 -0.054428376 -15.22381 -0.053502388 -15.221333 -32.226387 -106.86933
75934000 -31.856899 -93.1633 -0.054583292 -15.435932 -0.05366068 -15.428313 -32.156193 -106.78133
76933000 -31.721001 -93.558296 -0.054872435 -15.624543 -0.055225831 -15.618372 -31.974258 -107.20654
77932000 -31.629162 -94.351685 -0.056864981 -15.82596 -0.056862094 -15.813403 -31.85829 -107.17509
78931000 -31.562645 -95.137451 -0.055024225 -16.026276 -0.055731066 -16.017752 -31.7782 -107.06513
79930000 -31.452782 -96.001022 -0.058403473 -16.216375 -0.05831847 -16.214264 -31.684589 -107.39539
80929000 -31.32271 -96.884544 -0.059924405 -16.409088 -0.060038835 -16.407688 -31.580179 -107.75184
81928000 -31.246529 -97.737244 -0.059830446 -16.606995 -0.060097627 -16.59761 -31.467939 -107.83939
82927000 -31.149109 -98.466087 -0.061428539 -16.802599 -0.061593421 -16.799726 -31.361057 -108.18708
83926000 -31.039721 -99.158958 -0.062877513 -16.999613 -0.062332582 -16.999271 -31.24081 -108.43374
84925000 -30.934875 -99.672104 -0.063313507 -17.199425 -0.062263519 -17.19227 -31.149973 -108.44176
85924000 -30.850071 -100.14221 -0.064808309 -17.397463 -0.064361393 -17.391806 -31.064047 -108.44857
86923000 -30.745539 -100.62013 -0.06456396 -17.595568 -0.064963862 -17.589575 -30.966455 -108.38364
87922000 -30.638353 -100.9711 -0.064446777 -17.8027 -0.064030893 -17.788496 -30.886139 -108.45316
88921000 -30.570896 -101.31772 -0.065200351 -17.999002 -0.064962812 -17.995928 -30.791803 -108.4426
89920000 -30.467569 -101.85007 -0.065404274 -18.199234 -0.065654449 -18.192881 -30.731182 -108.68914
90919000 -30.379023 -102.15987 -0.066859305 -18.396528 -0.066603273 -18.389469 -30.649164 -108.8271
91918000 -30.286457 -102.53626 -0.067637488 -18.589258 -0.066415071 -18.587616 -30.581182 -108.84018
92917000 -30.201836 -102.8629 -0.069108523 -18.791866 -0.068494439 -18.7852 -30.523567 -108.97359
93916000 -30.117607 -103.25238 -0.068070546 -18.982687 -0.067829952 -18.977776 -30.426573 -109.65144
94915000 -30.040443 -103.89714 -0.069753215 -19.184599 -0.06848155 -19.175911 -30.366102 -109.44279
95914000 -29.98336 -104.10273 -0.070681356 -19.381836 -0.069576189 -19.376369 -30.279345 -109.79609
96913000 -29.89312 -104.342 -0.071848921 -19.577335 -0.070909739 -19.576216 -30.211941 -110.10101
97912000 -29.823252 -104.86711 -0.072900183 -19.775553 -0.071413651 -19.775955 -30.13298 -110.33787
98911000 -29.722219 -105.05647 -0.073132627 -19.973866 -0.072382152 -19.974249 -30.100283 -110.58732
99910000 -29.651779 -105.20001 -0.073679976 -20.170723 -0.072793305 -20.172815 -29.993067 -110.87636
100909000 -29.563694 -105.46355 -0.073022857 -20.380907 -0.071578912 -20.376675 -29.908339 -111.08768
101908000 -29.477337 -105.74156 -0.074624233 -20.581797 -0.07355307 -20.574564 -29.789656 -110.83133
102907000 -29.356173 -105.75587 -0.074942365 -20.781101 -0.072832532 -20.778318 -29.722895 -110.79769
103906000 -29.25069 -105.80339 -0.075499155 -20.987473 -0.072345302 -20.981691 -29.572243 -110.73047
104905000 -29.113142 -105.73203 -0.075913765 -21.18169 -0.073175013 -21.182306 -29.435808 -110.39811
105904000 -28.971518 -105.85013 -0.076222509 -21.386446 -0.073635481 -21.380697 -29.331039 -110.34586
106903000 -28.862787 -105.98221 -0.075648502 -21.596977 -0.073651798 -21.589787 -29.19879 -110.2375
107902000 -28.692337 -106.35799 -0.076471202 -21.792696 -0.074301906 -21.782917 -29.060806 -110.23322
108901000 -28.585188 -106.65742 -0.077675901 -21.994434 -0.075102232 -21.989384 -28.93059 -110.11623
109900000 -28.456684 -107.11757 -0.078187443 -22.19256 -0.077064022 -22.181711 -28.770128 -110.24108
110899000 -28.348606 -107.69566 -0.079889864 -22.390444 -0.077372059 -22.381229 -28.652279 -110.51041
111898000 -28.254799 -108.39542 -0.081462391 -22.589937 -0.078651607 -22.58449 -28.538479 -110.64657
112897000 -28.12615 -108.9936 -0.082483001 -22.790079 -0.079510204 -22.779068 -28.399302 -110.82452
113896000 -28.026688 -109.56097 -0.083669312 -22.990429 -0.081032217 -22.977921 -28.292524 -111.04752
114895000 -27.923195 -110.20829 -0.084626034 -23.186371 -0.082202829 -23.175274 -28.180918 -111.10052
115894000 -27.789499 -110.50694 -0.085155025 -23.388071 -0.083808646 -23.373926 -28.114132 -111.27646
116893000 -27.707933 -111.12733 -0.086253874 -23.585253 -0.084325135 -23.569735 -27.983257 -111.42724
117892000 -27.627542 -111.58745 -0.085950226 -23.778309 -0.084586181 -23.766705 -27.909531 -111.62077
118891000 -27.572382 -112.04431 -0.086980343 -23.980766 -0.085455716 -23.962524 -27.814974 -111.8007
119890000 -27.482924 -112.38615 -0.087577768 -24.180826 -0.08586362 -24.166224 -27.80275 -111.94274
120889000 -27.425219 -112.91794 -0.088939853 -24.382645 -0.086085416 -24.364183 -27.727577 -111.91461
121888000 -27.384792 -113.30893 -0.089244768 -24.57803 -0.087057196 -24.564919 -27.665546 -112.20479
122887000 -27.344774 -113.4351 -0.09013506 -24.776413 -0.087279841 -24.764273 -27.619457 -112.23789
123886000 -27.291292 -113.86173 -0.090578824 -24.98176 -0.087385483 -24.961702 -27.604343 -112.41644
124885000 -27.256039 -114.3763 -0.091037437 -25.182518 -0.087927759 -25.167261 -27.572184 -112.45039
125884000 -27.204826 -114.53412 -0.09141282 -25.380524 -0.088162333 -25.367636 -27.543055 -112.65221
126883000 -27.181355 -114.9567 -0.092027515 -25.582563 -0.089450613 -25.569763 -27.503614 -112.71283
127882000 -27.132339 -115.24961 -0.092571959 -25.778633 -0.089143038 -25.762877 -27.454905 -112.85638
128881000 -27.095987 -115.55811 -0.092370458 -25.982481 -0.08923129 -25.965494 -27.414082 -112.97221
129880000 -27.040789 -115.90931 -0.092830583 -26.182413 -0.089413881 -26.165785 -27.375484 -112.95878
130879000 -26.981115 -116.08047 -0.092683025 -26.382029 -0.090394072 -26.365084 -27.29743 -113.03767
131878000 -26.918339 -116.25401 -0.093052462 -26.586069 -0.09081804 -26.565287 -27.235241 -112.93346
132877000 -26.850836 -116.34398 -0.092548952 -26.782465 -0.090282008 -26.765276 -27.145044 -112.93673
133876000 -26.763973 -116.50666 -0.093364812 -26.982859 -0.090609752 -26.966812 -27.057371 -112.82772
134875000 -26.666922 -116.61562 -0.093459494 -27.185911 -0.091162473 -27.166376 -26.957033 -112.71349
135874000 -26.591314 -116.65596 -0.093339421 -27.386786 -0.09111806 -27.367615 -26.854509 -112.72401
136873000 -26.468496 -116.59476 -0.093636446 -27.584578 -0.09071178 -27.572104 -26.773252 -112.67962
137872000 -26.395784 -116.69094 -0.094360448 -27.786964 -0.0913314 -27.769859 -26.662943 -112.6217
138871000 -26.319838 -116.9359 -0.09429431 -27.990788 -0.09143503 -27.971323 -26.573208 -112.78049
139870000 -26.226513 -117.16414 -0.095037207 -28.187418 -0.093169093 -28.170723 -26.488966 -112.92718
140869000 -26.137957 -117.66978 -0.096554086 -28.384489 -0.093908094 -28.363525 -26.378754 -113.07864
141868000 -26.034698 -118.14401 -0.097308747 -28.575151 -0.09432923 -28.560755 -26.303791 -113.44742
142867000 -25.963144 -118.38052 -0.095252052 -28.772108 -0.093271449 -28.757713 -26.231098 -113.66632
143866000 -25.893763 -118.90234 -0.097271949 -28.970367 -0.094794855 -28.952301 -26.158783 -114.11733
144865000 -25.839317 -119.39924 -0.098619334 -29.166527 -0.09560822 -29.155926 -26.105963 -114.4259
145864000 -25.778208 -119.76414 -0.098651908 -29.369326 -0.097513124 -29.354759 -26.066704 -114.71114
146863000 -25.740032 -120.0971 -0.099551812 -29.567425 -0.097377315 -29.552973 -26.020033 -114.96738
147862000 -25.696377 -120.47726 -0.10026382 -29.76469 -0.098361157 -29.749043 -25.983824 -115.31628
148861000 -25.662483 -120.98093 -0.10041217 -29.963247 -0.097902566 -29.951962 -25.959318 -115.56971
149860000 -25.648806 -121.18976 -0.10125124 -30.162348 -0.098516859 -30.148277 -25.934422 -115.69797
150859000 -25.63312 -121.55494 -0.10121334 -30.362431 -0.098351888 -30.347637 -25.926899 -116.01628
151858000 -25.614504 -121.88051 -0.1013347 -30.561657 -0.099730864 -30.543922 -25.917526 -116.25705
152857000 -25.595808 -122.18498 -0.10190496 -30.761076 -0.099246174 -30.742542 -25.89868 -116.41609
153856000 -25.595308 -122.4157 -0.10121388 -30.956429 -0.098841779 -30.942909 -25.914076 -116.71785
154855000 -25.589581 -122.58329 -0.10176159 -31.152817 -0.099130176 -31.144373 -25.908474 -116.91234
155854000 -25.602829 -122.81236 -0.10235867 -31.354633 -0.10024051 -31.340097 -25.897963 -117.17384
156853000 -25.58885 -123.55103 -0.10012766 -31.540253 -0.099355824 -31.533897 -25.893448 -117.44186
157852000 -25.593765 -123.77928 -0.10118632 -31.737967 -0.10119904 -31.731396 -25.881472 -117.81739
158851000 -25.593155 -123.95623 -0.10194153 -31.940048 -0.1011948 -31.928871 -25.872177 -118.10754
159850000 -25.581354 -124.10518 -0.10225001 -32.136372 -0.10151886 -32.130108 -25.869648 -118.21599
160849000 -25.561575 -124.24669 -0.10285881 -32.333763 -0.10216043 -32.334396 -25.84214 -118.56435
161848000 -25.540533 -124.34816 -0.10334656 -32.536934 -0.10210398 -32.52969 -25.802832 -118.64619
162847000 -25.496988 -124.53785 -0.10292269 -32.733292 -0.10227492 -32.731861 -25.771336 -118.87978
163846000 -25.456547 -124.77892 -0.10332668 -32.933704 -0.10218004 -32.928471 -25.692001 -118.89559
164845000 -25.400532 -124.76592 -0.10296193 -33.134552 -0.10285431 -33.123402 -25.626522 -119.00209
165844000 -25.34556 -124.82742 -0.10359152 -33.334026 -0.10298101 -33.322514 -25.548805 -119.14656
166843000 -25.279148 -124.93416 -0.10357322 -33.528683 -0.10322117 -33.526104 -25.474012 -119.31779
167842000 -25.221821 -125.08411 -0.10385451 -33.730904 -0.10342742 -33.720722 -25.395399 -119.26231
168841000 -25.138693 -125.2784 -0.10424479 -33.927372 -0.10430021 -33.922665 -25.320353 -119.31789
169840000 -25.077564 -125.53694 -0.1048544 -34.122391 -0.10475417 -34.119663 -25.234455 -119.48759
170839000 -25.022991 -125.81162 -0.10521136 -34.320778 -0.10425195 -34.316566 -25.145494 -119.708
171838000 -24.963614 -126.22562 -0.10558373 -34.518776 -0.10544077 -34.515804 -25.082781 -119.94088
172837000 -24.889029 -126.56464 -0.10678168 -34.715946 -0.10658535 -34.709084 -25.016224 -120.18756
173836000 -24.822769 -126.99652 -0.1081636 -34.914665 -0.10750972 -34.912434 -24.968861 -120.40936
174835000 -24.77286 -127.41292 -0.10805983 -35.109623 -0.10783453 -35.108158 -24.923256 -120.74941
175834000 -24.717093 -127.82697 -0.10865671 -35.309616 -0.10918439 -35.306454 -24.867693 -121.03567
176833000 -24.665302 -128.19887 -0.1095502 -35.505135 -0.109654 -35.504112 -24.813858 -121.18851
177832000 -24.618124 -128.66307 -0.1101988 -35.701691 -0.10989161 -35.702068 -24.790054 -121.36549
178831000 -24.580097 -129.04401 -0.11030421 -35.901287 -0.11044759 -35.896675 -24.748123 -121.59683
179830000 -24.544231 -129.45395 -0.11110721 -36.097042 -0.11054584 -36.09845 -24.722456 -121.73135
180829000 -24.506123 -129.69421 -0.11136535 -36.292503 -0.11062443 -36.29192 -24.694439 -121.90884
181828000 -24.479389 -130.03528 -0.11120441 -36.491951 -0.11146468 -36.487881 -24.675091 -122.02185
182827000 -24.453461 -130.36867 -0.11156029 -36.688503 -0.11083847 -36.685921 -24.65974 -122.11858
183826000 -24.412947 -130.69327 -0.11285234 -36.880852 -0.11161554 -36.88134 -24.650631 -122.24028
184825000 -24.421051 -131.01323 -0.11285499 -37.079891 -0.112397 -37.076031 -24.632561 -122.36179
185824000 -24.39241 -131.36714 -0.112766 -37.272278 -0.11213242 -37.274044 -24.632795 -122.38217
186823000 -24.37747 -131.71414 -0.11245039 -37.474808 -0.11199961 -37.472298 -24.627914 -122.33778
187822000 -24.355722 -132.02281 -0.11297933 -37.667812 -0.11314937 -37.669491 -24.589985 -122.41544
188821000 -24.337395 -132.29008 -0.11319321 -37.866703 -0.11315469 -37.86853 -24.578617 -122.51916
189820000 -24.323792 -132.54192 -0.11381844 -38.064438 -0.11338372 -38.066902 -24.568542 -122.71551
190819000 -24.291161 -132.80341 -0.11515316 -38.265938 -0.1142718 -38.265327 -24.534472 -122.68896
191818000 -24.258402 -132.957 -0.11621734 -38.459671 -0.11533498 -38.45739 -24.503748 -122.56822
192817000 -24.185978 -133.25386 -0.11619102 -38.644405 -0.11593419 -38.644749 -24.429457 -122.65013
193816000 -24.150146 -133.58934 -0.11560613 -38.836391 -0.11472203 -38.836426 -24.370457 -122.90549
194815000 -24.092966 -134.05566 -0.11509442 -39.036903 -0.11553435 -39.035275 -24.311964 -123.02903
195814000 -24.038427 -134.27222 -0.11607776 -39.233585 -0.1151178 -39.235317 -24.259636 -123.13771
196813000 -23.988588 -134.60728 -0.11648616 -39.426628 -0.11560772 -39.426575 -24.181618 -123.2925
197812000 -23.928297 -134.83897 -0.11588846 -39.62719 -0.11544636 -39.623554 -24.110706 -123.37885
198811000 -23.87603 -135.04019 -0.11590016 -39.822285 -0.11473425 -39.825886 -24.042982 -123.56613
199810000 -23.810255 -135.39763 -0.115646 -40.015072 -0.11518718 -40.013645 -23.959044 -123.69327
200809000 -23.749804 -135.68843 -0.11639469 -40.215401 -0.11525895 -40.214779 -23.884558 -123.88094
201808000 -23.690855 -135.90105 -0.11685365 -40.412807 -0.11677919 -40.418007 -23.820141 -123.94189
202807000 -23.634722 -136.26654 -0.11782808 -40.610241 -0.11791426 -40.617699 -23.765226 -124.15623
203806000 -23.582823 -136.71622 -0.11948385 -40.815434 -0.11805151 -40.815434 -23.695936 -124.33781
