!Keysight Technologies,E5080B,MY59205177,A.15.75.32
!Date: Friday, February 23, 2024 03:37:24
!Correction: S11(Cdelta 2-Port  ) 
!S21(Cdelta 2-Port  ) 
!S12(Cdelta 2-Port  ) 
!S22(Cdelta 2-Port  ) 
!S2P File: Measurements: S11, S21, S12, S22:
# Hz S  dB   R 50
10000000 -46.165611 -2.7763758 -0.014695449 -2.043838 -0.01846925 -2.0974741 -45.883003 -157.09914
10999000 -45.338036 -4.8548121 -0.015837662 -2.2614584 -0.018069444 -2.3168578 -45.83054 -151.18288
11998000 -44.391144 -7.7183084 -0.01616477 -2.4860477 -0.017935319 -2.5308194 -46.026783 -147.23177
12997000 -43.590565 -13.305305 -0.015369259 -2.6683054 -0.018075684 -2.6979818 -45.603775 -140.90651
13996000 -43.282337 -17.227293 -0.014670773 -2.8487313 -0.017583646 -2.8675625 -45.393764 -136.1543
14995000 -42.893303 -21.482092 -0.017010583 -3.0532446 -0.017519189 -3.0799341 -45.109459 -132.84088
15994000 -42.758224 -26.155563 -0.018895609 -3.2752471 -0.019502204 -3.2980084 -44.989815 -128.99637
16993000 -42.714962 -30.703671 -0.017096343 -3.470717 -0.019259868 -3.480165 -44.148067 -129.26607
17992000 -42.71978 -36.38522 -0.017486962 -3.6688523 -0.020018645 -3.6742914 -43.561443 -129.29108
18991000 -42.985161 -41.688255 -0.018470809 -3.8837535 -0.020578321 -3.8769038 -42.933495 -127.76237
19990000 -42.699409 -47.424725 -0.02082021 -4.092092 -0.02274202 -4.0867171 -42.266094 -128.87228
20989000 -42.566956 -50.573116 -0.023129504 -4.2989764 -0.025185643 -4.2871299 -41.743793 -128.43504
21988000 -42.357967 -56.164791 -0.024094068 -4.4945045 -0.025508245 -4.4844375 -41.464996 -127.38879
22987000 -42.000355 -60.55827 -0.025218187 -4.6907434 -0.026665028 -4.6836638 -41.24427 -127.09034
23986000 -41.925274 -64.59462 -0.024827654 -4.8849759 -0.025488978 -4.8827634 -41.055233 -126.67603
24985000 -41.556705 -67.401817 -0.025945714 -5.096447 -0.025777493 -5.096581 -40.901573 -124.56433
25984000 -41.210014 -69.731743 -0.026164204 -5.2995815 -0.026512666 -5.3031216 -40.539597 -122.89307
26983000 -40.887589 -71.332932 -0.027459485 -5.4977465 -0.027097665 -5.518621 -40.422516 -122.20627
27982000 -40.721783 -71.980484 -0.028637113 -5.6989732 -0.028938085 -5.7327352 -40.179253 -120.80129
28981000 -40.673508 -73.598167 -0.026493914 -5.8951831 -0.027777309 -5.9207802 -39.956108 -120.10194
29980000 -40.256134 -75.367439 -0.026957789 -6.0898466 -0.029048054 -6.0986624 -39.672558 -118.94825
30979000 -39.889652 -73.92865 -0.025028644 -6.4435158 -0.023482667 -6.4351859 -39.147224 -119.48506
31978000 -39.691521 -75.048027 -0.023881407 -6.6427374 -0.024865925 -6.6354704 -38.91547 -118.87615
32977000 -39.487396 -76.612907 -0.023760637 -6.8529906 -0.024775065 -6.8493671 -38.680626 -118.75632
33976000 -39.323544 -77.579323 -0.024051638 -7.0533962 -0.025882695 -7.0493255 -38.389389 -118.21835
34975000 -39.031898 -78.330711 -0.024289817 -7.2531581 -0.026575433 -7.2516479 -38.15514 -117.80222
35974000 -38.851685 -78.882126 -0.023588855 -7.445837 -0.026324108 -7.450491 -37.904354 -116.91859
36973000 -38.599094 -79.715279 -0.023815816 -7.647861 -0.026909342 -7.6553335 -37.621208 -116.07569
37972000 -38.442425 -79.450455 -0.023629198 -7.857729 -0.027377168 -7.8608837 -37.416283 -115.285
38971000 -38.128326 -78.977707 -0.02441529 -8.0598288 -0.027185706 -8.0723944 -37.258411 -113.73615
39970000 -37.783092 -79.325096 -0.022618938 -8.2522469 -0.026553296 -8.2665148 -36.982792 -113.05659
40969000 -37.503902 -78.847191 -0.023260407 -8.446126 -0.025574384 -8.4689379 -36.757618 -111.73009
41968000 -37.158474 -78.858261 -0.023582868 -8.651144 -0.026297024 -8.6677999 -36.573177 -110.45129
42967000 -36.897182 -79.016136 -0.023229698 -8.8660345 -0.026941119 -8.885355 -36.398136 -108.66547
43966000 -36.604221 -79.537109 -0.024376763 -9.0649414 -0.028698869 -9.0844173 -36.119907 -107.83272
44965000 -36.378628 -80.331871 -0.025289269 -9.2746706 -0.028076136 -9.2899513 -35.906593 -107.60388
45964000 -36.136787 -81.33213 -0.026430367 -9.468667 -0.029058479 -9.4875336 -35.667656 -107.28754
46963000 -35.929733 -83.186661 -0.026186861 -9.6637907 -0.029811149 -9.6872025 -35.511009 -107.54197
47962000 -35.7644 -84.671669 -0.027913563 -9.8627777 -0.030611917 -9.8831387 -35.292118 -107.62448
48961000 -35.553421 -86.037262 -0.029695947 -10.06044 -0.032372199 -10.085155 -35.087318 -107.75394
49960000 -35.30941 -87.372948 -0.03138363 -10.261369 -0.033535246 -10.285508 -34.919632 -107.83074
50959000 -35.104588 -88.625435 -0.031477235 -10.475148 -0.034352876 -10.487268 -34.758904 -108.12032
51958000 -34.899227 -89.696548 -0.033836816 -10.674768 -0.036038976 -10.685619 -34.570705 -108.54476
52957000 -34.6852 -90.701653 -0.034572311 -10.875961 -0.03688632 -10.880873 -34.416538 -108.21862
53956000 -34.517151 -91.353607 -0.035700973 -11.07548 -0.037081081 -11.076796 -34.2901 -108.28827
54955000 -34.327118 -91.872765 -0.036743257 -11.278915 -0.038555909 -11.272792 -34.130215 -108.32532
55954000 -34.1642 -92.693726 -0.037832793 -11.480433 -0.038626686 -11.474978 -34.034546 -107.99963
56953000 -34.047321 -92.755882 -0.03795265 -11.677042 -0.037759941 -11.670458 -33.937302 -108.23927
57952000 -33.887745 -93.17942 -0.038788877 -11.871684 -0.038872454 -11.864002 -33.843605 -108.2654
58951000 -33.767227 -93.576225 -0.038924169 -12.078057 -0.039730016 -12.053883 -33.692459 -108.29335
59950000 -33.630287 -94.01561 -0.04093162 -12.282684 -0.041049995 -12.254648 -33.609341 -108.67476
60949000 -33.51273 -94.538254 -0.040352069 -12.479932 -0.041302957 -12.457614 -33.524158 -108.89941
61948000 -33.454853 -94.823143 -0.041147728 -12.683742 -0.041064367 -12.662948 -33.429535 -108.95521
62947000 -33.370987 -95.089294 -0.041376654 -12.889305 -0.041289106 -12.872395 -33.289268 -109.2376
63946000 -33.29007 -95.801926 -0.042551789 -13.090234 -0.043023918 -13.071852 -33.191025 -109.35176
64945000 -33.178925 -96.013794 -0.043331377 -13.29235 -0.04423454 -13.275809 -33.065628 -109.90155
65944000 -33.070152 -96.254555 -0.044047039 -13.492691 -0.043372165 -13.475636 -32.977177 -110.26635
66943000 -32.933498 -96.641663 -0.041162364 -13.692729 -0.041869566 -13.678485 -32.869766 -110.54212
67942000 -32.881393 -96.589256 -0.043605916 -13.890345 -0.043548129 -13.877327 -32.750301 -110.84345
68941000 -32.774021 -96.698624 -0.043129802 -14.084566 -0.042695567 -14.075983 -32.639885 -110.77987
69940000 -32.668358 -96.734573 -0.043057121 -14.283049 -0.044277687 -14.2739 -32.48885 -111.04636
70939000 -32.56752 -96.622238 -0.043326672 -14.480563 -0.043512572 -14.474262 -32.372166 -110.97765
71938000 -32.424454 -96.219864 -0.043346282 -14.676638 -0.043441974 -14.668356 -32.231716 -110.76996
72937000 -32.267082 -95.996864 -0.042053573 -14.875009 -0.042858955 -14.870406 -32.098717 -110.56403
73936000 -32.13353 -95.680885 -0.04214767 -15.075032 -0.042296138 -15.064496 -31.973841 -110.33038
74935000 -32.003441 -95.895065 -0.042281501 -15.27035 -0.041070115 -15.267621 -31.829739 -109.98239
75934000 -31.89039 -96.164764 -0.041786712 -15.485193 -0.040867336 -15.473818 -31.742098 -109.89153
76933000 -31.75704 -96.504303 -0.043432303 -15.673893 -0.042826537 -15.663918 -31.569811 -110.19384
77932000 -31.654789 -97.247261 -0.044292856 -15.871841 -0.045052618 -15.86449 -31.479994 -110.15356
78931000 -31.572975 -97.952988 -0.042805362 -16.072937 -0.043579508 -16.067259 -31.381008 -110.03899
79930000 -31.461096 -98.83979 -0.045455698 -16.261755 -0.046133775 -16.262115 -31.275829 -110.39508
80929000 -31.344276 -99.60347 -0.046638217 -16.460798 -0.047546513 -16.460138 -31.189142 -110.61077
81928000 -31.249544 -100.36577 -0.047319096 -16.650515 -0.048597403 -16.648447 -31.056482 -110.55172
82927000 -31.156649 -101.08814 -0.048691381 -16.848825 -0.049372319 -16.848248 -30.943005 -110.91921
83926000 -31.033854 -101.78094 -0.050038438 -17.05035 -0.050062008 -17.045118 -30.82795 -111.04504
84925000 -30.927814 -102.16482 -0.051653888 -17.249262 -0.050888781 -17.240919 -30.734257 -111.08291
85924000 -30.835327 -102.59082 -0.052169975 -17.448011 -0.052350752 -17.44582 -30.652451 -111.03609
86923000 -30.724298 -103.084 -0.052268222 -17.648003 -0.052129105 -17.64304 -30.547651 -110.91237
87922000 -30.616314 -103.48195 -0.052173119 -17.852463 -0.05171309 -17.847281 -30.453787 -110.99432
88921000 -30.540634 -103.67467 -0.052783858 -18.04917 -0.053735375 -18.047277 -30.370331 -110.95582
89920000 -30.444395 -104.14147 -0.05373852 -18.251608 -0.053440541 -18.243349 -30.315044 -111.12472
90919000 -30.340208 -104.41634 -0.054586176 -18.449017 -0.054053292 -18.441061 -30.230293 -111.28217
91918000 -30.243525 -104.81086 -0.055253882 -18.648285 -0.054655381 -18.642763 -30.16073 -111.35973
92917000 -30.154722 -105.15301 -0.056346238 -18.847401 -0.055568241 -18.840527 -30.090408 -111.40804
93916000 -30.064249 -105.48168 -0.05544737 -19.040239 -0.055282459 -19.03705 -29.999594 -112.0071
94915000 -29.988266 -106.14113 -0.057691738 -19.239504 -0.056497552 -19.235956 -29.946981 -111.85593
95914000 -29.915922 -106.2518 -0.058091272 -19.435387 -0.057301421 -19.432083 -29.854084 -112.10668
96913000 -29.836487 -106.46806 -0.059509479 -19.635082 -0.058698118 -19.633148 -29.792833 -112.4493
97912000 -29.757721 -106.94895 -0.060153272 -19.832935 -0.058983076 -19.832615 -29.701382 -112.71183
98911000 -29.648647 -107.08115 -0.060499746 -20.037392 -0.060187131 -20.029461 -29.665449 -112.88967
99910000 -29.587378 -107.27759 -0.06139572 -20.233328 -0.060690843 -20.233902 -29.556187 -113.16885
100909000 -29.493505 -107.5828 -0.061039459 -20.440874 -0.059288781 -20.43639 -29.469267 -113.36104
101908000 -29.406494 -107.73242 -0.062678441 -20.640099 -0.06123767 -20.637833 -29.362505 -113.14327
102907000 -29.271135 -107.7537 -0.061744392 -20.838036 -0.060888775 -20.838961 -29.297817 -113.2103
103906000 -29.183323 -107.77393 -0.062960505 -21.049839 -0.060933929 -21.040325 -29.146885 -113.11771
104905000 -29.034777 -107.64574 -0.063828617 -21.244656 -0.061446391 -21.24515 -29.026527 -112.82877
105904000 -28.887035 -107.7355 -0.063352384 -21.448576 -0.061375502 -21.438549 -28.908871 -112.6571
106903000 -28.780838 -107.83341 -0.063737467 -21.654207 -0.061586592 -21.648388 -28.780483 -112.57349
107902000 -28.617155 -108.12266 -0.06532307 -21.854179 -0.062927678 -21.845985 -28.655621 -112.50961
108901000 -28.507523 -108.35081 -0.065374315 -22.057419 -0.06343171 -22.048912 -28.52499 -112.49686
109900000 -28.380505 -108.85661 -0.065972976 -22.258053 -0.064412363 -22.246557 -28.374495 -112.52824
110899000 -28.25676 -109.42738 -0.068003491 -22.455002 -0.06522505 -22.444939 -28.250418 -112.7541
111898000 -28.173628 -110.09429 -0.068956248 -22.654833 -0.066127524 -22.6481 -28.135462 -112.9158
112897000 -28.04446 -110.63893 -0.070533231 -22.854803 -0.067215778 -22.844908 -27.998251 -113.10603
113896000 -27.94145 -111.22842 -0.071117878 -23.05814 -0.068489701 -23.045206 -27.891483 -113.23123
114895000 -27.837114 -111.835 -0.07214053 -23.254145 -0.069890797 -23.238546 -27.787462 -113.33505
115894000 -27.713213 -112.2056 -0.073380888 -23.45364 -0.071122609 -23.443356 -27.716244 -113.46928
116893000 -27.629513 -112.65723 -0.075091958 -23.653835 -0.071966827 -23.635101 -27.584328 -113.56068
117892000 -27.558184 -113.14922 -0.074835435 -23.848532 -0.071928665 -23.836052 -27.515083 -113.79302
118891000 -27.498075 -113.56928 -0.0751765 -24.050434 -0.072437957 -24.035942 -27.426563 -113.86485
119890000 -27.413158 -113.91209 -0.075609252 -24.24781 -0.073146582 -24.234058 -27.409826 -114.01854
120889000 -27.359129 -114.40209 -0.076789998 -24.451567 -0.073987506 -24.433699 -27.336567 -113.95731
121888000 -27.317913 -114.73606 -0.077197619 -24.647032 -0.074178144 -24.633881 -27.276192 -114.25801
122887000 -27.277493 -114.96267 -0.07813447 -24.849255 -0.075483084 -24.839737 -27.229206 -114.27045
123886000 -27.223446 -115.35895 -0.07899534 -25.056126 -0.075093798 -25.033697 -27.213825 -114.39223
124885000 -27.19281 -115.88017 -0.078432299 -25.253023 -0.07601624 -25.238201 -27.183636 -114.49568
125884000 -27.138727 -116.02851 -0.079729296 -25.44903 -0.07596039 -25.432955 -27.153284 -114.59473
126883000 -27.123472 -116.4614 -0.079733774 -25.653961 -0.076684348 -25.639748 -27.115843 -114.62112
127882000 -27.073833 -116.72684 -0.079669707 -25.85063 -0.077202097 -25.836205 -27.075304 -114.74726
128881000 -27.04907 -117.0509 -0.08006072 -26.054733 -0.076993935 -26.03731 -27.034176 -114.8337
129880000 -26.989946 -117.40688 -0.081282243 -26.258247 -0.077092484 -26.238684 -26.994373 -114.78566
130879000 -26.929464 -117.5289 -0.0805678 -26.453115 -0.078376688 -26.437836 -26.926899 -114.80231
131878000 -26.870438 -117.79523 -0.080991596 -26.660679 -0.078561194 -26.640232 -26.867279 -114.65187
132877000 -26.795835 -117.82977 -0.08076559 -26.857111 -0.078327924 -26.839151 -26.781906 -114.66462
133876000 -26.718662 -118.00642 -0.081326291 -27.065477 -0.078695096 -27.041019 -26.703461 -114.5082
134875000 -26.624912 -118.11146 -0.081566043 -27.263241 -0.078976884 -27.244326 -26.605665 -114.34606
135874000 -26.543074 -118.15913 -0.080597334 -27.464367 -0.079036988 -27.44451 -26.503202 -114.32792
136873000 -26.436049 -118.06807 -0.081948787 -27.664951 -0.078619443 -27.647305 -26.422554 -114.26392
137872000 -26.352259 -118.21203 -0.081295691 -27.864998 -0.079049647 -27.852833 -26.320606 -114.2098
138871000 -26.27689 -118.41313 -0.082502261 -28.066311 -0.079258166 -28.050283 -26.23308 -114.33223
139870000 -26.17886 -118.69193 -0.082875848 -28.266518 -0.080539323 -28.247799 -26.146248 -114.50098
140869000 -26.109737 -119.26856 -0.08396145 -28.463545 -0.0808658 -28.44376 -26.052202 -114.73394
141868000 -26.021046 -119.65427 -0.084890522 -28.658607 -0.082253739 -28.645552 -26.004385 -114.96723
142867000 -25.941883 -119.83382 -0.083247624 -28.861826 -0.081754908 -28.841011 -25.92535 -115.05463
143866000 -25.867365 -120.3317 -0.085346423 -29.055981 -0.082850523 -29.039133 -25.852245 -115.54883
144865000 -25.815456 -120.84162 -0.086976118 -29.253597 -0.084347576 -29.239323 -25.796682 -115.82726
145864000 -25.75666 -121.14898 -0.087583318 -29.456417 -0.08562284 -29.443289 -25.761652 -116.13873
146863000 -25.712814 -121.51203 -0.088180564 -29.655569 -0.085986659 -29.646048 -25.712734 -116.40891
147862000 -25.677399 -121.82782 -0.088960722 -29.853716 -0.086132146 -29.842777 -25.683533 -116.704
148861000 -25.634823 -122.29053 -0.090329058 -30.055176 -0.087978214 -30.039516 -25.65592 -116.86147
149860000 -25.607952 -122.44147 -0.091253676 -30.243196 -0.088291518 -30.233299 -25.604214 -116.9767
150859000 -25.586668 -122.93043 -0.090897337 -30.443619 -0.087583847 -30.43029 -25.589392 -117.34519
151858000 -25.57135 -123.28259 -0.090130046 -30.645338 -0.088317141 -30.628048 -25.573757 -117.66006
152857000 -25.556162 -123.61143 -0.090093568 -30.841959 -0.088273816 -30.830027 -25.560371 -117.85556
153856000 -25.553452 -123.80354 -0.090354428 -31.037289 -0.087079383 -31.026869 -25.573685 -118.18803
154855000 -25.546152 -123.98556 -0.089987859 -31.243008 -0.087539211 -31.231064 -25.565975 -118.44301
155854000 -25.565023 -124.2043 -0.090450637 -31.443001 -0.087897912 -31.425983 -25.554562 -118.69202
156853000 -25.551033 -124.91451 -0.08828412 -31.628325 -0.08717525 -31.618391 -25.548286 -119.00939
157852000 -25.559305 -125.15486 -0.090305798 -31.829948 -0.089167349 -31.821091 -25.53615 -119.35573
158851000 -25.556671 -125.32239 -0.090275399 -32.029419 -0.089067474 -32.018166 -25.527336 -119.63277
159850000 -25.543854 -125.4476 -0.091163799 -32.226456 -0.089250848 -32.219791 -25.51969 -119.81029
160849000 -25.526424 -125.55386 -0.091556378 -32.429375 -0.090518564 -32.421291 -25.492199 -120.10755
161848000 -25.513714 -125.6444 -0.091440842 -32.632114 -0.090145104 -32.623184 -25.454433 -120.21397
162847000 -25.472769 -125.79562 -0.091792464 -32.825848 -0.091340654 -32.824474 -25.419512 -120.46175
163846000 -25.427792 -125.99922 -0.091554523 -33.027237 -0.090265363 -33.017544 -25.347277 -120.44513
164845000 -25.373569 -125.99448 -0.092296161 -33.232189 -0.090861917 -33.221649 -25.288095 -120.5778
165844000 -25.322842 -126.01198 -0.092059508 -33.428802 -0.090836279 -33.419273 -25.205645 -120.69924
166843000 -25.262629 -126.08157 -0.091926776 -33.626694 -0.091500595 -33.621609 -25.137245 -120.8451
167842000 -25.201727 -126.18562 -0.092511669 -33.824932 -0.091552407 -33.81934 -25.060713 -120.78259
168841000 -25.126446 -126.33841 -0.092502676 -34.022697 -0.092026196 -34.019402 -24.992723 -120.82208
169840000 -25.06041 -126.55048 -0.093462668 -34.219734 -0.091790885 -34.222435 -24.903101 -121.01643
170839000 -25.000105 -126.79755 -0.093672149 -34.419197 -0.092658691 -34.415173 -24.822998 -121.17716
171838000 -24.942234 -127.18905 -0.093798853 -34.623016 -0.09410014 -34.610119 -24.76149 -121.43071
172837000 -24.876377 -127.51273 -0.094965242 -34.819096 -0.09485729 -34.813427 -24.697144 -121.59579
173836000 -24.807713 -127.93311 -0.096128501 -35.017021 -0.095587842 -35.014408 -24.656096 -121.85075
174835000 -24.757389 -128.32765 -0.096963294 -35.213474 -0.096255004 -35.211742 -24.608402 -122.15922
175834000 -24.705765 -128.71156 -0.097877152 -35.417461 -0.09688177 -35.407703 -24.550526 -122.42185
176833000 -24.652056 -129.03682 -0.098688453 -35.61092 -0.097649992 -35.609234 -24.501951 -122.57758
177832000 -24.608297 -129.45096 -0.098951146 -35.81057 -0.09834183 -35.811943 -24.486679 -122.66155
178831000 -24.563217 -129.66132 -0.10089726 -36.008331 -0.10006779 -36.004105 -24.445618 -122.74163
179830000 -24.493477 -130.06674 -0.1023486 -36.187771 -0.10133947 -36.194233 -24.380953 -122.8334
180829000 -24.442131 -130.43942 -0.10122977 -36.384609 -0.10045005 -36.386551 -24.335489 -123.13963
181828000 -24.419823 -130.86377 -0.10084639 -36.584499 -0.099138387 -36.582062 -24.316261 -123.35342
182827000 -24.40007 -131.22777 -0.10071471 -36.783241 -0.099934295 -36.784946 -24.305542 -123.48228
183826000 -24.356714 -131.57747 -0.10227121 -36.980904 -0.10047893 -36.979778 -24.294346 -123.62132
184825000 -24.361862 -131.90878 -0.10084771 -37.175751 -0.10051178 -37.182846 -24.279161 -123.72351
185824000 -24.33692 -132.25208 -0.10095422 -37.374577 -0.10049377 -37.37199 -24.2728 -123.78496
186823000 -24.315453 -132.63896 -0.10140783 -37.574844 -0.10052132 -37.571922 -24.267645 -123.81847
187822000 -24.291948 -132.97075 -0.10192721 -37.769695 -0.10128303 -37.768036 -24.229759 -123.92038
188821000 -24.272223 -133.24118 -0.10165904 -37.965527 -0.10135219 -37.969032 -24.207422 -124.01682
189820000 -24.247471 -133.5089 -0.10128542 -38.165394 -0.10105357 -38.164997 -24.191622 -124.20537
190819000 -24.211769 -133.81448 -0.10250948 -38.363075 -0.10150746 -38.360649 -24.153008 -124.24625
191818000 -24.185221 -134.1127 -0.10252697 -38.559303 -0.1019826 -38.561867 -24.123495 -124.30306
192817000 -24.1423 -134.39362 -0.10334788 -38.753365 -0.10218455 -38.758694 -24.083614 -124.36923
193816000 -24.106085 -134.66701 -0.10339507 -38.951595 -0.10221635 -38.952953 -24.029615 -124.54793
194815000 -24.048262 -135.04782 -0.10351225 -39.144665 -0.10332748 -39.150421 -23.965502 -124.61041
195814000 -23.993483 -135.25626 -0.10423869 -39.342636 -0.10337175 -39.34631 -23.910572 -124.68004
196813000 -23.940193 -135.60138 -0.10314006 -39.537533 -0.10310666 -39.539146 -23.833416 -124.82596
197812000 -23.880594 -135.79044 -0.10365063 -39.737453 -0.10391071 -39.735481 -23.758268 -124.92861
198811000 -23.827814 -135.93967 -0.1028901 -39.931053 -0.1037299 -39.936043 -23.69311 -125.07802
199810000 -23.759974 -136.27412 -0.10497905 -40.126633 -0.1039359 -40.129177 -23.616982 -125.14915
200809000 -23.702478 -136.55919 -0.10490321 -40.323753 -0.10398893 -40.327732 -23.539259 -125.33332
201808000 -23.641836 -136.73006 -0.10544608 -40.526455 -0.10477591 -40.532066 -23.471867 -125.42308
202807000 -23.587042 -137.06389 -0.1061365 -40.732815 -0.10570361 -40.733074 -23.419975 -125.60094
