!Keysight Technologies,E5080B,MY59205177,A.15.75.32
!Date: Friday, February 23, 2024 02:59:15
!Correction: S11(Cdelta 2-Port  ) 
!S21(Cdelta 2-Port  ) 
!S12(Cdelta 2-Port  ) 
!S22(Cdelta 2-Port  ) 
!S2P File: Measurements: S11, S21, S12, S22:
# Hz S  dB   R 50
10000000 -44.076862 -3.4648149 -0.02777783 -2.0396504 -0.031200076 -2.0975716 -48.101875 -149.85042
10999000 -43.460087 -5.5033374 -0.029370686 -2.2583539 -0.030515723 -2.3126566 -47.863392 -142.36244
11998000 -42.693085 -8.0785055 -0.029533574 -2.4778378 -0.030213078 -2.5242059 -47.987076 -137.07547
12997000 -42.044346 -12.586876 -0.028515687 -2.6606417 -0.029818187 -2.6932464 -47.341797 -130.46782
13996000 -41.814995 -15.984894 -0.027689515 -2.8364911 -0.030381212 -2.8566053 -46.915253 -124.92052
14995000 -41.530888 -19.716875 -0.029859889 -3.0484364 -0.029954765 -3.0722795 -46.457767 -121.35989
15994000 -41.39901 -23.519876 -0.031211287 -3.2679422 -0.031894445 -3.2865624 -46.144836 -118.09957
16993000 -41.38158 -27.457289 -0.030044431 -3.4632194 -0.031448033 -3.472537 -45.290886 -119.07426
17992000 -41.401157 -31.882339 -0.030793361 -3.6614518 -0.032558151 -3.6634147 -44.702114 -119.5303
18991000 -41.693741 -36.471947 -0.031695742 -3.8701382 -0.032907125 -3.8691721 -44.017994 -118.89979
19990000 -41.539955 -41.593216 -0.033578549 -4.0798955 -0.034933191 -4.0768375 -43.23875 -120.74316
20989000 -41.455532 -44.362801 -0.035801198 -4.2810259 -0.036527105 -4.2737422 -42.685684 -120.41632
21988000 -41.416031 -49.173584 -0.036188282 -4.4788609 -0.037184469 -4.4658313 -42.409958 -119.7507
22987000 -41.187897 -53.516712 -0.037796497 -4.6765547 -0.038876895 -4.6668086 -42.121941 -119.57845
23986000 -41.164753 -57.153809 -0.037112933 -4.871242 -0.037353136 -4.8677335 -42.023598 -119.51641
24985000 -40.889191 -59.707832 -0.038515948 -5.079803 -0.037479769 -5.0753703 -41.81324 -117.21225
25984000 -40.607609 -61.741879 -0.039534353 -5.2863522 -0.038160779 -5.2892847 -41.386475 -115.66801
26983000 -40.344597 -64.024597 -0.040352333 -5.4823775 -0.039638583 -5.5020876 -41.314003 -115.08733
27982000 -40.16555 -64.976936 -0.041723464 -5.6833358 -0.040982053 -5.7212958 -40.960804 -113.29338
28981000 -40.164963 -66.424385 -0.039836604 -5.8786421 -0.040310789 -5.9068661 -40.68372 -112.78635
29980000 -39.767818 -67.957176 -0.039288547 -6.0723872 -0.04141821 -6.0817127 -40.40876 -112.23515
30979000 -39.433506 -66.9944 -0.036602288 -6.4294238 -0.035572566 -6.4193983 -39.881668 -113.07102
31978000 -39.264828 -68.10923 -0.03656809 -6.6185894 -0.037280027 -6.6152759 -39.610512 -112.40295
32977000 -39.102409 -69.887238 -0.036887888 -6.8321962 -0.037971191 -6.8316922 -39.370224 -112.50897
33976000 -38.952404 -70.820053 -0.037217107 -7.0310235 -0.038029425 -7.0260515 -39.059452 -111.94261
34975000 -38.668377 -71.850784 -0.037174027 -7.2312903 -0.039046671 -7.2277746 -38.822525 -111.91895
35974000 -38.494797 -72.501854 -0.035767008 -7.428215 -0.03883354 -7.4263487 -38.523129 -111.14858
36973000 -38.264954 -73.416801 -0.036383271 -7.629406 -0.03977704 -7.6308179 -38.200623 -110.25667
37972000 -38.09399 -73.419518 -0.036674079 -7.8362079 -0.039149322 -7.8440762 -37.98872 -109.70932
38971000 -37.773991 -73.085632 -0.037696227 -8.0322733 -0.039218802 -8.0474987 -37.777256 -108.26015
39970000 -37.475964 -73.741966 -0.035349164 -8.2336922 -0.038198646 -8.2473984 -37.49947 -107.82631
40969000 -37.181374 -73.548309 -0.035848178 -8.4279165 -0.038172267 -8.445034 -37.260635 -106.43681
41968000 -36.853706 -73.806999 -0.036225349 -8.6293764 -0.038076691 -8.6475821 -37.026459 -105.23519
42967000 -36.58625 -74.000809 -0.035854705 -8.8399038 -0.038503673 -8.856144 -36.797234 -103.69016
43966000 -36.324486 -75.086868 -0.036739081 -9.0409632 -0.040162127 -9.058115 -36.50819 -102.85353
44965000 -36.09573 -75.776268 -0.037397262 -9.242835 -0.039872918 -9.2614689 -36.297287 -102.93901
45964000 -35.876968 -77.044861 -0.038209092 -9.4389915 -0.040745832 -9.4595222 -36.058136 -102.80855
46963000 -35.697662 -79.041145 -0.039054766 -9.6329565 -0.041611604 -9.656846 -35.878815 -103.06597
47962000 -35.551247 -80.507088 -0.04071134 -9.8373241 -0.043330856 -9.8536634 -35.671669 -103.29038
48961000 -35.353512 -81.946671 -0.041738883 -10.031803 -0.044560391 -10.051358 -35.443516 -103.68559
49960000 -35.137428 -83.431641 -0.04351414 -10.231698 -0.045735601 -10.255921 -35.291092 -103.76534
50959000 -34.939007 -84.757561 -0.044274028 -10.446306 -0.047065519 -10.453445 -35.127419 -104.16862
51958000 -34.732075 -85.918846 -0.046477042 -10.644775 -0.047957417 -10.653357 -34.9459 -104.71008
52957000 -34.543877 -86.96386 -0.047842778 -10.84191 -0.049165487 -10.850058 -34.772465 -104.61018
53956000 -34.387993 -87.736221 -0.049192976 -11.041589 -0.049682848 -11.043771 -34.631512 -104.5983
54955000 -34.226074 -88.27668 -0.049512658 -11.243348 -0.051326979 -11.238906 -34.502724 -104.66073
55954000 -34.063911 -89.134125 -0.050877519 -11.44626 -0.051287167 -11.443979 -34.38591 -104.33451
56953000 -33.950691 -89.259972 -0.050743163 -11.644578 -0.050189275 -11.631063 -34.316242 -104.60279
57952000 -33.780064 -89.908859 -0.05186503 -11.838934 -0.051996805 -11.827711 -34.198818 -104.70438
58951000 -33.6768 -90.156662 -0.052782286 -12.046053 -0.052046843 -12.025896 -34.058674 -104.77126
59950000 -33.564476 -90.564011 -0.052910939 -12.240891 -0.053088341 -12.220574 -33.993183 -105.0593
60949000 -33.451553 -91.139015 -0.053262077 -12.442876 -0.053170886 -12.423035 -33.906158 -105.42239
61948000 -33.38588 -91.45755 -0.05431278 -12.64194 -0.052998196 -12.626427 -33.812176 -105.3847
62947000 -33.311462 -91.717033 -0.053828415 -12.855276 -0.054216322 -12.834358 -33.66798 -105.7505
63946000 -33.249214 -92.418091 -0.055145081 -13.052337 -0.055004038 -13.034212 -33.563641 -105.89548
64945000 -33.142578 -92.681465 -0.05542561 -13.25726 -0.055353511 -13.236876 -33.460732 -106.45654
65944000 -33.043304 -92.970375 -0.05682354 -13.451612 -0.055997472 -13.434784 -33.370926 -106.86182
66943000 -32.89719 -93.32991 -0.054986212 -13.655695 -0.054250132 -13.63798 -33.273628 -107.13274
67942000 -32.849937 -93.288033 -0.056042835 -13.852568 -0.056048606 -13.837888 -33.150524 -107.48243
68941000 -32.744747 -93.443336 -0.056022383 -14.044138 -0.055429805 -14.03509 -33.042313 -107.44926
69940000 -32.638103 -93.406639 -0.056384001 -14.24157 -0.056373771 -14.230075 -32.905487 -107.73151
70939000 -32.528809 -93.397217 -0.056332339 -14.438534 -0.056197289 -14.427487 -32.77544 -107.68266
71938000 -32.396561 -93.036812 -0.055740766 -14.636225 -0.055948175 -14.621052 -32.629169 -107.5764
72937000 -32.238686 -92.82605 -0.054672156 -14.834203 -0.055386022 -14.824381 -32.501099 -107.28078
73936000 -32.096256 -92.559555 -0.054972578 -15.032712 -0.054830231 -15.021665 -32.384968 -107.1274
74935000 -31.987188 -92.890961 -0.054948721 -15.226942 -0.053815834 -15.225667 -32.227238 -106.81391
75934000 -31.841223 -93.207619 -0.054789595 -15.432964 -0.053877164 -15.43002 -32.140648 -106.7347
76933000 -31.721403 -93.564514 -0.055698816 -15.624418 -0.055324409 -15.623425 -31.973473 -107.24527
77932000 -31.621342 -94.383896 -0.05707559 -15.822238 -0.056214072 -15.817702 -31.873785 -107.19391
78931000 -31.558212 -95.103371 -0.056198075 -16.020645 -0.056053851 -16.015991 -31.771362 -107.10882
79930000 -31.44799 -95.955231 -0.058420528 -16.216652 -0.058779981 -16.21505 -31.677755 -107.38171
80929000 -31.325327 -96.89817 -0.059992116 -16.408419 -0.059646733 -16.407469 -31.581686 -107.78377
81928000 -31.241287 -97.77549 -0.060095266 -16.602379 -0.060164295 -16.598562 -31.455656 -107.79685
82927000 -31.149881 -98.505165 -0.061630704 -16.80237 -0.061914276 -16.800524 -31.345741 -108.16486
83926000 -31.037663 -99.205406 -0.062959984 -16.998652 -0.062477015 -16.997562 -31.237816 -108.40262
84925000 -30.935949 -99.693459 -0.063598245 -17.202595 -0.062397707 -17.193272 -31.145687 -108.4939
85924000 -30.845802 -100.06427 -0.063950509 -17.394283 -0.064647242 -17.398516 -31.068018 -108.52573
86923000 -30.742796 -100.6073 -0.064791493 -17.593695 -0.064309634 -17.589329 -30.96311 -108.37834
87922000 -30.641546 -101.05353 -0.065186948 -17.798061 -0.063612163 -17.791227 -30.876043 -108.4644
88921000 -30.565811 -101.28455 -0.06587784 -17.997604 -0.064529538 -17.998013 -30.780375 -108.44662
89920000 -30.474714 -101.85403 -0.065847352 -18.195656 -0.065503344 -18.190798 -30.727625 -108.62413
90919000 -30.375309 -102.19847 -0.067198165 -18.39007 -0.066982068 -18.38975 -30.650692 -108.84859
91918000 -30.2829 -102.53629 -0.068340071 -18.592276 -0.0667836 -18.592028 -30.579069 -108.8324
92917000 -30.196159 -102.82932 -0.068393193 -18.794605 -0.067497879 -18.787996 -30.513464 -108.94717
93916000 -30.118464 -103.21601 -0.0687185 -18.985584 -0.067698486 -18.975384 -30.429228 -109.61995
94915000 -30.040621 -103.8974 -0.069900267 -19.185143 -0.068965711 -19.181047 -30.367399 -109.41539
95914000 -29.980461 -104.09225 -0.070676357 -19.377888 -0.069606699 -19.372984 -30.283148 -109.73933
96913000 -29.901232 -104.36798 -0.071922876 -19.577368 -0.070881851 -19.574608 -30.224016 -110.09727
97912000 -29.822756 -104.85565 -0.072570354 -19.775291 -0.070855275 -19.776108 -30.138155 -110.32366
98911000 -29.718847 -105.05077 -0.073343769 -19.976707 -0.072263449 -19.973518 -30.109051 -110.5844
99910000 -29.651466 -105.14661 -0.074144438 -20.175222 -0.072107367 -20.172647 -29.99165 -110.86065
100909000 -29.563385 -105.50528 -0.073625736 -20.381163 -0.071940511 -20.375553 -29.908016 -111.08198
101908000 -29.48181 -105.73257 -0.075089321 -20.581207 -0.073238462 -20.578106 -29.792442 -110.86817
102907000 -29.353331 -105.75522 -0.075105123 -20.781469 -0.073603623 -20.780098 -29.717169 -110.79346
103906000 -29.248833 -105.81998 -0.07542593 -20.987886 -0.072316349 -20.981329 -29.57263 -110.77222
104905000 -29.114944 -105.72959 -0.075572908 -21.184381 -0.072879121 -21.181629 -29.443857 -110.45924
105904000 -28.968353 -105.84248 -0.076406397 -21.38756 -0.073052861 -21.380781 -29.339619 -110.37449
106903000 -28.863737 -106.00221 -0.076145321 -21.594137 -0.074052282 -21.586407 -29.20414 -110.22625
107902000 -28.695581 -106.34423 -0.076836899 -21.790819 -0.074520998 -21.782248 -29.057081 -110.19836
108901000 -28.581383 -106.61816 -0.077606857 -21.991386 -0.075684592 -21.981537 -28.924141 -110.1397
109900000 -28.458963 -107.05671 -0.07845708 -22.189993 -0.077120677 -22.182631 -28.777483 -110.25224
110899000 -28.339161 -107.68051 -0.080165401 -22.390224 -0.077104077 -22.378019 -28.651701 -110.52221
111898000 -28.252464 -108.39103 -0.081288308 -22.587717 -0.078207217 -22.585855 -28.538448 -110.72787
112897000 -28.128477 -108.98499 -0.082432605 -22.791235 -0.079472505 -22.776117 -28.399691 -110.90826
113896000 -28.023315 -109.61192 -0.083789907 -22.989662 -0.080686472 -22.978317 -28.292185 -111.03155
114895000 -27.918528 -110.23859 -0.084865712 -23.186502 -0.082114451 -23.175314 -28.178869 -111.10049
115894000 -27.787254 -110.56456 -0.085851215 -23.386829 -0.083349213 -23.376635 -28.110559 -111.31171
116893000 -27.711588 -111.11845 -0.086052939 -23.582462 -0.083553195 -23.565763 -27.980749 -111.44536
117892000 -27.626961 -111.61132 -0.086534306 -23.779509 -0.084416464 -23.76969 -27.90839 -111.61841
118891000 -27.570692 -112.00301 -0.086632013 -23.980471 -0.084314317 -23.966167 -27.809011 -111.79882
119890000 -27.480036 -112.41057 -0.088473536 -24.181362 -0.085591152 -24.16498 -27.800701 -111.93315
120889000 -27.431326 -112.92683 -0.08874619 -24.382265 -0.085999601 -24.365101 -27.717602 -111.88882
121888000 -27.392096 -113.24065 -0.089248993 -24.579544 -0.086086206 -24.565161 -27.664854 -112.16811
122887000 -27.347124 -113.43786 -0.089688443 -24.781889 -0.086960271 -24.761648 -27.620205 -112.21399
123886000 -27.285572 -113.89507 -0.090881474 -24.982933 -0.087138012 -24.961637 -27.601871 -112.39012
124885000 -27.253084 -114.37169 -0.09107735 -25.178003 -0.087417707 -25.165236 -27.577372 -112.45676
125884000 -27.199234 -114.55128 -0.091666356 -25.380285 -0.087367788 -25.364075 -27.548567 -112.64073
126883000 -27.183744 -114.94867 -0.091717646 -25.577511 -0.088736147 -25.566601 -27.502718 -112.67731
127882000 -27.130119 -115.23161 -0.091718964 -25.778372 -0.088825978 -25.763132 -27.46096 -112.87331
128881000 -27.098394 -115.55962 -0.09222582 -25.981508 -0.089014627 -25.963417 -27.418797 -113.01656
129880000 -27.041769 -115.91629 -0.093654692 -26.182636 -0.089330643 -26.164646 -27.375847 -112.93234
130879000 -26.985474 -116.05793 -0.092868134 -26.380835 -0.090806939 -26.365173 -27.297869 -113.02731
131878000 -26.917507 -116.28465 -0.093314029 -26.587402 -0.090590194 -26.566015 -27.230858 -112.95154
132877000 -26.847393 -116.35156 -0.092254907 -26.784836 -0.091217726 -26.767887 -27.143465 -112.93375
133876000 -26.758417 -116.51787 -0.093809694 -26.986143 -0.090610012 -26.967905 -27.055374 -112.83636
134875000 -26.663084 -116.63737 -0.093209557 -27.187134 -0.091011003 -27.164278 -26.948917 -112.72956
135874000 -26.589392 -116.6486 -0.093060926 -27.384447 -0.092011914 -27.367884 -26.847546 -112.70618
136873000 -26.466711 -116.60739 -0.094323941 -27.588514 -0.090805613 -27.570536 -26.767185 -112.67102
137872000 -26.397392 -116.69367 -0.094145641 -27.787476 -0.091064401 -27.773691 -26.667326 -112.62721
138871000 -26.321838 -116.93742 -0.094139025 -27.988331 -0.091801986 -27.971487 -26.564909 -112.79092
139870000 -26.226566 -117.18244 -0.094963916 -28.188671 -0.092295103 -28.167158 -26.483597 -113.01453
140869000 -26.137342 -117.67046 -0.096518084 -28.383766 -0.093885876 -28.364424 -26.380548 -113.1188
141868000 -26.041649 -118.15868 -0.096916176 -28.574911 -0.094865493 -28.561333 -26.306269 -113.41478
142867000 -25.966066 -118.42355 -0.095649764 -28.775267 -0.093594126 -28.755783 -26.227203 -113.65392
143866000 -25.892185 -118.91386 -0.09766376 -28.970552 -0.095054142 -28.952715 -26.152433 -114.14273
144865000 -25.838482 -119.42437 -0.098287284 -29.16873 -0.09661258 -29.152641 -26.099714 -114.45406
145864000 -25.783783 -119.75922 -0.098928906 -29.369658 -0.097294979 -29.355152 -26.067087 -114.65168
146863000 -25.738556 -120.09808 -0.099943295 -29.56864 -0.097241774 -29.554871 -26.017706 -115.00765
147862000 -25.704174 -120.45878 -0.10066649 -29.763727 -0.098043419 -29.752222 -25.981478 -115.33657
148861000 -25.662924 -120.98993 -0.1008501 -29.963364 -0.098749883 -29.950377 -25.960505 -115.57265
149860000 -25.652912 -121.18108 -0.10156947 -30.157379 -0.098846808 -30.149654 -25.929235 -115.75387
150859000 -25.638552 -121.56363 -0.10184719 -30.35998 -0.098934732 -30.348669 -25.921394 -115.98685
151858000 -25.615671 -121.87695 -0.10160763 -30.559591 -0.099602669 -30.540972 -25.918877 -116.26974
152857000 -25.601873 -122.18106 -0.10222244 -30.753368 -0.099852711 -30.748367 -25.894156 -116.39599
153856000 -25.59643 -122.42725 -0.10218163 -30.955654 -0.099288285 -30.941462 -25.914059 -116.70792
154855000 -25.590086 -122.59 -0.1026306 -31.154907 -0.099420711 -31.146452 -25.905521 -116.96021
155854000 -25.606148 -122.8322 -0.10263219 -31.355486 -0.099806622 -31.336754 -25.898195 -117.17845
156853000 -25.588579 -123.53226 -0.10076664 -31.540916 -0.099076681 -31.530161 -25.894627 -117.50484
157852000 -25.598499 -123.75778 -0.10174012 -31.741529 -0.10039416 -31.730562 -25.87855 -117.81622
158851000 -25.590002 -124.00533 -0.10262212 -31.937578 -0.10090812 -31.930944 -25.872059 -118.07296
159850000 -25.578238 -124.10818 -0.10301547 -32.137627 -0.10112008 -32.128895 -25.873568 -118.26211
160849000 -25.556091 -124.23077 -0.10299639 -32.335873 -0.10215407 -32.331013 -25.838894 -118.52213
161848000 -25.538149 -124.36131 -0.10367449 -32.537579 -0.10211855 -32.531296 -25.802414 -118.61917
162847000 -25.496477 -124.54179 -0.1035202 -32.736107 -0.10248032 -32.730343 -25.773182 -118.91459
163846000 -25.458492 -124.77975 -0.10360663 -32.938293 -0.10223702 -32.92635 -25.692345 -118.89976
164845000 -25.392994 -124.79219 -0.10439672 -33.135731 -0.10288559 -33.129021 -25.628361 -118.99837
165844000 -25.347748 -124.84792 -0.10406688 -33.330959 -0.10351437 -33.330135 -25.547468 -119.14626
166843000 -25.279221 -124.94833 -0.10366654 -33.529724 -0.10331289 -33.526638 -25.472435 -119.30985
167842000 -25.22736 -125.07615 -0.10403109 -33.731247 -0.10344173 -33.723103 -25.397137 -119.21769
168841000 -25.141357 -125.28622 -0.10401544 -33.924797 -0.1035817 -33.924942 -25.317596 -119.3609
169840000 -25.078037 -125.55751 -0.10435271 -34.123329 -0.10433971 -34.121174 -25.234047 -119.53372
170839000 -25.017551 -125.82156 -0.10570521 -34.320141 -0.10448635 -34.316956 -25.146418 -119.72324
171838000 -24.960255 -126.2233 -0.10574605 -34.521584 -0.10555827 -34.51284 -25.082024 -119.94112
172837000 -24.885138 -126.59982 -0.10634793 -34.712875 -0.10659596 -34.709179 -25.016453 -120.19582
173836000 -24.822739 -127.02402 -0.1079688 -34.91465 -0.10677425 -34.911255 -24.972004 -120.42507
174835000 -24.765388 -127.46384 -0.10797199 -35.111557 -0.10826179 -35.110416 -24.923225 -120.73922
175834000 -24.71307 -127.84341 -0.10937924 -35.309769 -0.10909282 -35.302589 -24.863497 -121.0134
176833000 -24.664223 -128.1637 -0.1099171 -35.505962 -0.10953002 -35.501911 -24.806892 -121.23298
177832000 -24.618074 -128.67592 -0.10999781 -35.70472 -0.10947002 -35.702312 -24.78635 -121.37506
178831000 -24.584848 -129.03287 -0.11053441 -35.897106 -0.10950215 -35.895821 -24.74625 -121.5926
179830000 -24.543657 -129.4456 -0.111142 -36.095348 -0.11063771 -36.09745 -24.723621 -121.72438
180829000 -24.503544 -129.66997 -0.11163413 -36.292046 -0.11097682 -36.290745 -24.691395 -121.88297
181828000 -24.479183 -130.05008 -0.1114769 -36.491959 -0.1104205 -36.487362 -24.673595 -122.0142
182827000 -24.456757 -130.38544 -0.11211941 -36.684608 -0.11116192 -36.684689 -24.658735 -122.12585
183826000 -24.416832 -130.71646 -0.11265787 -36.882568 -0.11146787 -36.881638 -24.651409 -122.23891
184825000 -24.41568 -131.01378 -0.11298545 -37.080597 -0.11197411 -37.077892 -24.637278 -122.32297
185824000 -24.389698 -131.37482 -0.11286297 -37.273129 -0.11240496 -37.277458 -24.632195 -122.39379
186823000 -24.374765 -131.6936 -0.11278141 -37.476242 -0.11176375 -37.471287 -24.628139 -122.38612
187822000 -24.357517 -132.0425 -0.11315947 -37.668198 -0.1129626 -37.669575 -24.593365 -122.44807
188821000 -24.339123 -132.28859 -0.11374111 -37.864651 -0.11330082 -37.867584 -24.573534 -122.54899
189820000 -24.321571 -132.53632 -0.11412298 -38.064594 -0.11335131 -38.06422 -24.565933 -122.72324
190819000 -24.287638 -132.80272 -0.11515156 -38.263626 -0.11405601 -38.263767 -24.53278 -122.66348
191818000 -24.256227 -132.9792 -0.11620724 -38.459717 -0.1158414 -38.459801 -24.502111 -122.54044
192817000 -24.187948 -133.24107 -0.11676217 -38.641197 -0.11642235 -38.643929 -24.427614 -122.63688
193816000 -24.147003 -133.60571 -0.116404 -38.83614 -0.11462209 -38.837799 -24.374462 -122.88121
194815000 -24.092722 -134.06528 -0.11595706 -39.030964 -0.11518931 -39.034485 -24.310331 -123.03019
195814000 -24.04073 -134.29605 -0.11672202 -39.22979 -0.11475126 -39.232304 -24.255827 -123.14339
196813000 -23.987877 -134.63837 -0.11601129 -39.425541 -0.11518771 -39.425449 -24.181982 -123.29056
197812000 -23.928511 -134.8869 -0.11561809 -39.622826 -0.11510744 -39.620857 -24.109585 -123.39473
198811000 -23.876175 -135.03194 -0.11587836 -39.823116 -0.11460774 -39.823578 -24.038343 -123.58485
199810000 -23.804462 -135.41057 -0.11607829 -40.014355 -0.11484881 -40.015747 -23.961008 -123.66701
200809000 -23.75034 -135.68422 -0.11665208 -40.211864 -0.11601315 -40.213562 -23.884518 -123.86607
201808000 -23.68922 -135.9088 -0.11727275 -40.414894 -0.11640479 -40.416344 -23.811714 -123.95889
202807000 -23.635431 -136.3112 -0.11816589 -40.613815 -0.11679381 -40.614319 -23.761436 -124.15961
203806000 -23.577911 -136.71594 -0.11974249 -40.812496 -0.11737328 -40.810753 -23.694618 -124.32692
