!Keysight Technologies,E5080B,MY59205177,A.15.75.32
!Date: Friday, February 23, 2024 03:37:30
!Correction: S11(Cdelta 2-Port  ) 
!S21(Cdelta 2-Port  ) 
!S12(Cdelta 2-Port  ) 
!S22(Cdelta 2-Port  ) 
!S2P File: Measurements: S11, S21, S12, S22:
# Hz S  dB   R 50
10000000 -46.097157 -2.7690001 -0.014487145 -2.0428119 -0.018897429 -2.0982249 -45.913101 -157.54843
10999000 -45.283962 -4.3373394 -0.015780507 -2.2641141 -0.018386582 -2.3174784 -45.822861 -151.72575
11998000 -44.340317 -7.5641093 -0.016348211 -2.4840353 -0.018108696 -2.5309358 -46.023743 -146.7531
12997000 -43.573212 -13.203263 -0.015730105 -2.6626999 -0.01793246 -2.7013664 -45.59771 -141.17654
13996000 -43.304333 -17.201496 -0.014813371 -2.8488636 -0.018064506 -2.8709695 -45.40823 -136.06972
14995000 -42.906963 -21.756855 -0.017087247 -3.0571301 -0.017943896 -3.0815122 -45.117458 -132.6658
15994000 -42.75264 -26.141695 -0.018667605 -3.2787118 -0.020160377 -3.2977726 -44.968945 -129.36803
16993000 -42.696793 -30.758877 -0.017507752 -3.4728327 -0.019328512 -3.4832134 -44.175484 -129.00916
17992000 -42.722275 -36.329151 -0.017597942 -3.6713543 -0.019623637 -3.6734807 -43.560707 -128.91371
18991000 -42.957466 -41.60487 -0.019043546 -3.885298 -0.020834776 -3.878619 -42.939182 -127.87935
19990000 -42.742039 -47.398853 -0.020555433 -4.091608 -0.022329854 -4.0860438 -42.286545 -128.98299
20989000 -42.554016 -50.63826 -0.02330387 -4.2935319 -0.024700088 -4.2819233 -41.770321 -128.07214
21988000 -42.38068 -55.847656 -0.023388712 -4.4930549 -0.025047911 -4.4806194 -41.5014 -127.5222
22987000 -42.019291 -60.634048 -0.025650939 -4.6923919 -0.026499122 -4.6794381 -41.241364 -126.83064
23986000 -41.928623 -64.675606 -0.024730027 -4.885325 -0.025122114 -4.8848982 -41.095524 -126.8886
24985000 -41.56852 -67.455704 -0.026247801 -5.0949621 -0.025772804 -5.0921969 -40.915302 -124.54929
25984000 -41.174995 -69.501442 -0.026455889 -5.2999749 -0.026022797 -5.3038158 -40.548668 -123.108
26983000 -40.864895 -71.538193 -0.027743181 -5.5009999 -0.027285734 -5.5223703 -40.422115 -122.3688
27982000 -40.704594 -72.289803 -0.028756456 -5.7012939 -0.028688967 -5.732029 -40.16309 -120.77955
28981000 -40.712269 -73.828514 -0.026731184 -5.8994598 -0.028246012 -5.9226556 -39.928169 -120.01096
29980000 -40.250828 -75.276001 -0.027399311 -6.0946145 -0.029147344 -6.099792 -39.66671 -119.29726
30979000 -39.908482 -74.219063 -0.024547534 -6.4442034 -0.023837158 -6.4358997 -39.169621 -119.42708
31978000 -39.681656 -75.102638 -0.023944138 -6.6391931 -0.0247407 -6.6300521 -38.923828 -118.70647
32977000 -39.49115 -76.700691 -0.023832213 -6.8505464 -0.024945071 -6.8515816 -38.696918 -118.64547
33976000 -39.29604 -77.578743 -0.025009898 -7.0501299 -0.025732443 -7.0485506 -38.39761 -118.27666
34975000 -39.034073 -78.536469 -0.024753978 -7.2499914 -0.026332702 -7.2528048 -38.166592 -117.85596
35974000 -38.822609 -79.192825 -0.023987606 -7.4485912 -0.026349369 -7.4532142 -37.886364 -116.91105
36973000 -38.601868 -79.718445 -0.024600901 -7.6477203 -0.027104177 -7.6539111 -37.629211 -115.98797
37972000 -38.426098 -79.409729 -0.023681773 -7.854845 -0.026248842 -7.8676839 -37.408577 -115.25775
38971000 -38.100742 -78.871605 -0.025309838 -8.0597134 -0.026759313 -8.0686378 -37.238319 -113.73519
39970000 -37.783226 -79.267593 -0.022560652 -8.2561331 -0.02640328 -8.2699833 -36.98843 -113.18596
40969000 -37.517605 -78.79332 -0.023197427 -8.4507189 -0.026194936 -8.4652452 -36.756382 -111.6377
41968000 -37.149654 -78.812737 -0.023131587 -8.6542807 -0.025535326 -8.6734905 -36.573601 -110.5424
42967000 -36.901203 -78.89164 -0.022935368 -8.864481 -0.026014464 -8.8847961 -36.367004 -108.70235
43966000 -36.595482 -79.554558 -0.023900408 -9.0675735 -0.02774266 -9.0795612 -36.109589 -107.90473
44965000 -36.366596 -80.295776 -0.025241099 -9.2670155 -0.028008658 -9.2884302 -35.893349 -107.65189
45964000 -36.125195 -81.324005 -0.027126838 -9.4639664 -0.029053787 -9.4859924 -35.664188 -107.3012
46963000 -35.935188 -83.30481 -0.026622314 -9.6616688 -0.02992844 -9.6824789 -35.478741 -107.55099
47962000 -35.780003 -84.664154 -0.028159771 -9.8642168 -0.030968035 -9.8831434 -35.307304 -107.61185
48961000 -35.559498 -86.014236 -0.030304834 -10.062931 -0.032405578 -10.080817 -35.068413 -107.79736
49960000 -35.324249 -87.241226 -0.031529646 -10.260566 -0.033397511 -10.285582 -34.921272 -107.80772
50959000 -35.096611 -88.713844 -0.031720515 -10.475067 -0.034557961 -10.484591 -34.733349 -108.17821
51958000 -34.892586 -89.688004 -0.033817772 -10.672991 -0.035923611 -10.68303 -34.584454 -108.62806
52957000 -34.672512 -90.713615 -0.034822289 -10.873463 -0.037414491 -10.881972 -34.419983 -108.2689
53956000 -34.510681 -91.398064 -0.035840347 -11.074155 -0.037384465 -11.079484 -34.287689 -108.28003
54955000 -34.33844 -91.813965 -0.037262537 -11.278818 -0.038452227 -11.278965 -34.131912 -108.23849
55954000 -34.165443 -92.777069 -0.038821261 -11.480722 -0.03907514 -11.473822 -34.014439 -107.98421
56953000 -34.056225 -92.780922 -0.037033044 -11.673566 -0.038269676 -11.665989 -33.959007 -108.174
57952000 -33.890022 -93.234444 -0.039183803 -11.875377 -0.038843986 -11.863093 -33.857681 -108.26821
58951000 -33.761574 -93.537643 -0.040294066 -12.077263 -0.040364351 -12.056297 -33.694313 -108.37472
59950000 -33.628132 -94.033691 -0.041094944 -12.27927 -0.040465727 -12.257749 -33.624462 -108.71565
60949000 -33.514244 -94.575996 -0.040941287 -12.483711 -0.041468646 -12.458721 -33.521172 -108.91929
61948000 -33.45504 -94.918976 -0.041515168 -12.67767 -0.041113757 -12.663074 -33.426056 -109.0467
62947000 -33.363434 -95.08036 -0.041206006 -12.891996 -0.041801874 -12.877088 -33.29583 -109.23299
63946000 -33.281914 -95.796867 -0.042669684 -13.090463 -0.04310235 -13.070501 -33.185402 -109.40865
64945000 -33.173828 -96.041733 -0.042845361 -13.292935 -0.043311246 -13.273762 -33.069496 -109.84798
65944000 -33.076599 -96.319717 -0.043702137 -13.492396 -0.043899298 -13.472936 -32.961246 -110.36752
66943000 -32.929867 -96.673058 -0.041732613 -13.693408 -0.042249613 -13.677546 -32.863293 -110.52988
67942000 -32.879181 -96.64975 -0.044104047 -13.889997 -0.043919954 -13.882027 -32.735832 -110.81808
68941000 -32.763741 -96.741722 -0.04374136 -14.08459 -0.042935554 -14.077827 -32.631573 -110.81969
69940000 -32.664524 -96.721939 -0.043953948 -14.282752 -0.043503944 -14.274917 -32.494286 -111.06362
70939000 -32.552372 -96.634361 -0.044069529 -14.47825 -0.044041026 -14.473392 -32.360916 -110.88874
71938000 -32.427212 -96.249016 -0.043757834 -14.679963 -0.044201326 -14.670772 -32.232479 -110.81312
72937000 -32.267761 -96.042015 -0.04305163 -14.872225 -0.043513093 -14.869199 -32.092922 -110.53289
73936000 -32.122639 -95.701691 -0.042436246 -15.0758 -0.04255937 -15.066638 -31.976465 -110.32122
74935000 -32.007748 -95.921944 -0.04225719 -15.268669 -0.041300867 -15.267297 -31.818932 -109.95937
75934000 -31.873009 -96.157555 -0.041957907 -15.479305 -0.041461069 -15.474656 -31.738897 -109.86344
76933000 -31.746603 -96.450966 -0.043418705 -15.670705 -0.043462891 -15.667351 -31.573755 -110.16536
77932000 -31.651169 -97.220261 -0.044637807 -15.87299 -0.044339407 -15.864986 -31.479593 -110.19888
78931000 -31.576555 -98.036728 -0.043354649 -16.067749 -0.043655857 -16.06706 -31.373543 -110.00717
79930000 -31.453142 -98.85659 -0.045479767 -16.263821 -0.04582978 -16.259638 -31.27928 -110.36191
80929000 -31.339849 -99.586723 -0.047423251 -16.460238 -0.047725268 -16.45965 -31.180227 -110.55698
81928000 -31.241055 -100.37959 -0.047601998 -16.651751 -0.048224393 -16.648237 -31.050312 -110.5788
82927000 -31.150106 -101.05581 -0.04970013 -16.848417 -0.049626816 -16.847639 -30.938347 -110.86511
83926000 -31.026728 -101.78142 -0.050852899 -17.043877 -0.050695233 -17.04895 -30.820168 -111.02449
84925000 -30.914671 -102.19009 -0.052007284 -17.248337 -0.051274855 -17.242344 -30.722305 -111.16196
85924000 -30.825329 -102.60542 -0.052841764 -17.447937 -0.051943623 -17.442245 -30.644981 -111.04935
86923000 -30.731575 -103.11566 -0.052994266 -17.645071 -0.052725688 -17.636776 -30.542955 -110.98974
87922000 -30.606277 -103.43413 -0.052886046 -17.854488 -0.051906422 -17.841791 -30.451832 -110.95353
88921000 -30.54701 -103.67015 -0.0534961 -18.046618 -0.052780975 -18.047689 -30.366941 -110.93979
89920000 -30.438589 -104.20721 -0.054233357 -18.25016 -0.053784646 -18.244799 -30.309097 -111.0923
90919000 -30.338377 -104.46592 -0.055412762 -18.443432 -0.054718558 -18.438141 -30.216957 -111.3035
91918000 -30.237825 -104.80382 -0.056018189 -18.644217 -0.055256244 -18.641645 -30.157812 -111.28568
92917000 -30.149342 -105.14021 -0.057212241 -18.840582 -0.055931393 -18.840204 -30.08795 -111.43736
93916000 -30.060656 -105.52473 -0.057156898 -19.039089 -0.055667877 -19.036036 -30.005112 -111.9967
94915000 -29.991194 -106.07819 -0.057912353 -19.239906 -0.056959659 -19.23295 -29.945873 -111.90154
95914000 -29.92734 -106.25069 -0.058792051 -19.432817 -0.057906322 -19.432299 -29.846151 -112.17812
96913000 -29.832369 -106.48211 -0.059447285 -19.632771 -0.058693919 -19.632132 -29.78693 -112.44205
97912000 -29.759949 -106.99288 -0.060928676 -19.829311 -0.059348613 -19.832201 -29.705198 -112.72783
98911000 -29.65263 -107.10406 -0.061150771 -20.032211 -0.060181882 -20.031796 -29.663914 -112.9071
99910000 -29.590607 -107.25609 -0.061951302 -20.232775 -0.060497385 -20.230682 -29.555529 -113.20947
100909000 -29.491922 -107.53226 -0.061575565 -20.440504 -0.060262196 -20.432274 -29.473186 -113.40647
101908000 -29.401726 -107.75175 -0.062721252 -20.639465 -0.061640944 -20.638306 -29.356142 -113.14228
102907000 -29.275936 -107.74213 -0.063309304 -20.841007 -0.061014783 -20.840315 -29.289274 -113.20111
103906000 -29.169807 -107.79639 -0.063654721 -21.042879 -0.061235309 -21.040047 -29.144171 -113.08742
104905000 -29.0334 -107.63474 -0.064221889 -21.243898 -0.061321158 -21.247026 -29.02393 -112.83616
105904000 -28.899141 -107.79057 -0.064432852 -21.447159 -0.061182801 -21.445757 -28.908945 -112.62482
106903000 -28.781155 -107.77429 -0.064581297 -21.653612 -0.06231105 -21.648529 -28.78319 -112.56007
107902000 -28.624264 -108.18557 -0.065020353 -21.856087 -0.062123816 -21.843479 -28.654856 -112.51424
108901000 -28.504011 -108.35732 -0.066169836 -22.055387 -0.063616633 -22.048367 -28.520664 -112.45466
109900000 -28.384872 -108.85161 -0.066598281 -22.254549 -0.064560018 -22.244741 -28.378767 -112.53706
110899000 -28.262596 -109.43029 -0.068085007 -22.454058 -0.065642364 -22.445198 -28.250441 -112.78888
111898000 -28.169018 -110.0941 -0.069176383 -22.656502 -0.066642173 -22.649832 -28.134163 -112.96724
112897000 -28.045561 -110.64373 -0.070980258 -22.855019 -0.067289658 -22.843859 -27.997009 -113.11662
113896000 -27.939707 -111.18768 -0.071686015 -23.054581 -0.068718232 -23.043699 -27.891502 -113.22684
114895000 -27.837099 -111.82166 -0.072576404 -23.251858 -0.070133075 -23.242596 -27.783875 -113.3259
115894000 -27.715157 -112.17506 -0.074069656 -23.45454 -0.070982628 -23.442316 -27.719715 -113.52696
116893000 -27.637512 -112.70569 -0.074962646 -23.650494 -0.072703019 -23.633478 -27.591665 -113.5583
117892000 -27.555553 -113.14523 -0.075328477 -23.845598 -0.072203703 -23.835302 -27.521011 -113.7914
118891000 -27.50189 -113.59494 -0.075103283 -24.046967 -0.072419532 -24.03569 -27.42128 -113.88876
119890000 -27.408134 -113.94695 -0.076576591 -24.251823 -0.073732108 -24.23653 -27.408022 -114.04321
120889000 -27.363358 -114.43611 -0.077478521 -24.450716 -0.0737845 -24.431995 -27.33143 -113.96663
121888000 -27.319134 -114.7821 -0.077346236 -24.646324 -0.074334823 -24.635857 -27.275396 -114.26168
122887000 -27.279787 -114.94856 -0.077941813 -24.850258 -0.074823849 -24.833487 -27.227751 -114.23334
123886000 -27.226498 -115.37494 -0.079087608 -25.052784 -0.07538747 -25.034815 -27.216728 -114.41322
124885000 -27.1926 -115.86494 -0.078948945 -25.252951 -0.075832628 -25.234623 -27.185247 -114.47976
125884000 -27.141939 -116.06468 -0.080380574 -25.451902 -0.075985417 -25.436228 -27.154129 -114.59373
126883000 -27.125996 -116.45177 -0.079872467 -25.651024 -0.076879583 -25.638826 -27.11837 -114.62804
127882000 -27.077156 -116.74341 -0.080234222 -25.854717 -0.077350713 -25.835615 -27.072233 -114.72606
128881000 -27.047089 -117.07461 -0.080702819 -26.053877 -0.077306181 -26.039948 -27.037325 -114.8314
129880000 -26.9884 -117.38383 -0.081285931 -26.253716 -0.077626355 -26.235884 -26.999611 -114.78828
130879000 -26.93074 -117.52159 -0.080925405 -26.455593 -0.077914141 -26.438478 -26.922695 -114.80228
131878000 -26.867819 -117.79678 -0.081056744 -26.661617 -0.078759938 -26.638004 -26.870016 -114.68932
132877000 -26.795176 -117.83194 -0.081124261 -26.858826 -0.078917839 -26.84202 -26.78499 -114.64796
133876000 -26.717241 -117.98387 -0.082013682 -27.06242 -0.07850083 -27.043707 -26.703562 -114.50768
134875000 -26.622681 -118.12349 -0.08193402 -27.265173 -0.079460904 -27.240652 -26.604471 -114.38684
135874000 -26.539591 -118.11977 -0.081904471 -27.459631 -0.07922785 -27.442663 -26.501616 -114.34519
136873000 -26.427824 -118.09991 -0.082249783 -27.663755 -0.078699052 -27.639893 -26.42186 -114.27964
137872000 -26.351372 -118.20483 -0.082403064 -27.866066 -0.079209924 -27.85462 -26.325003 -114.19759
138871000 -26.280838 -118.39447 -0.082813054 -28.064089 -0.079707414 -28.050995 -26.225893 -114.33852
139870000 -26.177301 -118.71461 -0.08303231 -28.265594 -0.08039666 -28.24752 -26.150387 -114.50205
140869000 -26.101141 -119.27095 -0.084087864 -28.462954 -0.08046601 -28.445284 -26.050745 -114.74654
141868000 -26.020372 -119.66193 -0.084560573 -28.661266 -0.082776643 -28.646578 -25.999454 -114.97356
142867000 -25.939219 -119.86736 -0.08405567 -28.858707 -0.082039796 -28.841089 -25.918442 -115.09319
143866000 -25.868696 -120.3298 -0.085841447 -29.053717 -0.082816221 -29.042467 -25.849213 -115.57069
144865000 -25.807465 -120.84328 -0.087397903 -29.253717 -0.084759071 -29.238791 -25.79509 -115.84245
145864000 -25.754591 -121.17704 -0.087704293 -29.456459 -0.086183898 -29.441469 -25.765194 -116.10986
146863000 -25.71336 -121.51321 -0.088534035 -29.655439 -0.085975312 -29.646559 -25.705923 -116.41135
147862000 -25.669031 -121.85226 -0.089481264 -29.854292 -0.086393557 -29.839809 -25.679558 -116.70058
148861000 -25.629362 -122.27357 -0.090526231 -30.051477 -0.088310272 -30.034771 -25.659363 -116.91089
149860000 -25.609156 -122.44763 -0.091237284 -30.243422 -0.0887594 -30.232525 -25.603413 -116.99055
150859000 -25.582863 -122.925 -0.091067575 -30.443901 -0.088686474 -30.432253 -25.582623 -117.36335
151858000 -25.565187 -123.28048 -0.0905931 -30.641693 -0.087744445 -30.629107 -25.575052 -117.70132
152857000 -25.554756 -123.58159 -0.090614513 -30.840015 -0.087957345 -30.828827 -25.559755 -117.89319
153856000 -25.553602 -123.8455 -0.090684287 -31.042732 -0.087006487 -31.029888 -25.568377 -118.18401
154855000 -25.550961 -123.98193 -0.091317125 -31.239738 -0.08785063 -31.228371 -25.563097 -118.42521
155854000 -25.566135 -124.23289 -0.090943858 -31.442318 -0.088267475 -31.430765 -25.551243 -118.72559
156853000 -25.554777 -124.92698 -0.089209624 -31.628229 -0.087279841 -31.616724 -25.549204 -119.05293
157852000 -25.559725 -125.13605 -0.089976497 -31.829502 -0.088952802 -31.822802 -25.536314 -119.3529
158851000 -25.557169 -125.35664 -0.090666845 -32.029457 -0.089249521 -32.018459 -25.521254 -119.66989
159850000 -25.545132 -125.47168 -0.091529146 -32.225677 -0.089289427 -32.220222 -25.519831 -119.81086
160849000 -25.530228 -125.53449 -0.091776073 -32.427647 -0.090424731 -32.419243 -25.488678 -120.12627
161848000 -25.514605 -125.62964 -0.092311494 -32.62698 -0.090450369 -32.620117 -25.451408 -120.21891
162847000 -25.46752 -125.78306 -0.092491038 -32.828331 -0.091109872 -32.820889 -25.423912 -120.47606
163846000 -25.428995 -126.00821 -0.091900341 -33.027782 -0.090701737 -33.019127 -25.345926 -120.47546
164845000 -25.371674 -125.96433 -0.091752015 -33.226357 -0.091378979 -33.220379 -25.282324 -120.562
165844000 -25.322556 -126.01225 -0.092590995 -33.426357 -0.090897337 -33.420876 -25.202101 -120.70242
166843000 -25.259394 -126.02487 -0.092038356 -33.622818 -0.091402777 -33.619938 -25.139576 -120.87293
167842000 -25.202003 -126.17017 -0.092684872 -33.830105 -0.090875134 -33.823467 -25.058819 -120.79845
168841000 -25.127563 -126.33617 -0.09374357 -34.020546 -0.091581225 -34.021786 -24.989843 -120.86075
169840000 -25.058479 -126.6007 -0.09370257 -34.218849 -0.092176639 -34.220001 -24.902498 -121.01971
170839000 -25.000942 -126.79877 -0.094305418 -34.416454 -0.09258306 -34.41832 -24.823278 -121.19023
171838000 -24.944143 -127.19423 -0.094123416 -34.623672 -0.093029723 -34.611843 -24.762215 -121.42246
172837000 -24.872469 -127.51465 -0.095654264 -34.814434 -0.094418645 -34.811626 -24.69223 -121.62849
173836000 -24.807846 -127.92488 -0.096943706 -35.017262 -0.095528834 -35.014137 -24.651398 -121.85381
174835000 -24.748497 -128.34624 -0.096944764 -35.210545 -0.096563876 -35.213432 -24.608091 -122.14258
175834000 -24.699572 -128.68552 -0.09796717 -35.412579 -0.096881501 -35.410206 -24.551338 -122.41245
176833000 -24.651299 -129.06767 -0.098935522 -35.613384 -0.098051101 -35.611732 -24.504219 -122.57532
177832000 -24.607912 -129.44389 -0.10036608 -35.808933 -0.098426826 -35.812183 -24.480652 -122.66273
178831000 -24.563467 -129.65628 -0.10160392 -36.006294 -0.10025852 -36.004925 -24.444342 -122.75166
179830000 -24.489491 -130.08817 -0.1028771 -36.192165 -0.10142532 -36.193455 -24.382339 -122.80791
180829000 -24.43923 -130.44028 -0.10201255 -36.385181 -0.099970318 -36.385704 -24.337355 -123.13057
181828000 -24.418041 -130.86075 -0.10066941 -36.58794 -0.099248827 -36.580372 -24.320738 -123.33946
182827000 -24.39204 -131.24411 -0.10081963 -36.788582 -0.099869661 -36.778572 -24.304716 -123.48618
183826000 -24.353155 -131.5869 -0.10107291 -36.980221 -0.099835224 -36.978142 -24.29743 -123.63054
184825000 -24.35759 -131.89566 -0.100906 -37.179501 -0.10049244 -37.17651 -24.27799 -123.74961
185824000 -24.329121 -132.27586 -0.10166248 -37.371758 -0.10098734 -37.371162 -24.274227 -123.83002
186823000 -24.313309 -132.65312 -0.10198446 -37.575207 -0.1009113 -37.572231 -24.266249 -123.83919
187822000 -24.29071 -132.98337 -0.10245726 -37.767548 -0.10173191 -37.765289 -24.229374 -123.93413
188821000 -24.269819 -133.23772 -0.10198631 -37.961819 -0.10162644 -37.965481 -24.206728 -124.03706
189820000 -24.248865 -133.5592 -0.10242016 -38.165287 -0.10187633 -38.166676 -24.190338 -124.24268
190819000 -24.212622 -133.84633 -0.10326253 -38.359447 -0.10235363 -38.363625 -24.148037 -124.26017
191818000 -24.185818 -134.1176 -0.10293542 -38.557785 -0.10181379 -38.558788 -24.124777 -124.29475
192817000 -24.137573 -134.42847 -0.10323177 -38.757545 -0.10253519 -38.755646 -24.075914 -124.37115
193816000 -24.103058 -134.66347 -0.1037747 -38.950901 -0.10190867 -38.953613 -24.028845 -124.53458
194815000 -24.045437 -135.0264 -0.10428165 -39.144196 -0.10303403 -39.148617 -23.962944 -124.57347
195814000 -23.992437 -135.2563 -0.10457438 -39.343838 -0.10380493 -39.345051 -23.907946 -124.66167
196813000 -23.941387 -135.57086 -0.10436782 -39.536606 -0.10319307 -39.541553 -23.825624 -124.8075
197812000 -23.882215 -135.78421 -0.10443597 -39.738434 -0.10357534 -39.735321 -23.762173 -124.90195
198811000 -23.830236 -135.93156 -0.10501724 -39.931362 -0.10360079 -39.936504 -23.692228 -125.09821
199810000 -23.753149 -136.28046 -0.10519731 -40.126019 -0.10317691 -40.127804 -23.61462 -125.18395
200809000 -23.702702 -136.54576 -0.10530047 -40.326771 -0.10436543 -40.327248 -23.535318 -125.32581
201808000 -23.645113 -136.72343 -0.10578478 -40.526741 -0.10531479 -40.529404 -23.472023 -125.40457
202807000 -23.584915 -137.0708 -0.10683898 -40.72823 -0.10546279 -40.731537 -23.417982 -125.59271
