!Keysight Technologies,E5080B,MY59205177,A.15.75.32
!Date: Friday, February 23, 2024 03:37:37
!Correction: S11(Cdelta 2-Port  ) 
!S21(Cdelta 2-Port  ) 
!S12(Cdelta 2-Port  ) 
!S22(Cdelta 2-Port  ) 
!S2P File: Measurements: S11, S21, S12, S22:
# Hz S  dB   R 50
10000000 -46.153885 -2.7404342 -0.015068187 -2.0442014 -0.018555298 -2.0971851 -45.86042 -157.52
10999000 -45.298138 -4.6744938 -0.01596497 -2.2637413 -0.01778716 -2.3181129 -45.849033 -151.35107
11998000 -44.34639 -7.3749437 -0.01672291 -2.4891009 -0.017613016 -2.5331454 -46.024792 -147.4239
12997000 -43.609283 -13.555759 -0.015790379 -2.6655452 -0.018164063 -2.6973264 -45.596352 -141.2236
13996000 -43.308994 -17.318178 -0.014608697 -2.8465514 -0.017575849 -2.8693502 -45.410095 -136.04919
14995000 -42.882286 -21.550735 -0.016608315 -3.0579157 -0.017770525 -3.0807636 -45.072475 -133.06569
15994000 -42.730743 -25.888628 -0.017852401 -3.2785459 -0.0194437 -3.2966287 -44.94849 -129.33969
16993000 -42.702999 -30.405977 -0.017232522 -3.4722953 -0.019234387 -3.4811866 -44.149593 -129.10675
17992000 -42.728374 -36.315186 -0.017961832 -3.6728597 -0.019522486 -3.6710923 -43.550072 -129.26315
18991000 -42.964092 -41.522198 -0.01840036 -3.8831065 -0.020543208 -3.8766396 -42.884716 -127.87834
19990000 -42.710251 -47.420773 -0.020905005 -4.0962453 -0.022699865 -4.0876684 -42.264755 -129.03329
20989000 -42.554241 -50.573795 -0.022919234 -4.2926636 -0.024186736 -4.2847061 -41.708355 -128.33797
21988000 -42.410336 -55.770538 -0.023542527 -4.4936428 -0.02490784 -4.4799185 -41.496563 -127.39665
22987000 -42.027821 -60.501022 -0.025203347 -4.6936388 -0.025806397 -4.6816864 -41.216057 -127.12337
23986000 -41.953033 -64.884346 -0.024852388 -4.8867688 -0.025136953 -4.8845677 -41.068565 -126.8271
24985000 -41.549309 -67.470474 -0.025563449 -5.0943165 -0.025001308 -5.0910592 -40.872902 -124.40626
25984000 -41.169285 -69.616432 -0.026194675 -5.3020153 -0.026250144 -5.3044438 -40.525902 -122.84982
26983000 -40.88068 -71.486267 -0.027221134 -5.4990058 -0.02731986 -5.5204506 -40.427094 -122.27956
27982000 -40.783264 -72.155678 -0.028417196 -5.697372 -0.028191818 -5.7324538 -40.118973 -120.54424
28981000 -40.681629 -73.970825 -0.026331661 -5.9020767 -0.028182698 -5.9212461 -39.958115 -120.15065
29980000 -40.256317 -75.078087 -0.026687168 -6.09307 -0.028477905 -6.1008158 -39.671883 -119.13735
30979000 -39.897602 -74.048843 -0.02387516 -6.4455633 -0.022964774 -6.4391289 -39.177048 -119.37453
31978000 -39.692554 -75.183357 -0.023356961 -6.6430621 -0.023900669 -6.6316543 -38.901581 -118.66917
32977000 -39.484711 -76.543526 -0.023146419 -6.8515391 -0.024751635 -6.8490086 -38.696655 -118.69088
33976000 -39.321198 -77.702766 -0.024152635 -7.0527515 -0.025740255 -7.0462532 -38.384048 -118.18018
34975000 -39.040691 -78.437088 -0.023527952 -7.2525597 -0.026108215 -7.2524991 -38.167732 -117.91005
35974000 -38.839806 -79.080658 -0.023063924 -7.4461083 -0.026026182 -7.4502959 -37.896534 -116.88138
36973000 -38.581917 -79.67614 -0.024148731 -7.6480789 -0.026975501 -7.65203 -37.639297 -116.12121
37972000 -38.419666 -79.520996 -0.023709102 -7.8551793 -0.027086984 -7.8629069 -37.417503 -115.2785
38971000 -38.096973 -79.010811 -0.024783656 -8.0551691 -0.026891369 -8.068984 -37.256874 -113.70171
39970000 -37.780518 -79.305046 -0.0225453 -8.2535877 -0.02610014 -8.2677851 -37.001034 -113.20281
40969000 -37.500351 -78.889755 -0.022460993 -8.4498196 -0.025878008 -8.4718208 -36.7668 -111.75756
41968000 -37.150497 -78.773468 -0.023804624 -8.6530724 -0.026167069 -8.6705904 -36.562359 -110.5349
42967000 -36.901028 -78.981239 -0.023540445 -8.8668261 -0.025827751 -8.8846235 -36.372883 -108.73699
43966000 -36.602058 -79.500015 -0.023916807 -9.0658236 -0.02761084 -9.0851898 -36.107594 -107.94202
44965000 -36.374168 -80.281044 -0.024645679 -9.2647686 -0.027532687 -9.2869101 -35.89423 -107.66892
45964000 -36.127174 -81.342911 -0.02551111 -9.4641895 -0.028255131 -9.487298 -35.662136 -107.38683
46963000 -35.937916 -83.269836 -0.026148839 -9.6608057 -0.029231779 -9.6866341 -35.485741 -107.61479
47962000 -35.776581 -84.644699 -0.027928935 -9.8649969 -0.029823139 -9.8862648 -35.299084 -107.62762
48961000 -35.556976 -86.118019 -0.029752245 -10.061411 -0.031776838 -10.084641 -35.068211 -107.83323
49960000 -35.33139 -87.352135 -0.030707853 -10.261966 -0.03320761 -10.284877 -34.936176 -107.84248
50959000 -35.089542 -88.640182 -0.031231623 -10.475578 -0.03432887 -10.486132 -34.755585 -108.12675
51958000 -34.894524 -89.62793 -0.033670112 -10.673366 -0.035532635 -10.683288 -34.578213 -108.5809
52957000 -34.67477 -90.682411 -0.034674075 -10.875535 -0.037002757 -10.881583 -34.416775 -108.35969
53956000 -34.515884 -91.399918 -0.03652763 -11.079496 -0.03756332 -11.078976 -34.289158 -108.25499
54955000 -34.336662 -91.913086 -0.037437208 -11.27212 -0.037959963 -11.272515 -34.12944 -108.24691
55954000 -34.168026 -92.689491 -0.037346344 -11.478683 -0.038214315 -11.47672 -34.01181 -108.00249
56953000 -34.049061 -92.683327 -0.037056278 -11.671368 -0.037336946 -11.66873 -33.943756 -108.22034
57952000 -33.882496 -93.286324 -0.038644444 -11.874644 -0.039211489 -11.865589 -33.842899 -108.22671
58951000 -33.758469 -93.605049 -0.039894078 -12.082866 -0.039552901 -12.060912 -33.687855 -108.35114
59950000 -33.631687 -94.008026 -0.040290412 -12.277244 -0.041337192 -12.257689 -33.618523 -108.61047
60949000 -33.512909 -94.644173 -0.04022222 -12.4818 -0.041134663 -12.458623 -33.523575 -108.84216
61948000 -33.45303 -94.88958 -0.041340329 -12.680902 -0.040813509 -12.659344 -33.427544 -108.93031
62947000 -33.360336 -95.109222 -0.041708305 -12.89068 -0.041760314 -12.871817 -33.29583 -109.26313
63946000 -33.280487 -95.817467 -0.042666547 -13.090464 -0.04242187 -13.070176 -33.173157 -109.39915
64945000 -33.181461 -95.991982 -0.042869151 -13.292054 -0.043561988 -13.273712 -33.06776 -109.84706
65944000 -33.071732 -96.236038 -0.043864779 -13.489467 -0.043726195 -13.475868 -32.959919 -110.29995
66943000 -32.932846 -96.620842 -0.041544177 -13.690434 -0.041825656 -13.675412 -32.868332 -110.49854
67942000 -32.868725 -96.634094 -0.043263663 -13.88812 -0.043818496 -13.879077 -32.745037 -110.80059
68941000 -32.758278 -96.716408 -0.043405108 -14.083784 -0.043147057 -14.07345 -32.639927 -110.83087
69940000 -32.655296 -96.694153 -0.043545254 -14.282701 -0.043971468 -14.276881 -32.496319 -111.10561
70939000 -32.560207 -96.611275 -0.043152545 -14.478328 -0.043614805 -14.475671 -32.346691 -110.92306
71938000 -32.41077 -96.28344 -0.042966139 -14.674936 -0.043268628 -14.669849 -32.226803 -110.78455
72937000 -32.252815 -96.02372 -0.043213986 -14.878888 -0.042843267 -14.868159 -32.093342 -110.51989
73936000 -32.121666 -95.634048 -0.042760659 -15.075968 -0.042455852 -15.06661 -31.989859 -110.24574
74935000 -31.998669 -95.946266 -0.042445656 -15.266241 -0.040949911 -15.267919 -31.83477 -109.97877
75934000 -31.881495 -96.170509 -0.042727459 -15.480597 -0.041128129 -15.474487 -31.744278 -109.95401
76933000 -31.744444 -96.487213 -0.043455571 -15.673777 -0.042559631 -15.667623 -31.566536 -110.24418
77932000 -31.638697 -97.344749 -0.044278994 -15.866603 -0.043767247 -15.862764 -31.478518 -110.24644
78931000 -31.573311 -98.00769 -0.04308797 -16.071487 -0.043290593 -16.066206 -31.369755 -110.08299
79930000 -31.458168 -98.877892 -0.045659218 -16.261814 -0.045692176 -16.262356 -31.269575 -110.35357
80929000 -31.3451 -99.622986 -0.047358349 -16.458416 -0.047121257 -16.457354 -31.179012 -110.63228
81928000 -31.235266 -100.38351 -0.04722698 -16.649052 -0.047902714 -16.646679 -31.045586 -110.56652
82927000 -31.146856 -101.06634 -0.049189836 -16.847071 -0.048829865 -16.849628 -30.938295 -110.89438
83926000 -31.018791 -101.76683 -0.050575808 -17.049402 -0.0499481 -17.046635 -30.827757 -111.06103
84925000 -30.927483 -102.19044 -0.051736146 -17.247053 -0.050456386 -17.243774 -30.721058 -111.07258
85924000 -30.82807 -102.59506 -0.05192738 -17.442965 -0.051854815 -17.443499 -30.637955 -111.1041
86923000 -30.728508 -103.06068 -0.052166045 -17.64385 -0.05168454 -17.641047 -30.542133 -110.95518
87922000 -30.611238 -103.44031 -0.05152658 -17.85083 -0.050957926 -17.84288 -30.45439 -110.95984
88921000 -30.547903 -103.66235 -0.052647345 -18.046356 -0.05265101 -18.045164 -30.357187 -110.92965
89920000 -30.440756 -104.24597 -0.053905468 -18.251034 -0.053072356 -18.243349 -30.314951 -111.09258
90919000 -30.335691 -104.49619 -0.054773606 -18.444008 -0.054073472 -18.438759 -30.221205 -111.28152
91918000 -30.243624 -104.83032 -0.05542535 -18.643337 -0.054545023 -18.640297 -30.154793 -111.29283
92917000 -30.15192 -105.1553 -0.056487586 -18.846735 -0.055655815 -18.839636 -30.082788 -111.35071
93916000 -30.058552 -105.51938 -0.056021333 -19.036577 -0.05577223 -19.03755 -29.995148 -111.97318
94915000 -29.98245 -106.08344 -0.057401359 -19.240595 -0.056516171 -19.234007 -29.938259 -111.85477
95914000 -29.916489 -106.30733 -0.058125377 -19.431816 -0.057005558 -19.432096 -29.85483 -112.08819
96913000 -29.829685 -106.49915 -0.059471428 -19.637074 -0.058064774 -19.632639 -29.787476 -112.43413
97912000 -29.752211 -106.94575 -0.060536493 -19.831446 -0.058357824 -19.831789 -29.704824 -112.67604
98911000 -29.650322 -107.10158 -0.060792957 -20.031864 -0.060188703 -20.031033 -29.666927 -112.88312
99910000 -29.582035 -107.28905 -0.061315119 -20.232206 -0.06030472 -20.235161 -29.561106 -113.237
100909000 -29.490391 -107.52323 -0.061228745 -20.444277 -0.059261229 -20.435127 -29.475039 -113.41557
101908000 -29.401155 -107.71194 -0.062134061 -20.641905 -0.061060987 -20.640089 -29.358904 -113.1508
102907000 -29.263334 -107.74017 -0.062566303 -20.840189 -0.06093524 -20.839863 -29.286213 -113.14997
103906000 -29.179581 -107.75835 -0.062905878 -21.047949 -0.060622331 -21.040541 -29.14426 -113.14297
104905000 -29.029888 -107.69009 -0.063488968 -21.241688 -0.060994044 -21.243433 -29.019571 -112.77898
105904000 -28.881165 -107.75243 -0.064122319 -21.442661 -0.061418559 -21.439245 -28.914104 -112.70594
106903000 -28.778069 -107.85634 -0.064102352 -21.652122 -0.06150914 -21.647005 -28.786705 -112.60604
107902000 -28.616453 -108.15865 -0.064459391 -21.850433 -0.06234755 -21.846605 -28.652525 -112.54205
108901000 -28.505466 -108.35757 -0.065820545 -22.055368 -0.062674239 -22.051378 -28.516663 -112.47141
109900000 -28.375517 -108.85592 -0.066356458 -22.255051 -0.064836949 -22.248306 -28.378696 -112.53165
110899000 -28.255253 -109.46146 -0.067264944 -22.452139 -0.065503083 -22.444674 -28.246449 -112.83042
111898000 -28.170025 -110.12228 -0.068634339 -22.655371 -0.066547811 -22.649487 -28.13648 -112.92831
112897000 -28.042507 -110.64458 -0.070076257 -22.855284 -0.0675686 -22.841909 -27.996851 -113.14906
113896000 -27.939491 -111.18538 -0.071304969 -23.055531 -0.068895489 -23.043163 -27.89366 -113.24881
114895000 -27.838417 -111.84434 -0.07195393 -23.253605 -0.069812931 -23.241776 -27.780621 -113.31412
115894000 -27.717091 -112.2213 -0.073456712 -23.457283 -0.070925266 -23.445026 -27.710459 -113.52002
116893000 -27.636353 -112.65082 -0.07400436 -23.652752 -0.072059467 -23.63718 -27.583422 -113.58202
117892000 -27.55776 -113.17294 -0.074206583 -23.849628 -0.072641686 -23.834303 -27.510801 -113.79359
118891000 -27.498791 -113.58956 -0.07484176 -24.046545 -0.072633527 -24.037159 -27.413996 -113.91747
119890000 -27.415567 -113.95484 -0.075457796 -24.250265 -0.073250569 -24.236282 -27.402983 -114.05902
120889000 -27.358189 -114.44387 -0.076788157 -24.450363 -0.073249251 -24.438694 -27.328236 -113.98332
121888000 -27.324167 -114.77599 -0.076693043 -24.646183 -0.074640557 -24.631727 -27.27524 -114.23031
122887000 -27.282316 -114.95278 -0.077318043 -24.852758 -0.075313196 -24.835768 -27.225883 -114.25171
123886000 -27.226374 -115.3781 -0.078315541 -25.054407 -0.07521601 -25.031664 -27.211475 -114.38552
124885000 -27.193174 -115.87739 -0.078751504 -25.2493 -0.076066554 -25.234781 -27.18321 -114.43295
125884000 -27.143366 -116.09271 -0.079378121 -25.449921 -0.076067604 -25.436621 -27.152889 -114.58346
126883000 -27.120968 -116.48129 -0.079619616 -25.654318 -0.076236203 -25.641508 -27.118324 -114.581
127882000 -27.071125 -116.75526 -0.08010792 -25.849632 -0.077397361 -25.836319 -27.078369 -114.77605
128881000 -27.03812 -117.06193 -0.080245562 -26.054459 -0.077442683 -26.038788 -27.034781 -114.86892
129880000 -26.982948 -117.42024 -0.080912478 -26.255802 -0.077444002 -26.237879 -26.998236 -114.81595
130879000 -26.930733 -117.52827 -0.080412485 -26.455774 -0.078399621 -26.441542 -26.925898 -114.83102
131878000 -26.860582 -117.78522 -0.081044346 -26.660624 -0.078066736 -26.639414 -26.865206 -114.68776
132877000 -26.798691 -117.86739 -0.080955468 -26.858673 -0.078307897 -26.842468 -26.782125 -114.66737
133876000 -26.713295 -118.00338 -0.080720752 -27.06361 -0.078436516 -27.042049 -26.698004 -114.50211
134875000 -26.618612 -118.16158 -0.081447877 -27.256685 -0.079087079 -27.245264 -26.600426 -114.39201
135874000 -26.53867 -118.17858 -0.081632778 -27.46628 -0.078864858 -27.444901 -26.504219 -114.31994
136873000 -26.42679 -118.1149 -0.081772052 -27.666561 -0.079463273 -27.647055 -26.423574 -114.27048
137872000 -26.355656 -118.19743 -0.082750522 -27.867212 -0.079438753 -27.852892 -26.32548 -114.21658
138871000 -26.282307 -118.4203 -0.082949199 -28.068052 -0.079103157 -28.052094 -26.229298 -114.34911
139870000 -26.177979 -118.69643 -0.082804084 -28.265684 -0.080279581 -28.247723 -26.150452 -114.55227
140869000 -26.097553 -119.23167 -0.083845593 -28.460642 -0.080923297 -28.447412 -26.048334 -114.7548
141868000 -26.019838 -119.63548 -0.084728189 -28.663712 -0.082581408 -28.646893 -25.997509 -114.993
142867000 -25.93935 -119.82496 -0.083038643 -28.858345 -0.081779964 -28.842283 -25.920149 -115.09191
143866000 -25.867367 -120.30179 -0.085487135 -29.056253 -0.083356075 -29.040373 -25.846258 -115.58728
144865000 -25.809702 -120.83839 -0.08745759 -29.255394 -0.084414348 -29.241665 -25.787992 -115.85043
145864000 -25.75453 -121.13994 -0.087578565 -29.454741 -0.085753262 -29.440496 -25.75432 -116.11617
146863000 -25.70882 -121.52005 -0.087511212 -29.65621 -0.08579471 -29.646057 -25.708004 -116.41824
147862000 -25.671595 -121.84908 -0.08961577 -29.853371 -0.086974271 -29.839273 -25.674116 -116.74191
148861000 -25.638157 -122.27351 -0.090508252 -30.054562 -0.087712742 -30.041533 -25.646208 -116.89264
149860000 -25.598738 -122.46434 -0.091212966 -30.245628 -0.088889919 -30.235956 -25.604095 -116.98408
150859000 -25.584715 -122.94726 -0.091019459 -30.438828 -0.088201165 -30.422113 -25.582499 -117.33865
151858000 -25.571552 -123.27989 -0.090102822 -30.645084 -0.087867536 -30.626213 -25.572086 -117.67871
152857000 -25.556026 -123.6304 -0.090585962 -30.840012 -0.088186637 -30.829958 -25.551218 -117.87424
153856000 -25.546295 -123.79467 -0.089937381 -31.041103 -0.087527059 -31.027655 -25.569641 -118.18618
154855000 -25.549038 -123.98158 -0.090504028 -31.238588 -0.08763852 -31.227957 -25.559774 -118.4361
155854000 -25.56106 -124.27536 -0.091371052 -31.444633 -0.088585027 -31.426455 -25.555489 -118.70209
156853000 -25.54949 -124.89901 -0.08807569 -31.62837 -0.087820776 -31.620058 -25.548731 -119.01289
157852000 -25.557192 -125.15604 -0.089671001 -31.829296 -0.08920566 -31.820913 -25.531839 -119.36373
158851000 -25.552681 -125.3623 -0.090311348 -32.026363 -0.088970765 -32.020554 -25.518692 -119.62057
159850000 -25.54347 -125.44447 -0.090921126 -32.227673 -0.089514561 -32.217609 -25.520016 -119.80946
160849000 -25.526693 -125.58991 -0.091398016 -32.424377 -0.090180255 -32.421917 -25.488165 -120.11131
161848000 -25.512831 -125.62836 -0.091506407 -32.628197 -0.090268269 -32.622597 -25.450769 -120.25397
162847000 -25.466278 -125.78486 -0.091912501 -32.828022 -0.090834692 -32.825367 -25.423632 -120.47215
163846000 -25.428467 -126.00693 -0.092181139 -33.027676 -0.090230212 -33.018784 -25.349178 -120.49043
164845000 -25.371777 -125.95576 -0.092541285 -33.222912 -0.090992235 -33.220333 -25.281834 -120.54749
165844000 -25.319424 -126.00748 -0.091748051 -33.429615 -0.091120973 -33.420376 -25.207596 -120.70056
166843000 -25.256758 -126.05293 -0.092444502 -33.625027 -0.091102466 -33.623077 -25.136023 -120.84995
167842000 -25.20093 -126.15615 -0.093020201 -33.826839 -0.091512226 -33.822124 -25.063177 -120.76956
168841000 -25.121685 -126.35114 -0.093432784 -34.025684 -0.091414936 -34.018894 -24.989386 -120.84691
169840000 -25.061127 -126.55125 -0.093408182 -34.221004 -0.091896109 -34.21767 -24.907822 -121.04964
170839000 -25.000698 -126.81168 -0.093750447 -34.417439 -0.092622727 -34.415745 -24.823654 -121.20694
171838000 -24.937677 -127.21077 -0.093393639 -34.620193 -0.093748331 -34.61409 -24.757666 -121.43993
172837000 -24.87229 -127.54173 -0.095697135 -34.81918 -0.094737172 -34.809277 -24.690838 -121.66042
173836000 -24.803104 -127.91261 -0.096561491 -35.018238 -0.095584936 -35.013062 -24.652311 -121.86496
174835000 -24.754456 -128.33649 -0.097006179 -35.21085 -0.096294969 -35.211369 -24.60327 -122.16418
175834000 -24.701159 -128.6783 -0.098193288 -35.41016 -0.09790998 -35.40678 -24.546707 -122.44001
176833000 -24.647537 -129.0251 -0.099313714 -35.6078 -0.097491942 -35.607349 -24.496025 -122.5613
177832000 -24.60808 -129.46152 -0.099787019 -35.809238 -0.09897498 -35.809788 -24.481665 -122.6826
178831000 -24.562494 -129.67139 -0.1014134 -36.009911 -0.10067233 -36.003826 -24.437254 -122.73862
179830000 -24.491129 -130.07338 -0.10230778 -36.186935 -0.10156788 -36.192566 -24.374153 -122.83553
180829000 -24.440723 -130.44009 -0.10176159 -36.385426 -0.10072346 -36.382092 -24.334301 -123.14413
181828000 -24.417599 -130.85687 -0.10135643 -36.58593 -0.10014011 -36.583355 -24.317951 -123.37423
182827000 -24.396408 -131.24937 -0.10119613 -36.777489 -0.10029376 -36.779854 -24.305836 -123.47721
183826000 -24.354725 -131.56674 -0.10167335 -36.978138 -0.10089646 -36.975346 -24.297863 -123.62506
184825000 -24.358637 -131.91609 -0.10075975 -37.172951 -0.1006612 -37.177929 -24.276682 -123.7358
185824000 -24.327921 -132.28178 -0.10154721 -37.366402 -0.10086493 -37.374695 -24.273434 -123.78915
186823000 -24.310183 -132.63696 -0.10153291 -37.573528 -0.10080426 -37.573418 -24.264124 -123.81987
187822000 -24.286625 -132.97734 -0.10261841 -37.769329 -0.10147884 -37.764473 -24.226812 -123.90935
188821000 -24.267784 -133.22423 -0.10162327 -37.963474 -0.10130715 -37.968784 -24.205746 -124.01369
189820000 -24.248671 -133.52037 -0.10208622 -38.164288 -0.10143274 -38.161446 -24.191496 -124.24553
190819000 -24.211639 -133.85129 -0.10268626 -38.360947 -0.10189594 -38.360596 -24.153011 -124.28236
191818000 -24.182974 -134.12273 -0.10285006 -38.558308 -0.10213075 -38.561153 -24.124275 -124.28552
192817000 -24.141048 -134.41599 -0.10288559 -38.75539 -0.10254049 -38.757153 -24.081156 -124.39265
193816000 -24.106874 -134.65515 -0.10319626 -38.950283 -0.10191184 -38.950558 -24.029629 -124.54731
194815000 -24.047579 -135.04709 -0.10391602 -39.149345 -0.1037641 -39.149261 -23.961472 -124.59566
195814000 -23.99505 -135.23711 -0.10462636 -39.345848 -0.10396268 -39.347363 -23.911198 -124.67342
196813000 -23.935938 -135.57147 -0.10413051 -39.539268 -0.10274935 -39.538086 -23.829794 -124.85612
197812000 -23.882421 -135.795 -0.10443199 -39.736336 -0.10349051 -39.737125 -23.762316 -124.92339
198811000 -23.827539 -135.93851 -0.10447893 -39.933281 -0.103736 -39.93956 -23.691261 -125.07238
199810000 -23.758293 -136.30627 -0.10516257 -40.127895 -0.10326836 -40.122936 -23.616283 -125.19219
200809000 -23.699673 -136.54855 -0.10442059 -40.328499 -0.10380122 -40.323856 -23.532799 -125.3837
201808000 -23.642267 -136.71843 -0.10634235 -40.526379 -0.10529464 -40.529873 -23.469007 -125.43439
202807000 -23.584213 -137.06389 -0.10673976 -40.724964 -0.10533654 -40.731785 -23.41473 -125.61174
