!Keysight Technologies,E5080B,MY59205177,A.15.75.32
!Date: Friday, February 23, 2024 02:59:21
!Correction: S11(Cdelta 2-Port  ) 
!S21(Cdelta 2-Port  ) 
!S12(Cdelta 2-Port  ) 
!S22(Cdelta 2-Port  ) 
!S2P File: Measurements: S11, S21, S12, S22:
# Hz S  dB   R 50
10000000 -44.125114 -3.3393757 -0.027460268 -2.0423322 -0.030710459 -2.098856 -48.131084 -150.05318
10999000 -43.392899 -5.3800216 -0.028706426 -2.2546923 -0.0309915 -2.3122053 -47.813469 -142.06425
11998000 -42.680489 -8.0046644 -0.029418118 -2.4798696 -0.030388512 -2.5264411 -47.943684 -136.38475
12997000 -42.072548 -12.858182 -0.028793458 -2.6560481 -0.029963888 -2.6878266 -47.332027 -130.11641
13996000 -41.825706 -15.786558 -0.027611101 -2.8373024 -0.030003509 -2.8590233 -46.943405 -124.86621
14995000 -41.480488 -19.704916 -0.029211452 -3.0462666 -0.029976139 -3.0723472 -46.465458 -121.41319
15994000 -41.36298 -23.488348 -0.030461501 -3.2634773 -0.032861479 -3.2880054 -46.169163 -118.06187
16993000 -41.3731 -27.378677 -0.029899508 -3.4634564 -0.031851418 -3.4724579 -45.30006 -118.78809
17992000 -41.451584 -32.139698 -0.030503212 -3.6653183 -0.032853395 -3.6639001 -44.711899 -119.48371
18991000 -41.762135 -36.490475 -0.031022785 -3.8721974 -0.033111356 -3.8695464 -43.962166 -119.01865
19990000 -41.590374 -41.535355 -0.033630461 -4.0801415 -0.035630506 -4.0762458 -43.23386 -120.55222
20989000 -41.469646 -44.555511 -0.036340985 -4.283164 -0.038293444 -4.2716479 -42.687004 -120.58801
21988000 -41.393593 -49.09721 -0.036179408 -4.4776659 -0.038056321 -4.4656677 -42.369694 -119.99181
22987000 -41.181664 -53.41098 -0.038246956 -4.6773157 -0.038813166 -4.6700077 -42.122692 -119.71619
23986000 -41.184662 -57.189743 -0.036807217 -4.8703661 -0.037741922 -4.8693886 -41.996742 -119.45371
24985000 -40.839554 -60.067459 -0.038299449 -5.0781393 -0.037907999 -5.0758214 -41.737083 -116.97646
25984000 -40.584122 -62.026287 -0.039105963 -5.2853293 -0.03873403 -5.2881169 -41.427891 -115.71204
26983000 -40.321175 -63.861191 -0.03993405 -5.4826398 -0.039002791 -5.5000105 -41.276165 -115.04472
27982000 -40.192459 -64.830132 -0.040829971 -5.6815128 -0.041079525 -5.717926 -40.951008 -113.67915
28981000 -40.196228 -66.229614 -0.039483413 -5.8806081 -0.040989108 -5.9009504 -40.741783 -113.04109
29980000 -39.845486 -67.690948 -0.039297167 -6.072227 -0.041487463 -6.0800714 -40.391727 -112.05961
30979000 -39.427547 -67.075066 -0.036636487 -6.4242945 -0.035368215 -6.4172535 -39.887726 -113.01451
31978000 -39.262074 -68.335243 -0.036715847 -6.6211319 -0.037107188 -6.6136642 -39.607239 -112.33093
32977000 -39.097969 -69.660721 -0.03600087 -6.8340516 -0.037676383 -6.8247352 -39.377045 -112.47596
33976000 -38.947689 -71.008347 -0.036962554 -7.0320392 -0.038221888 -7.0264325 -39.056168 -112.07513
34975000 -38.683025 -71.908073 -0.037052885 -7.2310224 -0.038243301 -7.2283287 -38.817963 -111.92916
35974000 -38.473431 -72.605515 -0.036163483 -7.4246898 -0.038380668 -7.4265785 -38.510601 -111.08686
36973000 -38.263493 -73.431786 -0.036403894 -7.6254206 -0.039344706 -7.6297755 -38.225761 -110.30265
37972000 -38.089512 -73.38913 -0.036569919 -7.8325477 -0.039521553 -7.8429732 -37.981243 -109.70099
38971000 -37.781155 -73.186073 -0.037977722 -8.0355558 -0.039885458 -8.0439663 -37.77597 -108.21507
39970000 -37.458855 -73.644814 -0.03566809 -8.2330446 -0.038881857 -8.2464151 -37.506302 -107.82855
40969000 -37.182465 -73.624489 -0.036066122 -8.4225121 -0.037774824 -8.4447536 -37.259895 -106.52031
41968000 -36.843235 -73.803307 -0.035883937 -8.6344309 -0.03855617 -8.6423798 -37.025455 -105.33634
42967000 -36.586338 -74.125511 -0.035394315 -8.8375397 -0.038719926 -8.8586168 -36.799244 -103.68072
43966000 -36.316917 -74.967621 -0.036624476 -9.0412474 -0.039869782 -9.0534573 -36.503998 -102.99276
44965000 -36.088112 -75.843147 -0.037382379 -9.2418108 -0.039852016 -9.2562094 -36.280567 -102.93624
45964000 -35.858177 -76.931099 -0.038655154 -9.4410563 -0.041342944 -9.4599371 -36.057251 -102.75696
46963000 -35.692421 -79.054359 -0.039428558 -9.6337805 -0.041319683 -9.6544724 -35.854843 -103.12642
47962000 -35.552422 -80.515533 -0.040581476 -9.8375292 -0.042524341 -9.8524361 -35.662201 -103.28261
48961000 -35.353035 -82.007103 -0.042493232 -10.032081 -0.043902956 -10.053905 -35.445141 -103.71695
49960000 -35.125637 -83.369034 -0.043485116 -10.229343 -0.045861434 -10.253722 -35.28928 -103.72452
50959000 -34.936836 -84.798691 -0.044170469 -10.44643 -0.046934944 -10.451268 -35.107437 -104.10135
51958000 -34.733658 -85.858398 -0.046573851 -10.642176 -0.047280364 -10.652674 -34.934261 -104.72742
52957000 -34.520416 -86.940613 -0.047497839 -10.841955 -0.049059197 -10.847848 -34.782452 -104.49495
53956000 -34.391216 -87.820763 -0.049160514 -11.039521 -0.049702488 -11.04492 -34.647972 -104.57161
54955000 -34.224899 -88.299271 -0.049826864 -11.247378 -0.051091503 -11.240719 -34.483246 -104.59664
55954000 -34.074928 -89.19339 -0.051234517 -11.446198 -0.051282451 -11.440684 -34.37252 -104.35149
56953000 -33.959824 -89.280045 -0.05020158 -11.6411 -0.050640758 -11.633729 -34.314713 -104.62676
57952000 -33.787846 -89.810097 -0.052354157 -11.834976 -0.051115077 -11.832255 -34.196129 -104.71155
58951000 -33.680161 -90.221489 -0.052629527 -12.042767 -0.052574504 -12.023506 -34.051212 -104.84995
59950000 -33.565147 -90.588394 -0.053262077 -12.24274 -0.053266272 -12.223812 -33.975636 -105.17509
60949000 -33.457504 -91.17617 -0.053430058 -12.446578 -0.053266797 -12.418822 -33.900425 -105.4067
61948000 -33.403767 -91.459625 -0.054465596 -12.641431 -0.053233251 -12.622648 -33.82093 -105.44806
62947000 -33.310974 -91.725487 -0.053862747 -12.859878 -0.053814523 -12.833652 -33.668617 -105.80782
63946000 -33.241413 -92.438965 -0.055370815 -13.053377 -0.054493383 -13.031192 -33.568081 -105.91523
64945000 -33.138348 -92.675743 -0.05560993 -13.251506 -0.055645328 -13.235973 -33.458561 -106.44112
65944000 -33.044468 -92.933662 -0.056562591 -13.45218 -0.055615697 -13.434986 -33.366798 -106.87422
66943000 -32.905602 -93.355904 -0.054550525 -13.652963 -0.054468744 -13.633882 -33.26973 -107.16302
67942000 -32.84692 -93.295868 -0.056093182 -13.850989 -0.05600927 -13.83534 -33.155033 -107.52381
68941000 -32.732319 -93.380417 -0.055909105 -14.041614 -0.055658698 -14.03351 -33.039684 -107.42274
69940000 -32.640083 -93.463692 -0.056342304 -14.242701 -0.056376919 -14.229086 -32.902195 -107.78614
70939000 -32.535538 -93.435852 -0.055870559 -14.435702 -0.056463197 -14.431972 -32.775558 -107.72671
71938000 -32.389477 -93.014114 -0.055910155 -14.632357 -0.055877116 -14.625078 -32.644352 -107.59907
72937000 -32.216801 -92.896591 -0.055125158 -14.832658 -0.055647947 -14.826056 -32.501358 -107.28188
73936000 -32.09798 -92.618454 -0.054905206 -15.028267 -0.054579623 -15.023268 -32.37896 -107.18751
74935000 -31.972515 -92.886101 -0.054600857 -15.227591 -0.053935871 -15.219666 -32.231686 -106.80963
75934000 -31.845699 -93.192451 -0.05432903 -15.435349 -0.054103352 -15.429222 -32.139301 -106.75933
76933000 -31.730942 -93.578224 -0.056304015 -15.629003 -0.0554028 -15.621422 -31.965822 -107.19893
77932000 -31.632034 -94.404137 -0.056969889 -15.824338 -0.056720469 -15.819524 -31.875664 -107.18903
78931000 -31.564846 -95.117355 -0.056697652 -16.022934 -0.055944242 -16.018505 -31.78405 -107.0696
79930000 -31.451202 -95.955246 -0.058766074 -16.214008 -0.05834103 -16.211279 -31.678719 -107.34071
80929000 -31.320387 -96.875328 -0.060187131 -16.409824 -0.060256686 -16.404324 -31.572374 -107.80695
81928000 -31.244852 -97.79467 -0.059846718 -16.601727 -0.060556706 -16.598454 -31.45883 -107.85516
82927000 -31.148626 -98.437355 -0.061727066 -16.797981 -0.06204268 -16.799368 -31.35696 -108.20187
83926000 -31.037193 -99.185509 -0.062675551 -16.994884 -0.062658221 -16.997396 -31.242641 -108.44117
84925000 -30.949331 -99.658791 -0.063527845 -17.195366 -0.063221842 -17.19046 -31.14382 -108.4805
85924000 -30.858337 -100.08279 -0.065142542 -17.397968 -0.064443886 -17.391909 -31.065533 -108.50478
86923000 -30.753693 -100.64091 -0.064601794 -17.594654 -0.064789392 -17.589336 -30.963932 -108.42683
87922000 -30.642704 -101.06664 -0.064593911 -17.800802 -0.064025119 -17.78898 -30.877081 -108.47115
88921000 -30.569559 -101.34226 -0.066038951 -17.998646 -0.065047421 -17.99589 -30.78861 -108.44884
89920000 -30.488796 -101.89542 -0.066484198 -18.195677 -0.06498199 -18.186869 -30.745222 -108.64705
90919000 -30.387796 -102.19888 -0.06789463 -18.393381 -0.066309668 -18.382977 -30.649551 -108.87302
91918000 -30.27968 -102.57006 -0.06781444 -18.588047 -0.066587761 -18.589951 -30.577286 -108.84473
92917000 -30.196413 -102.88993 -0.069224514 -18.790548 -0.067983769 -18.785345 -30.520327 -109.02567
93916000 -30.119184 -103.31798 -0.068197027 -18.987183 -0.067724779 -18.980467 -30.428051 -109.62064
94915000 -30.046743 -103.91353 -0.070328809 -19.185589 -0.068831325 -19.177366 -30.371326 -109.45491
95914000 -29.979111 -104.15228 -0.070778184 -19.380274 -0.06955988 -19.374994 -30.273066 -109.80785
96913000 -29.89456 -104.42332 -0.071771547 -19.577814 -0.070582695 -19.575811 -30.217058 -110.17097
97912000 -29.82362 -104.86157 -0.073141053 -19.772577 -0.071258917 -19.772383 -30.134352 -110.37391
98911000 -29.722649 -105.08257 -0.073661543 -19.975809 -0.071621545 -19.973228 -30.097334 -110.55411
99910000 -29.652437 -105.22737 -0.074606322 -20.175653 -0.071865499 -20.170868 -29.992409 -110.83932
100909000 -29.569767 -105.45135 -0.073505677 -20.3825 -0.071448646 -20.376373 -29.896767 -111.07898
101908000 -29.480478 -105.76667 -0.074844919 -20.579309 -0.073003113 -20.580214 -29.795137 -110.87296
102907000 -29.344841 -105.74763 -0.075459905 -20.77836 -0.073129207 -20.778563 -29.712814 -110.8359
103906000 -29.251472 -105.81744 -0.07536561 -20.98665 -0.072277658 -20.981949 -29.569284 -110.77232
104905000 -29.109272 -105.73018 -0.076628231 -21.182686 -0.072869644 -21.182016 -29.441454 -110.43857
105904000 -28.966175 -105.8476 -0.076380312 -21.386646 -0.072578512 -21.380463 -29.322739 -110.33549
106903000 -28.860832 -105.94421 -0.07623858 -21.591095 -0.073342189 -21.589283 -29.200151 -110.23834
107902000 -28.693214 -106.33051 -0.076793425 -21.786028 -0.073755272 -21.780865 -29.05728 -110.15806
108901000 -28.581348 -106.5638 -0.07837458 -21.992842 -0.075026639 -21.98455 -28.933676 -110.16104
109900000 -28.460682 -107.07987 -0.078618921 -22.192757 -0.075798914 -22.181711 -28.778255 -110.25667
110899000 -28.339169 -107.69806 -0.080502406 -22.390018 -0.076824777 -22.378935 -28.656298 -110.50832
111898000 -28.250917 -108.39859 -0.081190988 -22.591459 -0.078336358 -22.581209 -28.532856 -110.70084
112897000 -28.129389 -108.98425 -0.0832434 -22.789413 -0.079480939 -22.779865 -28.406309 -110.8404
113896000 -28.024834 -109.5727 -0.084115312 -22.991194 -0.08079987 -22.978285 -28.293097 -111.0711
114895000 -27.923826 -110.23848 -0.085205711 -23.187437 -0.082421795 -23.173468 -28.184031 -111.07836
115894000 -27.791445 -110.53876 -0.085813455 -23.38798 -0.08336848 -23.375774 -28.115942 -111.32143
116893000 -27.709478 -111.12961 -0.086945221 -23.581537 -0.084503561 -23.564741 -27.981867 -111.45222
117892000 -27.628422 -111.61255 -0.086162515 -23.780546 -0.085189871 -23.766054 -27.911263 -111.64303
118891000 -27.572464 -112.04931 -0.087484799 -23.978662 -0.084819518 -23.963064 -27.816031 -111.78483
119890000 -27.480852 -112.42788 -0.087819986 -24.17757 -0.085208088 -24.163815 -27.801302 -111.94144
120889000 -27.426456 -112.89334 -0.089149907 -24.387859 -0.085816361 -24.364326 -27.72571 -111.92151
121888000 -27.380793 -113.24671 -0.088620692 -24.574472 -0.086848296 -24.567579 -27.660757 -112.22662
122887000 -27.349617 -113.46638 -0.090344653 -24.779089 -0.086797856 -24.766573 -27.612001 -112.28728
123886000 -27.288574 -113.91088 -0.090756975 -24.985712 -0.087109491 -24.963226 -27.598454 -112.42593
124885000 -27.255898 -114.40085 -0.091347262 -25.17952 -0.087583847 -25.167168 -27.575439 -112.50823
125884000 -27.202702 -114.62804 -0.091957182 -25.374405 -0.08809682 -25.364021 -27.538298 -112.71014
126883000 -27.181353 -114.97077 -0.092322074 -25.581045 -0.088706292 -25.563221 -27.499649 -112.70967
127882000 -27.128637 -115.28413 -0.092427313 -25.778767 -0.089290217 -25.764292 -27.453798 -112.86137
128881000 -27.099606 -115.59872 -0.093134716 -25.982386 -0.089122429 -25.963837 -27.412212 -113.00342
129880000 -27.040319 -115.90578 -0.093207181 -26.182775 -0.089085437 -26.161247 -27.371254 -113.01311
130879000 -26.980221 -116.0499 -0.093372218 -26.381037 -0.090305269 -26.362806 -27.292402 -113.07726
131878000 -26.915476 -116.29084 -0.093087636 -26.583725 -0.090542883 -26.565617 -27.224665 -112.9558
132877000 -26.847696 -116.34541 -0.093131013 -26.783113 -0.091079995 -26.766005 -27.142525 -112.93696
133876000 -26.75852 -116.53471 -0.093684323 -26.987602 -0.090486847 -26.964674 -27.05551 -112.86592
134875000 -26.659487 -116.64552 -0.093511075 -27.183493 -0.091122821 -27.164543 -26.942095 -112.73045
135874000 -26.584078 -116.66118 -0.094345629 -27.38385 -0.091156662 -27.367083 -26.844578 -112.69929
136873000 -26.465296 -116.59608 -0.094403833 -27.589291 -0.090625875 -27.565165 -26.758801 -112.69637
137872000 -26.392595 -116.69982 -0.093961 -27.785225 -0.09053997 -27.769897 -26.657656 -112.61755
138871000 -26.318794 -116.91216 -0.095253907 -27.98637 -0.091195256 -27.97191 -26.564085 -112.81675
139870000 -26.223715 -117.21194 -0.095577791 -28.18618 -0.092349574 -28.167892 -26.481977 -112.98474
140869000 -26.131693 -117.59684 -0.097724654 -28.381138 -0.094250396 -28.360794 -26.372677 -113.09344
141868000 -26.036633 -118.14417 -0.097197562 -28.574715 -0.094850942 -28.556467 -26.311382 -113.46389
142867000 -25.964888 -118.39694 -0.095512427 -28.772568 -0.093839854 -28.75514 -26.230597 -113.60387
143866000 -25.895796 -118.89455 -0.097011998 -28.968359 -0.094810463 -28.953684 -26.157576 -114.12181
144865000 -25.835859 -119.42686 -0.098886006 -29.167692 -0.096504323 -29.150455 -26.100893 -114.43083
145864000 -25.789036 -119.72029 -0.09969458 -29.369671 -0.097803019 -29.35531 -26.06871 -114.69018
146863000 -25.738024 -120.11717 -0.10011654 -29.566582 -0.097471289 -29.557053 -26.021235 -115.04067
147862000 -25.697144 -120.49573 -0.10118261 -29.762724 -0.098212875 -29.751102 -25.990215 -115.36796
148861000 -25.663303 -121.02344 -0.10114101 -29.961176 -0.098860048 -29.94479 -25.9634 -115.59527
149860000 -25.651505 -121.17514 -0.10138875 -30.156931 -0.098963596 -30.151697 -25.930222 -115.75484
150859000 -25.634914 -121.58308 -0.10177802 -30.362892 -0.098552868 -30.345684 -25.924896 -116.00446
151858000 -25.618832 -121.89881 -0.10183606 -30.558857 -0.099187911 -30.544111 -25.913172 -116.28942
152857000 -25.601185 -122.21854 -0.10242069 -30.755054 -0.10043655 -30.743809 -25.897524 -116.42477
153856000 -25.59454 -122.4311 -0.10164526 -30.956713 -0.09943369 -30.937323 -25.914753 -116.70449
154855000 -25.590258 -122.6027 -0.10204939 -31.152885 -0.099876285 -31.140944 -25.900818 -116.93864
155854000 -25.605734 -122.84624 -0.1022781 -31.359329 -0.10036448 -31.341427 -25.891361 -117.17603
156853000 -25.588093 -123.55585 -0.10059735 -31.539881 -0.099785961 -31.532152 -25.893463 -117.5313
157852000 -25.592415 -123.77721 -0.10159226 -31.741327 -0.10130555 -31.729321 -25.885233 -117.83239
158851000 -25.59024 -123.99176 -0.10246256 -31.939936 -0.10102946 -31.928156 -25.865442 -118.08851
159850000 -25.578659 -124.12183 -0.10304807 -32.136944 -0.10137763 -32.128689 -25.867161 -118.24586
160849000 -25.55352 -124.25585 -0.10292323 -32.334637 -0.10255771 -32.329937 -25.843735 -118.5639
161848000 -25.542622 -124.3736 -0.10378425 -32.5355 -0.1022622 -32.532036 -25.794691 -118.65707
162847000 -25.494865 -124.54603 -0.1035369 -32.736088 -0.10258979 -32.727055 -25.770487 -118.89006
163846000 -25.457453 -124.76987 -0.10323761 -32.937233 -0.10304596 -32.924694 -25.690012 -118.90591
164845000 -25.396519 -124.81393 -0.10381871 -33.132931 -0.10272655 -33.126945 -25.621887 -118.99433
165844000 -25.345045 -124.84977 -0.10446089 -33.330692 -0.10268679 -33.325111 -25.544786 -119.13547
166843000 -25.276659 -124.94585 -0.1043474 -33.526871 -0.10337864 -33.523441 -25.469845 -119.31152
167842000 -25.224461 -125.09684 -0.10476054 -33.729618 -0.10416578 -33.723854 -25.393476 -119.21487
168841000 -25.143461 -125.29 -0.10497481 -33.929749 -0.10343987 -33.924042 -25.318087 -119.31719
169840000 -25.079086 -125.5633 -0.10489949 -34.123287 -0.10401862 -34.116417 -25.229298 -119.51544
170839000 -25.013506 -125.8002 -0.10606011 -34.318104 -0.10446063 -34.311844 -25.146584 -119.71182
171838000 -24.960806 -126.24094 -0.10578053 -34.523628 -0.10526387 -34.515232 -25.08275 -119.94022
172837000 -24.889004 -126.61212 -0.10722847 -34.715153 -0.10634342 -34.708435 -25.012894 -120.17614
173836000 -24.820091 -127.0228 -0.10826232 -34.915012 -0.10756386 -34.912914 -24.971085 -120.41479
174835000 -24.770273 -127.42213 -0.10836688 -35.111279 -0.10758907 -35.108646 -24.925474 -120.76537
175834000 -24.717417 -127.84675 -0.10923563 -35.31086 -0.10888445 -35.304741 -24.867422 -121.01227
176833000 -24.664227 -128.2229 -0.11052193 -35.504868 -0.10896938 -35.503338 -24.809399 -121.20345
177832000 -24.620102 -128.69118 -0.11083288 -35.702332 -0.10984568 -35.704048 -24.786318 -121.37363
178831000 -24.581793 -129.0589 -0.11111518 -35.896194 -0.11035147 -35.894657 -24.751804 -121.62168
179830000 -24.544136 -129.46263 -0.1119927 -36.092136 -0.11076331 -36.094372 -24.721956 -121.74322
180829000 -24.505285 -129.67381 -0.11224292 -36.29578 -0.1107426 -36.294544 -24.690296 -121.91933
181828000 -24.48164 -130.03674 -0.11186042 -36.491234 -0.11095106 -36.484295 -24.677132 -122.0542
182827000 -24.459135 -130.40163 -0.11275458 -36.681648 -0.11165564 -36.68166 -24.660175 -122.11266
183826000 -24.415659 -130.72984 -0.11338904 -36.883156 -0.11156374 -36.877453 -24.653696 -122.25478
184825000 -24.420382 -131.03758 -0.11366007 -37.077408 -0.11199243 -37.075924 -24.632635 -122.3754
185824000 -24.385406 -131.38882 -0.1132073 -37.276077 -0.1119332 -37.276371 -24.629642 -122.41302
186823000 -24.376751 -131.76274 -0.11296286 -37.475586 -0.11228357 -37.472221 -24.624769 -122.40324
187822000 -24.356504 -132.03584 -0.11317701 -37.668835 -0.11275351 -37.669373 -24.589092 -122.45443
188821000 -24.332659 -132.3205 -0.11364837 -37.864246 -0.11327425 -37.868347 -24.575541 -122.56103
189820000 -24.317244 -132.57089 -0.11407142 -38.063938 -0.11341932 -38.062572 -24.564785 -122.71484
190819000 -24.292698 -132.78218 -0.11500669 -38.262966 -0.11405707 -38.263149 -24.535183 -122.67551
191818000 -24.252911 -132.95474 -0.11671936 -38.458691 -0.11552292 -38.457546 -24.500309 -122.58164
192817000 -24.184046 -133.25853 -0.11722142 -38.644524 -0.11573002 -38.646839 -24.422705 -122.63364
193816000 -24.148066 -133.62653 -0.11638352 -38.835331 -0.11451126 -38.835419 -24.371469 -122.91378
194815000 -24.092461 -134.07828 -0.11552319 -39.034111 -0.11506756 -39.034111 -24.310303 -123.00619
195814000 -24.038868 -134.28844 -0.11672414 -39.232735 -0.11458728 -39.233269 -24.256075 -123.14854
196813000 -23.990507 -134.63391 -0.11640798 -39.424667 -0.11493652 -39.427837 -24.173719 -123.30364
197812000 -23.927095 -134.8672 -0.11660901 -39.625034 -0.11480229 -39.622719 -24.108133 -123.41458
198811000 -23.870356 -135.05043 -0.11631174 -39.821564 -0.11513136 -39.821079 -24.040751 -123.57158
199810000 -23.801805 -135.39116 -0.11624899 -40.008278 -0.11537645 -40.014977 -23.957232 -123.672
200809000 -23.748629 -135.70445 -0.11725467 -40.20948 -0.11552106 -40.213139 -23.883417 -123.8726
201808000 -23.691742 -135.92361 -0.11805098 -40.410126 -0.11639682 -40.415554 -23.81509 -123.94433
202807000 -23.629864 -136.29794 -0.11875112 -40.61359 -0.11659571 -40.613487 -23.759377 -124.14005
