!Keysight Technologies,E5080B,MY59205177,A.15.75.32
!Date: Friday, February 23, 2024 02:59:27
!Correction: S11(Cdelta 2-Port  ) 
!S21(Cdelta 2-Port  ) 
!S12(Cdelta 2-Port  ) 
!S22(Cdelta 2-Port  ) 
!S2P File: Measurements: S11, S21, S12, S22:
# Hz S  dB   R 50
10000000 -44.128334 -3.6592836 -0.027965149 -2.043272 -0.031484537 -2.093365 -48.127945 -149.96623
10999000 -43.458633 -5.5123076 -0.02885209 -2.2576294 -0.030633034 -2.3102663 -47.873592 -142.1987
11998000 -42.685192 -7.9058909 -0.028986555 -2.4796221 -0.030660145 -2.5219672 -47.954254 -136.87462
12997000 -42.058693 -12.554976 -0.028262686 -2.6617937 -0.030037913 -2.6929407 -47.360081 -130.81511
13996000 -41.788071 -15.882154 -0.027449587 -2.8355329 -0.02983148 -2.8607938 -46.895973 -125.06075
14995000 -41.508232 -19.605095 -0.030113244 -3.047894 -0.029834868 -3.0742157 -46.425343 -121.36327
15994000 -41.411182 -23.48233 -0.030968035 -3.2681348 -0.032640826 -3.2884548 -46.237888 -117.90263
16993000 -41.391701 -27.5175 -0.029937563 -3.4617126 -0.031385455 -3.469614 -45.280891 -118.78719
17992000 -41.420002 -32.114597 -0.030663013 -3.6619668 -0.032587882 -3.6649797 -44.711552 -119.49095
18991000 -41.743164 -36.690357 -0.031907223 -3.8700261 -0.033005197 -3.864737 -43.94772 -119.02553
19990000 -41.596329 -41.567608 -0.033778116 -4.0779238 -0.035293579 -4.0728111 -43.302429 -120.86214
20989000 -41.494038 -44.667156 -0.035989907 -4.28056 -0.037609015 -4.2717042 -42.665257 -120.54218
21988000 -41.394684 -49.190491 -0.036428172 -4.4780989 -0.037641134 -4.4646988 -42.415043 -120.00977
22987000 -41.169785 -53.513557 -0.0379503 -4.6760664 -0.038712874 -4.6656361 -42.11343 -119.63044
23986000 -41.190361 -57.172451 -0.037062544 -4.8705783 -0.03740431 -4.8665295 -42.007458 -119.31429
24985000 -40.849003 -59.80127 -0.037943773 -5.0744014 -0.038252965 -5.0769415 -41.744015 -117.03435
25984000 -40.616455 -62.047924 -0.038776077 -5.2868609 -0.03820204 -5.2866569 -41.398766 -115.83817
26983000 -40.312828 -63.802956 -0.040775619 -5.4856353 -0.039489161 -5.5051155 -41.231232 -114.95994
27982000 -40.194431 -64.823486 -0.041244943 -5.6831269 -0.04093188 -5.7165332 -40.937832 -113.3577
28981000 -40.214848 -66.43924 -0.039438222 -5.8816214 -0.040146712 -5.9015813 -40.7024 -112.81966
29980000 -39.765606 -67.77739 -0.03928959 -6.0725894 -0.04151177 -6.0767522 -40.379005 -112.23364
30979000 -39.445755 -67.027657 -0.036809828 -6.4278579 -0.036594197 -6.4168863 -39.875183 -112.95868
31978000 -39.274502 -68.26107 -0.035953104 -6.6205854 -0.0371534 -6.6090918 -39.598217 -112.26866
32977000 -39.103905 -69.800484 -0.036504917 -6.8325062 -0.03728734 -6.8255987 -39.36618 -112.45852
33976000 -38.935593 -70.925255 -0.037249219 -7.0309134 -0.037995476 -7.0263462 -39.043339 -112.14244
34975000 -38.642876 -71.842224 -0.036918692 -7.2319093 -0.03915716 -7.2293363 -38.823685 -111.92274
35974000 -38.495323 -72.597313 -0.035931703 -7.4227576 -0.038472597 -7.4275899 -38.5256 -111.15001
36973000 -38.25861 -73.411942 -0.03715314 -7.62432 -0.039055552 -7.6280093 -38.208324 -110.19167
37972000 -38.11414 -73.486992 -0.036399197 -7.833714 -0.03870086 -7.8421588 -37.996311 -109.85404
38971000 -37.774296 -73.109901 -0.037453134 -8.036705 -0.039320674 -8.0475473 -37.794579 -108.14208
39970000 -37.461109 -73.685089 -0.036188282 -8.2319298 -0.038370743 -8.2448587 -37.503036 -107.68839
40969000 -37.178806 -73.79805 -0.035258085 -8.4236908 -0.038561653 -8.4385748 -37.236305 -106.51194
41968000 -36.831787 -73.791504 -0.036548249 -8.629118 -0.038802195 -8.6477461 -37.02681 -105.32388
42967000 -36.588661 -74.048851 -0.035649817 -8.838644 -0.038666904 -8.8528242 -36.810745 -103.67462
43966000 -36.306355 -75.061111 -0.036269985 -9.0370665 -0.039986823 -9.0593395 -36.515736 -103.10712
44965000 -36.089828 -75.835716 -0.038626164 -9.244976 -0.040375061 -9.2585869 -36.287544 -102.89182
45964000 -35.863678 -76.99395 -0.039272349 -9.4418392 -0.041407231 -9.460475 -36.058865 -102.6744
46963000 -35.715271 -79.066902 -0.038306501 -9.6359625 -0.042159956 -9.6588297 -35.874004 -103.12213
47962000 -35.556805 -80.375084 -0.040691219 -9.838851 -0.043594673 -9.8547106 -35.659805 -103.26098
48961000 -35.350567 -82.09877 -0.042049389 -10.03191 -0.044778515 -10.054412 -35.428036 -103.56027
49960000 -35.147255 -83.497551 -0.043392297 -10.233582 -0.045877915 -10.251712 -35.30022 -103.71452
50959000 -34.930119 -84.809288 -0.04408522 -10.446754 -0.047437645 -10.454391 -35.113724 -104.15987
51958000 -34.734787 -85.901482 -0.045767255 -10.642342 -0.048395846 -10.650578 -34.942165 -104.67699
52957000 -34.536488 -86.982056 -0.047300778 -10.843445 -0.049420759 -10.850606 -34.773407 -104.52898
53956000 -34.378002 -87.782623 -0.048160266 -11.046337 -0.050589167 -11.044248 -34.648048 -104.52162
54955000 -34.209465 -88.299072 -0.049250577 -11.245292 -0.05117663 -11.240152 -34.495125 -104.60753
55954000 -34.061352 -89.244293 -0.050884329 -11.445077 -0.051589709 -11.440504 -34.381313 -104.37267
56953000 -33.947979 -89.338509 -0.049828958 -11.642588 -0.050693922 -11.63052 -34.308151 -104.57974
57952000 -33.793461 -89.889397 -0.05110696 -11.838856 -0.051509816 -11.829556 -34.209846 -104.75517
58951000 -33.678658 -90.226059 -0.052343413 -12.046993 -0.052821327 -12.023375 -34.060513 -104.85859
59950000 -33.566799 -90.639038 -0.053032 -12.243938 -0.053401493 -12.219334 -33.991417 -105.12086
60949000 -33.449066 -91.151001 -0.052969635 -12.446263 -0.053479325 -12.422471 -33.888126 -105.4071
61948000 -33.40044 -91.515755 -0.053752407 -12.642872 -0.053586252 -12.624498 -33.806702 -105.53175
62947000 -33.308304 -91.706383 -0.053753193 -12.854765 -0.053945832 -12.834896 -33.669769 -105.76115
63946000 -33.243004 -92.443604 -0.054368872 -13.053581 -0.055152684 -13.031697 -33.572582 -105.90813
64945000 -33.139397 -92.551353 -0.055213507 -13.253071 -0.05601399 -13.235125 -33.446793 -106.40465
65944000 -33.049782 -92.852524 -0.055992492 -13.45386 -0.056662772 -13.434713 -33.371502 -106.88646
66943000 -32.905819 -93.424057 -0.054187488 -13.653637 -0.054421559 -13.636434 -33.267799 -107.216
67942000 -32.845985 -93.32267 -0.056207776 -13.848327 -0.056223772 -13.834681 -33.146214 -107.57142
68941000 -32.734352 -93.391556 -0.055564046 -14.041919 -0.054428898 -14.031027 -33.026974 -107.45431
69940000 -32.635902 -93.504471 -0.056101836 -14.237671 -0.056062765 -14.228623 -32.899738 -107.77843
70939000 -32.53648 -93.484398 -0.055557229 -14.438003 -0.056068011 -14.431432 -32.75256 -107.70536
71938000 -32.400181 -93.030357 -0.055665515 -14.63516 -0.056249995 -14.624296 -32.643658 -107.56617
72937000 -32.231419 -92.891457 -0.055532057 -14.836021 -0.055802912 -14.821734 -32.496735 -107.34808
73936000 -32.08691 -92.64341 -0.055370815 -15.02392 -0.055184145 -15.023955 -32.372822 -107.12897
74935000 -31.967272 -92.941422 -0.055034187 -15.224173 -0.053838372 -15.219049 -32.218872 -106.85133
75934000 -31.850626 -93.178497 -0.054756042 -15.433275 -0.053847022 -15.429944 -32.145233 -106.76007
76933000 -31.722483 -93.656898 -0.056126487 -15.631301 -0.055433739 -15.620567 -31.971926 -107.23764
77932000 -31.625572 -94.349861 -0.057376962 -15.822692 -0.056912452 -15.817804 -31.864799 -107.23861
78931000 -31.563353 -95.18058 -0.055863742 -16.022808 -0.055914611 -16.016754 -31.780462 -107.16518
79930000 -31.448885 -95.977356 -0.058907766 -16.216703 -0.05875558 -16.21349 -31.671167 -107.39599
80929000 -31.322313 -96.878609 -0.060102351 -16.410408 -0.059682164 -16.407694 -31.572489 -107.80367
81928000 -31.243841 -97.716042 -0.059598446 -16.60355 -0.060201041 -16.597391 -31.448383 -107.83762
82927000 -31.154043 -98.499641 -0.061928719 -16.802406 -0.061735731 -16.796474 -31.356411 -108.14507
83926000 -31.037226 -99.175827 -0.063227095 -16.999163 -0.063135169 -16.996826 -31.234978 -108.45204
84925000 -30.940744 -99.651756 -0.063478462 -17.197208 -0.063071609 -17.194105 -31.141308 -108.49979
85924000 -30.85181 -100.13512 -0.063837551 -17.396338 -0.063951559 -17.392649 -31.061502 -108.50317
86923000 -30.755039 -100.67969 -0.064822763 -17.59557 -0.064460181 -17.591215 -30.964979 -108.39188
87922000 -30.634483 -101.01942 -0.06412521 -17.803556 -0.063718818 -17.791258 -30.869919 -108.49786
88921000 -30.569025 -101.34106 -0.06610781 -17.999708 -0.065055043 -17.994589 -30.786644 -108.50294
89920000 -30.479218 -101.88691 -0.066660576 -18.200006 -0.064713985 -18.186079 -30.727098 -108.65347
90919000 -30.379967 -102.18921 -0.066733919 -18.388187 -0.065603465 -18.385677 -30.649607 -108.81783
91918000 -30.282902 -102.5671 -0.068642758 -18.593437 -0.066567525 -18.586288 -30.579266 -108.86153
92917000 -30.201176 -102.8902 -0.069199532 -18.791248 -0.067545727 -18.784151 -30.517952 -108.92876
93916000 -30.121107 -103.2439 -0.06893678 -18.981991 -0.067748703 -18.979345 -30.427832 -109.64265
94915000 -30.036894 -103.92304 -0.070142552 -19.188177 -0.068708241 -19.177029 -30.367245 -109.45837
95914000 -29.980873 -104.12006 -0.071103141 -19.377884 -0.069486752 -19.374973 -30.281292 -109.72038
96913000 -29.901249 -104.36764 -0.072084472 -19.577074 -0.070799492 -19.575378 -30.213501 -110.05888
97912000 -29.829281 -104.83739 -0.073384047 -19.774632 -0.070996575 -19.773388 -30.128668 -110.38791
98911000 -29.72772 -105.07717 -0.073443286 -19.975979 -0.072100788 -19.970736 -30.100077 -110.58067
99910000 -29.651278 -105.19641 -0.074088089 -20.171627 -0.073217928 -20.173069 -29.988544 -110.883
100909000 -29.564199 -105.47308 -0.073132895 -20.381456 -0.071862079 -20.373802 -29.904753 -111.09753
101908000 -29.487089 -105.76372 -0.074367739 -20.581793 -0.073807672 -20.581394 -29.787029 -110.86481
102907000 -29.348253 -105.75489 -0.074671894 -20.781864 -0.073424324 -20.778748 -29.715082 -110.83482
103906000 -29.255539 -105.84832 -0.075391427 -20.985697 -0.072844371 -20.97723 -29.563337 -110.78678
104905000 -29.106886 -105.77566 -0.075653508 -21.182089 -0.072981261 -21.181429 -29.433395 -110.45181
105904000 -28.968094 -105.91162 -0.076278359 -21.389324 -0.072948352 -21.382902 -29.325428 -110.37267
106903000 -28.86305 -105.97874 -0.076573953 -21.589825 -0.073423535 -21.586025 -29.203264 -110.24812
107902000 -28.69989 -106.33598 -0.077155456 -21.789347 -0.074005149 -21.782158 -29.053482 -110.24406
108901000 -28.586081 -106.5828 -0.077866703 -21.993132 -0.07564982 -21.984146 -28.927658 -110.17316
109900000 -28.463858 -107.08952 -0.079251051 -22.192736 -0.076556303 -22.182659 -28.779631 -110.28452
110899000 -28.340361 -107.7454 -0.080188081 -22.385538 -0.077383392 -22.381063 -28.65147 -110.53397
111898000 -28.254341 -108.42085 -0.08114773 -22.591648 -0.078542218 -22.584618 -28.53966 -110.71665
112897000 -28.126198 -109.00191 -0.082633115 -22.787569 -0.07934121 -22.775742 -28.39942 -110.89671
113896000 -28.022341 -109.61209 -0.083633684 -22.989801 -0.080669597 -22.97751 -28.293625 -111.02135
114895000 -27.918175 -110.21261 -0.085006937 -23.187521 -0.082007878 -23.172224 -28.173109 -111.11476
115894000 -27.788879 -110.53333 -0.086234339 -23.391413 -0.083532877 -23.374752 -28.105408 -111.3093
116893000 -27.710148 -111.11787 -0.087057725 -23.581074 -0.084291883 -23.563061 -27.986504 -111.45126
117892000 -27.628618 -111.65473 -0.086811587 -23.780512 -0.08421877 -23.767151 -27.910515 -111.66911
118891000 -27.569998 -112.08636 -0.08760339 -23.978018 -0.085386552 -23.964191 -27.811665 -111.82233
119890000 -27.478405 -112.43725 -0.087722778 -24.183805 -0.085184328 -24.164551 -27.79604 -111.98694
120889000 -27.432384 -112.91447 -0.088776574 -24.385174 -0.085873656 -24.364571 -27.719095 -111.9076
121888000 -27.376364 -113.22041 -0.088620164 -24.578411 -0.086112872 -24.565912 -27.663794 -112.21951
122887000 -27.343204 -113.49066 -0.089427359 -24.780033 -0.087279573 -24.765184 -27.614964 -112.26662
123886000 -27.290228 -113.894 -0.089875802 -24.983349 -0.087736517 -24.964319 -27.597908 -112.41942
124885000 -27.252895 -114.39703 -0.090593889 -25.180056 -0.087732024 -25.165924 -27.568857 -112.53365
125884000 -27.203047 -114.57825 -0.091528878 -25.378164 -0.088208303 -25.360668 -27.538927 -112.67776
126883000 -27.178413 -114.95942 -0.091752812 -25.577446 -0.089069322 -25.565395 -27.493948 -112.70271
127882000 -27.127825 -115.24526 -0.09178824 -25.778709 -0.089455634 -25.762075 -27.457335 -112.88077
128881000 -27.097338 -115.57982 -0.092373103 -25.982347 -0.089272775 -25.963625 -27.410429 -113.02036
129880000 -27.040791 -115.89449 -0.092774786 -26.181555 -0.089724906 -26.160652 -27.370018 -112.99937
130879000 -26.977734 -116.05975 -0.09254948 -26.382629 -0.090094365 -26.366362 -27.29121 -113.07172
131878000 -26.918736 -116.28362 -0.093112499 -26.583883 -0.090290464 -26.561205 -27.228754 -112.97072
132877000 -26.842903 -116.39763 -0.092090182 -26.78352 -0.090392224 -26.76722 -27.143715 -112.95315
133876000 -26.757416 -116.53242 -0.093100071 -26.98604 -0.090015076 -26.964445 -27.050982 -112.84204
134875000 -26.66354 -116.68636 -0.093386501 -27.183006 -0.091187589 -27.166559 -26.951031 -112.72325
135874000 -26.583307 -116.70881 -0.092966251 -27.384848 -0.091013908 -27.36656 -26.847128 -112.73392
136873000 -26.471046 -116.61185 -0.094035335 -27.587523 -0.090784997 -27.570057 -26.762197 -112.71968
137872000 -26.392883 -116.71674 -0.094283991 -27.789471 -0.091313422 -27.773233 -26.658379 -112.66963
138871000 -26.317835 -116.97295 -0.09451732 -27.983377 -0.091340914 -27.97053 -26.559645 -112.78909
139870000 -26.215399 -117.19943 -0.095206544 -28.185131 -0.092872106 -28.166605 -26.475639 -112.9893
140869000 -26.13035 -117.6752 -0.096841 -28.380688 -0.094128445 -28.361137 -26.375717 -113.12891
141868000 -26.037106 -118.18839 -0.097024709 -28.574686 -0.094560444 -28.557728 -26.306566 -113.437
142867000 -25.960697 -118.4258 -0.095272698 -28.773453 -0.093454733 -28.755091 -26.229136 -113.65408
143866000 -25.890329 -118.90235 -0.097268775 -28.969025 -0.094785325 -28.953323 -26.156185 -114.15242
144865000 -25.837101 -119.44736 -0.099233195 -29.168747 -0.096356109 -29.151995 -26.098305 -114.45296
145864000 -25.777874 -119.77871 -0.099046484 -29.368305 -0.097176649 -29.355118 -26.066158 -114.71458
146863000 -25.732637 -120.14412 -0.10006515 -29.56546 -0.097575597 -29.553427 -26.014788 -115.01126
147862000 -25.696594 -120.48978 -0.10026833 -29.76466 -0.097385257 -29.751158 -25.978601 -115.40976
148861000 -25.666307 -121.03883 -0.10063338 -29.96199 -0.098297082 -29.946377 -25.961988 -115.6076
149860000 -25.645647 -121.22732 -0.10081936 -30.158318 -0.098920695 -30.15093 -25.930805 -115.73434
150859000 -25.633427 -121.58549 -0.10198234 -30.364395 -0.098953001 -30.349649 -25.920156 -116.03034
151858000 -25.618702 -121.89152 -0.10125468 -30.556328 -0.099447459 -30.546638 -25.914232 -116.26602
152857000 -25.598249 -122.20982 -0.10225372 -30.755075 -0.099509433 -30.743649 -25.896769 -116.41637
153856000 -25.593288 -122.45054 -0.10196273 -30.955265 -0.099195853 -30.941004 -25.917566 -116.70437
154855000 -25.587486 -122.57753 -0.1019145 -31.155594 -0.098901361 -31.14196 -25.903126 -116.92213
155854000 -25.601831 -122.85471 -0.1021652 -31.352413 -0.10002382 -31.338736 -25.897644 -117.17836
156853000 -25.587873 -123.55001 -0.10011177 -31.540619 -0.099208035 -31.532898 -25.888391 -117.45992
157852000 -25.591171 -123.77222 -0.10162804 -31.743677 -0.10091819 -31.733831 -25.879477 -117.83671
158851000 -25.586926 -124.03051 -0.10231785 -31.941042 -0.10072028 -31.930267 -25.865829 -118.09177
159850000 -25.571777 -124.14156 -0.10323655 -32.138508 -0.10121017 -32.129684 -25.863764 -118.25819
160849000 -25.560024 -124.22543 -0.1031154 -32.337757 -0.1020205 -32.330231 -25.836391 -118.53486
161848000 -25.541407 -124.37067 -0.10325325 -32.536339 -0.10167759 -32.528049 -25.798943 -118.63427
162847000 -25.496845 -124.5651 -0.10313131 -32.731319 -0.10227837 -32.729614 -25.76428 -118.88589
163846000 -25.459993 -124.80045 -0.10286332 -32.935844 -0.10243447 -32.923794 -25.691622 -118.90707
164845000 -25.400185 -124.78758 -0.10384284 -33.13184 -0.10253996 -33.126465 -25.626589 -119.0111
165844000 -25.342829 -124.89425 -0.10360901 -33.333191 -0.10315464 -33.326595 -25.541767 -119.14914
166843000 -25.27763 -124.97352 -0.10279334 -33.528805 -0.10196961 -33.525951 -25.47571 -119.36402
167842000 -25.223896 -125.11218 -0.10397249 -33.731514 -0.10306716 -33.718624 -25.395102 -119.26995
168841000 -25.14382 -125.29714 -0.10436703 -33.92923 -0.10354989 -33.924225 -25.32093 -119.32571
169840000 -25.079157 -125.6117 -0.10413661 -34.122589 -0.10412574 -34.116982 -25.232826 -119.54032
170839000 -25.016821 -125.84516 -0.1056129 -34.322563 -0.10388128 -34.31284 -25.144672 -119.75435
171838000 -24.958569 -126.20896 -0.10554183 -34.520428 -0.10510634 -34.511406 -25.082365 -119.95584
172837000 -24.89159 -126.60948 -0.10668457 -34.717049 -0.10629779 -34.710716 -25.011963 -120.19575
173836000 -24.818258 -127.04066 -0.10793218 -34.915707 -0.10699074 -34.909306 -24.973328 -120.43629
174835000 -24.766424 -127.47036 -0.10855081 -35.10841 -0.1073935 -35.11108 -24.923595 -120.78571
175834000 -24.719481 -127.84513 -0.10899885 -35.308395 -0.10829894 -35.304104 -24.859238 -121.04084
176833000 -24.661709 -128.25146 -0.11006392 -35.506458 -0.10946472 -35.504665 -24.809586 -121.22899
177832000 -24.614321 -128.68297 -0.10976338 -35.700058 -0.10938083 -35.703415 -24.78635 -121.36846
178831000 -24.571777 -129.07285 -0.11057451 -35.896503 -0.10983135 -35.896015 -24.746485 -121.61886
179830000 -24.541285 -129.50195 -0.11107162 -36.095337 -0.11008144 -36.099628 -24.719067 -121.76621
180829000 -24.499546 -129.70341 -0.1120453 -36.293041 -0.11067329 -36.29118 -24.695946 -121.91859
181828000 -24.476299 -130.04221 -0.11104188 -36.492535 -0.11126044 -36.48634 -24.673504 -122.04021
182827000 -24.451147 -130.39076 -0.11182855 -36.68383 -0.1113271 -36.68383 -24.65844 -122.11064
183826000 -24.412436 -130.6962 -0.11242117 -36.878304 -0.11163545 -36.876488 -24.647627 -122.24845
184825000 -24.419209 -131.022 -0.11208567 -37.080158 -0.11169681 -37.074924 -24.633593 -122.36173
185824000 -24.390385 -131.36795 -0.11188911 -37.271328 -0.11218289 -37.276028 -24.625372 -122.4027
186823000 -24.372896 -131.73308 -0.11324874 -37.472416 -0.11193719 -37.468758 -24.625706 -122.39707
187822000 -24.353815 -132.02097 -0.11320517 -37.669487 -0.11299527 -37.667881 -24.585119 -122.47331
188821000 -24.334536 -132.28929 -0.11332341 -37.859734 -0.11315256 -37.867584 -24.574816 -122.56552
189820000 -24.31983 -132.56709 -0.11353146 -38.066105 -0.11283321 -38.066063 -24.564747 -122.72541
190819000 -24.290516 -132.76942 -0.11460987 -38.267056 -0.1140491 -38.262589 -24.532827 -122.70477
191818000 -24.254126 -132.97856 -0.11572656 -38.458916 -0.11541579 -38.457485 -24.495905 -122.56319
192817000 -24.18511 -133.24591 -0.11634045 -38.642174 -0.11619767 -38.64386 -24.42486 -122.65217
193816000 -24.149817 -133.58928 -0.11558566 -38.835342 -0.11501547 -38.835896 -24.371214 -122.90311
194815000 -24.094534 -134.08237 -0.11473107 -39.033268 -0.11510983 -39.036499 -24.305285 -123.03881
195814000 -24.04056 -134.27325 -0.11545354 -39.230671 -0.11514837 -39.230457 -24.252012 -123.15009
196813000 -23.987656 -134.61684 -0.11485147 -39.422466 -0.11453997 -39.426029 -24.173157 -123.2923
197812000 -23.929323 -134.89481 -0.1154663 -39.62392 -0.11549342 -39.619553 -24.105827 -123.42215
198811000 -23.875986 -135.0585 -0.11549103 -39.823524 -0.11500111 -39.821945 -24.03882 -123.58304
199810000 -23.807676 -135.44823 -0.115998 -40.011768 -0.11466435 -40.013435 -23.959301 -123.6956
200809000 -23.746868 -135.70357 -0.11665262 -40.209827 -0.1152648 -40.211884 -23.879839 -123.88237
201808000 -23.691128 -135.94203 -0.11711824 -40.411804 -0.11629472 -40.41201 -23.812746 -123.97054
202807000 -23.63101 -136.31068 -0.11776212 -40.610874 -0.11731424 -40.61438 -23.755962 -124.17337
203806000 -23.573008 -136.76509 -0.11896343 -40.810402 -0.11703846 -40.813492 -23.690294 -124.36648
