!Keysight Technologies,E5080B,MY59205177,A.15.75.32
!Date: Friday, February 23, 2024 03:37:43
!Correction: S11(Cdelta 2-Port  ) 
!S21(Cdelta 2-Port  ) 
!S12(Cdelta 2-Port  ) 
!S22(Cdelta 2-Port  ) 
!S2P File: Measurements: S11, S21, S12, S22:
# Hz S  dB   R 50
10000000 -46.089012 -2.6454911 -0.015214694 -2.0441778 -0.018564917 -2.1025691 -45.951328 -157.79491
10999000 -45.279995 -4.8165154 -0.01612138 -2.2575724 -0.017906466 -2.3144681 -45.799892 -151.43933
11998000 -44.33131 -7.8671136 -0.016470335 -2.4884191 -0.018114934 -2.528676 -46.003326 -147.16699
12997000 -43.593563 -13.241258 -0.016117223 -2.6647232 -0.01730945 -2.6989391 -45.617352 -141.01274
13996000 -43.311436 -17.326344 -0.015267947 -2.8470023 -0.018035913 -2.8671501 -45.420948 -136.09402
14995000 -42.874447 -21.497149 -0.017870596 -3.0561006 -0.017264748 -3.0827942 -45.09964 -132.94763
15994000 -42.749935 -26.317303 -0.01854074 -3.2763302 -0.019890439 -3.2959385 -44.964176 -129.09935
16993000 -42.702679 -30.67037 -0.017593263 -3.4714968 -0.018695423 -3.4814539 -44.180779 -129.08122
17992000 -42.748672 -36.294098 -0.017828228 -3.6718171 -0.019419778 -3.6770115 -43.584354 -129.25693
18991000 -42.948395 -41.480164 -0.018519163 -3.8825421 -0.020981997 -3.8792012 -42.957928 -127.95335
19990000 -42.752945 -47.399891 -0.021283999 -4.0917015 -0.02273057 -4.0880985 -42.261143 -129.07539
20989000 -42.567352 -50.599819 -0.023807228 -4.2928567 -0.024922941 -4.2869797 -41.708317 -128.15646
21988000 -42.359241 -55.816448 -0.024174241 -4.4907088 -0.025559021 -4.4800148 -41.476906 -127.53884
22987000 -42.06337 -60.304478 -0.025574384 -4.6954451 -0.02622176 -4.6870089 -41.172634 -126.84963
23986000 -41.916302 -64.633209 -0.02498829 -4.8860135 -0.025084361 -4.8853631 -41.034843 -126.94867
24985000 -41.560543 -67.475479 -0.025349675 -5.0942516 -0.026094932 -5.0888181 -40.907619 -124.42055
25984000 -41.213913 -69.610245 -0.026591061 -5.3014598 -0.026667893 -5.3038979 -40.563774 -123.05851
26983000 -40.887978 -71.369987 -0.027650177 -5.5029855 -0.026960915 -5.5199361 -40.407906 -122.16917
27982000 -40.711433 -72.48938 -0.029273476 -5.7035365 -0.028222822 -5.7307682 -40.145893 -120.74931
28981000 -40.657261 -73.829819 -0.027154189 -5.8994622 -0.02897587 -5.920475 -39.91666 -119.93813
29980000 -40.243229 -75.379944 -0.026824951 -6.0911508 -0.029222397 -6.1004839 -39.645306 -119.31854
30979000 -39.897953 -74.044991 -0.024593351 -6.443891 -0.023416821 -6.4367495 -39.141171 -119.48908
31978000 -39.688179 -75.235336 -0.023842106 -6.6380339 -0.025039319 -6.6318345 -38.908592 -118.79771
32977000 -39.491325 -76.669922 -0.023409793 -6.8506684 -0.025666043 -6.8478193 -38.673683 -118.86817
33976000 -39.329342 -77.674294 -0.024712844 -7.0511575 -0.025918111 -7.0496292 -38.388042 -118.21739
34975000 -39.021767 -78.62307 -0.02490706 -7.2528505 -0.027020043 -7.2524309 -38.159115 -117.91689
35974000 -38.820316 -79.005424 -0.024288256 -7.4476957 -0.025991548 -7.4544787 -37.903648 -116.9486
36973000 -38.608669 -79.673584 -0.024518376 -7.6481328 -0.027771058 -7.6517158 -37.637669 -116.07655
37972000 -38.431759 -79.488663 -0.02418205 -7.8543196 -0.02669967 -7.8658714 -37.420647 -115.31676
38971000 -38.119614 -78.864059 -0.024982821 -8.0556631 -0.027443074 -8.0672684 -37.241894 -113.71345
39970000 -37.790535 -79.186462 -0.022989497 -8.2551765 -0.026733268 -8.2658672 -36.990879 -113.05038
40969000 -37.49025 -78.888062 -0.023357222 -8.4482641 -0.025925662 -8.4653568 -36.750938 -111.64711
41968000 -37.156063 -78.699425 -0.023254162 -8.653429 -0.026243635 -8.6706409 -36.567726 -110.43923
42967000 -36.881958 -78.878006 -0.023859283 -8.861021 -0.026604865 -8.8835964 -36.375298 -108.58353
43966000 -36.587009 -79.588173 -0.024643335 -9.0633459 -0.027386025 -9.0813999 -36.099262 -107.91235
44965000 -36.349384 -80.341026 -0.025499394 -9.2690496 -0.027700717 -9.2888565 -35.90144 -107.6106
45964000 -36.142704 -81.429451 -0.027049476 -9.4676485 -0.029363649 -9.4907217 -35.668156 -107.22984
46963000 -35.94067 -83.236954 -0.026158996 -9.661006 -0.029748335 -9.6882353 -35.496666 -107.51692
47962000 -35.780491 -84.645798 -0.027629597 -9.8655329 -0.030826733 -9.885541 -35.288368 -107.69054
48961000 -35.539654 -85.933777 -0.030136444 -10.063526 -0.031991974 -10.08385 -35.060158 -107.80083
49960000 -35.320526 -87.325409 -0.031602394 -10.262553 -0.033313774 -10.282615 -34.925838 -107.85229
50959000 -35.097294 -88.616997 -0.032385238 -10.473992 -0.034227379 -10.48502 -34.742249 -108.1694
51958000 -34.889503 -89.593719 -0.034194503 -10.673241 -0.036313053 -10.68377 -34.559814 -108.59356
52957000 -34.675236 -90.60453 -0.035714023 -10.874535 -0.037093353 -10.880054 -34.412319 -108.31725
53956000 -34.511097 -91.363541 -0.036731251 -11.074947 -0.038492184 -11.077613 -34.274513 -108.27938
54955000 -34.34087 -91.830254 -0.037843499 -11.277082 -0.038919732 -11.276268 -34.122078 -108.25099
55954000 -34.179394 -92.72863 -0.038988162 -11.477231 -0.038716529 -11.474452 -34.022804 -107.97401
56953000 -34.048553 -92.695915 -0.038755707 -11.674674 -0.038202561 -11.664904 -33.931942 -108.23446
57952000 -33.88073 -93.340088 -0.039827198 -11.871983 -0.038953424 -11.861025 -33.848824 -108.30118
58951000 -33.761482 -93.651299 -0.040415823 -12.076476 -0.039988127 -12.055535 -33.694118 -108.37377
59950000 -33.63998 -94.11058 -0.041659694 -12.278138 -0.041285973 -12.25408 -33.611649 -108.62772
60949000 -33.519272 -94.569122 -0.041471783 -12.482062 -0.041374825 -12.45861 -33.523159 -108.88584
61948000 -33.453068 -94.8908 -0.041648194 -12.682824 -0.041430231 -12.660886 -33.430145 -108.98701
62947000 -33.371109 -95.083672 -0.0418761 -12.891075 -0.042463955 -12.867297 -33.285374 -109.24265
63946000 -33.285378 -95.800766 -0.042723536 -13.092672 -0.043360922 -13.068082 -33.181469 -109.37208
64945000 -33.182735 -95.983833 -0.043632325 -13.290782 -0.043544207 -13.277496 -33.06279 -109.84413
65944000 -33.08017 -96.224236 -0.044275858 -13.493511 -0.043727241 -13.472728 -32.971375 -110.38036
66943000 -32.922882 -96.681381 -0.042213541 -13.695193 -0.042211186 -13.677625 -32.862114 -110.55898
67942000 -32.876976 -96.634369 -0.04398768 -13.888211 -0.04402246 -13.879056 -32.751152 -110.83098
68941000 -32.758198 -96.727875 -0.043847784 -14.084021 -0.042919345 -14.072185 -32.631916 -110.77545
69940000 -32.675507 -96.663948 -0.044001278 -14.281021 -0.04399788 -14.275112 -32.492107 -111.03313
70939000 -32.555927 -96.649559 -0.043512572 -14.479948 -0.042789154 -14.470545 -32.362408 -110.9724
71938000 -32.419067 -96.249382 -0.043368243 -14.677303 -0.043361969 -14.669078 -32.220673 -110.81371
72937000 -32.267986 -96.008362 -0.043677036 -14.874069 -0.043490607 -14.872032 -32.102772 -110.52263
73936000 -32.129414 -95.687042 -0.043200914 -15.073294 -0.042312868 -15.066122 -31.974699 -110.33602
74935000 -32.000706 -95.993523 -0.041864078 -15.271049 -0.041449048 -15.266398 -31.823767 -110.02225
75934000 -31.879234 -96.13591 -0.042807713 -15.479058 -0.041659694 -15.4767 -31.747963 -109.87334
76933000 -31.746563 -96.53862 -0.044020366 -15.671403 -0.043173201 -15.667556 -31.573812 -110.21918
77932000 -31.64126 -97.245697 -0.044897255 -15.867832 -0.044837624 -15.861438 -31.474571 -110.14101
78931000 -31.573792 -97.965477 -0.043375041 -16.07 -0.043685928 -16.064466 -31.374023 -109.95499
79930000 -31.460342 -98.851524 -0.045737173 -16.261179 -0.046811175 -16.260883 -31.268055 -110.33174
80929000 -31.336046 -99.684959 -0.047719508 -16.458843 -0.047952443 -16.456348 -31.178745 -110.5562
81928000 -31.239346 -100.37413 -0.048040912 -16.651768 -0.04863929 -16.649622 -31.039293 -110.56988
82927000 -31.14336 -101.14194 -0.04924953 -16.849283 -0.04963284 -16.847328 -30.937399 -110.93425
83926000 -31.026707 -101.72127 -0.050748136 -17.048803 -0.050718803 -17.049355 -30.819361 -111.02137
84925000 -30.91831 -102.25239 -0.052098192 -17.245737 -0.051246304 -17.239916 -30.728699 -111.05905
85924000 -30.833313 -102.62339 -0.052403674 -17.446795 -0.052961253 -17.448605 -30.638678 -111.08871
86923000 -30.72188 -103.14441 -0.052799579 -17.643408 -0.052684028 -17.636997 -30.542509 -111.00495
87922000 -30.613394 -103.44328 -0.052168928 -17.849298 -0.052525509 -17.843773 -30.456156 -110.95506
88921000 -30.550602 -103.75748 -0.053468321 -18.047838 -0.053576291 -18.045063 -30.367044 -110.98413
89920000 -30.442703 -104.21519 -0.054246202 -18.245518 -0.054319859 -18.242729 -30.30809 -111.10789
90919000 -30.332457 -104.50888 -0.055527601 -18.449387 -0.054360487 -18.442635 -30.218307 -111.243
91918000 -30.241053 -104.86802 -0.055863217 -18.642595 -0.054827083 -18.640318 -30.151403 -111.26881
92917000 -30.14485 -105.12402 -0.056780793 -18.847075 -0.056164511 -18.842121 -30.087446 -111.39456
93916000 -30.06246 -105.50311 -0.056547642 -19.039398 -0.056042314 -19.032806 -29.99592 -112.04306
94915000 -29.979088 -106.12222 -0.057897925 -19.241243 -0.056842163 -19.235981 -29.94364 -111.91927
95914000 -29.912428 -106.31145 -0.058607336 -19.435238 -0.05801519 -19.432301 -29.853313 -112.12358
96913000 -29.830145 -106.56068 -0.060511295 -19.635202 -0.058909342 -19.633028 -29.782099 -112.51307
97912000 -29.756397 -106.9361 -0.06101032 -19.827869 -0.058926135 -19.831995 -29.705944 -112.72761
98911000 -29.657988 -107.11805 -0.061534084 -20.03067 -0.0603748 -20.030926 -29.671562 -112.90939
99910000 -29.577175 -107.20612 -0.062236734 -20.230551 -0.060973831 -20.231106 -29.556112 -113.22213
100909000 -29.49295 -107.50082 -0.06129228 -20.441105 -0.060145136 -20.43573 -29.468109 -113.39568
101908000 -29.399109 -107.72804 -0.062445763 -20.641069 -0.06150914 -20.637098 -29.360229 -113.189
102907000 -29.272903 -107.73982 -0.062830769 -20.839844 -0.061353188 -20.839939 -29.288363 -113.1729
103906000 -29.176695 -107.80856 -0.063534148 -21.048223 -0.060461685 -21.042721 -29.144295 -113.11124
104905000 -29.030266 -107.67991 -0.063754804 -21.24391 -0.061256312 -21.241558 -29.01841 -112.79297
105904000 -28.894857 -107.73393 -0.063700952 -21.445522 -0.06175936 -21.438393 -28.908203 -112.67994
106903000 -28.780708 -107.84298 -0.064310163 -21.652039 -0.061476585 -21.649563 -28.781094 -112.59756
107902000 -28.614985 -108.17603 -0.064774938 -21.851952 -0.062026661 -21.843164 -28.653292 -112.52818
108901000 -28.502544 -108.3714 -0.065815553 -22.053505 -0.062973641 -22.04652 -28.515131 -112.45691
109900000 -28.382524 -108.84143 -0.066816986 -22.253014 -0.065044269 -22.243803 -28.376434 -112.52926
110899000 -28.252975 -109.46169 -0.068151794 -22.451178 -0.065203771 -22.442789 -28.246946 -112.80976
111898000 -28.171587 -110.08737 -0.069441773 -22.654881 -0.066166684 -22.646997 -28.128031 -112.93478
112897000 -28.042608 -110.62778 -0.070835017 -22.855011 -0.067387454 -22.84127 -28.004704 -113.11111
113896000 -27.943676 -111.20624 -0.071861029 -23.053495 -0.068910748 -23.0422 -27.891066 -113.22569
114895000 -27.835554 -111.82984 -0.072933875 -23.249382 -0.070376426 -23.242674 -27.783064 -113.3231
115894000 -27.714296 -112.19257 -0.074054383 -23.453211 -0.071513645 -23.438946 -27.710157 -113.52618
116893000 -27.636456 -112.68411 -0.074847549 -23.652372 -0.072180539 -23.631428 -27.591898 -113.53436
117892000 -27.549999 -113.21355 -0.074406713 -23.84918 -0.072642215 -23.835083 -27.512766 -113.77409
118891000 -27.497126 -113.58027 -0.076200113 -24.052862 -0.072874382 -24.03215 -27.4181 -113.89664
119890000 -27.409117 -113.96909 -0.076042846 -24.251026 -0.073237672 -24.234987 -27.40064 -114.00848
120889000 -27.361334 -114.41988 -0.077359676 -24.451429 -0.073689975 -24.43469 -27.330442 -113.9817
121888000 -27.321163 -114.7708 -0.077522263 -24.644291 -0.074010938 -24.633474 -27.272844 -114.23206
122887000 -27.283829 -114.93874 -0.077595264 -24.850506 -0.074892849 -24.836363 -27.225336 -114.286
123886000 -27.230598 -115.39925 -0.078624189 -25.049955 -0.075608201 -25.030691 -27.2085 -114.44215
124885000 -27.192095 -115.86122 -0.078958958 -25.250629 -0.076083936 -25.234007 -27.183382 -114.44482
125884000 -27.141361 -116.09451 -0.079532616 -25.448195 -0.076207757 -25.435293 -27.154129 -114.61466
126883000 -27.119381 -116.49355 -0.079894081 -25.652523 -0.07719709 -25.637222 -27.114717 -114.61809
127882000 -27.073423 -116.75076 -0.080040947 -25.849768 -0.077208422 -25.837017 -27.070841 -114.7523
128881000 -27.0446 -117.09235 -0.080124535 -26.053732 -0.077709109 -26.036243 -27.037861 -114.84649
129880000 -26.988234 -117.39697 -0.081053317 -26.255999 -0.077912822 -26.238949 -26.993864 -114.79324
130879000 -26.926506 -117.55683 -0.080850244 -26.45377 -0.078793153 -26.437723 -26.92392 -114.83907
131878000 -26.860228 -117.81416 -0.081161708 -26.656551 -0.078039065 -26.640045 -26.861099 -114.69063
132877000 -26.800529 -117.87183 -0.08097472 -26.86166 -0.079001665 -26.839886 -26.782389 -114.64623
133876000 -26.713236 -118.01588 -0.080580458 -27.058949 -0.078852199 -27.042612 -26.696346 -114.55475
134875000 -26.617128 -118.15782 -0.081633575 -27.263681 -0.078931019 -27.243084 -26.600443 -114.38647
135874000 -26.535604 -118.15685 -0.081269845 -27.457729 -0.079202019 -27.445015 -26.505219 -114.32355
136873000 -26.429218 -118.07803 -0.082184099 -27.663811 -0.07824859 -27.641758 -26.420748 -114.2737
137872000 -26.347305 -118.22485 -0.081315741 -27.865484 -0.079000346 -27.850048 -26.317636 -114.22856
138871000 -26.274113 -118.41845 -0.082327612 -28.065475 -0.079230227 -28.049494 -26.230785 -114.37337
139870000 -26.177589 -118.70855 -0.083174534 -28.265266 -0.080256641 -28.247059 -26.139915 -114.53801
140869000 -26.09676 -119.26048 -0.084062003 -28.461861 -0.080957577 -28.443501 -26.046154 -114.76604
141868000 -26.018208 -119.6849 -0.084926158 -28.659351 -0.082541831 -28.645998 -25.993633 -114.99401
142867000 -25.938585 -119.85494 -0.083366632 -28.857037 -0.082057476 -28.839832 -25.91589 -115.09721
143866000 -25.866154 -120.31235 -0.085299693 -29.054262 -0.083191685 -29.037693 -25.847189 -115.55288
144865000 -25.804363 -120.8845 -0.086910091 -29.255108 -0.084282905 -29.2395 -25.790018 -115.85442
145864000 -25.751181 -121.14279 -0.087548979 -29.453293 -0.085709959 -29.442699 -25.760048 -116.1033
146863000 -25.709152 -121.50443 -0.088727161 -29.653181 -0.085897416 -29.640863 -25.705229 -116.40003
147862000 -25.670458 -121.84959 -0.089204602 -29.851503 -0.086672947 -29.839214 -25.676689 -116.72322
148861000 -25.637392 -122.30286 -0.090195321 -30.048113 -0.08797399 -30.040493 -25.648773 -116.9071
149860000 -25.605852 -122.44688 -0.091208473 -30.238859 -0.088744074 -30.231821 -25.603361 -117.01159
150859000 -25.577787 -122.93882 -0.090578564 -30.440573 -0.087689497 -30.427486 -25.582331 -117.33749
151858000 -25.568848 -123.29669 -0.089234993 -30.638563 -0.088451609 -30.6255 -25.575291 -117.71077
152857000 -25.552362 -123.60965 -0.09032879 -30.837669 -0.088247396 -30.828791 -25.55447 -117.85863
153856000 -25.547821 -123.81565 -0.089894041 -31.040098 -0.08764407 -31.027237 -25.57209 -118.18398
154855000 -25.548378 -123.96507 -0.090627722 -31.23864 -0.087519132 -31.227345 -25.563538 -118.41702
155854000 -25.563959 -124.22436 -0.091160625 -31.438698 -0.087824211 -31.423212 -25.55299 -118.71535
156853000 -25.549145 -124.92169 -0.088392697 -31.626402 -0.087364092 -31.619757 -25.54525 -119.02777
157852000 -25.55386 -125.12352 -0.089915179 -31.827951 -0.088755697 -31.820591 -25.534536 -119.35049
158851000 -25.556183 -125.36398 -0.090668432 -32.024578 -0.089572698 -32.019279 -25.520441 -119.64309
159850000 -25.543175 -125.47713 -0.091261871 -32.225212 -0.089781195 -32.219883 -25.518139 -119.82912
160849000 -25.52556 -125.53086 -0.09152703 -32.428074 -0.090487905 -32.421883 -25.483486 -120.12134
161848000 -25.510046 -125.65857 -0.091343559 -32.627163 -0.089948483 -32.620354 -25.449385 -120.22774
162847000 -25.469406 -125.81328 -0.092338204 -32.824894 -0.090861388 -32.824554 -25.418423 -120.50696
163846000 -25.433428 -126.04147 -0.091935508 -33.025871 -0.090995669 -33.019958 -25.346535 -120.48312
164845000 -25.37207 -125.96523 -0.092533082 -33.222843 -0.090819098 -33.218094 -25.279663 -120.561
165844000 -25.315641 -126.02988 -0.092406951 -33.425999 -0.091240458 -33.416836 -25.203197 -120.68905
166843000 -25.256382 -126.04472 -0.092508495 -33.625111 -0.091020256 -33.617855 -25.138634 -120.8559
167842000 -25.198919 -126.19882 -0.092576191 -33.824505 -0.092109218 -33.822323 -25.059509 -120.77286
168841000 -25.119595 -126.33007 -0.092996396 -34.025333 -0.09243498 -34.016705 -24.990057 -120.83839
169840000 -25.058548 -126.55145 -0.093106151 -34.212894 -0.092954352 -34.218369 -24.901678 -121.0187
170839000 -25.000751 -126.78884 -0.094771571 -34.415817 -0.093637764 -34.413227 -24.816233 -121.19115
171838000 -24.937685 -127.21484 -0.093792766 -34.619816 -0.093873709 -34.612034 -24.757931 -121.44009
172837000 -24.867828 -127.5499 -0.095323496 -34.814354 -0.094904914 -34.809929 -24.695057 -121.61959
173836000 -24.805092 -127.93405 -0.096549317 -35.014175 -0.095890321 -35.012115 -24.649197 -121.82191
174835000 -24.745298 -128.32721 -0.096918829 -35.209709 -0.096563347 -35.211502 -24.604694 -122.15156
175834000 -24.69495 -128.73026 -0.09816654 -35.41256 -0.097166859 -35.407375 -24.547926 -122.41941
176833000 -24.648657 -129.03613 -0.099181555 -35.609886 -0.097810432 -35.609718 -24.497526 -122.59071
177832000 -24.605106 -129.45709 -0.10024581 -35.810162 -0.098929435 -35.811588 -24.478619 -122.6924
178831000 -24.554092 -129.68063 -0.1020205 -36.007408 -0.10061139 -36.001205 -24.435032 -122.75821
179830000 -24.488615 -130.09912 -0.10288294 -36.19022 -0.1011789 -36.190228 -24.37451 -122.83203
180829000 -24.438488 -130.44725 -0.10210822 -36.385117 -0.1012107 -36.386063 -24.334667 -123.16621
181828000 -24.414684 -130.8808 -0.10109729 -36.587177 -0.10026435 -36.582859 -24.312355 -123.34819
182827000 -24.391621 -131.24481 -0.10113703 -36.780327 -0.10107027 -36.78334 -24.304146 -123.48866
183826000 -24.354206 -131.5715 -0.10220442 -36.978138 -0.10021826 -36.976746 -24.295826 -123.62697
184825000 -24.360689 -131.9171 -0.10188481 -37.170971 -0.10092984 -37.172279 -24.278305 -123.75529
185824000 -24.331305 -132.25838 -0.10183711 -37.368053 -0.10115506 -37.375282 -24.270679 -123.83083
186823000 -24.306856 -132.66168 -0.10244613 -37.5728 -0.10077724 -37.571445 -24.265095 -123.82234
187822000 -24.288721 -133.00441 -0.10276101 -37.768105 -0.10146189 -37.767296 -24.22508 -123.91331
188821000 -24.265993 -133.24149 -0.10207032 -37.960014 -0.10175973 -37.966442 -24.207443 -124.06976
189820000 -24.244356 -133.54181 -0.10234595 -38.162434 -0.1018342 -38.162968 -24.19483 -124.24536
190819000 -24.212959 -133.8584 -0.10326041 -38.360394 -0.10244931 -38.359703 -24.147524 -124.26998
191818000 -24.181921 -134.14124 -0.10352153 -38.556686 -0.10282674 -38.55838 -24.12504 -124.32737
192817000 -24.136971 -134.41725 -0.10322277 -38.755043 -0.10314642 -38.756786 -24.079586 -124.41169
193816000 -24.10881 -134.67384 -0.10371744 -38.949833 -0.10287817 -38.951733 -24.026987 -124.53226
194815000 -24.042864 -135.07832 -0.10393856 -39.145283 -0.10394545 -39.146938 -23.961754 -124.5863
195814000 -23.986752 -135.22789 -0.10544263 -39.341705 -0.10393696 -39.347454 -23.910299 -124.6774
196813000 -23.937305 -135.57904 -0.10415702 -39.540234 -0.10370525 -39.54208 -23.830664 -124.81504
197812000 -23.881195 -135.78091 -0.10446036 -39.732376 -0.10415756 -39.734039 -23.759686 -124.89911
198811000 -23.824602 -135.93753 -0.10423763 -39.930573 -0.10327684 -39.93589 -23.691902 -125.08167
199810000 -23.757908 -136.286 -0.10447441 -40.128429 -0.1039025 -40.125294 -23.610989 -125.1694
200809000 -23.696581 -136.53584 -0.10530737 -40.322578 -0.10396294 -40.325924 -23.537188 -125.32883
201808000 -23.64237 -136.73521 -0.10609353 -40.526978 -0.10499947 -40.529434 -23.470831 -125.39552
202807000 -23.581488 -137.09988 -0.10672702 -40.726177 -0.1058121 -40.726635 -23.411196 -125.60598
