!Keysight Technologies,E5080B,MY59205177,A.15.75.32
!Date: Friday, February 23, 2024 03:26:26
!Correction: S11(Cdelta 2-Port  ) 
!S21(Cdelta 2-Port  ) 
!S12(Cdelta 2-Port  ) 
!S22(Cdelta 2-Port  ) 
!S2P File: Measurements: S11, S21, S12, S22:
# Hz S  dB   R 50
10000000 -45.877022 -0.34538913 -0.01622401 -2.0545888 -0.019519366 -2.1144783 -46.190586 -159.79367
10999000 -45.131706 -2.7028067 -0.018159125 -2.2785647 -0.019051865 -2.3293641 -46.192905 -152.70844
11998000 -44.187408 -5.4253182 -0.018077243 -2.503484 -0.018893529 -2.5449257 -46.3568 -149.04262
12997000 -43.536064 -11.019142 -0.017476564 -2.6836667 -0.018448973 -2.7145982 -46.032398 -142.70885
13996000 -43.215717 -14.942264 -0.016354967 -2.8683007 -0.018853752 -2.8853047 -45.866215 -137.43922
14995000 -42.84222 -19.153046 -0.018856872 -3.0796328 -0.01887637 -3.101687 -45.660355 -133.80084
15994000 -42.719917 -23.454817 -0.020282609 -3.2967999 -0.021428114 -3.3161485 -45.525299 -130.1637
16993000 -42.687637 -28.125324 -0.019108806 -3.4949784 -0.020920871 -3.5044465 -44.652901 -129.66914
17992000 -42.709343 -33.131325 -0.019805145 -3.6975229 -0.021550382 -3.6990769 -44.099571 -129.98506
18991000 -43.026333 -38.16684 -0.021267092 -3.9063132 -0.02189301 -3.90292 -43.429516 -128.58992
19990000 -42.877098 -43.860489 -0.023100097 -4.1132956 -0.025088787 -4.1079378 -42.798431 -129.01247
20989000 -42.680553 -47.246948 -0.025258545 -4.3186021 -0.026824951 -4.3104949 -42.194916 -128.55391
21988000 -42.598194 -52.801804 -0.025673594 -4.52035 -0.027157836 -4.5072083 -41.965054 -128.10873
22987000 -42.312614 -57.615242 -0.027094278 -4.7194347 -0.027846608 -4.7123399 -41.710518 -127.43599
23986000 -42.243526 -61.413025 -0.027221395 -4.9123387 -0.027177632 -4.9110656 -41.60379 -127.33451
24985000 -41.871387 -64.304985 -0.028205106 -5.1204629 -0.027951861 -5.1193018 -41.387726 -124.76378
25984000 -41.550781 -66.392578 -0.029424373 -5.3304248 -0.029374074 -5.3336272 -41.049034 -123.05989
26983000 -41.236237 -68.543266 -0.029805414 -5.530004 -0.029454865 -5.5474639 -40.954632 -122.53133
27982000 -41.075581 -69.494675 -0.031245703 -5.7316866 -0.030647632 -5.7653079 -40.685741 -120.55855
28981000 -41.029938 -71.165588 -0.029186172 -5.9332123 -0.031135676 -5.9552097 -40.46225 -119.9538
29980000 -40.608784 -72.560684 -0.029328987 -6.1240988 -0.031173741 -6.132781 -40.201916 -119.09453
30979000 -40.209949 -71.277138 -0.026873397 -6.4806557 -0.025523869 -6.4750576 -39.655727 -119.35477
31978000 -40.020737 -72.262405 -0.026525687 -6.6755652 -0.026853861 -6.6657252 -39.451538 -118.57479
32977000 -39.839985 -73.924324 -0.026329055 -6.8857346 -0.027300322 -6.8827186 -39.18977 -118.69805
33976000 -39.666805 -75.093292 -0.027414158 -7.0890455 -0.028242365 -7.0860152 -38.900661 -118.02165
34975000 -39.397873 -75.991173 -0.027407646 -7.2903953 -0.029809063 -7.2888851 -38.655609 -117.7397
35974000 -39.162086 -76.588165 -0.026669197 -7.4827123 -0.028926879 -7.4892216 -38.383102 -116.75443
36973000 -38.917828 -77.22921 -0.026991911 -7.6831183 -0.029941473 -7.6918664 -38.103436 -115.84542
37972000 -38.769054 -76.985443 -0.026659038 -7.8980041 -0.030262085 -7.9053364 -37.884876 -115.06832
38971000 -38.421505 -76.539711 -0.027979739 -8.1010361 -0.030103339 -8.110198 -37.723049 -113.28207
39970000 -38.09618 -76.980812 -0.02648011 -8.2923326 -0.029800203 -8.3144255 -37.443333 -112.66356
40969000 -37.792606 -76.517891 -0.026800988 -8.4927444 -0.029348534 -8.5079689 -37.192165 -111.26565
41968000 -37.438583 -76.545708 -0.027251089 -8.6976404 -0.029369121 -8.7106409 -36.992592 -109.9763
42967000 -37.168205 -76.692444 -0.026740301 -8.9072161 -0.029114507 -8.9339228 -36.809338 -108.0481
43966000 -36.85556 -77.45372 -0.028063631 -9.1099319 -0.031185474 -9.127944 -36.535221 -107.16335
44965000 -36.614849 -78.255516 -0.028068842 -9.3098173 -0.032020137 -9.3329554 -36.295727 -106.96506
45964000 -36.38718 -79.276543 -0.029621666 -9.5133524 -0.033016413 -9.5275126 -36.061768 -106.61882
46963000 -36.196106 -81.213058 -0.030450031 -9.7068996 -0.033063885 -9.7337379 -35.887886 -106.81695
47962000 -36.043728 -82.687721 -0.031235535 -9.9094448 -0.033981871 -9.9328499 -35.68 -106.86169
48961000 -35.830379 -84.107254 -0.0340317 -10.1068 -0.036046546 -10.131662 -35.438896 -107.05629
49960000 -35.590488 -85.488007 -0.034975987 -10.309277 -0.036870658 -10.331432 -35.297218 -107.068
50959000 -35.377983 -86.866348 -0.035616934 -10.522603 -0.038145371 -10.536979 -35.119843 -107.31386
51958000 -35.166061 -87.927711 -0.037668809 -10.720335 -0.039663926 -10.732987 -34.946278 -107.72838
52957000 -34.944366 -89.089806 -0.039298732 -10.924424 -0.041321252 -10.928463 -34.778137 -107.47963
53956000 -34.784565 -89.668358 -0.040367749 -11.129343 -0.041441467 -11.127404 -34.642323 -107.42641
54955000 -34.616482 -90.221413 -0.041435458 -11.32866 -0.042569041 -11.324912 -34.498981 -107.42955
55954000 -34.435665 -91.013634 -0.042843793 -11.529131 -0.042889278 -11.528442 -34.383434 -107.14143
56953000 -34.332249 -91.059425 -0.042148191 -11.728937 -0.042584985 -11.714561 -34.320961 -107.18569
57952000 -34.162273 -91.608444 -0.043154899 -11.927041 -0.042994637 -11.915437 -34.203346 -107.28664
58951000 -34.043144 -91.88208 -0.044772759 -12.131544 -0.044358496 -12.111899 -34.052597 -107.32816
59950000 -33.910919 -92.289742 -0.044803884 -12.335493 -0.044717573 -12.309631 -33.99548 -107.67467
60949000 -33.802269 -92.879593 -0.045784261 -12.532599 -0.045685899 -12.51491 -33.886013 -107.94798
61948000 -33.742855 -93.15123 -0.046375263 -12.735858 -0.045863003 -12.715266 -33.819107 -108.04094
62947000 -33.642529 -93.404594 -0.04677742 -12.945853 -0.046844669 -12.929964 -33.658382 -108.27068
63946000 -33.578754 -94.11232 -0.047426391 -13.149206 -0.047101893 -13.125684 -33.553066 -108.41764
64945000 -33.464535 -94.263596 -0.04797757 -13.350204 -0.048189059 -13.331131 -33.446152 -108.85918
65944000 -33.364079 -94.617683 -0.049337499 -13.548601 -0.048400294 -13.53222 -33.351727 -109.30046
66943000 -33.217903 -94.933899 -0.046666477 -13.751218 -0.047202904 -13.734213 -33.241093 -109.69972
67942000 -33.161949 -94.9114 -0.049527843 -13.946868 -0.049376249 -13.937524 -33.121117 -109.93394
68941000 -33.041607 -95.104767 -0.048501074 -14.140627 -0.04802835 -14.136244 -33.014408 -109.8643
69940000 -32.952938 -94.98571 -0.048958927 -14.345922 -0.048880912 -14.333485 -32.87315 -110.1224
70939000 -32.839417 -94.921135 -0.049260527 -14.536748 -0.049392741 -14.530581 -32.73011 -110.08825
71938000 -32.700016 -94.489128 -0.049501136 -14.738169 -0.04894191 -14.73201 -32.607471 -109.91426
72937000 -32.51881 -94.34549 -0.048579603 -14.937514 -0.04810844 -14.932385 -32.457489 -109.58221
73936000 -32.3792 -93.946396 -0.048895575 -15.135264 -0.047839116 -15.130284 -32.341099 -109.35593
74935000 -32.255924 -94.164101 -0.048301611 -15.329934 -0.046417911 -15.330189 -32.18111 -109.02518
75934000 -32.128605 -94.460884 -0.048578557 -15.543715 -0.04687319 -15.538796 -32.089287 -108.93665
76933000 -31.990572 -94.716026 -0.049737837 -15.735856 -0.048929345 -15.730227 -31.920315 -109.31223
77932000 -31.890469 -95.643433 -0.051010046 -15.936261 -0.049935531 -15.928954 -31.815172 -109.21971
78931000 -31.822153 -96.321304 -0.04952994 -16.136837 -0.049306344 -16.127981 -31.704 -109.06203
79930000 -31.706823 -97.227043 -0.052175477 -16.326088 -0.051831763 -16.32486 -31.597603 -109.38756
80929000 -31.583443 -98.005646 -0.054380145 -16.524591 -0.053307675 -16.523022 -31.496256 -109.63787
81928000 -31.485327 -98.757355 -0.053773638 -16.714956 -0.053917523 -16.712757 -31.364437 -109.67234
82927000 -31.394913 -99.501953 -0.055493254 -16.916107 -0.055470183 -16.914843 -31.254179 -109.90536
83926000 -31.273237 -100.1621 -0.057496049 -17.113083 -0.056614254 -17.114838 -31.140902 -110.12413
84925000 -31.168242 -100.57433 -0.059023485 -17.313107 -0.057249747 -17.312904 -31.034597 -110.0995
85924000 -31.072168 -101.05016 -0.059198771 -17.512642 -0.058501337 -17.515726 -30.960194 -110.10335
86923000 -30.96525 -101.63178 -0.059827294 -17.712873 -0.058643807 -17.707224 -30.84218 -109.97418
87922000 -30.850834 -101.8417 -0.058718324 -17.921696 -0.057868809 -17.913176 -30.756592 -109.95377
88921000 -30.775225 -102.14727 -0.060458533 -18.123674 -0.058808059 -18.113028 -30.658438 -109.88958
89920000 -30.670862 -102.67205 -0.061546423 -18.320808 -0.059790552 -18.312471 -30.602741 -110.0614
90919000 -30.568789 -102.94949 -0.06261725 -18.516985 -0.060219415 -18.511497 -30.516699 -110.20837
91918000 -30.471367 -103.35869 -0.063211337 -18.717371 -0.061066501 -18.712652 -30.448189 -110.214
92917000 -30.372145 -103.69338 -0.064816713 -18.914892 -0.063065037 -18.910639 -30.386614 -110.31621
93916000 -30.294056 -103.98323 -0.06349764 -19.109932 -0.061940536 -19.105459 -30.292526 -110.89912
94915000 -30.211695 -104.6521 -0.065266833 -19.313177 -0.063410699 -19.306868 -30.234241 -110.75906
95914000 -30.146282 -104.76157 -0.066526517 -19.507898 -0.064676411 -19.503611 -30.145668 -111.11127
96913000 -30.050209 -105.05336 -0.068087637 -19.71039 -0.065472335 -19.706545 -30.078629 -111.43052
97912000 -29.979202 -105.48766 -0.068408974 -19.904488 -0.065854184 -19.905956 -30.000858 -111.63499
98911000 -29.869865 -105.68657 -0.069404691 -20.108335 -0.066673197 -20.104557 -29.961723 -111.87756
99910000 -29.8006 -105.83286 -0.069904998 -20.30644 -0.067586482 -20.304991 -29.846577 -112.15675
100909000 -29.706085 -106.04744 -0.069568299 -20.515053 -0.067076974 -20.506998 -29.760113 -112.38246
101908000 -29.617313 -106.33122 -0.070358537 -20.716156 -0.068718232 -20.712975 -29.649536 -112.09762
102907000 -29.483246 -106.32525 -0.07130418 -20.913464 -0.06898886 -20.915894 -29.581957 -112.15025
103906000 -29.382204 -106.34228 -0.071205497 -21.124556 -0.067702696 -21.115406 -29.428793 -112.12785
104905000 -29.235989 -106.21509 -0.072646163 -21.318478 -0.068556502 -21.320175 -29.293522 -111.76333
105904000 -29.092575 -106.33697 -0.071976565 -21.521662 -0.06834954 -21.519608 -29.187611 -111.64569
106903000 -28.981791 -106.40211 -0.072845161 -21.732815 -0.069278173 -21.723963 -29.060976 -111.52764
107902000 -28.818071 -106.78362 -0.073634952 -21.930552 -0.069663517 -21.924646 -28.925772 -111.53263
108901000 -28.707655 -106.9664 -0.074581571 -22.13114 -0.070997365 -22.125978 -28.787809 -111.44221
109900000 -28.581451 -107.47589 -0.075404592 -22.333466 -0.072823577 -22.323824 -28.637625 -111.51076
110899000 -28.462534 -108.09438 -0.077353619 -22.531281 -0.0726659 -22.526527 -28.506907 -111.80073
111898000 -28.373421 -108.73532 -0.078716449 -22.731365 -0.074545488 -22.727766 -28.386099 -111.90593
112897000 -28.245728 -109.30611 -0.079627 -22.934736 -0.07528396 -22.922268 -28.253122 -112.08758
113896000 -28.141853 -109.89655 -0.080709681 -23.131683 -0.077092744 -23.119556 -28.138781 -112.234
114895000 -28.041933 -110.58248 -0.081705056 -23.334274 -0.078507952 -23.321098 -28.024662 -112.29258
115894000 -27.918242 -110.94766 -0.083021231 -23.534031 -0.079268448 -23.520456 -27.960299 -112.52042
116893000 -27.845819 -111.36739 -0.084398776 -23.734871 -0.080356844 -23.715391 -27.837599 -112.55442
117892000 -27.757893 -111.93549 -0.083439991 -23.925451 -0.080363169 -23.915922 -27.761318 -112.71918
118891000 -27.701504 -112.33324 -0.084387958 -24.129503 -0.081969365 -24.113014 -27.663641 -112.83443
119890000 -27.613386 -112.67184 -0.085238449 -24.330814 -0.082051933 -24.316874 -27.654732 -112.96751
120889000 -27.557905 -113.22908 -0.086299293 -24.530619 -0.08325132 -24.518978 -27.575258 -112.95499
121888000 -27.519657 -113.5356 -0.087133519 -24.726347 -0.083504379 -24.717268 -27.513887 -113.21081
122887000 -27.483759 -113.72179 -0.087791197 -24.932461 -0.083656907 -24.914 -27.471674 -113.19263
123886000 -27.42462 -114.13634 -0.088333786 -25.136862 -0.083831079 -25.114939 -27.45009 -113.33332
124885000 -27.390461 -114.61909 -0.088027611 -25.334858 -0.084577203 -25.322227 -27.421608 -113.38877
125884000 -27.339996 -114.84177 -0.089018062 -25.531887 -0.084717892 -25.522308 -27.396257 -113.52915
126883000 -27.318363 -115.27611 -0.089233145 -25.736753 -0.085923821 -25.720825 -27.351542 -113.55099
127882000 -27.264942 -115.55671 -0.089912012 -25.936279 -0.086569168 -25.918968 -27.312241 -113.70975
128881000 -27.234623 -115.85606 -0.090063445 -26.138199 -0.08609888 -26.122341 -27.272451 -113.80386
129880000 -27.175989 -116.20293 -0.090955488 -26.341335 -0.086484663 -26.321434 -27.235483 -113.73268
130879000 -27.119312 -116.30544 -0.090666577 -26.538185 -0.087759234 -26.524063 -27.152931 -113.79501
131878000 -27.045933 -116.57381 -0.090999372 -26.745672 -0.087681577 -26.72463 -27.094406 -113.66585
132877000 -26.979088 -116.67369 -0.091092154 -26.949051 -0.088155732 -26.928148 -27.0096 -113.63509
133876000 -26.894218 -116.79692 -0.091853015 -27.148001 -0.087388657 -27.128815 -26.921488 -113.50585
134875000 -26.798019 -116.93803 -0.092087798 -27.350048 -0.088741168 -27.328993 -26.81546 -113.34486
135874000 -26.707195 -116.9529 -0.091879979 -27.548649 -0.088603258 -27.53108 -26.717716 -113.34726
136873000 -26.591593 -116.91305 -0.092260465 -27.752237 -0.088587143 -27.734339 -26.625725 -113.34898
137872000 -26.512178 -117.04797 -0.091778718 -27.951914 -0.088776834 -27.933842 -26.522387 -113.25173
138871000 -26.436131 -117.28039 -0.092632249 -28.148815 -0.089166291 -28.139828 -26.427029 -113.38224
139870000 -26.331606 -117.55544 -0.093520597 -28.351503 -0.090648346 -28.334076 -26.337046 -113.58009
140869000 -26.256983 -118.11214 -0.094710715 -28.55229 -0.090735301 -28.528996 -26.239437 -113.799
141868000 -26.172707 -118.50523 -0.095566675 -28.751471 -0.092771873 -28.735146 -26.191545 -114.02875
142867000 -26.095339 -118.73434 -0.094660982 -28.948582 -0.091196842 -28.931776 -26.106033 -114.18364
143866000 -26.020426 -119.22057 -0.09611553 -29.146322 -0.092789859 -29.129011 -26.029531 -114.63112
144865000 -25.960909 -119.7501 -0.097752452 -29.34387 -0.094666272 -29.326431 -25.972828 -114.92579
145864000 -25.906796 -120.03179 -0.098084725 -29.544916 -0.095692106 -29.533728 -25.938076 -115.17531
146863000 -25.861832 -120.40901 -0.099600814 -29.744064 -0.09649691 -29.73148 -25.885841 -115.45918
147862000 -25.822887 -120.75238 -0.10052873 -29.946159 -0.096998237 -29.928265 -25.859842 -115.75404
148861000 -25.789879 -121.2048 -0.10116354 -30.140854 -0.098329119 -30.129929 -25.836641 -115.93354
149860000 -25.760273 -121.35832 -0.10229294 -30.335714 -0.099662796 -30.32284 -25.7862 -115.99699
150859000 -25.735134 -121.8061 -0.10085778 -30.534845 -0.099357672 -30.516506 -25.764723 -116.341
151858000 -25.729523 -122.16806 -0.10178279 -30.736992 -0.098990075 -30.716263 -25.756165 -116.66915
152857000 -25.713142 -122.53268 -0.10183208 -30.930283 -0.099798672 -30.918159 -25.743708 -116.84251
153856000 -25.71106 -122.7422 -0.10142506 -31.130648 -0.098739296 -31.118155 -25.760036 -117.11234
154855000 -25.704145 -122.90324 -0.10205813 -31.329702 -0.099242464 -31.322613 -25.758018 -117.3996
155854000 -25.73122 -123.09345 -0.10222881 -31.533468 -0.099191882 -31.517233 -25.751133 -117.63055
156853000 -25.715509 -123.84904 -0.10048132 -31.718924 -0.098914072 -31.710978 -25.74445 -117.95989
157852000 -25.721928 -124.06982 -0.10156788 -31.922232 -0.10067948 -31.911678 -25.736444 -118.28176
158851000 -25.724035 -124.27083 -0.10254578 -32.121693 -0.10108246 -32.11179 -25.720739 -118.56867
159850000 -25.713045 -124.36195 -0.10301945 -32.322235 -0.1006612 -32.313007 -25.725372 -118.74158
160849000 -25.696789 -124.48164 -0.1033911 -32.518219 -0.10196432 -32.516541 -25.693714 -119.04401
161848000 -25.679573 -124.56659 -0.10405786 -32.722675 -0.1021485 -32.714901 -25.660234 -119.16891
162847000 -25.64283 -124.75549 -0.10354273 -32.919487 -0.1023311 -32.918594 -25.63504 -119.38914
163846000 -25.600904 -124.92233 -0.1039815 -33.122955 -0.10202315 -33.11554 -25.554651 -119.44053
164845000 -25.544289 -124.874 -0.10502625 -33.323185 -0.10303508 -33.31451 -25.491938 -119.51711
165844000 -25.487423 -124.94173 -0.10437153 -33.522408 -0.10356607 -33.513523 -25.410511 -119.6916
166843000 -25.429405 -124.99134 -0.10396241 -33.721268 -0.10376039 -33.714336 -25.342962 -119.82459
167842000 -25.370274 -125.11887 -0.10543255 -33.916874 -0.10386538 -33.912178 -25.270025 -119.74918
168841000 -25.289738 -125.29083 -0.10574738 -34.117725 -0.10410347 -34.114716 -25.188223 -119.85761
169840000 -25.226307 -125.52621 -0.1059434 -34.315338 -0.10458976 -34.313786 -25.109726 -120.04356
170839000 -25.168186 -125.79327 -0.10642751 -34.510902 -0.10504959 -34.509121 -25.022995 -120.24352
171838000 -25.103109 -126.18664 -0.10658482 -34.714909 -0.10561397 -34.706036 -24.956327 -120.42793
172837000 -25.035786 -126.52778 -0.10797942 -34.909962 -0.10735052 -34.908665 -24.887037 -120.67196
173836000 -24.97286 -126.94217 -0.10919847 -35.113598 -0.1081766 -35.108856 -24.850012 -120.87225
174835000 -24.917704 -127.34364 -0.11015393 -35.310486 -0.10876766 -35.308216 -24.802977 -121.22076
175834000 -24.862017 -127.73792 -0.11032332 -35.511555 -0.11023783 -35.502193 -24.738882 -121.47684
176833000 -24.808125 -128.06947 -0.11167184 -35.708126 -0.11073065 -35.704571 -24.69076 -121.64831
177832000 -24.771189 -128.51129 -0.11214863 -35.908974 -0.11142033 -35.907116 -24.670815 -121.75341
178831000 -24.726219 -128.7878 -0.11366724 -36.105274 -0.1127923 -36.101254 -24.632004 -121.9177
179830000 -24.665289 -129.07687 -0.11626866 -36.294506 -0.11422344 -36.296162 -24.581394 -121.85008
180829000 -24.603928 -129.41289 -0.11540728 -36.477852 -0.11344377 -36.483276 -24.517696 -122.14288
181828000 -24.571888 -129.88 -0.11407834 -36.685352 -0.11347964 -36.678925 -24.493786 -122.38755
182827000 -24.55006 -130.27028 -0.114709 -36.877163 -0.11353836 -36.878448 -24.486509 -122.5085
183826000 -24.507381 -130.60945 -0.11581562 -37.076038 -0.11364704 -37.076687 -24.472469 -122.64802
184825000 -24.511839 -130.94969 -0.11516751 -37.276814 -0.11388859 -37.27523 -24.454855 -122.76115
185824000 -24.479397 -131.30811 -0.115327 -37.473301 -0.11446156 -37.470509 -24.446896 -122.85745
186823000 -24.462858 -131.69127 -0.11504258 -37.673672 -0.11406239 -37.669781 -24.44356 -122.85406
187822000 -24.437462 -132.01637 -0.11578318 -37.868443 -0.11508192 -37.867786 -24.402925 -122.96608
188821000 -24.412331 -132.27089 -0.11526108 -38.063618 -0.11477519 -38.068047 -24.380058 -123.06187
189820000 -24.392328 -132.58659 -0.11635428 -38.263256 -0.11499686 -38.261749 -24.364555 -123.26154
190819000 -24.35985 -132.87144 -0.11698847 -38.463535 -0.1158438 -38.461327 -24.326097 -123.34561
191818000 -24.323454 -133.16919 -0.11692438 -38.658695 -0.1162426 -38.660034 -24.294088 -123.36098
192817000 -24.279392 -133.43993 -0.11724563 -38.858456 -0.1169664 -38.858257 -24.247828 -123.437
193816000 -24.244078 -133.6628 -0.11770892 -39.05521 -0.11619315 -39.052086 -24.197819 -123.61092
194815000 -24.185474 -134.08696 -0.11788128 -39.249401 -0.11734456 -39.249023 -24.130497 -123.68648
195814000 -24.127378 -134.29872 -0.11835475 -39.445351 -0.11828665 -39.446762 -24.068211 -123.80222
196813000 -24.070608 -134.64525 -0.11796878 -39.640633 -0.11772382 -39.641106 -23.990986 -123.95625
197812000 -24.013342 -134.83295 -0.1191337 -39.838772 -0.11786106 -39.838459 -23.918423 -124.04388
198811000 -23.959444 -134.99593 -0.11898205 -40.03574 -0.11807013 -40.037567 -23.846043 -124.24059
199810000 -23.884706 -135.35298 -0.11971774 -40.22897 -0.11771744 -40.231773 -23.770737 -124.32825
200809000 -23.827194 -135.59657 -0.11985877 -40.428097 -0.11750147 -40.428612 -23.687174 -124.51985
201808000 -23.767315 -135.83539 -0.12063613 -40.631306 -0.1194929 -40.632442 -23.618238 -124.58223
202807000 -23.708261 -136.17706 -0.12112481 -40.831894 -0.11961104 -40.835503 -23.564648 -124.79193
203806000 -23.656891 -136.57512 -0.12272991 -41.029282 -0.1205334 -41.031929 -23.499367 -124.9382
