!Keysight Technologies,E5080B,MY59205177,A.15.75.32
!Date: Friday, February 23, 2024 02:47:08
!Correction: S11(Cdelta 2-Port  ) 
!S21(Cdelta 2-Port  ) 
!S12(Cdelta 2-Port  ) 
!S22(Cdelta 2-Port  ) 
!S2P File: Measurements: S11, S21, S12, S22:
# Hz S  dB   R 50
10000000 -39.89138 -3.344903 -0.062710479 -2.0562205 -0.066372484 -2.1074173 -54.62606 -72.616066
10999000 -39.47617 -4.5397816 -0.064271018 -2.2695603 -0.065629482 -2.3238087 -52.420536 -70.48069
11998000 -38.964836 -6.2541485 -0.064418666 -2.4971633 -0.066452391 -2.5367708 -51.159733 -66.615166
12997000 -38.570702 -9.3759241 -0.063951299 -2.6762686 -0.065882571 -2.7067866 -49.682243 -68.000931
13996000 -38.435757 -11.901031 -0.062723614 -2.8557775 -0.065230049 -2.8761053 -48.477627 -67.250153
14995000 -38.234581 -14.493049 -0.064921029 -3.0626097 -0.065781653 -3.0905764 -47.773174 -67.29985
15994000 -38.163757 -17.198195 -0.066355139 -3.2842529 -0.069057241 -3.308203 -47.096115 -65.121964
16993000 -38.196365 -19.921793 -0.065432914 -3.4773369 -0.067596212 -3.4917221 -46.598476 -71.89019
17992000 -38.339775 -23.171633 -0.066614576 -3.6796284 -0.067390084 -3.6828799 -46.232403 -75.403374
18991000 -38.588898 -26.004053 -0.066826709 -3.8908327 -0.068532832 -3.8883622 -45.598553 -78.758636
19990000 -38.613766 -29.521639 -0.0695654 -4.1017103 -0.070890531 -4.0972185 -45.191673 -83.57666
20989000 -38.569473 -31.679838 -0.071656018 -4.306026 -0.072900973 -4.2908859 -44.606876 -85.953728
21988000 -38.63839 -35.111656 -0.072232127 -4.5037408 -0.073604673 -4.4870529 -44.264084 -86.708557
22987000 -38.609337 -38.514774 -0.073413007 -4.7040396 -0.074216589 -4.6968255 -43.992958 -87.424278
23986000 -38.695297 -41.200558 -0.073332712 -4.8969026 -0.073875338 -4.8976965 -43.910851 -88.077446
24985000 -38.563358 -43.721737 -0.074537851 -5.1047273 -0.074565768 -5.0977831 -43.362881 -86.649597
25984000 -38.431149 -45.672134 -0.07526236 -5.3149538 -0.074276887 -5.3179245 -42.945522 -86.685143
26983000 -38.283619 -47.481606 -0.075492308 -5.5095639 -0.076185361 -5.5283742 -42.721455 -86.341988
27982000 -38.1926 -48.538441 -0.077621348 -5.7103534 -0.077286422 -5.7428946 -42.300461 -85.739464
28981000 -38.219704 -49.63343 -0.074948683 -5.91365 -0.077525958 -5.93085 -42.013733 -86.153885
29980000 -37.991295 -51.588543 -0.07477618 -6.1031017 -0.077698827 -6.1086216 -41.60815 -86.484367
30979000 -37.64019 -51.593605 -0.073255308 -6.4580727 -0.072927557 -6.449759 -41.157261 -88.872826
31978000 -37.544415 -52.696926 -0.072380312 -6.6573129 -0.073201865 -6.645503 -40.842232 -88.998657
32977000 -37.450623 -54.405933 -0.072736189 -6.8658042 -0.074436471 -6.8616681 -40.616337 -89.804718
33976000 -37.350819 -55.575687 -0.073439337 -7.0676541 -0.074628443 -7.0617986 -40.2528 -90.180008
34975000 -37.143078 -56.825172 -0.073297955 -7.2647104 -0.075366668 -7.2650971 -40.004589 -90.603477
35974000 -36.99437 -57.59454 -0.072551139 -7.462338 -0.074387223 -7.4622011 -39.646809 -90.540459
36973000 -36.840233 -58.857655 -0.072936244 -7.6647635 -0.076269135 -7.6681304 -39.274734 -90.487137
37972000 -36.692097 -58.916283 -0.072641686 -7.87183 -0.075767562 -7.8805528 -38.991226 -90.258469
38971000 -36.40559 -59.256413 -0.073320866 -8.0724144 -0.076117925 -8.0814514 -38.710453 -89.151756
39970000 -36.142147 -60.230843 -0.072018147 -8.2669563 -0.07523708 -8.280386 -38.398148 -89.178726
40969000 -35.894497 -60.502949 -0.072399527 -8.460084 -0.075194411 -8.4844704 -38.038685 -88.395058
41968000 -35.591995 -61.168209 -0.07226529 -8.665081 -0.075820513 -8.6857185 -37.767544 -87.642776
42967000 -35.365414 -61.685543 -0.072668798 -8.8810883 -0.075588711 -8.9005489 -37.485329 -86.302109
43966000 -35.153854 -62.81012 -0.073536485 -9.0821075 -0.077241361 -9.0944252 -37.154865 -86.109886
44965000 -34.976234 -63.924049 -0.07375896 -9.2829866 -0.076470152 -9.3021669 -36.918972 -86.455528
45964000 -34.815804 -65.094505 -0.075485982 -9.482295 -0.079217039 -9.4960852 -36.66851 -86.572174
46963000 -34.705166 -67.046921 -0.076070771 -9.677825 -0.079500183 -9.701992 -36.514198 -87.331718
47962000 -34.607162 -68.572647 -0.077453755 -9.8804398 -0.080665112 -9.8992262 -36.321632 -87.910103
48961000 -34.475449 -70.043861 -0.079804175 -10.078608 -0.08247482 -10.098375 -36.111111 -88.492844
49960000 -34.309036 -71.637108 -0.081045136 -10.278368 -0.083169781 -10.300429 -35.968494 -89.006508
50959000 -34.166355 -73.161385 -0.081451833 -10.493636 -0.084501974 -10.49992 -35.817368 -89.595222
51958000 -34.014252 -74.389801 -0.083735548 -10.691207 -0.085864678 -10.701355 -35.657097 -90.446083
52957000 -33.854851 -75.680748 -0.085445687 -10.892011 -0.08783108 -10.895933 -35.499111 -90.64064
53956000 -33.722694 -76.554771 -0.086456671 -11.095186 -0.088012554 -11.09271 -35.354336 -90.913597
54955000 -33.5723 -77.292587 -0.087655164 -11.295437 -0.089563444 -11.294665 -35.208492 -91.107712
55954000 -33.460072 -78.248489 -0.088302612 -11.495818 -0.089737594 -11.493115 -35.088703 -91.041481
56953000 -33.367016 -78.49836 -0.089229181 -11.689157 -0.089148588 -11.679548 -35.022419 -91.46904
57952000 -33.223072 -79.230392 -0.0900608 -11.890409 -0.089542039 -11.881684 -34.936317 -91.684113
58951000 -33.115635 -79.747032 -0.090762526 -12.096935 -0.090240516 -12.078238 -34.756344 -91.993507
59950000 -33.004784 -80.364265 -0.09165287 -12.296413 -0.091665037 -12.27631 -34.723515 -92.433151
60949000 -32.914829 -80.993034 -0.092043646 -12.498097 -0.0924289 -12.476089 -34.62011 -92.823639
61948000 -32.858932 -81.272446 -0.092704445 -12.695409 -0.091989443 -12.680463 -34.540619 -93.139572
62947000 -32.77787 -81.594101 -0.092614003 -12.906594 -0.092635155 -12.888474 -34.412258 -93.5905
63946000 -32.730381 -82.404427 -0.094058082 -13.105616 -0.093608938 -13.091401 -34.298923 -93.797264
64945000 -32.623909 -82.685181 -0.094742201 -13.311876 -0.0939565 -13.289463 -34.20681 -94.619965
65944000 -32.536243 -83.133919 -0.095942453 -13.506483 -0.094868667 -13.49132 -34.140907 -95.169891
66943000 -32.412579 -83.690788 -0.093125984 -13.711773 -0.093416914 -13.693018 -34.044468 -95.553253
67942000 -32.34259 -83.614845 -0.095397584 -13.907579 -0.095445745 -13.893047 -33.916698 -95.961891
68941000 -32.237682 -83.845299 -0.094603308 -14.10043 -0.094062045 -14.092907 -33.798641 -96.075012
69940000 -32.143681 -83.994331 -0.095194638 -14.298815 -0.095224537 -14.289608 -33.669224 -96.518036
70939000 -32.025593 -84.131775 -0.095082715 -14.495887 -0.095052287 -14.488748 -33.522579 -96.576355
71938000 -31.877474 -83.834984 -0.095063664 -14.693091 -0.094705954 -14.684791 -33.387672 -96.58918
72937000 -31.7274 -83.920113 -0.094127655 -14.893793 -0.094316535 -14.885026 -33.222248 -96.483894
73936000 -31.577782 -83.776367 -0.094655685 -15.090531 -0.094016284 -15.085634 -33.096947 -96.346954
74935000 -31.459909 -84.115326 -0.094075277 -15.283195 -0.093210883 -15.2849 -32.933445 -96.246307
75934000 -31.345823 -84.547546 -0.093726374 -15.497269 -0.093278587 -15.488352 -32.840839 -96.268852
76933000 -31.231091 -85.045967 -0.095082715 -15.686095 -0.094964713 -15.683095 -32.686684 -96.812309
77932000 -31.134893 -85.873077 -0.09680739 -15.885246 -0.096369341 -15.878902 -32.581409 -96.91954
78931000 -31.090286 -86.645302 -0.095133513 -16.084553 -0.09566009 -16.081245 -32.484226 -96.911156
79930000 -30.993172 -87.533226 -0.097964525 -16.277729 -0.098238826 -16.279757 -32.396545 -97.38765
80929000 -30.896086 -88.527847 -0.099592865 -16.475811 -0.10002038 -16.470829 -32.2924 -97.824844
81928000 -30.827587 -89.423981 -0.10005905 -16.665234 -0.09991575 -16.662178 -32.17783 -98.038651
82927000 -30.751902 -90.201294 -0.10191741 -16.865759 -0.10138929 -16.864201 -32.07066 -98.490753
83926000 -30.648375 -91.020851 -0.1032893 -17.064367 -0.1027777 -17.064281 -31.95331 -98.915245
84925000 -30.555216 -91.575485 -0.10432937 -17.26524 -0.10332058 -17.258617 -31.868088 -99.08107
85924000 -30.476711 -92.108521 -0.10459559 -17.460833 -0.10481066 -17.461411 -31.779673 -99.207428
86923000 -30.386972 -92.751289 -0.10488994 -17.66044 -0.10525221 -17.656073 -31.665562 -99.163216
87922000 -30.28639 -93.174385 -0.10500583 -17.870544 -0.1043832 -17.858507 -31.586075 -99.347969
88921000 -30.218134 -93.587151 -0.10604207 -18.066027 -0.10574632 -18.061325 -31.496094 -99.511772
89920000 -30.134027 -94.239555 -0.10672649 -18.262753 -0.10597364 -18.254431 -31.433123 -99.717957
90919000 -30.046751 -94.616501 -0.10726588 -18.462193 -0.10617789 -18.456722 -31.351105 -99.98336
91918000 -29.960501 -95.064095 -0.10799773 -18.659946 -0.10743596 -18.65696 -31.287676 -100.09117
92917000 -29.86923 -95.523651 -0.1096025 -18.858208 -0.10825674 -18.8582 -31.210215 -100.27168
93916000 -29.805401 -95.948036 -0.10918731 -19.052711 -0.1089431 -19.049908 -31.145864 -101.0296
94915000 -29.734709 -96.60807 -0.11058062 -19.253208 -0.10942092 -19.246456 -31.071638 -100.89294
95914000 -29.667616 -96.909637 -0.11147185 -19.447783 -0.1105862 -19.446375 -30.987427 -101.24786
96913000 -29.584864 -97.209587 -0.11307551 -19.647814 -0.11189708 -19.649309 -30.926926 -101.72898
97912000 -29.521732 -97.75351 -0.11406823 -19.844122 -0.11240284 -19.847292 -30.850599 -102.12498
98911000 -29.416599 -98.033356 -0.11401535 -20.045441 -0.11373447 -20.046394 -30.822733 -102.29925
99910000 -29.352814 -98.23053 -0.11487725 -20.246521 -0.11419447 -20.246307 -30.702925 -102.71156
100909000 -29.269594 -98.577148 -0.11415381 -20.453993 -0.11313662 -20.450474 -30.61735 -103.01834
101908000 -29.177801 -98.872795 -0.11535332 -20.655132 -0.11493546 -20.653093 -30.4867 -102.76916
102907000 -29.051554 -98.982903 -0.11580817 -20.852467 -0.11403582 -20.853762 -30.405643 -102.82329
103906000 -28.959253 -99.180176 -0.11680152 -21.061066 -0.11425931 -21.057358 -30.250099 -102.87408
104905000 -28.802824 -99.193901 -0.11641357 -21.257502 -0.11483552 -21.256546 -30.104284 -102.66326
105904000 -28.663445 -99.40271 -0.11707889 -21.459288 -0.11487246 -21.453489 -29.978512 -102.61873
106903000 -28.550192 -99.597878 -0.11763605 -21.667715 -0.11481532 -21.657364 -29.84292 -102.60237
107902000 -28.393866 -100.03894 -0.11837231 -21.867617 -0.11591266 -21.860664 -29.70174 -102.62352
108901000 -28.286224 -100.41138 -0.11962674 -22.068256 -0.11657789 -22.05755 -29.5499 -102.73112
109900000 -28.167747 -100.96799 -0.12034151 -22.264254 -0.11849521 -22.259937 -29.395269 -102.90557
110899000 -28.057449 -101.64693 -0.12163378 -22.468264 -0.11972732 -22.458481 -29.275883 -103.32431
111898000 -27.974323 -102.4233 -0.12277944 -22.667017 -0.12092997 -22.662682 -29.151459 -103.5725
112897000 -27.859186 -103.04305 -0.12454898 -22.865608 -0.12176795 -22.85638 -29.014313 -103.88081
113896000 -27.761538 -103.69258 -0.12538579 -23.064634 -0.12324493 -23.057758 -28.904312 -104.11557
114895000 -27.670328 -104.40597 -0.1266617 -23.265467 -0.12451462 -23.253147 -28.792004 -104.3811
115894000 -27.545309 -104.81034 -0.12811022 -23.468113 -0.1254596 -23.456018 -28.713032 -104.61088
116893000 -27.465816 -105.47874 -0.12814169 -23.659271 -0.12615588 -23.647715 -28.583839 -104.84961
117892000 -27.390335 -106.04276 -0.12882319 -23.859488 -0.1269325 -23.846842 -28.508945 -105.13468
118891000 -27.335102 -106.4604 -0.12922719 -24.059727 -0.12719852 -24.04471 -28.409216 -105.35275
119890000 -27.248383 -106.88791 -0.1310295 -24.26194 -0.12795612 -24.244608 -28.402462 -105.57206
120889000 -27.193544 -107.43017 -0.13134193 -24.461977 -0.12864028 -24.447067 -28.316414 -105.55055
121888000 -27.157112 -107.78321 -0.13109274 -24.654179 -0.12869413 -24.645935 -28.26104 -105.92736
122887000 -27.108484 -108.07653 -0.13341205 -24.8584 -0.12998062 -24.849134 -28.210821 -106.01277
123886000 -27.055506 -108.51953 -0.13383223 -25.062208 -0.13068643 -25.042788 -28.201048 -106.16733
124885000 -27.027884 -109.01324 -0.13378283 -25.259718 -0.13094467 -25.246447 -28.164328 -106.32241
125884000 -26.972498 -109.27608 -0.13458619 -25.459438 -0.13130111 -25.446732 -28.13986 -106.50784
126883000 -26.946741 -109.60751 -0.13502224 -25.661913 -0.13197964 -25.649721 -28.085249 -106.60177
127882000 -26.904295 -109.959 -0.13517551 -25.861511 -0.13276291 -25.844341 -28.04652 -106.76955
128881000 -26.870247 -110.31202 -0.13541079 -26.062668 -0.1330066 -26.045162 -28.001966 -106.86884
129880000 -26.813265 -110.64754 -0.13605471 -26.264492 -0.13331649 -26.244162 -27.95505 -106.93692
130879000 -26.748144 -110.84377 -0.13594092 -26.461082 -0.13401698 -26.448492 -27.872654 -106.9921
131878000 -26.680084 -111.14459 -0.13623047 -26.66728 -0.13399695 -26.644598 -27.806753 -106.94975
132877000 -26.61113 -111.24395 -0.1364893 -26.868021 -0.13448393 -26.85083 -27.711306 -106.97815
133876000 -26.522615 -111.42776 -0.13725469 -27.066292 -0.13443026 -27.055605 -27.610125 -106.95061
134875000 -26.428366 -111.65411 -0.13786468 -27.268976 -0.13517284 -27.252026 -27.495459 -106.86035
135874000 -26.341911 -111.70869 -0.13757476 -27.468151 -0.13452238 -27.450836 -27.393547 -106.89424
136873000 -26.227058 -111.72262 -0.13804531 -27.67325 -0.13507271 -27.652925 -27.303543 -106.93565
137872000 -26.144918 -111.89325 -0.13761885 -27.872742 -0.13488953 -27.851278 -27.190245 -106.92753
138871000 -26.075584 -112.08995 -0.138529 -28.075397 -0.13526498 -28.054672 -27.093233 -107.15145
139870000 -25.976187 -112.41445 -0.13865221 -28.27047 -0.13695198 -28.259138 -27.005089 -107.40601
140869000 -25.894154 -112.93355 -0.14102584 -28.471264 -0.13798279 -28.452971 -26.901018 -107.58531
141868000 -25.804375 -113.48555 -0.1412157 -28.66098 -0.13899726 -28.643457 -26.832247 -107.98374
142867000 -25.724377 -113.75594 -0.13956766 -28.857784 -0.13786627 -28.841631 -26.754972 -108.23739
143866000 -25.666662 -114.31168 -0.14153126 -29.05929 -0.13896331 -29.040462 -26.687542 -108.78064
144865000 -25.613255 -114.85119 -0.14296709 -29.255234 -0.14024055 -29.240553 -26.634611 -109.12781
145864000 -25.554825 -115.20306 -0.14304735 -29.457108 -0.14184043 -29.441036 -26.606817 -109.4202
146863000 -25.513161 -115.577 -0.14409137 -29.653383 -0.142167 -29.643995 -26.555222 -109.79395
147862000 -25.474998 -116.03541 -0.14441516 -29.851503 -0.14314312 -29.837753 -26.526966 -110.16174
148861000 -25.45002 -116.54737 -0.14510646 -30.049465 -0.14358751 -30.034616 -26.511082 -110.402
149860000 -25.438942 -116.73915 -0.14622031 -30.247135 -0.14376411 -30.237635 -26.476561 -110.60475
150859000 -25.42218 -117.15735 -0.14634775 -30.448807 -0.14417164 -30.434378 -26.475725 -110.87844
151858000 -25.398926 -117.4882 -0.14695929 -30.648375 -0.14465387 -30.633621 -26.473989 -111.16111
152857000 -25.392864 -117.80216 -0.147113 -30.845127 -0.14509656 -30.834953 -26.455999 -111.31949
153856000 -25.383879 -118.01899 -0.14704873 -31.043453 -0.14418234 -31.032269 -26.482658 -111.62553
154855000 -25.369797 -118.22749 -0.14696625 -31.247087 -0.14462417 -31.23233 -26.471197 -111.85863
155854000 -25.388544 -118.48889 -0.14756075 -31.441107 -0.14490733 -31.430092 -26.46921 -112.10303
156853000 -25.376318 -119.21262 -0.14622407 -31.630812 -0.14451927 -31.618629 -26.470362 -112.41665
157852000 -25.384844 -119.42504 -0.1472027 -31.833029 -0.14673544 -31.822794 -26.468422 -112.80244
158851000 -25.376965 -119.66695 -0.14796354 -32.031384 -0.14632204 -32.019299 -26.457493 -113.04929
159850000 -25.358583 -119.77462 -0.14902642 -32.227131 -0.14661603 -32.22123 -26.45558 -113.23844
160849000 -25.344343 -119.89572 -0.14837255 -32.426682 -0.14738399 -32.422871 -26.431232 -113.54105
161848000 -25.322079 -120.03302 -0.14959012 -32.630009 -0.14757439 -32.622017 -26.392496 -113.65652
162847000 -25.280962 -120.26441 -0.14901839 -32.828117 -0.14866772 -32.82111 -26.360123 -113.90382
163846000 -25.2335 -120.52769 -0.14991432 -33.026695 -0.14894472 -33.019238 -26.277491 -113.95201
164845000 -25.171726 -120.53805 -0.14984359 -33.224518 -0.14816657 -33.219589 -26.207159 -114.07056
165844000 -25.116041 -120.65063 -0.15055504 -33.425926 -0.14908616 -33.418781 -26.123541 -114.26115
166843000 -25.054798 -120.7905 -0.15011369 -33.623283 -0.14839049 -33.621391 -26.050421 -114.5238
167842000 -24.993061 -120.96564 -0.15086405 -33.821457 -0.14909421 -33.81636 -25.968763 -114.44759
168841000 -24.914539 -121.2142 -0.15043364 -34.02087 -0.1497916 -34.016903 -25.888948 -114.55127
169840000 -24.853083 -121.50415 -0.15154725 -34.216675 -0.15063089 -34.212265 -25.795097 -114.82349
170839000 -24.792698 -121.77054 -0.15212335 -34.41227 -0.15095839 -34.411007 -25.708128 -115.05424
171838000 -24.734457 -122.23363 -0.15256035 -34.611588 -0.15170407 -34.60854 -25.640299 -115.31231
172837000 -24.674282 -122.61572 -0.15351172 -34.810894 -0.15284295 -34.807491 -25.572906 -115.6
173836000 -24.605633 -123.08172 -0.15494508 -35.008423 -0.15366915 -35.005829 -25.530155 -115.87086
174835000 -24.558138 -123.54267 -0.15565978 -35.202717 -0.1544735 -35.204044 -25.484428 -116.25273
175834000 -24.505526 -123.97694 -0.15589161 -35.403767 -0.15549102 -35.400265 -25.427362 -116.59177
176833000 -24.456152 -124.36942 -0.15701789 -35.600628 -0.15601718 -35.597359 -25.371208 -116.79532
177832000 -24.408098 -124.86237 -0.15728012 -35.798176 -0.15670684 -35.797981 -25.347954 -117.03502
178831000 -24.372465 -125.26012 -0.15777831 -35.99604 -0.15674818 -35.989475 -25.314665 -117.26527
179830000 -24.338394 -125.72638 -0.15865564 -36.194515 -0.15721704 -36.193974 -25.284813 -117.44514
180829000 -24.29883 -125.94666 -0.15848248 -36.38681 -0.15787494 -36.389713 -25.255217 -117.66057
181828000 -24.275358 -126.30627 -0.15859874 -36.588223 -0.15818554 -36.586861 -25.238712 -117.7863
182827000 -24.25078 -126.70511 -0.15896067 -36.779182 -0.15857966 -36.781868 -25.224331 -117.85045
183826000 -24.209162 -127.04611 -0.1607939 -36.978127 -0.15869592 -36.976475 -25.21571 -118.04909
184825000 -24.212769 -127.36916 -0.16048232 -37.177048 -0.15911104 -37.175079 -25.201344 -118.11179
185824000 -24.183964 -127.7201 -0.15982106 -37.372021 -0.1600104 -37.375614 -25.195473 -118.20721
186823000 -24.17024 -128.04958 -0.16068752 -37.569038 -0.15951329 -37.56929 -25.189232 -118.16441
187822000 -24.144314 -128.43011 -0.16122775 -37.766041 -0.16074878 -37.766724 -25.1504 -118.24286
188821000 -24.122404 -128.64864 -0.16072352 -37.961563 -0.16081566 -37.96627 -25.1348 -118.39184
189820000 -24.112888 -128.92807 -0.16186261 -38.162945 -0.16047426 -38.162048 -25.127956 -118.56848
190819000 -24.079119 -129.1799 -0.16242018 -38.363785 -0.16200341 -38.361095 -25.081133 -118.52701
191818000 -24.044861 -129.38614 -0.16434683 -38.558308 -0.16337775 -38.558323 -25.050863 -118.4398
192817000 -23.977276 -129.65944 -0.16475521 -38.741444 -0.16391213 -38.745129 -24.977926 -118.5445
193816000 -23.939663 -130.06842 -0.1644756 -38.933517 -0.16289613 -38.93409 -24.918373 -118.81417
194815000 -23.88093 -130.55812 -0.16421725 -39.133427 -0.16333099 -39.135361 -24.849272 -118.96466
195814000 -23.82547 -130.77744 -0.16484582 -39.330956 -0.16347398 -39.333656 -24.791903 -119.08491
196813000 -23.772739 -131.14024 -0.16420461 -39.523663 -0.16327132 -39.528542 -24.707512 -119.32822
197812000 -23.712643 -131.38585 -0.16545486 -39.725986 -0.16344415 -39.721207 -24.635906 -119.4249
198811000 -23.660526 -131.56206 -0.16481437 -39.919357 -0.16402987 -39.922363 -24.564928 -119.65243
199810000 -23.591202 -132.00687 -0.16468801 -40.113861 -0.16353527 -40.109779 -24.480307 -119.80206
200809000 -23.535112 -132.31677 -0.16568641 -40.311165 -0.16339065 -40.313812 -24.40626 -120.07912
201808000 -23.47398 -132.57762 -0.16636012 -40.513054 -0.16493456 -40.515804 -24.32696 -120.14053
202807000 -23.416132 -132.94368 -0.16688356 -40.711811 -0.16574503 -40.715469 -24.272398 -120.36704
203806000 -23.366993 -133.43709 -0.16831596 -40.911255 -0.16651128 -40.917278 -24.207031 -120.58027
204805000 -23.315977 -133.7883 -0.16927187 -41.112598 -0.16743128 -41.112797 -24.145851 -120.80679
