!Keysight Technologies,E5080B,MY59205177,A.15.75.32
!Date: Friday, February 23, 2024 03:37:49
!Correction: S11(Cdelta 2-Port  ) 
!S21(Cdelta 2-Port  ) 
!S12(Cdelta 2-Port  ) 
!S22(Cdelta 2-Port  ) 
!S2P File: Measurements: S11, S21, S12, S22:
# Hz S  dB   R 50
10000000 -46.103493 -2.6584804 -0.014455978 -2.0440505 -0.017858639 -2.0995765 -45.951267 -157.43777
10999000 -45.335201 -4.6090231 -0.015445374 -2.2638369 -0.017940257 -2.3166022 -45.839367 -151.51913
11998000 -44.341984 -7.8493857 -0.015956916 -2.4892442 -0.017635109 -2.5288959 -46.010895 -146.65175
12997000 -43.583569 -13.492539 -0.0154394 -2.666522 -0.017476564 -2.6960475 -45.57103 -141.2803
13996000 -43.29591 -17.270147 -0.014731293 -2.8460538 -0.017035531 -2.866787 -45.408749 -136.14656
14995000 -42.899818 -21.506155 -0.0171018 -3.0578876 -0.017429523 -3.0811343 -45.060017 -132.48787
15994000 -42.739063 -26.124367 -0.018659547 -3.2766123 -0.019626237 -3.296715 -44.90609 -129.25795
16993000 -42.693588 -30.563505 -0.017895289 -3.4715855 -0.019045366 -3.4816146 -44.145672 -128.95052
17992000 -42.724857 -36.085258 -0.018385023 -3.6676188 -0.020024365 -3.6762662 -43.579918 -129.34764
18991000 -43.001911 -41.819714 -0.018641088 -3.8836308 -0.020291191 -3.8777602 -42.950638 -127.73325
19990000 -42.691391 -47.248638 -0.021122981 -4.0908842 -0.022828415 -4.0889802 -42.274052 -129.00768
20989000 -42.564316 -50.522614 -0.024075067 -4.2972589 -0.02501745 -4.2864304 -41.75536 -128.25775
21988000 -42.339588 -55.859627 -0.023877764 -4.4924407 -0.025640523 -4.4812284 -41.455406 -127.54377
22987000 -42.016579 -60.23378 -0.025635837 -4.6897016 -0.026595227 -4.6824851 -41.199902 -126.9097
23986000 -41.950207 -64.699074 -0.024896385 -4.887711 -0.025379358 -4.8840599 -41.08234 -127.06071
24985000 -41.547791 -67.255592 -0.026107954 -5.0954728 -0.02591134 -5.0909767 -40.865555 -124.4227
25984000 -41.244801 -69.556084 -0.026750719 -5.2982841 -0.026028005 -5.3008189 -40.503899 -123.00471
26983000 -40.916817 -71.292908 -0.027657732 -5.4996276 -0.027059894 -5.5179667 -40.441956 -122.19528
27982000 -40.71492 -72.210045 -0.028565977 -5.7006688 -0.028844273 -5.7298541 -40.155006 -120.69231
28981000 -40.677376 -73.926163 -0.026786402 -5.896842 -0.028437519 -5.9214239 -39.935402 -120.01638
29980000 -40.243755 -75.188248 -0.026363173 -6.0900626 -0.028765315 -6.0967741 -39.65765 -119.07184
30979000 -39.911049 -74.002281 -0.024692537 -6.4450331 -0.023001987 -6.4362292 -39.165375 -119.48155
31978000 -39.723316 -75.125565 -0.02404435 -6.6381598 -0.024663901 -6.6301641 -38.921951 -118.83662
32977000 -39.497566 -76.632164 -0.02356465 -6.8518271 -0.024894303 -6.8474793 -38.675602 -118.75173
33976000 -39.305077 -77.911362 -0.024588145 -7.054358 -0.025347071 -7.0472479 -38.369331 -118.21862
34975000 -39.01862 -78.449799 -0.024269773 -7.2481737 -0.026484538 -7.2521558 -38.163063 -117.82967
35974000 -38.826633 -78.912186 -0.023513898 -7.445292 -0.025995454 -7.4485493 -37.900677 -116.96192
36973000 -38.584358 -79.811134 -0.024098232 -7.6477118 -0.026829379 -7.6516409 -37.624985 -115.99899
37972000 -38.429806 -79.435997 -0.022987934 -7.8566914 -0.026227748 -7.8683224 -37.420078 -115.21524
38971000 -38.118515 -78.965256 -0.023913423 -8.0575666 -0.026332702 -8.0692005 -37.251873 -113.76743
39970000 -37.795048 -79.288269 -0.023332236 -8.2563906 -0.02628348 -8.2696648 -36.980736 -113.1707
40969000 -37.49995 -79.001045 -0.023030613 -8.4510517 -0.026190247 -8.4687481 -36.757526 -111.77694
41968000 -37.129372 -78.74044 -0.023786405 -8.6539097 -0.026232436 -8.6663465 -36.564774 -110.44313
42967000 -36.895454 -78.825706 -0.023122998 -8.8668814 -0.026619449 -8.8847542 -36.383682 -108.55448
43966000 -36.60244 -79.539169 -0.023630759 -9.0682535 -0.027527999 -9.0833836 -36.102474 -107.89128
44965000 -36.379745 -80.297722 -0.024689155 -9.2658777 -0.02752357 -9.2860641 -35.888161 -107.66801
45964000 -36.115925 -81.312279 -0.025789471 -9.4719868 -0.02930944 -9.4897642 -35.668926 -107.3737
46963000 -35.92717 -83.271019 -0.02594259 -9.6655741 -0.029037369 -9.6846352 -35.485561 -107.51804
47962000 -35.757652 -84.611145 -0.028183481 -9.8659782 -0.030760253 -9.8844471 -35.282112 -107.62583
48961000 -35.556934 -86.098312 -0.030001162 -10.060494 -0.031971633 -10.084364 -35.064209 -107.79971
49960000 -35.326164 -87.322838 -0.030788669 -10.264111 -0.033457246 -10.286628 -34.935703 -107.84057
50959000 -35.104248 -88.703247 -0.03165663 -10.475441 -0.034679294 -10.487104 -34.745152 -108.07868
51958000 -34.8862 -89.705734 -0.033432726 -10.671913 -0.036227696 -10.68398 -34.565998 -108.63267
52957000 -34.678215 -90.605339 -0.034978595 -10.873227 -0.037186038 -10.881549 -34.421909 -108.34993
53956000 -34.52248 -91.415764 -0.036381967 -11.074598 -0.037587084 -11.07847 -34.279392 -108.30415
54955000 -34.342918 -91.842636 -0.036784243 -11.27468 -0.038773727 -11.274147 -34.117672 -108.28302
55954000 -34.171162 -92.683891 -0.037904341 -11.475016 -0.039201301 -11.473684 -34.010727 -108.00738
56953000 -34.051945 -92.7248 -0.038106199 -11.676003 -0.037765425 -11.664742 -33.944466 -108.08667
57952000 -33.873669 -93.394875 -0.03960593 -11.87456 -0.039306831 -11.86606 -33.840988 -108.35585
58951000 -33.757069 -93.66745 -0.040282048 -12.075599 -0.040724143 -12.057244 -33.694134 -108.33066
59950000 -33.625565 -94.108315 -0.041035101 -12.276868 -0.040802274 -12.257157 -33.619099 -108.67963
60949000 -33.512516 -94.557854 -0.0406387 -12.484155 -0.041790374 -12.457944 -33.514835 -108.93399
61948000 -33.454727 -94.8461 -0.04161448 -12.683311 -0.041054178 -12.666249 -33.421829 -108.96755
62947000 -33.369766 -95.089058 -0.041380052 -12.890018 -0.041894395 -12.871058 -33.285797 -109.21712
63946000 -33.285263 -95.724098 -0.042227656 -13.086995 -0.042816866 -13.070634 -33.176708 -109.37373
64945000 -33.174976 -95.992722 -0.043119866 -13.292401 -0.043439623 -13.273254 -33.062771 -109.86946
65944000 -33.080276 -96.259697 -0.044190343 -13.491167 -0.043924924 -13.476966 -32.966789 -110.24023
66943000 -32.92783 -96.677948 -0.042085983 -13.697367 -0.042137999 -13.67677 -32.865513 -110.5629
67942000 -32.875626 -96.663544 -0.044055145 -13.888914 -0.04411817 -13.877915 -32.735386 -110.84357
68941000 -32.760532 -96.726837 -0.043492701 -14.083769 -0.04275386 -14.071951 -32.625633 -110.71471
69940000 -32.661858 -96.725052 -0.043384455 -14.27902 -0.044113461 -14.273178 -32.487293 -111.04926
70939000 -32.562618 -96.667603 -0.043802284 -14.476955 -0.043822419 -14.479568 -32.350292 -111.0135
71938000 -32.417877 -96.26664 -0.043764107 -14.675556 -0.043591272 -14.665965 -32.227013 -110.81854
72937000 -32.259735 -96.048317 -0.042763535 -14.875155 -0.043420274 -14.868492 -32.090637 -110.53096
73936000 -32.131802 -95.70874 -0.042505518 -15.071171 -0.042692166 -15.066894 -31.97588 -110.36874
74935000 -32.007988 -95.935829 -0.042515974 -15.268639 -0.041849181 -15.268327 -31.823492 -110.01997
75934000 -31.878132 -96.16777 -0.042083632 -15.478382 -0.042146362 -15.472291 -31.739166 -109.88091
76933000 -31.751404 -96.499557 -0.04346237 -15.669885 -0.04349453 -15.667396 -31.564152 -110.22597
77932000 -31.64728 -97.274071 -0.044104047 -15.869395 -0.045058634 -15.861477 -31.472147 -110.201
78931000 -31.576637 -98.004532 -0.043884914 -16.070024 -0.043985851 -16.062763 -31.371689 -110.02843
79930000 -31.440521 -98.902504 -0.045616053 -16.258879 -0.046420004 -16.259581 -31.272575 -110.38129
80929000 -31.33812 -99.671082 -0.047280889 -16.456165 -0.047835711 -16.458035 -31.181084 -110.61769
81928000 -31.244095 -100.35175 -0.047470357 -16.648258 -0.048328836 -16.647757 -31.047375 -110.59577
82927000 -31.140446 -101.14114 -0.049190622 -16.849819 -0.049523395 -16.846075 -30.945887 -110.86073
83926000 -31.026426 -101.80521 -0.050415009 -17.044144 -0.050451674 -17.046608 -30.822828 -111.04014
84925000 -30.924641 -102.22855 -0.051692661 -17.24823 -0.050938807 -17.243349 -30.730225 -111.09341
85924000 -30.829294 -102.64032 -0.052009117 -17.450203 -0.052342366 -17.449303 -30.645193 -111.09926
86923000 -30.727833 -103.12843 -0.052602801 -17.645853 -0.052385598 -17.63998 -30.545294 -110.91851
87922000 -30.609417 -103.45564 -0.052457385 -17.852654 -0.051975321 -17.842905 -30.45129 -111.00275
88921000 -30.538534 -103.65463 -0.053480901 -18.050854 -0.053290118 -18.042843 -30.363148 -110.97344
89920000 -30.435431 -104.20633 -0.054451443 -18.245068 -0.053739827 -18.241438 -30.307541 -111.10703
90919000 -30.336674 -104.45815 -0.05540254 -18.443401 -0.054375164 -18.441191 -30.221563 -111.30051
91918000 -30.23807 -104.91885 -0.055694621 -18.646475 -0.055236056 -18.638346 -30.151339 -111.28
92917000 -30.147243 -105.19865 -0.056809641 -18.841877 -0.056423601 -18.839643 -30.087313 -111.39156
93916000 -30.062513 -105.50217 -0.056113899 -19.038961 -0.056179717 -19.034416 -30.001291 -111.96767
94915000 -29.982784 -106.16749 -0.057694886 -19.239019 -0.056843475 -19.232767 -29.947775 -111.86758
95914000 -29.924269 -106.32706 -0.058444139 -19.43647 -0.057563726 -19.429787 -29.846834 -112.13519
96913000 -29.837189 -106.48642 -0.059859838 -19.633814 -0.059122149 -19.632725 -29.780703 -112.45794
97912000 -29.754547 -106.94228 -0.060817372 -19.828074 -0.058641445 -19.830654 -29.706285 -112.7215
98911000 -29.639944 -107.14421 -0.061217453 -20.033072 -0.060002618 -20.029085 -29.66683 -112.92554
99910000 -29.579521 -107.30397 -0.061785355 -20.230772 -0.060696092 -20.230963 -29.552221 -113.19135
100909000 -29.488609 -107.57823 -0.061392307 -20.438576 -0.060272958 -20.434498 -29.465771 -113.39444
101908000 -29.408003 -107.72845 -0.062317088 -20.638115 -0.060687169 -20.638109 -29.359461 -113.20733
102907000 -29.275599 -107.71072 -0.063040875 -20.84116 -0.061548524 -20.836866 -29.285997 -113.17582
103906000 -29.16997 -107.80547 -0.063794732 -21.044758 -0.060628105 -21.042845 -29.141594 -113.13562
104905000 -29.030348 -107.66874 -0.063591413 -21.241198 -0.061826054 -21.244495 -29.021053 -112.79902
105904000 -28.883888 -107.75547 -0.063545443 -21.445093 -0.061646193 -21.442019 -28.906921 -112.72921
106903000 -28.78125 -107.80589 -0.064547665 -21.652315 -0.062071562 -21.647787 -28.789015 -112.56415
107902000 -28.613892 -108.12093 -0.065193519 -21.852982 -0.062653758 -21.847437 -28.652391 -112.56281
108901000 -28.507896 -108.37994 -0.065751426 -22.051277 -0.063848056 -22.046505 -28.524687 -112.47195
109900000 -28.375643 -108.85413 -0.066192701 -22.252491 -0.065266311 -22.243656 -28.370699 -112.52824
110899000 -28.253248 -109.48643 -0.067307793 -22.450939 -0.065286808 -22.443304 -28.245214 -112.81549
111898000 -28.17314 -110.09351 -0.069061182 -22.653505 -0.066808306 -22.64863 -28.131374 -112.94917
112897000 -28.046734 -110.67168 -0.070783973 -22.852646 -0.068096578 -22.840261 -27.996132 -113.12461
113896000 -27.940323 -111.22291 -0.071946822 -23.053625 -0.069297373 -23.041719 -27.889746 -113.25215
114895000 -27.842188 -111.8669 -0.072693281 -23.248749 -0.070318289 -23.240326 -27.782637 -113.3563
115894000 -27.71335 -112.20186 -0.073691033 -23.452534 -0.071770236 -23.440418 -27.710537 -113.5098
116893000 -27.632135 -112.69659 -0.074915767 -23.652449 -0.073347449 -23.632122 -27.586647 -113.5679
117892000 -27.546997 -113.17037 -0.074813314 -23.850769 -0.072537974 -23.832458 -27.506363 -113.80994
118891000 -27.494251 -113.58797 -0.075523652 -24.047834 -0.07331349 -24.03566 -27.413767 -113.86916
119890000 -27.407301 -113.95708 -0.076397963 -24.248545 -0.074378796 -24.231062 -27.40296 -114.05035
120889000 -27.353598 -114.4358 -0.07724189 -24.450397 -0.074572347 -24.433899 -27.329426 -113.9856
121888000 -27.317764 -114.78162 -0.07736811 -24.648186 -0.074093357 -24.632946 -27.268446 -114.23903
122887000 -27.277689 -114.94573 -0.077919938 -24.848969 -0.075313196 -24.834717 -27.225117 -114.25218
123886000 -27.221006 -115.36243 -0.078576744 -25.049055 -0.075622953 -25.033384 -27.206551 -114.42678
124885000 -27.191256 -115.89108 -0.078575693 -25.247215 -0.076065496 -25.234886 -27.178928 -114.46209
125884000 -27.140718 -116.08154 -0.079421885 -25.45009 -0.075862661 -25.436127 -27.153656 -114.58282
126883000 -27.123318 -116.48051 -0.079746962 -25.650627 -0.077054538 -25.641537 -27.109417 -114.62556
127882000 -27.070141 -116.74867 -0.080285117 -25.851162 -0.078236207 -25.835209 -27.068741 -114.77106
128881000 -27.041014 -117.07774 -0.080247149 -26.055204 -0.077569701 -26.035835 -27.029274 -114.86047
129880000 -26.98601 -117.39728 -0.080993444 -26.254791 -0.07764744 -26.238222 -26.99052 -114.75595
130879000 -26.931755 -117.56476 -0.080312274 -26.453266 -0.078515597 -26.43854 -26.913021 -114.80257
131878000 -26.860909 -117.78369 -0.081389062 -26.656748 -0.079011686 -26.638954 -26.854095 -114.69958
132877000 -26.793154 -117.83751 -0.080587052 -26.859297 -0.079485156 -26.841911 -26.781021 -114.64278
133876000 -26.708502 -118.0099 -0.081495091 -27.06126 -0.078874871 -27.041107 -26.693781 -114.54137
134875000 -26.618973 -118.14523 -0.081878096 -27.257793 -0.078997187 -27.239035 -26.595751 -114.38493
135874000 -26.541054 -118.13957 -0.081801862 -27.459604 -0.079053074 -27.444576 -26.501198 -114.31538
136873000 -26.425642 -118.10113 -0.081423879 -27.660303 -0.078873023 -27.648134 -26.421745 -114.27802
137872000 -26.348818 -118.22498 -0.08183483 -27.86463 -0.079397894 -27.847723 -26.319813 -114.22018
138871000 -26.275303 -118.43436 -0.082674801 -28.063505 -0.079831593 -28.049177 -26.226097 -114.36187
139870000 -26.173901 -118.71079 -0.082392775 -28.263998 -0.080688842 -28.247284 -26.147949 -114.51583
140869000 -26.097357 -119.23542 -0.084467664 -28.463741 -0.081573166 -28.444637 -26.045713 -114.70221
141868000 -26.019108 -119.66042 -0.084882341 -28.658237 -0.082896695 -28.646385 -25.995832 -114.99838
142867000 -25.939833 -119.86373 -0.083118595 -28.859074 -0.081964619 -28.841696 -25.91712 -115.124
143866000 -25.865938 -120.33475 -0.085573994 -29.054163 -0.08344949 -29.037685 -25.843071 -115.53519
144865000 -25.806269 -120.86436 -0.086789407 -29.2551 -0.084453411 -29.240675 -25.78974 -115.89331
145864000 -25.754387 -121.15913 -0.087580942 -29.453743 -0.086020194 -29.441496 -25.756973 -116.12021
146863000 -25.71043 -121.55024 -0.08883258 -29.653683 -0.086562827 -29.642406 -25.70454 -116.43005
147862000 -25.672337 -121.84398 -0.089408331 -29.854118 -0.087317869 -29.838854 -25.677898 -116.73611
148861000 -25.636232 -122.32813 -0.089514822 -30.049793 -0.088425986 -30.034824 -25.650192 -116.86897
149860000 -25.604424 -122.46219 -0.090903156 -30.242638 -0.089043953 -30.227285 -25.604429 -116.98891
150859000 -25.577995 -122.97961 -0.090998314 -30.442451 -0.088761248 -30.425764 -25.579445 -117.36348
151858000 -25.565804 -123.30627 -0.089999221 -30.64427 -0.088566005 -30.626411 -25.569195 -117.70403
152857000 -25.555599 -123.61906 -0.090253465 -30.839695 -0.088387415 -30.825911 -25.553938 -117.90143
153856000 -25.552877 -123.85738 -0.090353899 -31.037422 -0.087759234 -31.027863 -25.57202 -118.2011
154855000 -25.54985 -124.02183 -0.090740323 -31.238247 -0.08787863 -31.22839 -25.556887 -118.44051
155854000 -25.566229 -124.27821 -0.090880424 -31.440313 -0.088029988 -31.427128 -25.552914 -118.70956
156853000 -25.55122 -124.91233 -0.088269591 -31.628387 -0.087779306 -31.619968 -25.544239 -119.02917
157852000 -25.559786 -125.14317 -0.089706935 -31.829327 -0.089386396 -31.819057 -25.534351 -119.37571
158851000 -25.554871 -125.36983 -0.090410464 -32.026169 -0.090014018 -32.018486 -25.516029 -119.62564
159850000 -25.543789 -125.47092 -0.091350958 -32.224842 -0.089805506 -32.217163 -25.519985 -119.81346
160849000 -25.528383 -125.56895 -0.090649664 -32.423828 -0.091136836 -32.417686 -25.490164 -120.11179
161848000 -25.509771 -125.63849 -0.091347262 -32.62619 -0.091069691 -32.619026 -25.446983 -120.21551
162847000 -25.462521 -125.80819 -0.091339327 -32.821636 -0.090985894 -32.821777 -25.423119 -120.44465
163846000 -25.429483 -126.01758 -0.091272712 -33.029175 -0.090630367 -33.016068 -25.349342 -120.47126
164845000 -25.363783 -125.93896 -0.092249885 -33.223694 -0.092238776 -33.215687 -25.277746 -120.57677
165844000 -25.319365 -126.01225 -0.092000283 -33.423824 -0.092106573 -33.4189 -25.203079 -120.71108
166843000 -25.255575 -126.08974 -0.091843233 -33.624374 -0.092179283 -33.618649 -25.137217 -120.85014
167842000 -25.201239 -126.1819 -0.09321776 -33.825191 -0.092047349 -33.817562 -25.061298 -120.77287
168841000 -25.12311 -126.34533 -0.092238776 -34.025791 -0.092709996 -34.022408 -24.987574 -120.85406
169840000 -25.060335 -126.57658 -0.09320242 -34.21896 -0.093126513 -34.212891 -24.902267 -121.00256
170839000 -24.997501 -126.81783 -0.093943544 -34.416824 -0.093298689 -34.415329 -24.818741 -121.19538
171838000 -24.941042 -127.18834 -0.093994856 -34.619236 -0.093886934 -34.614853 -24.760315 -121.43384
172837000 -24.868618 -127.49323 -0.095729947 -34.818192 -0.094993286 -34.810059 -24.68964 -121.65227
173836000 -24.806816 -127.93394 -0.09673354 -35.017517 -0.096050166 -35.014061 -24.647991 -121.84528
174835000 -24.748131 -128.32271 -0.096586376 -35.209972 -0.096966475 -35.211628 -24.603102 -122.16383
175834000 -24.699438 -128.70665 -0.097966641 -35.411446 -0.097683087 -35.406204 -24.542086 -122.42474
176833000 -24.647337 -129.02246 -0.09901312 -35.609776 -0.098387636 -35.609024 -24.495401 -122.56213
177832000 -24.605816 -129.4761 -0.10026991 -35.808418 -0.099270806 -35.809444 -24.475792 -122.65462
178831000 -24.552782 -129.6597 -0.1014391 -36.002613 -0.10108537 -36.004463 -24.43778 -122.76603
179830000 -24.49045 -130.08792 -0.10258819 -36.187195 -0.10170886 -36.192905 -24.373842 -122.84564
180829000 -24.438036 -130.45236 -0.10142744 -36.381962 -0.10107557 -36.381161 -24.334459 -123.16827
181828000 -24.419901 -130.89488 -0.10053827 -36.58046 -0.10002859 -36.580315 -24.319313 -123.34546
182827000 -24.397926 -131.26836 -0.10109888 -36.781418 -0.10023256 -36.783863 -24.300911 -123.46966
183826000 -24.353577 -131.59442 -0.10159809 -36.98143 -0.10079314 -36.973991 -24.291412 -123.62997
184825000 -24.357479 -131.93938 -0.10168607 -37.175182 -0.10082413 -37.177319 -24.276737 -123.77589
185824000 -24.329741 -132.31335 -0.10143804 -37.37101 -0.10103317 -37.371796 -24.266682 -123.82839
186823000 -24.3158 -132.62997 -0.10155781 -37.567764 -0.10133708 -37.568867 -24.265846 -123.81796
187822000 -24.292252 -132.99562 -0.10185248 -37.765999 -0.10152336 -37.764088 -24.226616 -123.89803
188821000 -24.263203 -133.26399 -0.10143592 -37.962666 -0.10215247 -37.968887 -24.204664 -124.02927
189820000 -24.246248 -133.53873 -0.10183076 -38.160614 -0.10189568 -38.162296 -24.189869 -124.25771
190819000 -24.213106 -133.86897 -0.10303137 -38.359455 -0.10248218 -38.359856 -24.150482 -124.29482
191818000 -24.184019 -134.13176 -0.10296776 -38.556553 -0.10247741 -38.558838 -24.125889 -124.31305
192817000 -24.136404 -134.41028 -0.10336406 -38.751915 -0.10259508 -38.753696 -24.079525 -124.3697
193816000 -24.107031 -134.67249 -0.10339772 -38.949245 -0.10275915 -38.950562 -24.025412 -124.53059
194815000 -24.045677 -135.04738 -0.10361935 -39.142536 -0.10358489 -39.149704 -23.968159 -124.57451
195814000 -23.992338 -135.26103 -0.1041268 -39.34396 -0.10394174 -39.344563 -23.908413 -124.67371
196813000 -23.934217 -135.58223 -0.10382031 -39.535019 -0.10348786 -39.538956 -23.828339 -124.83765
197812000 -23.881643 -135.78941 -0.10431134 -39.738075 -0.10398415 -39.736641 -23.759186 -124.92628
198811000 -23.826208 -135.95499 -0.1047181 -39.930588 -0.10348415 -39.935112 -23.694128 -125.09903
199810000 -23.756279 -136.2881 -0.10534264 -40.125343 -0.10371108 -40.128845 -23.617733 -125.1742
200809000 -23.698738 -136.53331 -0.10530154 -40.322529 -0.1039542 -40.326557 -23.536293 -125.33919
201808000 -23.641037 -136.74908 -0.10546067 -40.525272 -0.10506815 -40.52882 -23.471386 -125.40707
202807000 -23.582649 -137.07191 -0.10663205 -40.725574 -0.10594897 -40.727928 -23.419439 -125.61549
