!Keysight Technologies,E5080B,MY59205177,A.15.75.32
!Date: Friday, February 23, 2024 02:59:34
!Correction: S11(Cdelta 2-Port  ) 
!S21(Cdelta 2-Port  ) 
!S12(Cdelta 2-Port  ) 
!S22(Cdelta 2-Port  ) 
!S2P File: Measurements: S11, S21, S12, S22:
# Hz S  dB   R 50
10000000 -44.099403 -3.5398684 -0.027254475 -2.0408731 -0.030834554 -2.0944104 -48.055588 -150.23074
10999000 -43.461712 -5.2577462 -0.028397132 -2.2567945 -0.030643461 -2.3106205 -47.855148 -142.3242
11998000 -42.685352 -7.8920035 -0.029226568 -2.4799573 -0.03012706 -2.5241063 -47.960922 -136.83203
12997000 -42.052029 -12.464588 -0.027663724 -2.6608469 -0.030435694 -2.6919198 -47.295731 -130.82077
13996000 -41.857098 -15.947131 -0.02666034 -2.8361547 -0.030167202 -2.860491 -46.887154 -125.03245
14995000 -41.506279 -19.772554 -0.028889876 -3.0485213 -0.030257393 -3.0720074 -46.437271 -121.91753
15994000 -41.408875 -23.589062 -0.030324385 -3.2656765 -0.032321341 -3.2879081 -46.156555 -118.36703
16993000 -41.409954 -27.439495 -0.028685058 -3.4586082 -0.031309843 -3.4682143 -45.221447 -119.35145
17992000 -41.442429 -32.277805 -0.029685261 -3.6595745 -0.03186211 -3.6628251 -44.691158 -119.33932
18991000 -41.740562 -36.438736 -0.030667705 -3.8727055 -0.03305658 -3.8705099 -43.958469 -119.49278
19990000 -41.599972 -41.544174 -0.033521678 -4.079566 -0.035254173 -4.0757184 -43.305607 -120.91043
20989000 -41.462429 -44.464504 -0.035498183 -4.2824345 -0.037423369 -4.2717543 -42.703541 -120.40207
21988000 -41.413864 -49.058464 -0.03623892 -4.4737082 -0.037783965 -4.4681129 -42.370979 -120.14334
22987000 -41.191429 -53.618504 -0.037322063 -4.6780896 -0.038534231 -4.6681123 -42.130951 -119.35072
23986000 -41.185871 -57.36964 -0.036839329 -4.8731718 -0.037442952 -4.872088 -42.040329 -119.52233
24985000 -40.842972 -59.996662 -0.038184281 -5.0810533 -0.038094971 -5.0707297 -41.733795 -117.02088
25984000 -40.614826 -62.009178 -0.038650714 -5.2885122 -0.038272809 -5.2882643 -41.359161 -115.80235
26983000 -40.335697 -63.869804 -0.039816488 -5.4813075 -0.039113015 -5.5009727 -41.240814 -115.03799
27982000 -40.217682 -65.117004 -0.040984668 -5.6815729 -0.041193724 -5.7175751 -40.929729 -113.4771
28981000 -40.188213 -66.40715 -0.0384598 -5.8785596 -0.040762816 -5.9034982 -40.714077 -112.92932
29980000 -39.851025 -68.072624 -0.038952902 -6.0734601 -0.041288324 -6.0797462 -40.369793 -112.34022
30979000 -39.438786 -67.000443 -0.036904596 -6.4261847 -0.035315238 -6.4137173 -39.864624 -112.89032
31978000 -39.26622 -68.200592 -0.035274006 -6.6229548 -0.037213713 -6.6108661 -39.631767 -112.47594
32977000 -39.108582 -69.765724 -0.036116239 -6.8327103 -0.0375534 -6.8297148 -39.362774 -112.48775
33976000 -38.929031 -70.947876 -0.036519535 -7.0301719 -0.037951868 -7.0245948 -39.029892 -112.07552
34975000 -38.665298 -71.971947 -0.036676165 -7.2301335 -0.038231026 -7.2298031 -38.805569 -111.9702
35974000 -38.496494 -72.797112 -0.035553254 -7.4240956 -0.038746826 -7.4271307 -38.519104 -111.19234
36973000 -38.275379 -73.513458 -0.036539897 -7.6240406 -0.039144881 -7.6274405 -38.204212 -110.32456
37972000 -38.104954 -73.376526 -0.035483047 -7.8331285 -0.038842943 -7.8432379 -37.976944 -109.72018
38971000 -37.772339 -73.228737 -0.036850031 -8.0368738 -0.038921036 -8.0452108 -37.797745 -108.26773
39970000 -37.453777 -73.904366 -0.034634151 -8.2292643 -0.038245652 -8.2441397 -37.483826 -107.94785
40969000 -37.18034 -73.656502 -0.035009909 -8.4215317 -0.03692966 -8.4418974 -37.220383 -106.57859
41968000 -36.830235 -73.790413 -0.035194933 -8.6316099 -0.038374402 -8.6438303 -37.03347 -105.40371
42967000 -36.561825 -74.180588 -0.03520485 -8.8383665 -0.039011668 -8.856534 -36.791096 -103.6165
43966000 -36.308678 -74.940742 -0.035319414 -9.0399418 -0.040856887 -9.0571203 -36.501793 -102.99129
44965000 -36.084049 -75.856636 -0.037111107 -9.2365379 -0.039956778 -9.2585125 -36.292107 -102.90168
45964000 -35.864738 -77.089394 -0.038441516 -9.439311 -0.040438816 -9.4581223 -36.037907 -102.79588
46963000 -35.693893 -79.089996 -0.038851298 -9.6370497 -0.042127542 -9.657074 -35.864758 -103.06975
47962000 -35.543076 -80.481079 -0.039973237 -9.838275 -0.042913333 -9.8507624 -35.668617 -103.3388
48961000 -35.336178 -82.070618 -0.04201306 -10.032002 -0.044456042 -10.053553 -35.431561 -103.57658
49960000 -35.148449 -83.427361 -0.043251634 -10.230007 -0.045362577 -10.253773 -35.294003 -103.80683
50959000 -34.932137 -84.74044 -0.043672591 -10.442467 -0.046484891 -10.455308 -35.11594 -104.24802
51958000 -34.739708 -85.978462 -0.045607422 -10.642565 -0.048033319 -10.653404 -34.950287 -104.78838
52957000 -34.546562 -87.065048 -0.047241636 -10.842751 -0.049213398 -10.845927 -34.789543 -104.57023
53956000 -34.374516 -87.793205 -0.049001861 -11.044699 -0.04985933 -11.044418 -34.650616 -104.57112
54955000 -34.227749 -88.362694 -0.049868498 -11.242274 -0.050606452 -11.241403 -34.493729 -104.67579
55954000 -34.070137 -89.196678 -0.051210683 -11.444876 -0.051051691 -11.438928 -34.374676 -104.37318
56953000 -33.943851 -89.222771 -0.050488599 -11.641972 -0.049972713 -11.630794 -34.318661 -104.63283
57952000 -33.799488 -89.881516 -0.051506672 -11.836591 -0.050858401 -11.830483 -34.206154 -104.6698
58951000 -33.683601 -90.240997 -0.05227058 -12.041673 -0.052402366 -12.025369 -34.056541 -104.78753
59950000 -33.55299 -90.64579 -0.052638959 -12.245692 -0.052145872 -12.223042 -33.979729 -105.08257
60949000 -33.454987 -91.191399 -0.053105898 -12.44529 -0.052990336 -12.424368 -33.896698 -105.47151
61948000 -33.390354 -91.585625 -0.053827628 -12.643456 -0.053264435 -12.626972 -33.805504 -105.54708
62947000 -33.3074 -91.788864 -0.052889191 -12.852307 -0.053639978 -12.836584 -33.665546 -105.78184
63946000 -33.231922 -92.447136 -0.054713577 -13.049582 -0.053922243 -13.029283 -33.565014 -105.99227
64945000 -33.137596 -92.623093 -0.055553295 -13.254293 -0.054859854 -13.234179 -33.457676 -106.44804
65944000 -33.039673 -92.959244 -0.055913299 -13.452764 -0.055553034 -13.436355 -33.357037 -106.90112
66943000 -32.897873 -93.448837 -0.054123271 -13.65292 -0.053888693 -13.637196 -33.267479 -107.11824
67942000 -32.840714 -93.326942 -0.056084529 -13.848845 -0.056049131 -13.837051 -33.147049 -107.52818
68941000 -32.72821 -93.422775 -0.055555917 -14.044212 -0.055030778 -14.031924 -33.041626 -107.4632
69940000 -32.640442 -93.499191 -0.055595245 -14.242606 -0.055638511 -14.232333 -32.896847 -107.86151
70939000 -32.535149 -93.395035 -0.055691734 -14.437794 -0.05536085 -14.43081 -32.768398 -107.69121
71938000 -32.393089 -93.029007 -0.056810167 -14.632855 -0.055373698 -14.6258 -32.629463 -107.6144
72937000 -32.234245 -92.918663 -0.055235006 -14.832895 -0.054663505 -14.823929 -32.485664 -107.39433
73936000 -32.094498 -92.593086 -0.054812405 -15.031556 -0.05387795 -15.022596 -32.37841 -107.16865
74935000 -31.962788 -92.878151 -0.054097585 -15.225551 -0.053066853 -15.221968 -32.227558 -106.88888
75934000 -31.84466 -93.216179 -0.054494955 -15.433729 -0.05426193 -15.423956 -32.130787 -106.82252
76933000 -31.717995 -93.604347 -0.056271501 -15.623344 -0.055517901 -15.620126 -31.965292 -107.20579
77932000 -31.635847 -94.366562 -0.056522205 -15.823409 -0.057145618 -15.813891 -31.872614 -107.26833
78931000 -31.557642 -95.183495 -0.055275381 -16.020807 -0.0562222 -16.014164 -31.763674 -107.12303
79930000 -31.446449 -95.963013 -0.057606746 -16.213881 -0.059483498 -16.211523 -31.674347 -107.36722
80929000 -31.322569 -96.905602 -0.059356749 -16.409822 -0.060020726 -16.405882 -31.574833 -107.79221
81928000 -31.242672 -97.740669 -0.059814699 -16.600836 -0.060351703 -16.598509 -31.452345 -107.80831
82927000 -31.150211 -98.486176 -0.061090916 -16.800076 -0.061361063 -16.798712 -31.352451 -108.18056
83926000 -31.039211 -99.217224 -0.062222552 -17.000019 -0.062976792 -16.997723 -31.239658 -108.42191
84925000 -30.93891 -99.688461 -0.0639337 -17.198627 -0.062577598 -17.188528 -31.14768 -108.48354
85924000 -30.861444 -100.1255 -0.064236864 -17.399664 -0.064098679 -17.394529 -31.064146 -108.48079
86923000 -30.74408 -100.69661 -0.064333282 -17.595009 -0.064825386 -17.590052 -30.956028 -108.41164
87922000 -30.636156 -101.04759 -0.064820923 -17.80204 -0.064324349 -17.790993 -30.871134 -108.46176
88921000 -30.562283 -101.35802 -0.06498646 -17.998592 -0.065502815 -17.995775 -30.776188 -108.49133
89920000 -30.47847 -101.91312 -0.06611596 -18.194595 -0.065584809 -18.188339 -30.732944 -108.65508
90919000 -30.374851 -102.19745 -0.066658214 -18.394714 -0.065890454 -18.387758 -30.645214 -108.8191
91918000 -30.282118 -102.60336 -0.067644849 -18.593025 -0.06669002 -18.58629 -30.579166 -108.86769
92917000 -30.194765 -102.95409 -0.068849467 -18.789375 -0.067913562 -18.787767 -30.514652 -109.03595
93916000 -30.113941 -103.31916 -0.068120502 -18.982489 -0.067624606 -18.981691 -30.423414 -109.60896
94915000 -30.043381 -103.95867 -0.069465183 -19.189047 -0.068935469 -19.176678 -30.372667 -109.49126
95914000 -29.976215 -104.17702 -0.070867643 -19.380339 -0.069230042 -19.37455 -30.27648 -109.75617
96913000 -29.895147 -104.36712 -0.071659967 -19.578568 -0.070459828 -19.575878 -30.210026 -110.11899
97912000 -29.821262 -104.89467 -0.073012322 -19.772331 -0.0708979 -19.774937 -30.130041 -110.34789
98911000 -29.719 -105.06288 -0.073397212 -19.976902 -0.071925774 -19.971426 -30.089478 -110.59773
99910000 -29.660332 -105.23634 -0.073631264 -20.171341 -0.072345041 -20.169107 -29.98225 -110.85278
100909000 -29.567213 -105.47821 -0.073252939 -20.382065 -0.071291551 -20.376686 -29.897566 -111.05842
101908000 -29.480133 -105.75401 -0.074630283 -20.583488 -0.072944142 -20.578482 -29.785997 -110.85605
102907000 -29.344284 -105.78358 -0.074852817 -20.78104 -0.07281068 -20.781019 -29.718605 -110.83926
103906000 -29.254829 -105.85282 -0.074708767 -20.984396 -0.072119214 -20.979778 -29.564985 -110.77739
104905000 -29.105488 -105.7923 -0.075992525 -21.183743 -0.073207393 -21.183157 -29.443676 -110.45664
105904000 -28.968122 -105.88313 -0.075951695 -21.382395 -0.073561497 -21.377832 -29.318531 -110.35532
106903000 -28.850323 -106.01368 -0.076223299 -21.592688 -0.073245302 -21.583668 -29.19664 -110.21761
107902000 -28.695814 -106.32524 -0.076938868 -21.792606 -0.074551284 -21.784142 -29.058004 -110.18724
108901000 -28.581955 -106.62975 -0.07709986 -21.991543 -0.075909808 -21.985067 -28.927769 -110.16685
109900000 -28.457632 -107.13422 -0.07885088 -22.194052 -0.076528639 -22.182564 -28.772158 -110.26984
110899000 -28.340727 -107.73891 -0.079807863 -22.390999 -0.077262968 -22.380503 -28.649637 -110.54428
111898000 -28.250654 -108.41475 -0.081330508 -22.591141 -0.078517176 -22.584648 -28.540983 -110.67908
112897000 -28.122543 -108.98251 -0.082778752 -22.789331 -0.079632796 -22.776722 -28.397966 -110.84799
113896000 -28.011511 -109.64694 -0.083273746 -22.987797 -0.080514535 -22.978928 -28.290897 -110.99496
114895000 -27.918262 -110.26312 -0.084791273 -23.187593 -0.081843272 -23.175238 -28.175228 -111.13475
115894000 -27.789371 -110.59499 -0.086274996 -23.3888 -0.082830466 -23.376307 -28.105968 -111.32215
116893000 -27.707752 -111.1304 -0.086686678 -23.581532 -0.083730273 -23.564768 -27.974628 -111.47449
117892000 -27.631521 -111.64626 -0.086044751 -23.780163 -0.084253088 -23.766739 -27.903366 -111.66432
118891000 -27.564655 -112.07926 -0.087960519 -23.981564 -0.084194757 -23.967348 -27.803316 -111.83433
119890000 -27.476183 -112.42931 -0.087990366 -24.181118 -0.085736625 -24.162632 -27.795303 -111.99738
120889000 -27.427687 -112.93959 -0.08864183 -24.379381 -0.085062109 -24.367842 -27.718794 -111.93528
121888000 -27.383562 -113.30222 -0.08942154 -24.579702 -0.085043103 -24.564167 -27.657135 -112.22026
122887000 -27.33997 -113.46339 -0.090039395 -24.77684 -0.087030523 -24.764135 -27.613428 -112.23917
123886000 -27.285885 -113.90718 -0.090997785 -24.981853 -0.087410048 -24.96294 -27.600029 -112.42934
124885000 -27.248014 -114.40163 -0.090455391 -25.180401 -0.087083079 -25.167322 -27.562222 -112.50381
125884000 -27.194012 -114.57818 -0.091283545 -25.377726 -0.087230451 -25.361187 -27.537457 -112.65756
126883000 -27.175949 -114.99033 -0.09164124 -25.579931 -0.088820428 -25.565805 -27.497004 -112.72757
127882000 -27.127085 -115.2782 -0.091688037 -25.77935 -0.088559397 -25.762316 -27.453955 -112.86157
128881000 -27.094387 -115.58899 -0.092246711 -25.982256 -0.088523202 -25.961538 -27.410366 -113.00372
129880000 -27.044876 -115.90693 -0.092382357 -26.182045 -0.089159422 -26.163195 -27.370075 -112.99002
130879000 -26.979275 -116.0787 -0.092347458 -26.379536 -0.089220196 -26.364935 -27.294889 -113.04901
131878000 -26.914816 -116.29861 -0.092889823 -26.583092 -0.090035431 -26.563892 -27.232668 -112.97089
132877000 -26.847279 -116.36641 -0.092544988 -26.784836 -0.090214618 -26.765617 -27.144775 -112.93102
133876000 -26.76181 -116.53793 -0.092954881 -26.983023 -0.090142995 -26.968321 -27.048817 -112.84113
134875000 -26.660753 -116.64864 -0.093433842 -27.183254 -0.090999641 -27.16433 -26.94763 -112.72519
135874000 -26.581066 -116.66224 -0.093302131 -27.382412 -0.090858214 -27.364941 -26.850046 -112.74055
136873000 -26.468729 -116.63492 -0.093848318 -27.584543 -0.090529397 -27.569351 -26.762341 -112.70525
137872000 -26.39257 -116.75723 -0.093975283 -27.787828 -0.090997256 -27.771889 -26.655676 -112.65948
138871000 -26.316412 -116.96043 -0.094218649 -27.989067 -0.090696715 -27.977625 -26.562872 -112.84128
139870000 -26.221495 -117.22075 -0.094928198 -28.187737 -0.091981247 -28.169182 -26.477911 -112.99615
140869000 -26.136339 -117.65553 -0.096869059 -28.380856 -0.093355551 -28.36447 -26.373091 -113.12966
141868000 -26.040108 -118.15863 -0.097281478 -28.575577 -0.093913384 -28.560331 -26.308863 -113.47289
142867000 -25.960482 -118.41204 -0.095831566 -28.771646 -0.092967041 -28.754539 -26.220987 -113.65652
143866000 -25.890202 -118.90389 -0.096920945 -28.968307 -0.094700664 -28.952909 -26.154066 -114.13774
144865000 -25.837263 -119.43792 -0.098454364 -29.164837 -0.095447332 -29.150883 -26.095642 -114.44896
145864000 -25.781578 -119.76677 -0.099433161 -29.367689 -0.097104117 -29.355347 -26.066959 -114.71004
146863000 -25.735909 -120.14083 -0.10015971 -29.566219 -0.097555742 -29.552391 -26.018377 -115.01473
147862000 -25.69533 -120.50947 -0.10036555 -29.765354 -0.097231187 -29.74921 -25.98082 -115.3574
148861000 -25.663181 -121.02494 -0.10059205 -29.9617 -0.098500177 -29.944859 -25.961153 -115.56627
149860000 -25.653059 -121.22332 -0.10156629 -30.161337 -0.09824995 -30.149771 -25.930914 -115.79439
150859000 -25.632559 -121.60825 -0.10175338 -30.363138 -0.099090181 -30.346783 -25.919283 -115.98792
151858000 -25.617794 -121.90244 -0.10171521 -30.558243 -0.098895006 -30.543428 -25.906713 -116.30219
152857000 -25.59733 -122.18915 -0.10201679 -30.755569 -0.098216318 -30.744967 -25.889687 -116.41403
153856000 -25.589533 -122.43561 -0.10179418 -30.956043 -0.098532215 -30.940392 -25.913351 -116.70359
154855000 -25.585775 -122.61203 -0.10227359 -31.15358 -0.09909045 -31.142054 -25.905045 -116.94049
155854000 -25.599447 -122.87936 -0.10212518 -31.350136 -0.099611141 -31.336395 -25.898298 -117.19289
156853000 -25.585121 -123.54912 -0.10006011 -31.538311 -0.099186324 -31.531231 -25.890413 -117.52068
157852000 -25.589565 -123.77634 -0.10156602 -31.7416 -0.10002542 -31.731758 -25.880518 -117.84328
158851000 -25.587416 -124.02325 -0.10200619 -31.939327 -0.10067657 -31.928202 -25.869583 -118.13383
159850000 -25.574764 -124.16377 -0.10272178 -32.13641 -0.10094839 -32.129051 -25.860132 -118.2814
160849000 -25.55455 -124.28174 -0.1029826 -32.337406 -0.10122024 -32.330044 -25.840591 -118.56021
161848000 -25.539524 -124.38686 -0.10352365 -32.538422 -0.10126157 -32.52816 -25.79406 -118.69437
162847000 -25.496227 -124.57853 -0.10311037 -32.736904 -0.102025 -32.726864 -25.763327 -118.92131
163846000 -25.457325 -124.76868 -0.10325272 -32.93372 -0.10225955 -32.927914 -25.689064 -118.90955
164845000 -25.395695 -124.81478 -0.10343006 -33.134163 -0.10200248 -33.123932 -25.623856 -119.01162
165844000 -25.340866 -124.88596 -0.10407271 -33.329987 -0.1016018 -33.323986 -25.539078 -119.14362
166843000 -25.277988 -124.9383 -0.10407695 -33.527817 -0.10265207 -33.525822 -25.47336 -119.31898
167842000 -25.222067 -125.119 -0.1048393 -33.728233 -0.10283629 -33.722939 -25.392042 -119.23544
168841000 -25.14418 -125.30642 -0.10407112 -33.930664 -0.10333887 -33.922188 -25.314835 -119.33643
169840000 -25.073874 -125.54893 -0.10482126 -34.125378 -0.10350535 -34.12101 -25.229639 -119.53265
170839000 -25.015751 -125.82457 -0.10588823 -34.321224 -0.10412601 -34.317207 -25.143803 -119.7215
171838000 -24.956352 -126.229 -0.10591024 -34.518707 -0.10503527 -34.515461 -25.080961 -119.95676
172837000 -24.891254 -126.6335 -0.10700745 -34.716248 -0.10608027 -34.708027 -25.013596 -120.19874
173836000 -24.817507 -126.99628 -0.10805903 -34.912388 -0.10694723 -34.91185 -24.968523 -120.45104
174835000 -24.766558 -127.47397 -0.10867397 -35.110226 -0.10737812 -35.110138 -24.922606 -120.79248
175834000 -24.71583 -127.84909 -0.10959321 -35.307602 -0.10806434 -35.304653 -24.863567 -121.06284
176833000 -24.666992 -128.23141 -0.10975993 -35.506752 -0.10896938 -35.504066 -24.809151 -121.22949
177832000 -24.619591 -128.68965 -0.11055911 -35.702824 -0.10925978 -35.698112 -24.779325 -121.39999
178831000 -24.5811 -129.05217 -0.11113323 -35.898346 -0.10971586 -35.89542 -24.745564 -121.6382
179830000 -24.543095 -129.49936 -0.11185299 -36.094959 -0.11009711 -36.093357 -24.719707 -121.74665
180829000 -24.507307 -129.68959 -0.11212286 -36.293175 -0.11116696 -36.291767 -24.687511 -121.94286
181828000 -24.481453 -130.06416 -0.11195605 -36.489395 -0.11086449 -36.485775 -24.673447 -122.05827
182827000 -24.453817 -130.41129 -0.11224665 -36.684761 -0.11171594 -36.683704 -24.654491 -122.14143
183826000 -24.415215 -130.7126 -0.11336087 -36.880997 -0.11163572 -36.882137 -24.646259 -122.25289
184825000 -24.418396 -131.05144 -0.11208833 -37.074974 -0.11165697 -37.078312 -24.632141 -122.33543
185824000 -24.387878 -131.40353 -0.11290813 -37.27396 -0.11197172 -37.275333 -24.624561 -122.39346
186823000 -24.375004 -131.72197 -0.11261111 -37.472466 -0.11223124 -37.473866 -24.621029 -122.3865
187822000 -24.35401 -132.07588 -0.11318524 -37.667637 -0.11248519 -37.666241 -24.588146 -122.46214
188821000 -24.335398 -132.29124 -0.11372995 -37.861519 -0.11234387 -37.868664 -24.572008 -122.56123
189820000 -24.31835 -132.57338 -0.11433824 -38.064308 -0.11269666 -38.062969 -24.562351 -122.7394
190819000 -24.288536 -132.80927 -0.11523875 -38.26181 -0.11385112 -38.262138 -24.532904 -122.67285
191818000 -24.255123 -132.98376 -0.11671324 -38.456718 -0.11518931 -38.45665 -24.497347 -122.58187
192817000 -24.180868 -133.24092 -0.11761131 -38.643085 -0.1156274 -38.645641 -24.42592 -122.66603
193816000 -24.146809 -133.63431 -0.11569918 -38.838032 -0.11452243 -38.83643 -24.368525 -122.93349
194815000 -24.088331 -134.0737 -0.11529723 -39.035011 -0.11549368 -39.033775 -24.303364 -123.01498
195814000 -24.039906 -134.28871 -0.11632901 -39.23185 -0.11440867 -39.231823 -24.253935 -123.14146
196813000 -23.981102 -134.64391 -0.11605011 -39.423141 -0.11441053 -39.425209 -24.17494 -123.28342
197812000 -23.926849 -134.8812 -0.11639469 -39.625462 -0.11477093 -39.620808 -24.099178 -123.41192
198811000 -23.876646 -135.05263 -0.11595227 -39.819881 -0.11502822 -39.821548 -24.038015 -123.58948
199810000 -23.799824 -135.4236 -0.11639044 -40.009239 -0.11471459 -40.014698 -23.96244 -123.68978
200809000 -23.749025 -135.7197 -0.11715255 -40.211105 -0.11545141 -40.214745 -23.881025 -123.89072
201808000 -23.688318 -135.92789 -0.1178709 -40.410099 -0.11605436 -40.412418 -23.81311 -123.9828
202807000 -23.627489 -136.30092 -0.11778685 -40.60997 -0.11651567 -40.615124 -23.758501 -124.18106
203806000 -23.577841 -136.72913 -0.11976537 -40.813122 -0.11718632 -40.810478 -23.695061 -124.33383
