!Keysight Technologies,E5080B,MY59205177,A.15.75.32
!Date: Friday, February 23, 2024 03:37:56
!Correction: S11(Cdelta 2-Port  ) 
!S21(Cdelta 2-Port  ) 
!S12(Cdelta 2-Port  ) 
!S22(Cdelta 2-Port  ) 
!S2P File: Measurements: S11, S21, S12, S22:
# Hz S  dB   R 50
10000000 -46.127758 -2.6352108 -0.015445894 -2.041935 -0.01861977 -2.0965447 -45.921116 -157.72522
10999000 -45.323742 -4.7070336 -0.016280133 -2.2618184 -0.017995363 -2.3150451 -45.850788 -151.2021
11998000 -44.346546 -7.8045225 -0.016934181 -2.4905539 -0.018102197 -2.5302465 -46.061325 -147.03957
12997000 -43.591522 -13.490788 -0.015890922 -2.6661103 -0.017280601 -2.6988385 -45.581528 -141.45464
13996000 -43.27718 -17.482929 -0.014935193 -2.8469634 -0.01785812 -2.8680522 -45.401173 -136.15021
14995000 -42.871204 -21.780537 -0.017604958 -3.0547185 -0.017261889 -3.0808933 -45.074284 -132.58894
15994000 -42.754654 -26.015173 -0.01888963 -3.2780001 -0.01984285 -3.2966635 -45.013496 -129.30884
16993000 -42.646366 -30.904297 -0.017828489 -3.4739485 -0.01846743 -3.4808652 -44.156498 -129.09691
17992000 -42.699196 -36.306126 -0.018371245 -3.6692314 -0.019376874 -3.6701629 -43.549862 -128.87479
18991000 -42.958897 -41.524208 -0.019417698 -3.8816955 -0.020255301 -3.8829882 -42.956749 -128.06189
19990000 -42.723824 -47.545517 -0.021523848 -4.0935583 -0.022494819 -4.0835729 -42.23465 -128.50313
20989000 -42.581318 -50.546917 -0.023870997 -4.3002925 -0.024022747 -4.2859521 -41.738491 -128.08478
21988000 -42.362907 -55.795673 -0.024653748 -4.4908471 -0.024961734 -4.4804225 -41.43409 -127.65173
22987000 -42.03503 -60.618027 -0.026005348 -4.6910338 -0.026409792 -4.6819744 -41.202892 -127.00846
23986000 -41.961704 -64.969589 -0.025450181 -4.8900075 -0.02503984 -4.8864708 -41.039085 -126.70751
24985000 -41.593998 -67.618263 -0.026048318 -5.0958357 -0.02516976 -5.0893631 -40.870285 -124.49147
25984000 -41.229954 -69.305206 -0.027415723 -5.2986374 -0.025888164 -5.3027458 -40.484348 -122.67973
26983000 -40.884319 -71.122017 -0.028079003 -5.501246 -0.026241552 -5.5178342 -40.423683 -122.21331
27982000 -40.756561 -72.249611 -0.029491091 -5.6955738 -0.028013607 -5.7339854 -40.155006 -120.85506
28981000 -40.667286 -73.744743 -0.027553529 -5.8959699 -0.027982084 -5.9208879 -39.917576 -119.99072
29980000 -40.286068 -75.364899 -0.027388891 -6.0910602 -0.02881691 -6.0956216 -39.621449 -119.07858
30979000 -39.877216 -74.226746 -0.025179133 -6.4485307 -0.023382466 -6.4386868 -39.142265 -119.37108
31978000 -39.675552 -75.341492 -0.024024047 -6.6438003 -0.024086518 -6.633831 -38.911327 -118.69365
32977000 -39.479824 -76.680717 -0.024558468 -6.8512139 -0.025222875 -6.8476052 -38.680275 -118.78881
33976000 -39.32724 -77.69281 -0.024346305 -7.0528569 -0.025179654 -7.0459628 -38.382248 -118.26139
34975000 -39.014839 -78.504005 -0.024450433 -7.2517271 -0.026229572 -7.2500958 -38.150005 -117.86259
35974000 -38.834305 -79.056389 -0.024346044 -7.4457455 -0.025906393 -7.4498444 -37.887039 -116.96481
36973000 -38.550674 -79.755348 -0.024799798 -7.6471381 -0.027079951 -7.6506062 -37.638748 -116.14291
37972000 -38.393097 -79.497406 -0.023952726 -7.8593783 -0.026515009 -7.8669257 -37.39127 -115.27164
38971000 -38.110706 -78.995369 -0.025446014 -8.0607691 -0.026489226 -8.0669518 -37.236206 -113.71821
39970000 -37.776257 -79.291336 -0.024024568 -8.2529182 -0.025315827 -8.2681398 -36.994926 -113.18651
40969000 -37.486843 -79.019592 -0.023446491 -8.4485903 -0.025803011 -8.4675808 -36.749088 -111.72892
41968000 -37.143524 -78.950897 -0.024090944 -8.6511621 -0.025540795 -8.6694317 -36.562008 -110.50439
42967000 -36.877232 -78.93792 -0.023982922 -8.8657751 -0.026053265 -8.8819628 -36.366093 -108.66647
43966000 -36.57901 -79.574921 -0.025006514 -9.0656548 -0.027273491 -9.0839615 -36.106884 -107.90559
44965000 -36.365238 -80.322266 -0.02545643 -9.2680864 -0.027184144 -9.2906561 -35.894119 -107.67088
45964000 -36.117687 -81.260391 -0.026730925 -9.4666491 -0.029704288 -9.4839287 -35.654324 -107.35023
46963000 -35.912338 -83.222816 -0.027221914 -9.6577272 -0.029458513 -9.683877 -35.475204 -107.51865
47962000 -35.752625 -84.60675 -0.028440645 -9.8650217 -0.030727144 -9.8855524 -35.279396 -107.62878
48961000 -35.556561 -86.079987 -0.030649196 -10.059001 -0.032111671 -10.08199 -35.054401 -107.733
49960000 -35.323696 -87.335716 -0.032474171 -10.260108 -0.03317396 -10.284201 -34.924244 -107.87039
50959000 -35.107899 -88.646423 -0.032291092 -10.473188 -0.034440022 -10.485202 -34.740479 -108.16243
51958000 -34.881062 -89.720467 -0.034462985 -10.673324 -0.035727073 -10.681689 -34.559315 -108.52869
52957000 -34.666931 -90.696297 -0.035582744 -10.875672 -0.036635704 -10.880442 -34.401539 -108.3196
53956000 -34.508289 -91.412247 -0.037154183 -11.0769 -0.037476111 -11.079676 -34.270821 -108.30067
54955000 -34.340405 -91.871231 -0.037625466 -11.278461 -0.038278036 -11.27346 -34.123352 -108.28049
55954000 -34.168232 -92.705368 -0.039197907 -11.474811 -0.038250092 -11.475163 -34.011311 -108.0005
56953000 -34.040092 -92.765198 -0.038477559 -11.675558 -0.03728551 -11.668832 -33.940063 -108.18074
57952000 -33.886837 -93.303825 -0.039077491 -11.874899 -0.038824659 -11.861365 -33.827908 -108.27316
58951000 -33.765915 -93.606758 -0.040432282 -12.079358 -0.039460167 -12.055301 -33.679577 -108.37244
59950000 -33.638065 -94.070038 -0.041522484 -12.278946 -0.040648628 -12.25701 -33.598591 -108.70179
60949000 -33.52047 -94.584175 -0.041355487 -12.478718 -0.04103693 -12.460009 -33.511234 -108.90297
61948000 -33.445301 -94.896698 -0.042422656 -12.682163 -0.040851135 -12.664317 -33.422596 -108.9666
62947000 -33.359245 -95.061523 -0.041884203 -12.891124 -0.041444603 -12.868299 -33.28722 -109.20811
63946000 -33.279476 -95.85482 -0.043375563 -13.089533 -0.042249613 -13.067571 -33.180866 -109.35283
64945000 -33.17268 -95.989716 -0.04405541 -13.289388 -0.042971369 -13.270718 -33.077099 -109.82746
65944000 -33.075562 -96.324577 -0.044372097 -13.491732 -0.043333471 -13.474351 -32.980991 -110.25017
66943000 -32.925739 -96.668526 -0.042453501 -13.691602 -0.041703079 -13.676667 -32.865608 -110.51696
67942000 -32.875526 -96.638863 -0.044689588 -13.889734 -0.043373473 -13.877986 -32.748352 -110.85675
68941000 -32.756374 -96.782135 -0.043744236 -14.08181 -0.042169888 -14.073286 -32.635094 -110.7782
69940000 -32.663963 -96.717354 -0.043319874 -14.281383 -0.042990714 -14.27329 -32.488243 -111.07645
70939000 -32.555267 -96.651077 -0.044604331 -14.478347 -0.043132152 -14.472879 -32.370598 -110.91138
71938000 -32.426147 -96.23735 -0.043772999 -14.67369 -0.042772423 -14.667794 -32.241425 -110.85143
72937000 -32.254581 -96.041672 -0.04368645 -14.872793 -0.042489313 -14.866136 -32.089691 -110.50413
73936000 -32.126457 -95.68705 -0.043423936 -15.072672 -0.041539732 -15.064886 -31.987864 -110.36266
74935000 -32.003399 -95.905029 -0.042435203 -15.269986 -0.040674496 -15.267723 -31.832184 -109.995
75934000 -31.879852 -96.157379 -0.042993329 -15.476358 -0.041637741 -15.471757 -31.745667 -109.86132
76933000 -31.740137 -96.479767 -0.044262521 -15.672033 -0.042490359 -15.663613 -31.56879 -110.17523
77932000 -31.644567 -97.273018 -0.045060728 -15.869246 -0.044431198 -15.859466 -31.467548 -110.16119
78931000 -31.575926 -98.015938 -0.04340354 -16.069107 -0.042926401 -16.060534 -31.376722 -110.0401
79930000 -31.461843 -98.852188 -0.046225607 -16.259367 -0.045503568 -16.260836 -31.276361 -110.3939
80929000 -31.350552 -99.605156 -0.047916848 -16.45927 -0.046877898 -16.456123 -31.171654 -110.57262
81928000 -31.241146 -100.36205 -0.047986731 -16.648161 -0.047782846 -16.645702 -31.046627 -110.59373
82927000 -31.155247 -101.13317 -0.049474955 -16.847448 -0.048525155 -16.847818 -30.940359 -110.8565
83926000 -31.029093 -101.77108 -0.050740805 -17.048271 -0.049582828 -17.045879 -30.817505 -111.04945
84925000 -30.93371 -102.19521 -0.051885467 -17.248234 -0.049419709 -17.241032 -30.726675 -111.08446
85924000 -30.84045 -102.55227 -0.05206361 -17.443369 -0.050744209 -17.44425 -30.637585 -111.06534
86923000 -30.735094 -103.07786 -0.05266621 -17.640892 -0.051877607 -17.638756 -30.544207 -110.98843
87922000 -30.61627 -103.4232 -0.051880751 -17.849831 -0.051362339 -17.841887 -30.463428 -110.98297
88921000 -30.542446 -103.68364 -0.053646792 -18.050941 -0.05189804 -18.045212 -30.359367 -110.90072
89920000 -30.439211 -104.20187 -0.054551836 -18.248713 -0.053014182 -18.242796 -30.307814 -111.09384
90919000 -30.339895 -104.50731 -0.05490835 -18.446861 -0.053912546 -18.442614 -30.222446 -111.26205
91918000 -30.240934 -104.85588 -0.056208041 -18.645634 -0.053725414 -18.639608 -30.156702 -111.29697
92917000 -30.154736 -105.17089 -0.05690537 -18.84219 -0.055295832 -18.841805 -30.090569 -111.37185
93916000 -30.065607 -105.48743 -0.05655656 -19.03562 -0.055465464 -19.034941 -29.993164 -112.03414
94915000 -29.992222 -106.15364 -0.058150824 -19.239311 -0.056595109 -19.233423 -29.940701 -111.85847
95914000 -29.918367 -106.25849 -0.058720682 -19.434233 -0.057346273 -19.431526 -29.852379 -112.10954
96913000 -29.838541 -106.51516 -0.060000252 -19.634716 -0.058246583 -19.630852 -29.784042 -112.48046
97912000 -29.758671 -106.98685 -0.061373927 -19.829941 -0.058155283 -19.830935 -29.703514 -112.71054
98911000 -29.652372 -107.12446 -0.061446916 -20.032269 -0.059188277 -20.02862 -29.673428 -112.94531
99910000 -29.581015 -107.25674 -0.062483318 -20.231915 -0.059969023 -20.227102 -29.562782 -113.19796
100909000 -29.491844 -107.52728 -0.061963905 -20.439444 -0.059319485 -20.434193 -29.469452 -113.42712
101908000 -29.408333 -107.76614 -0.063146196 -20.637461 -0.060949679 -20.637547 -29.364334 -113.17089
102907000 -29.264629 -107.74274 -0.063556738 -20.83745 -0.060676143 -20.835545 -29.287472 -113.18459
103906000 -29.169991 -107.76344 -0.063619256 -21.047285 -0.060310755 -21.041227 -29.15324 -113.07554
104905000 -29.02338 -107.65594 -0.064578667 -21.244545 -0.06151098 -21.241407 -29.017235 -112.81744
105904000 -28.879366 -107.75297 -0.064384773 -21.444456 -0.061127145 -21.439352 -28.90984 -112.68398
106903000 -28.771414 -107.83001 -0.064319357 -21.651697 -0.06178404 -21.644266 -28.78264 -112.60684
107902000 -28.607922 -108.16991 -0.065555379 -21.852335 -0.061931081 -21.843906 -28.650955 -112.54066
108901000 -28.504883 -108.40399 -0.06645108 -22.053886 -0.063382857 -22.04562 -28.515728 -112.49332
109900000 -28.377066 -108.82362 -0.066943951 -22.252712 -0.064036675 -22.245472 -28.374071 -112.59776
110899000 -28.254869 -109.46524 -0.068151534 -22.450773 -0.065186426 -22.446852 -28.249603 -112.83269
111898000 -28.165375 -110.10483 -0.069414683 -22.650427 -0.066446088 -22.649408 -28.129915 -112.95795
112897000 -28.039637 -110.68011 -0.071573913 -22.853708 -0.067315683 -22.838909 -27.987911 -113.10248
113896000 -27.934202 -111.23232 -0.072557457 -23.050716 -0.068769254 -23.041939 -27.883574 -113.26557
114895000 -27.835289 -111.83253 -0.072994687 -23.250206 -0.070110716 -23.240395 -27.772606 -113.35706
115894000 -27.714746 -112.20948 -0.074575514 -23.453571 -0.070939735 -23.439346 -27.704336 -113.51908
116893000 -27.633148 -112.67203 -0.07532268 -23.647133 -0.072048679 -23.634897 -27.578375 -113.59468
117892000 -27.553232 -113.19015 -0.074930251 -23.845148 -0.071911559 -23.834152 -27.504717 -113.76579
118891000 -27.49122 -113.58375 -0.075572908 -24.047598 -0.07222423 -24.03495 -27.4055 -113.89864
119890000 -27.402853 -113.92302 -0.076300487 -24.250578 -0.072896495 -24.235935 -27.402754 -113.99942
120889000 -27.35401 -114.46053 -0.077618979 -24.452238 -0.073114462 -24.434578 -27.323053 -113.95531
121888000 -27.311989 -114.79472 -0.077642962 -24.647245 -0.074090727 -24.638094 -27.262875 -114.26231
122887000 -27.274502 -114.98827 -0.078445479 -24.848209 -0.074613698 -24.83844 -27.21924 -114.28812
123886000 -27.222258 -115.37389 -0.078881197 -25.050272 -0.075425662 -25.03229 -27.200096 -114.42615
124885000 -27.181051 -115.86823 -0.078990333 -25.248268 -0.075839214 -25.235733 -27.177082 -114.44173
125884000 -27.141699 -116.0695 -0.079883799 -25.450094 -0.07562875 -25.435326 -27.148531 -114.58754
126883000 -27.114756 -116.47973 -0.080519281 -25.651972 -0.076819509 -25.636536 -27.10652 -114.60055
127882000 -27.066113 -116.74921 -0.080662213 -25.850018 -0.076775245 -25.834652 -27.064625 -114.77801
128881000 -27.038073 -117.06384 -0.080585472 -26.054996 -0.076601885 -26.036734 -27.033072 -114.83556
129880000 -26.979046 -117.42347 -0.081422031 -26.257162 -0.07724373 -26.235468 -26.987755 -114.78214
130879000 -26.927959 -117.54477 -0.081110016 -26.456272 -0.078230143 -26.439804 -26.918453 -114.81835
131878000 -26.853876 -117.7999 -0.081305191 -26.656645 -0.078233831 -26.639029 -26.860048 -114.70725
132877000 -26.788967 -117.84653 -0.081046194 -26.85409 -0.078053825 -26.840778 -26.77998 -114.66579
133876000 -26.707306 -117.98218 -0.081574224 -27.062109 -0.078223027 -27.036642 -26.694099 -114.54552
134875000 -26.608824 -118.11549 -0.082091242 -27.260391 -0.07931643 -27.24065 -26.598501 -114.40627
135874000 -26.535055 -118.1807 -0.08119151 -27.459921 -0.078635789 -27.44346 -26.496134 -114.34307
136873000 -26.424873 -118.09043 -0.082534708 -27.66308 -0.078617603 -27.647589 -26.419113 -114.28089
137872000 -26.345772 -118.20479 -0.08220309 -27.863436 -0.079249993 -27.844791 -26.315353 -114.23706
138871000 -26.272873 -118.426 -0.082720712 -28.06576 -0.079036988 -28.047194 -26.220081 -114.39329
139870000 -26.173269 -118.71904 -0.083138645 -28.26321 -0.080283538 -28.244835 -26.141729 -114.5462
140869000 -26.095493 -119.24546 -0.084697567 -28.458963 -0.080880307 -28.44371 -26.042294 -114.73991
141868000 -26.019468 -119.65355 -0.084425963 -28.659369 -0.082227096 -28.644333 -25.993036 -115.03215
142867000 -25.934105 -119.85452 -0.083400935 -28.858686 -0.081390381 -28.839634 -25.911261 -115.13786
143866000 -25.860384 -120.3407 -0.085359097 -29.054976 -0.082834691 -29.036751 -25.840635 -115.589
144865000 -25.804785 -120.84247 -0.086953409 -29.250616 -0.084264696 -29.237555 -25.78413 -115.87495
145864000 -25.755644 -121.16992 -0.087186076 -29.457096 -0.085375726 -29.442415 -25.746689 -116.14478
146863000 -25.706245 -121.53671 -0.088438138 -29.65312 -0.085671946 -29.640461 -25.700413 -116.40469
147862000 -25.672228 -121.84063 -0.089558691 -29.851 -0.086289525 -29.83984 -25.6712 -116.74961
148861000 -25.63921 -122.28794 -0.090336986 -30.051529 -0.087357752 -30.037376 -25.649937 -116.89537
149860000 -25.60524 -122.46343 -0.091528878 -30.24543 -0.088110559 -30.232719 -25.594994 -116.99541
150859000 -25.578796 -122.97633 -0.090888612 -30.439943 -0.088419117 -30.423349 -25.581715 -117.35615
151858000 -25.56212 -123.30527 -0.090710983 -30.643122 -0.087635085 -30.627695 -25.568708 -117.70163
152857000 -25.552755 -123.6164 -0.091133662 -30.837851 -0.087447025 -30.827574 -25.550261 -117.88145
153856000 -25.550396 -123.86526 -0.090358391 -31.039854 -0.086948387 -31.024137 -25.566774 -118.15894
154855000 -25.553106 -124.03049 -0.090869844 -31.23823 -0.087883912 -31.225655 -25.55883 -118.42596
155854000 -25.566122 -124.26252 -0.091194198 -31.438143 -0.088227324 -31.426571 -25.54945 -118.6957
156853000 -25.548929 -124.93924 -0.089182407 -31.625381 -0.086923033 -31.621191 -25.545811 -119.01251
157852000 -25.555546 -125.14975 -0.089991026 -31.825171 -0.088997453 -31.81786 -25.535278 -119.36411
158851000 -25.558916 -125.37166 -0.091261603 -32.028469 -0.088927172 -32.016171 -25.521711 -119.61176
159850000 -25.543951 -125.48113 -0.091409385 -32.227825 -0.089343332 -32.217617 -25.520021 -119.82066
160849000 -25.527025 -125.56638 -0.09166345 -32.426052 -0.090166517 -32.418194 -25.491091 -120.09129
161848000 -25.514032 -125.68027 -0.091995522 -32.629223 -0.089348085 -32.618553 -25.447538 -120.2052
162847000 -25.468996 -125.79737 -0.091785595 -32.825874 -0.089902498 -32.820683 -25.423317 -120.45419
163846000 -25.429167 -126.02721 -0.092688046 -33.025162 -0.090935141 -33.020168 -25.350742 -120.46365
164845000 -25.372774 -125.99941 -0.092876069 -33.224819 -0.090932757 -33.218552 -25.284582 -120.58927
165844000 -25.31727 -126.01357 -0.092840634 -33.423889 -0.091152161 -33.416588 -25.20891 -120.69961
166843000 -25.256327 -126.09612 -0.092651553 -33.62505 -0.091231205 -33.618774 -25.137678 -120.84138
167842000 -25.200346 -126.1944 -0.093121752 -33.823471 -0.0912394 -33.815853 -25.061716 -120.81269
168841000 -25.12809 -126.33242 -0.093647286 -34.021133 -0.091708392 -34.01799 -24.990017 -120.8393
169840000 -25.054632 -126.57314 -0.093070716 -34.215328 -0.092370987 -34.214497 -24.90761 -121.01844
170839000 -24.998272 -126.80209 -0.094208337 -34.418865 -0.09195745 -34.413727 -24.821718 -121.19607
171838000 -24.94026 -127.18571 -0.094056226 -34.616158 -0.092878446 -34.614574 -24.759182 -121.42365
172837000 -24.874046 -127.54888 -0.095540479 -34.813881 -0.094051994 -34.810024 -24.694868 -121.63604
173836000 -24.807686 -127.93929 -0.096624225 -35.014015 -0.095466919 -35.01236 -24.653564 -121.84412
174835000 -24.747396 -128.35855 -0.096963033 -35.209511 -0.096149936 -35.211895 -24.61178 -122.18958
175834000 -24.698591 -128.7137 -0.098252594 -35.40855 -0.097143829 -35.405556 -24.547417 -122.43312
176833000 -24.64666 -129.04578 -0.099391572 -35.608524 -0.097496971 -35.607296 -24.500042 -122.57532
177832000 -24.608377 -129.4722 -0.10015786 -35.805965 -0.098154366 -35.810024 -24.473766 -122.67664
178831000 -24.559534 -129.70988 -0.10203402 -36.003502 -0.10012846 -36.002537 -24.436243 -122.74652
179830000 -24.484875 -130.13991 -0.10265233 -36.18972 -0.10039495 -36.191082 -24.374872 -122.83541
180829000 -24.441057 -130.47102 -0.10146719 -36.379704 -0.10079314 -36.38237 -24.327543 -123.17796
181828000 -24.414906 -130.87912 -0.10094362 -36.582668 -0.099381775 -36.580662 -24.316158 -123.37107
182827000 -24.393469 -131.26097 -0.10139617 -36.775982 -0.1004225 -36.779297 -24.306023 -123.50159
183826000 -24.355572 -131.60272 -0.10208781 -36.979092 -0.1007065 -36.975616 -24.295408 -123.64746
184825000 -24.355461 -131.93567 -0.10188296 -37.176083 -0.10031018 -37.173569 -24.280251 -123.75821
185824000 -24.330458 -132.31528 -0.10180558 -37.367687 -0.10021667 -37.371597 -24.268106 -123.82017
186823000 -24.314049 -132.65831 -0.10172158 -37.568851 -0.10031945 -37.56744 -24.265297 -123.82998
187822000 -24.294699 -133.01532 -0.10245568 -37.765793 -0.10123825 -37.76569 -24.227173 -123.90686
188821000 -24.265806 -133.22681 -0.10211696 -37.960812 -0.10104828 -37.963623 -24.206099 -124.04609
189820000 -24.246778 -133.57376 -0.10244772 -38.161789 -0.10122553 -38.160652 -24.189856 -124.23083
190819000 -24.212349 -133.86511 -0.10344862 -38.358673 -0.10152204 -38.357632 -24.151453 -124.27143
191818000 -24.180832 -134.11687 -0.10331926 -38.557171 -0.10174807 -38.556496 -24.124935 -124.32345
192817000 -24.138126 -134.41188 -0.10328215 -38.7523 -0.10234118 -38.754349 -24.081898 -124.39207
193816000 -24.106676 -134.64917 -0.10420263 -38.948776 -0.10190336 -38.948196 -24.029207 -124.52932
194815000 -24.042244 -135.02544 -0.10404036 -39.14465 -0.10317929 -39.149464 -23.964697 -124.59435
195814000 -23.98934 -135.25027 -0.10470007 -39.344521 -0.10342742 -39.344673 -23.907267 -124.69341
196813000 -23.937504 -135.58102 -0.10509785 -39.536556 -0.10286677 -39.540348 -23.830652 -124.87929
197812000 -23.878153 -135.78818 -0.1043124 -39.733974 -0.10370418 -39.734631 -23.758684 -124.92976
198811000 -23.825958 -135.93655 -0.10486289 -39.931255 -0.10281402 -39.934231 -23.687115 -125.08581
199810000 -23.753931 -136.27597 -0.10529198 -40.129189 -0.10335637 -40.127815 -23.615921 -125.17512
200809000 -23.69772 -136.52298 -0.10536466 -40.325127 -0.10367104 -40.325523 -23.538889 -125.36528
201808000 -23.641146 -136.74033 -0.10604313 -40.523308 -0.1052591 -40.525963 -23.469593 -125.42365
202807000 -23.583511 -137.08426 -0.10667502 -40.72731 -0.10503394 -40.725216 -23.411821 -125.62514
