!Keysight Technologies,E5080B,MY59205177,A.15.75.32
!Date: Friday, February 23, 2024 02:59:40
!Correction: S11(Cdelta 2-Port  ) 
!S21(Cdelta 2-Port  ) 
!S12(Cdelta 2-Port  ) 
!S22(Cdelta 2-Port  ) 
!S2P File: Measurements: S11, S21, S12, S22:
# Hz S  dB   R 50
10000000 -44.10836 -3.712271 -0.027979217 -2.0406749 -0.031000886 -2.0949171 -48.197952 -150.24586
10999000 -43.436165 -5.4372935 -0.029078284 -2.2587411 -0.030291541 -2.3115542 -47.903503 -142.38797
11998000 -42.696487 -7.7113314 -0.029378243 -2.4805133 -0.030097866 -2.5212464 -47.99836 -136.96899
12997000 -42.077171 -12.663592 -0.028597506 -2.6595323 -0.02956537 -2.6929674 -47.32568 -130.04214
13996000 -41.853474 -15.725375 -0.027435521 -2.8385913 -0.030405194 -2.8588591 -46.836761 -125.13908
14995000 -41.501415 -19.659502 -0.02938137 -3.0457582 -0.029626878 -3.071774 -46.410244 -121.7209
15994000 -41.36528 -23.780165 -0.03021777 -3.26475 -0.033047453 -3.2860034 -46.159874 -117.81651
16993000 -41.400513 -27.705938 -0.030606704 -3.4568977 -0.031622995 -3.4722412 -45.280502 -118.91901
17992000 -41.448887 -32.143074 -0.030894255 -3.6617348 -0.031703304 -3.6627717 -44.666946 -119.56115
18991000 -41.738037 -36.482616 -0.031227972 -3.8735552 -0.032581359 -3.8678875 -43.969303 -119.03809
19990000 -41.587299 -41.621887 -0.033635158 -4.0761433 -0.035210591 -4.0733347 -43.24987 -120.87109
20989000 -41.500771 -44.445419 -0.036160614 -4.2823792 -0.036560521 -4.2703362 -42.666103 -120.37543
21988000 -41.372505 -49.314159 -0.036439136 -4.4764862 -0.036966208 -4.468163 -42.346001 -119.85978
22987000 -41.180801 -53.464485 -0.037528593 -4.6763172 -0.038690411 -4.6702719 -42.141106 -119.58313
23986000 -41.167713 -57.206272 -0.037532512 -4.8694983 -0.037606403 -4.8731627 -41.985462 -119.67754
24985000 -40.882065 -59.857899 -0.03763539 -5.0756736 -0.038058411 -5.0790296 -41.715897 -116.98133
25984000 -40.607704 -62.117859 -0.039162382 -5.2859182 -0.038488265 -5.2863169 -41.395893 -115.55618
26983000 -40.289043 -63.958153 -0.040191911 -5.4817624 -0.039790101 -5.5013347 -41.232262 -114.97331
27982000 -40.188908 -64.748253 -0.041638263 -5.6828089 -0.041414548 -5.7180552 -40.90831 -113.35987
28981000 -40.173889 -66.487091 -0.039799247 -5.8804421 -0.040879358 -5.9022493 -40.697514 -112.87714
29980000 -39.818466 -67.826981 -0.03955473 -6.0719137 -0.041929159 -6.0809774 -40.351982 -111.99581
30979000 -39.429871 -67.248123 -0.037135385 -6.4267621 -0.035914995 -6.4190502 -39.866642 -112.92819
31978000 -39.266407 -68.19503 -0.036047593 -6.6224132 -0.037405353 -6.6095195 -39.622871 -112.27718
32977000 -39.102295 -69.846352 -0.036437567 -6.8324084 -0.037647139 -6.8315392 -39.369678 -112.56486
33976000 -38.947536 -70.954651 -0.036435742 -7.0351706 -0.038328175 -7.0253186 -39.036411 -112.13084
34975000 -38.681267 -71.897255 -0.037010591 -7.229425 -0.03898764 -7.2301974 -38.839069 -111.88277
35974000 -38.508213 -72.627121 -0.036054116 -7.4210649 -0.039009318 -7.427496 -38.507935 -111.09035
36973000 -38.273712 -73.548477 -0.03675814 -7.6244507 -0.039311793 -7.6274738 -38.214008 -110.37162
37972000 -38.11282 -73.416725 -0.036354557 -7.8365879 -0.039210707 -7.8429084 -37.970898 -109.80879
38971000 -37.758812 -73.329865 -0.03769936 -8.0334282 -0.039561 -8.044322 -37.781429 -108.28246
39970000 -37.476505 -73.673622 -0.036010005 -8.2321577 -0.038092621 -8.2466536 -37.49556 -107.88348
40969000 -37.194141 -73.573105 -0.036140513 -8.4241447 -0.038373876 -8.4406528 -37.228153 -106.52007
41968000 -36.842403 -73.768486 -0.03633263 -8.6294641 -0.038924694 -8.6429586 -37.020653 -105.30386
42967000 -36.585075 -74.031281 -0.036417991 -8.8382645 -0.039133128 -8.8571138 -36.797951 -103.55391
43966000 -36.304771 -75.003746 -0.037298303 -9.0389624 -0.040724404 -9.0557928 -36.503731 -103.02916
44965000 -36.09251 -75.993202 -0.037928104 -9.238657 -0.039962787 -9.2643728 -36.275726 -102.98261
45964000 -35.864998 -77.04895 -0.038657241 -9.4434652 -0.041543916 -9.4594145 -36.032608 -102.82658
46963000 -35.693977 -79.072258 -0.038845293 -9.638073 -0.041871917 -9.6545868 -35.874214 -103.23376
47962000 -35.536655 -80.62709 -0.040417127 -9.8356266 -0.042856861 -9.8501158 -35.648922 -103.39514
48961000 -35.354961 -82.008583 -0.042770594 -10.031538 -0.044300701 -10.053394 -35.423149 -103.70705
49960000 -35.138435 -83.371674 -0.043688279 -10.233563 -0.045184445 -10.25253 -35.279961 -103.8149
50959000 -34.92495 -84.820961 -0.043875761 -10.442702 -0.046973672 -10.453602 -35.116024 -104.26828
51958000 -34.744289 -85.878426 -0.046081454 -10.642859 -0.048336163 -10.652199 -34.933113 -104.82638
52957000 -34.543678 -87.039459 -0.047795147 -10.841703 -0.049276233 -10.845876 -34.773121 -104.61835
53956000 -34.386803 -87.844109 -0.048097711 -11.043636 -0.050345875 -11.046554 -34.63805 -104.65917
54955000 -34.205223 -88.317276 -0.048950549 -11.246738 -0.050383847 -11.243259 -34.47998 -104.65591
55954000 -34.063728 -89.165581 -0.050535738 -11.444723 -0.051686898 -11.44181 -34.367367 -104.37079
56953000 -33.940456 -89.298813 -0.050147112 -11.640109 -0.050048914 -11.63238 -34.298264 -104.58038
57952000 -33.791447 -89.898224 -0.050788209 -11.838527 -0.051877081 -11.82904 -34.211182 -104.73542
58951000 -33.685238 -90.251801 -0.052147705 -12.042921 -0.052536514 -12.025188 -34.046482 -104.80271
59950000 -33.558517 -90.676537 -0.052784644 -12.242163 -0.053331785 -12.220659 -33.974789 -105.09765
60949000 -33.43935 -91.176941 -0.053414598 -12.443079 -0.052767612 -12.423212 -33.891628 -105.40813
61948000 -33.391811 -91.60434 -0.053887647 -12.643959 -0.052900199 -12.626571 -33.819607 -105.47964
62947000 -33.299088 -91.662392 -0.05288133 -12.850734 -0.053724367 -12.831385 -33.672882 -105.75954
63946000 -33.246002 -92.404037 -0.054016337 -13.050496 -0.054966811 -13.033775 -33.561359 -105.95689
64945000 -33.137482 -92.584221 -0.055295568 -13.256304 -0.055547267 -13.232613 -33.454521 -106.45621
65944000 -33.038727 -92.958183 -0.055716906 -13.453672 -0.055771708 -13.435581 -33.355503 -106.93573
66943000 -32.895473 -93.353928 -0.054013714 -13.654876 -0.054042283 -13.637578 -33.258759 -107.18257
67942000 -32.844936 -93.347748 -0.056329977 -13.84934 -0.056088462 -13.836544 -33.148273 -107.45173
68941000 -32.738503 -93.382156 -0.055064071 -14.04224 -0.054739788 -14.034806 -33.039223 -107.46617
69940000 -32.637451 -93.496513 -0.055623565 -14.243199 -0.056161098 -14.233563 -32.896515 -107.84287
70939000 -32.533619 -93.45697 -0.055785604 -14.436342 -0.055998258 -14.429186 -32.769035 -107.7465
71938000 -32.392155 -93.06218 -0.055241037 -14.633099 -0.055236056 -14.623156 -32.628784 -107.6385
72937000 -32.235287 -92.964401 -0.054902583 -14.831064 -0.055566929 -14.824396 -32.488224 -107.32244
73936000 -32.093632 -92.665329 -0.054628644 -15.029036 -0.054400329 -15.021403 -32.378128 -107.22577
74935000 -31.963078 -92.86869 -0.054514877 -15.224663 -0.053835489 -15.217612 -32.216011 -106.93432
75934000 -31.847031 -93.203354 -0.054077141 -15.433005 -0.052929543 -15.428974 -32.140465 -106.85994
76933000 -31.722916 -93.615952 -0.055778526 -15.627442 -0.055225831 -15.618918 -31.970648 -107.2501
77932000 -31.618103 -94.396439 -0.056723356 -15.825027 -0.057054866 -15.817878 -31.874969 -107.21971
78931000 -31.547632 -95.178871 -0.055050179 -16.021833 -0.05478514 -16.016245 -31.762119 -107.17062
79930000 -31.443094 -96.000633 -0.058438368 -16.212009 -0.058862109 -16.211988 -31.662689 -107.43985
80929000 -31.313292 -96.875061 -0.059708931 -16.407732 -0.059637286 -16.406015 -31.577255 -107.80194
81928000 -31.234488 -97.818542 -0.059872963 -16.602604 -0.060207602 -16.598412 -31.452309 -107.85281
82927000 -31.139755 -98.509651 -0.061402019 -16.80154 -0.061461095 -16.799807 -31.343742 -108.23848
83926000 -31.04027 -99.250343 -0.063120984 -16.997852 -0.062863857 -16.998272 -31.229042 -108.46843
84925000 -30.937267 -99.714104 -0.063959703 -17.196934 -0.062824987 -17.189938 -31.13763 -108.53506
85924000 -30.853163 -100.10893 -0.064135715 -17.398458 -0.063645527 -17.395018 -31.053411 -108.5247
86923000 -30.743265 -100.68843 -0.064649872 -17.593145 -0.06464567 -17.583942 -30.951069 -108.42349
87922000 -30.635414 -101.04822 -0.06516619 -17.797171 -0.064864799 -17.793299 -30.872911 -108.51183
88921000 -30.569588 -101.40412 -0.06558691 -17.995417 -0.066032901 -17.991196 -30.776033 -108.47852
89920000 -30.463659 -101.9315 -0.066197433 -18.199951 -0.065730929 -18.187553 -30.7265 -108.63746
90919000 -30.369726 -102.21882 -0.067703485 -18.390009 -0.066209003 -18.383129 -30.649559 -108.87193
91918000 -30.277094 -102.56714 -0.067494459 -18.588675 -0.06632439 -18.587042 -30.572624 -108.87465
92917000 -30.195938 -102.94405 -0.068381093 -18.7896 -0.068246722 -18.787703 -30.513296 -109.02182
93916000 -30.114985 -103.31023 -0.067758694 -18.9804 -0.067660891 -18.977093 -30.420307 -109.60316
94915000 -30.035995 -103.97545 -0.069607228 -19.185444 -0.068723492 -19.180437 -30.365309 -109.46359
95914000 -29.9769 -104.16048 -0.070722401 -19.378422 -0.069760323 -19.373426 -30.277189 -109.79403
96913000 -29.892494 -104.40233 -0.071789704 -19.577068 -0.070727669 -19.575781 -30.20573 -110.08044
97912000 -29.815424 -104.86472 -0.072955728 -19.77223 -0.070886321 -19.778179 -30.12727 -110.38789
98911000 -29.707237 -105.08284 -0.073359825 -19.974915 -0.071764968 -19.97547 -30.094973 -110.62921
99910000 -29.657309 -105.24673 -0.073881656 -20.172148 -0.07287544 -20.170868 -29.982498 -110.93143
100909000 -29.560364 -105.51723 -0.073203973 -20.379971 -0.071749441 -20.374933 -29.905409 -111.09367
101908000 -29.473835 -105.77549 -0.074150495 -20.581934 -0.073461182 -20.578434 -29.78413 -110.89336
102907000 -29.343925 -105.73488 -0.07458394 -20.781092 -0.073465131 -20.773222 -29.710817 -110.85912
103906000 -29.254343 -105.85416 -0.075141475 -20.983725 -0.072594039 -20.978012 -29.56391 -110.83195
104905000 -29.11101 -105.83008 -0.075037703 -21.184687 -0.073046021 -21.182615 -29.426741 -110.47392
105904000 -28.964151 -105.88712 -0.076465674 -21.383146 -0.073345348 -21.379974 -29.323465 -110.30804
106903000 -28.860052 -106.01019 -0.07596197 -21.593739 -0.073637851 -21.585522 -29.195904 -110.26976
107902000 -28.692667 -106.39146 -0.076460406 -21.789249 -0.073843479 -21.78405 -29.054859 -110.20197
108901000 -28.581617 -106.58373 -0.077231877 -21.991684 -0.075685911 -21.981071 -28.924032 -110.16615
109900000 -28.453102 -107.13577 -0.078101262 -22.192268 -0.076631129 -22.180462 -28.776421 -110.28242
110899000 -28.341976 -107.76219 -0.079785451 -22.393267 -0.077412643 -22.385372 -28.652065 -110.53705
111898000 -28.25065 -108.46236 -0.080751613 -22.592871 -0.078142904 -22.583639 -28.527441 -110.70948
112897000 -28.121819 -108.96674 -0.082929149 -22.787186 -0.079422414 -22.776728 -28.39226 -110.93333
113896000 -28.019295 -109.60265 -0.083117537 -22.986198 -0.080939911 -22.977875 -28.286554 -111.05632
114895000 -27.91242 -110.24154 -0.084437579 -23.187004 -0.082719393 -23.173285 -28.171743 -111.1406
115894000 -27.789686 -110.58182 -0.085781246 -23.389103 -0.084028482 -23.372402 -28.104511 -111.32954
116893000 -27.701683 -111.13641 -0.086009368 -23.583464 -0.084245957 -23.564468 -27.974026 -111.44831
117892000 -27.625689 -111.64789 -0.086195253 -23.777517 -0.084829286 -23.764324 -27.904316 -111.64665
118891000 -27.565754 -112.11906 -0.086797595 -23.978226 -0.085524097 -23.963745 -27.805067 -111.77717
119890000 -27.47864 -112.47071 -0.088099726 -24.183046 -0.08549954 -24.164324 -27.791336 -111.98912
120889000 -27.422215 -112.90922 -0.088424399 -24.380888 -0.085295998 -24.365149 -27.714024 -111.89736
121888000 -27.386463 -113.29153 -0.088582382 -24.578739 -0.086324111 -24.564396 -27.650791 -112.2767
122887000 -27.345596 -113.49256 -0.089219399 -24.780455 -0.086717315 -24.764629 -27.61404 -112.26763
123886000 -27.289701 -113.88158 -0.090206422 -24.97822 -0.086617224 -24.960358 -27.596777 -112.43828
124885000 -27.250654 -114.4065 -0.090363413 -25.179583 -0.088270649 -25.163475 -27.56764 -112.51154
125884000 -27.197344 -114.62142 -0.091525972 -25.37528 -0.088144898 -25.36344 -27.541584 -112.67901
126883000 -27.174255 -114.98802 -0.092065588 -25.579044 -0.08919166 -25.565859 -27.494232 -112.72761
127882000 -27.126455 -115.30096 -0.092061095 -25.778969 -0.089296825 -25.761827 -27.452314 -112.91769
128881000 -27.093887 -115.66602 -0.092313871 -25.981213 -0.089018062 -25.964357 -27.414526 -113.00219
129880000 -27.035851 -115.96284 -0.092619553 -26.179811 -0.089571372 -26.162851 -27.371885 -113.00909
130879000 -26.975098 -116.0962 -0.092937157 -26.379889 -0.090130836 -26.365238 -27.289555 -113.04967
131878000 -26.912743 -116.28855 -0.093115143 -26.583399 -0.090350464 -26.561626 -27.230387 -112.92365
132877000 -26.844002 -116.38091 -0.093247913 -26.784704 -0.089859948 -26.764181 -27.139183 -112.98402
133876000 -26.762114 -116.54248 -0.092765793 -26.985218 -0.090104938 -26.963455 -27.053041 -112.87816
134875000 -26.660345 -116.68787 -0.09370178 -27.180233 -0.090611339 -27.164495 -26.946486 -112.75719
135874000 -26.580112 -116.70049 -0.093571112 -27.38201 -0.090449579 -27.36581 -26.852093 -112.74245
136873000 -26.469509 -116.64675 -0.094268911 -27.58894 -0.090353638 -27.565414 -26.763023 -112.71729
137872000 -26.392168 -116.78375 -0.094422616 -27.786104 -0.090759091 -27.772259 -26.658533 -112.65475
138871000 -26.315859 -116.9271 -0.094626851 -27.984291 -0.09050931 -27.97126 -26.561213 -112.84283
139870000 -26.220356 -117.22252 -0.095499732 -28.187777 -0.091891877 -28.16762 -26.479967 -112.98832
140869000 -26.132698 -117.66563 -0.097075798 -28.3825 -0.093990095 -28.362669 -26.372368 -113.15189
141868000 -26.03476 -118.16719 -0.096987911 -28.571589 -0.093891166 -28.559761 -26.305799 -113.46976
142867000 -25.964327 -118.42699 -0.095645003 -28.772631 -0.093495466 -28.753916 -26.222532 -113.64919
143866000 -25.894365 -118.91652 -0.097028151 -28.967554 -0.094291665 -28.954077 -26.156395 -114.13641
144865000 -25.834402 -119.44161 -0.09826795 -29.168419 -0.095863327 -29.149967 -26.099863 -114.46658
145864000 -25.779564 -119.75635 -0.0991842 -29.366531 -0.097040325 -29.356789 -26.061283 -114.69098
146863000 -25.734324 -120.14877 -0.099288553 -29.565817 -0.097365402 -29.552645 -26.012983 -115.03831
147862000 -25.694115 -120.49269 -0.099799201 -29.764133 -0.097703472 -29.751099 -25.980309 -115.35112
148861000 -25.661119 -121.04569 -0.10081433 -29.960072 -0.097782634 -29.94388 -25.955187 -115.5944
149860000 -25.647789 -121.22044 -0.10102098 -30.163107 -0.098514475 -30.15045 -25.924681 -115.77082
150859000 -25.632887 -121.60804 -0.10197121 -30.358282 -0.098526657 -30.34553 -25.915081 -116.02
151858000 -25.614695 -121.88639 -0.10115877 -30.558464 -0.098975509 -30.54265 -25.907642 -116.28477
152857000 -25.592665 -122.21669 -0.10174701 -30.758307 -0.099488251 -30.74279 -25.882635 -116.45962
153856000 -25.593046 -122.4425 -0.10170037 -30.95203 -0.099202208 -30.94046 -25.909359 -116.71482
154855000 -25.587847 -122.62239 -0.10194948 -31.154156 -0.099287488 -31.141113 -25.8962 -116.93268
155854000 -25.600243 -122.86768 -0.1026746 -31.353994 -0.099410906 -31.339132 -25.894381 -117.1684
156853000 -25.584448 -123.58338 -0.10025217 -31.540594 -0.098913282 -31.529615 -25.890852 -117.49968
157852000 -25.595591 -123.8052 -0.10144042 -31.739941 -0.10040767 -31.73057 -25.878872 -117.85911
158851000 -25.584694 -124.03387 -0.10210954 -31.939409 -0.10115823 -31.931334 -25.858294 -118.1424
159850000 -25.574459 -124.15448 -0.10282329 -32.135918 -0.10104325 -32.130142 -25.858973 -118.26996
160849000 -25.55283 -124.27065 -0.10307087 -32.336643 -0.10181645 -32.332672 -25.831774 -118.56759
161848000 -25.530149 -124.38708 -0.10318989 -32.532284 -0.10186203 -32.527195 -25.787884 -118.66104
162847000 -25.493155 -124.59019 -0.10326836 -32.732578 -0.10243235 -32.72839 -25.759779 -118.93358
163846000 -25.450865 -124.79149 -0.10338659 -32.933846 -0.10224842 -32.925762 -25.687515 -118.92929
164845000 -25.390133 -124.82217 -0.10310878 -33.129784 -0.10301919 -33.128563 -25.620678 -119.01575
165844000 -25.341057 -124.8812 -0.1036623 -33.327377 -0.10383198 -33.329296 -25.545351 -119.16376
166843000 -25.276794 -124.99177 -0.10339534 -33.531059 -0.10279652 -33.527714 -25.472378 -119.34153
167842000 -25.21711 -125.14113 -0.10434687 -33.729858 -0.10339136 -33.721786 -25.392656 -119.26169
168841000 -25.138714 -125.30369 -0.10419176 -33.926701 -0.10326517 -33.917767 -25.312561 -119.35365
169840000 -25.071186 -125.56852 -0.10481357 -34.1227 -0.10422172 -34.116264 -25.228283 -119.55138
170839000 -25.016827 -125.83404 -0.10515434 -34.321354 -0.10383754 -34.318577 -25.139257 -119.78343
171838000 -24.955828 -126.24029 -0.1053132 -34.51825 -0.10499204 -34.508888 -25.075867 -119.98697
172837000 -24.889196 -126.61615 -0.1068671 -34.716068 -0.10642406 -34.707592 -25.002409 -120.19838
173836000 -24.821815 -127.04511 -0.10771299 -34.912968 -0.10647102 -34.911934 -24.96559 -120.48241
174835000 -24.770254 -127.47926 -0.10830425 -35.109005 -0.10733672 -35.110886 -24.917027 -120.7565
175834000 -24.714575 -127.8343 -0.10877695 -35.307491 -0.10857894 -35.304501 -24.85639 -121.07294
176833000 -24.661581 -128.22209 -0.10956825 -35.504684 -0.10880615 -35.503712 -24.807312 -121.21825
177832000 -24.616959 -128.70869 -0.1103844 -35.701504 -0.10910635 -35.702618 -24.776943 -121.40466
178831000 -24.578396 -129.06393 -0.11042263 -35.894501 -0.10988364 -35.897331 -24.739069 -121.64048
179830000 -24.541908 -129.49762 -0.11130267 -36.096485 -0.11000418 -36.094841 -24.712862 -121.75639
180829000 -24.504128 -129.72624 -0.11199217 -36.292473 -0.11031324 -36.290981 -24.683498 -121.91187
181828000 -24.476446 -130.05646 -0.11172045 -36.493343 -0.11028615 -36.485394 -24.665562 -122.06014
182827000 -24.454681 -130.42204 -0.11221371 -36.684971 -0.11082492 -36.683205 -24.652287 -122.13096
183826000 -24.405769 -130.70706 -0.11262865 -36.886074 -0.11048158 -36.878056 -24.641668 -122.23648
184825000 -24.413694 -131.05081 -0.11280558 -37.079979 -0.11136508 -37.076916 -24.629404 -122.38017
185824000 -24.385382 -131.42033 -0.11285021 -37.272736 -0.11110243 -37.276379 -24.624155 -122.412
186823000 -24.372992 -131.75806 -0.11267461 -37.473984 -0.11177278 -37.47002 -24.622738 -122.3959
187822000 -24.354219 -132.07155 -0.11329497 -37.665775 -0.11263449 -37.665749 -24.587057 -122.49469
188821000 -24.335756 -132.31055 -0.11284145 -37.860901 -0.11317488 -37.867058 -24.568583 -122.57212
189820000 -24.318443 -132.55246 -0.11344005 -38.064507 -0.11279841 -38.063286 -24.560238 -122.70363
190819000 -24.283939 -132.80629 -0.11539187 -38.263096 -0.11373314 -38.262123 -24.53516 -122.68677
191818000 -24.251307 -132.97821 -0.11616018 -38.45763 -0.11530148 -38.45784 -24.495255 -122.59272
192817000 -24.1798 -133.28601 -0.11723765 -38.643078 -0.11533232 -38.645721 -24.423983 -122.65872
193816000 -24.144278 -133.63603 -0.11585177 -38.834572 -0.1147619 -38.836395 -24.370789 -122.92768
194815000 -24.088591 -134.08374 -0.11551628 -39.031212 -0.11488948 -39.036629 -24.304546 -123.03551
195814000 -24.03336 -134.32172 -0.11632635 -39.22768 -0.1144613 -39.232193 -24.25271 -123.16462
196813000 -23.981705 -134.65353 -0.11554339 -39.424843 -0.11466196 -39.42675 -24.17378 -123.32436
197812000 -23.927307 -134.86589 -0.11609744 -39.618649 -0.11539213 -39.624454 -24.105827 -123.40585
198811000 -23.877165 -135.082 -0.11576776 -39.820637 -0.1155091 -39.821545 -24.03504 -123.60576
199810000 -23.804741 -135.3972 -0.11652817 -40.014629 -0.11459658 -40.012878 -23.958735 -123.7114
200809000 -23.746771 -135.72215 -0.11681189 -40.208092 -0.11509308 -40.211075 -23.880304 -123.89326
201808000 -23.685244 -135.92976 -0.11727727 -40.409 -0.11669809 -40.416786 -23.810574 -123.96487
202807000 -23.631628 -136.28915 -0.1179366 -40.609859 -0.11684433 -40.613827 -23.759977 -124.17676
203806000 -23.577393 -136.74863 -0.11912864 -40.810497 -0.11699299 -40.811691 -23.68786 -124.33675
