!Keysight Technologies,E5080B,MY59205177,A.15.75.32
!Date: Friday, February 23, 2024 03:38:02
!Correction: S11(Cdelta 2-Port  ) 
!S21(Cdelta 2-Port  ) 
!S12(Cdelta 2-Port  ) 
!S22(Cdelta 2-Port  ) 
!S2P File: Measurements: S11, S21, S12, S22:
# Hz S  dB   R 50
10000000 -46.130001 -2.8459747 -0.015240411 -2.0432236 -0.01800264 -2.0974436 -45.938438 -157.48651
10999000 -45.313969 -4.4978194 -0.0162396 -2.2617669 -0.018034874 -2.3134561 -45.839924 -151.11044
11998000 -44.399933 -7.9653187 -0.016289487 -2.4870236 -0.017709184 -2.5293438 -45.95607 -147.13075
12997000 -43.601761 -13.32585 -0.015360426 -2.668366 -0.018002382 -2.6998885 -45.623096 -141.48776
13996000 -43.309818 -17.183811 -0.014561167 -2.8489263 -0.01733206 -2.8685052 -45.367973 -136.30568
14995000 -42.912529 -21.663517 -0.017083608 -3.05516 -0.017515291 -3.0814731 -45.07457 -132.85788
15994000 -42.728706 -26.090477 -0.017509053 -3.2754531 -0.019688906 -3.2969325 -44.990459 -129.27049
16993000 -42.709621 -30.821865 -0.017817052 -3.4706519 -0.019385975 -3.4834068 -44.198936 -128.92909
17992000 -42.731495 -36.074871 -0.017875016 -3.6764386 -0.019608296 -3.6758614 -43.556416 -129.05524
18991000 -42.990639 -41.404572 -0.019206567 -3.8815598 -0.020375716 -3.8786573 -42.8787 -127.87508
19990000 -42.715263 -47.313576 -0.021130005 -4.0921164 -0.022629088 -4.0869899 -42.244892 -128.74658
20989000 -42.571415 -50.682686 -0.023841584 -4.2926636 -0.024224481 -4.2872477 -41.682739 -128.07541
21988000 -42.376369 -55.791821 -0.023857201 -4.49297 -0.025705883 -4.4796009 -41.47332 -127.46394
22987000 -42.028172 -60.690426 -0.025569698 -4.6930299 -0.025960037 -4.6803946 -41.201057 -126.89845
23986000 -41.965286 -64.641861 -0.02498048 -4.8858786 -0.025533244 -4.8869119 -41.101143 -126.74691
24985000 -41.554432 -67.444412 -0.026211081 -5.0923471 -0.025571261 -5.0934815 -40.84676 -124.42848
25984000 -41.209816 -69.526993 -0.026725715 -5.3001385 -0.026585851 -5.3016443 -40.516163 -122.7496
26983000 -40.889027 -71.507294 -0.027982604 -5.4980612 -0.026973939 -5.5132713 -40.426212 -122.1714
27982000 -40.696774 -72.312843 -0.02871763 -5.697866 -0.028503181 -5.7296052 -40.131859 -120.68687
28981000 -40.639065 -73.827362 -0.02713361 -5.8949752 -0.028355705 -5.9167933 -39.913872 -119.85278
29980000 -40.266586 -75.121574 -0.026767127 -6.0922713 -0.029204154 -6.0967002 -39.654755 -119.22424
30979000 -39.891087 -74.113258 -0.024338756 -6.4457641 -0.023282528 -6.4392533 -39.16201 -119.52297
31978000 -39.680859 -75.118141 -0.024047734 -6.6408396 -0.025071604 -6.6271496 -38.913101 -118.79449
32977000 -39.481194 -76.773827 -0.024032377 -6.8512764 -0.024803963 -6.8488069 -38.676365 -118.80165
33976000 -39.311466 -77.898087 -0.024835465 -7.0539069 -0.025259066 -7.0473742 -38.381721 -118.15533
34975000 -38.998013 -78.586792 -0.024766214 -7.2499828 -0.02702447 -7.2539086 -38.156872 -117.84068
35974000 -38.813477 -79.080185 -0.023615142 -7.4488883 -0.026004568 -7.4513068 -37.878754 -116.9003
36973000 -38.587288 -79.670074 -0.024235934 -7.6470618 -0.026718162 -7.6500955 -37.622131 -116.04165
37972000 -38.41988 -79.50383 -0.0235938 -7.8549685 -0.026907519 -7.8636756 -37.405716 -115.30296
38971000 -38.104885 -78.978966 -0.025588445 -8.0607519 -0.027202118 -8.0744753 -37.249863 -113.68497
39970000 -37.791286 -79.239815 -0.023387931 -8.2532139 -0.025438724 -8.2671671 -36.990742 -113.10425
40969000 -37.494793 -78.990265 -0.024089122 -8.4460449 -0.025494186 -8.4646587 -36.744648 -111.58961
41968000 -37.142658 -78.846336 -0.023716649 -8.6551361 -0.026587935 -8.6674013 -36.568394 -110.48842
42967000 -36.875904 -78.898697 -0.02440748 -8.8621206 -0.026291814 -8.8802862 -36.383076 -108.55698
43966000 -36.595009 -79.694939 -0.024212766 -9.0667124 -0.027357891 -9.0883522 -36.110638 -107.8702
44965000 -36.359032 -80.345787 -0.025393158 -9.2672167 -0.027301103 -9.2839117 -35.874855 -107.61216
45964000 -36.135925 -81.302551 -0.026680134 -9.4652872 -0.028819516 -9.487587 -35.665512 -107.40197
46963000 -35.914665 -83.243195 -0.026620751 -9.6585083 -0.029108513 -9.6832266 -35.476101 -107.647
47962000 -35.774693 -84.781342 -0.027188312 -9.8633003 -0.030470103 -9.8867483 -35.272865 -107.76906
48961000 -35.551041 -86.063713 -0.029286508 -10.061969 -0.032177906 -10.084808 -35.045002 -107.77051
49960000 -35.314281 -87.441788 -0.03050269 -10.260875 -0.03333021 -10.282363 -34.909767 -107.89317
50959000 -35.101025 -88.59156 -0.031438645 -10.47387 -0.034232855 -10.486139 -34.740646 -108.22158
51958000 -34.88908 -89.654541 -0.03296607 -10.671959 -0.0359364 -10.682144 -34.566887 -108.55917
52957000 -34.663857 -90.729027 -0.034553263 -10.874927 -0.036596023 -10.881084 -34.396561 -108.35268
53956000 -34.514889 -91.416344 -0.035647992 -11.080076 -0.037731741 -11.077615 -34.267796 -108.31477
54955000 -34.333576 -91.938911 -0.036546424 -11.278272 -0.037996784 -11.275193 -34.112316 -108.21362
55954000 -34.15464 -92.72197 -0.038096275 -11.47521 -0.038504198 -11.481089 -34.018311 -107.96121
56953000 -34.04594 -92.664337 -0.03687666 -11.674803 -0.037810858 -11.665781 -33.942017 -108.0788
57952000 -33.863388 -93.313866 -0.038911633 -11.876004 -0.039043799 -11.869113 -33.840183 -108.28925
58951000 -33.762981 -93.616943 -0.039896689 -12.076798 -0.039751176 -12.057322 -33.67733 -108.36143
59950000 -33.630795 -94.087685 -0.040285967 -12.277773 -0.041309752 -12.253711 -33.60231 -108.69218
60949000 -33.511654 -94.537941 -0.040407725 -12.48063 -0.041011583 -12.456761 -33.507179 -108.82451
61948000 -33.451096 -94.860161 -0.041124996 -12.678151 -0.041212276 -12.66397 -33.423893 -108.99774
62947000 -33.353168 -95.139465 -0.041102782 -12.893169 -0.042117611 -12.870624 -33.280315 -109.21511
63946000 -33.277832 -95.804314 -0.04217067 -13.088408 -0.042341884 -13.070823 -33.179977 -109.30713
64945000 -33.167641 -95.98999 -0.042675961 -13.293141 -0.043001171 -13.275098 -33.067604 -109.86406
65944000 -33.074642 -96.330017 -0.043275949 -13.49146 -0.043541856 -13.472705 -32.966805 -110.25001
66943000 -32.933842 -96.706375 -0.041662045 -13.691371 -0.041966535 -13.676174 -32.862186 -110.48316
67942000 -32.877659 -96.663437 -0.043564864 -13.890267 -0.043639384 -13.878055 -32.730324 -110.8015
68941000 -32.767094 -96.742775 -0.043130845 -14.083052 -0.04236567 -14.076079 -32.638351 -110.79652
69940000 -32.658096 -96.772354 -0.043319352 -14.284225 -0.043231241 -14.274117 -32.483921 -111.08803
70939000 -32.554707 -96.655655 -0.04341583 -14.474815 -0.042090166 -14.472536 -32.357353 -110.99104
71938000 -32.42461 -96.308289 -0.043636508 -14.675327 -0.042655829 -14.664963 -32.231346 -110.82343
72937000 -32.261486 -96.095589 -0.04268929 -14.874363 -0.042522512 -14.869931 -32.096397 -110.5482
73936000 -32.124969 -95.646172 -0.04246683 -15.070008 -0.042295877 -15.065589 -31.967131 -110.28161
74935000 -32.002266 -95.972809 -0.041040588 -15.270744 -0.041089453 -15.265027 -31.822855 -110.03042
75934000 -31.882761 -96.19915 -0.042011227 -15.478579 -0.041194245 -15.473336 -31.738832 -109.9474
76933000 -31.740227 -96.535446 -0.042941041 -15.671246 -0.042657658 -15.664605 -31.577246 -110.30367
77932000 -31.651253 -97.282455 -0.043774046 -15.867063 -0.044112939 -15.865232 -31.465063 -110.23617
78931000 -31.578646 -98.060394 -0.042399392 -16.065622 -0.043872364 -16.063091 -31.365238 -110.02631
79930000 -31.454311 -98.890823 -0.044581316 -16.260492 -0.045596957 -16.26066 -31.274443 -110.40265
80929000 -31.339737 -99.684601 -0.046857487 -16.458519 -0.047711134 -16.455456 -31.170921 -110.63725
81928000 -31.254749 -100.39408 -0.047309935 -16.650372 -0.047931507 -16.644386 -31.040609 -110.58408
82927000 -31.155254 -101.14261 -0.048690595 -16.850233 -0.048817821 -16.846571 -30.941479 -110.91888
83926000 -31.036659 -101.75747 -0.050147898 -17.045525 -0.04990568 -17.046234 -30.827753 -111.03776
84925000 -30.929098 -102.21658 -0.051599927 -17.246933 -0.050708853 -17.238417 -30.726118 -111.13267
85924000 -30.829767 -102.60567 -0.051316503 -17.446171 -0.051304717 -17.445705 -30.641745 -111.08113
86923000 -30.730482 -103.03249 -0.051980037 -17.644674 -0.052068848 -17.637629 -30.545557 -110.95039
87922000 -30.614071 -103.39603 -0.052114435 -17.853073 -0.051521342 -17.840908 -30.451939 -110.96393
88921000 -30.542349 -103.6899 -0.052723069 -18.050385 -0.052675642 -18.044895 -30.359325 -110.93465
89920000 -30.442039 -104.24431 -0.053566072 -18.245903 -0.052983262 -18.241806 -30.307844 -111.08326
90919000 -30.343378 -104.47462 -0.05375503 -18.444567 -0.055028941 -18.437458 -30.222126 -111.28934
91918000 -30.242128 -104.81307 -0.054853823 -18.647751 -0.054552887 -18.637894 -30.154701 -111.34747
92917000 -30.148094 -105.14574 -0.056378491 -18.843967 -0.055459958 -18.842007 -30.091845 -111.40458
93916000 -30.064684 -105.48341 -0.05546625 -19.038919 -0.055857975 -19.031712 -30.002962 -111.98509
94915000 -29.98942 -106.14008 -0.057412636 -19.240252 -0.056601666 -19.233831 -29.946209 -111.83641
95914000 -29.920609 -106.33398 -0.05771561 -19.433905 -0.057430737 -19.429907 -29.849712 -112.11459
96913000 -29.833778 -106.53085 -0.058550924 -19.633066 -0.058456209 -19.631512 -29.786499 -112.49206
97912000 -29.755371 -107.00482 -0.060597394 -19.829617 -0.058673717 -19.832211 -29.70199 -112.7264
98911000 -29.645615 -107.15194 -0.060672995 -20.031708 -0.060320467 -20.028576 -29.656313 -112.90734
99910000 -29.585789 -107.26521 -0.061910599 -20.229843 -0.060176369 -20.228508 -29.559242 -113.2117
100909000 -29.490585 -107.55114 -0.060089752 -20.437645 -0.059513941 -20.432062 -29.467384 -113.4451
101908000 -29.39686 -107.72887 -0.062295556 -20.639692 -0.061069388 -20.63965 -29.363121 -113.17693
102907000 -29.263945 -107.79562 -0.062161632 -20.841063 -0.060795583 -20.836805 -29.290611 -113.22126
103906000 -29.170956 -107.78229 -0.062317874 -21.043871 -0.060680605 -21.040617 -29.146763 -113.13153
104905000 -29.023932 -107.68616 -0.063161954 -21.243807 -0.060810022 -21.243134 -29.023945 -112.86829
105904000 -28.880823 -107.77708 -0.063643947 -21.445841 -0.061382331 -21.43627 -28.908171 -112.72021
106903000 -28.776953 -107.84472 -0.06319768 -21.652306 -0.061716035 -21.648006 -28.785547 -112.62229
107902000 -28.608448 -108.17842 -0.064214267 -21.850147 -0.061958127 -21.844837 -28.649183 -112.60373
108901000 -28.499546 -108.3685 -0.064950719 -22.053347 -0.063995428 -22.046017 -28.518394 -112.48292
109900000 -28.36828 -108.84562 -0.066018976 -22.256485 -0.064662486 -22.247141 -28.372517 -112.55245
110899000 -28.252924 -109.45345 -0.067299381 -22.450037 -0.065392971 -22.445444 -28.243288 -112.83352
111898000 -28.163822 -110.08897 -0.068856046 -22.654137 -0.065974295 -22.643379 -28.122292 -112.9807
112897000 -28.036762 -110.64942 -0.070062838 -22.851919 -0.067510232 -22.842119 -27.995733 -113.14055
113896000 -27.935007 -111.19893 -0.071302861 -23.053471 -0.068741113 -23.040998 -27.88619 -113.26967
114895000 -27.833895 -111.86946 -0.072100528 -23.250212 -0.069795303 -23.237421 -27.771154 -113.34837
115894000 -27.711372 -112.23296 -0.073487513 -23.451517 -0.071324967 -23.441896 -27.702785 -113.54092
116893000 -27.629723 -112.69075 -0.074194469 -23.647358 -0.072691962 -23.632225 -27.586061 -113.59778
117892000 -27.546942 -113.18026 -0.073881917 -23.844744 -0.072534814 -23.833344 -27.505096 -113.78246
118891000 -27.490744 -113.58823 -0.074557073 -24.048111 -0.072358198 -24.034281 -27.407965 -113.89636
119890000 -27.399931 -113.96344 -0.075919561 -24.250624 -0.073341399 -24.23241 -27.39678 -114.05483
120889000 -27.35429 -114.44614 -0.076538652 -24.451441 -0.07355728 -24.434723 -27.326534 -113.97195
121888000 -27.316534 -114.78042 -0.076601885 -24.644674 -0.074724041 -24.6341 -27.264315 -114.26797
122887000 -27.267141 -114.98375 -0.077909924 -24.848566 -0.075423822 -24.834806 -27.22274 -114.2465
123886000 -27.215355 -115.41923 -0.078462876 -25.052542 -0.075940102 -25.036615 -27.201097 -114.3766
124885000 -27.181282 -115.92915 -0.078758359 -25.250046 -0.076014131 -25.235106 -27.176998 -114.46365
125884000 -27.136902 -116.09921 -0.079381019 -25.449631 -0.076181673 -25.43434 -27.14406 -114.62156
126883000 -27.109917 -116.47224 -0.079585873 -25.651108 -0.076776035 -25.639568 -27.098309 -114.63876
127882000 -27.064865 -116.74243 -0.079656526 -25.848825 -0.077461131 -25.834969 -27.065023 -114.78578
128881000 -27.038141 -117.08586 -0.080265865 -26.051865 -0.07732068 -26.035763 -27.034035 -114.841
129880000 -26.976973 -117.40471 -0.080438584 -26.254169 -0.077054806 -26.235994 -26.986631 -114.79707
130879000 -26.922035 -117.5629 -0.080762155 -26.452774 -0.078641325 -26.438429 -26.911055 -114.84115
131878000 -26.857788 -117.78442 -0.080352619 -26.65732 -0.078718029 -26.637297 -26.856915 -114.70698
132877000 -26.787714 -117.88524 -0.081076257 -26.857178 -0.078347698 -26.840981 -26.776642 -114.66293
133876000 -26.70973 -118.04747 -0.080987118 -27.061522 -0.078655824 -27.043724 -26.689138 -114.54605
134875000 -26.608271 -118.1487 -0.080864482 -27.261526 -0.078692198 -27.242764 -26.597652 -114.41852
135874000 -26.529709 -118.16085 -0.080934897 -27.462603 -0.078452334 -27.441156 -26.498613 -114.3541
136873000 -26.420639 -118.09233 -0.081226856 -27.66396 -0.078402519 -27.646591 -26.417068 -114.31754
137872000 -26.339024 -118.20345 -0.081829034 -27.861681 -0.078901231 -27.845188 -26.30888 -114.23346
138871000 -26.273554 -118.4382 -0.081866488 -28.059935 -0.079258695 -28.047615 -26.217396 -114.37499
139870000 -26.17198 -118.71481 -0.0827244 -28.262615 -0.080552503 -28.246243 -26.141579 -114.55598
140869000 -26.095943 -119.29066 -0.083477199 -28.45842 -0.080614217 -28.443676 -26.040939 -114.73197
141868000 -26.01218 -119.66117 -0.083987579 -28.659485 -0.082492232 -28.644016 -25.994772 -115.00217
142867000 -25.93285 -119.86404 -0.083232321 -28.855019 -0.081606142 -28.838861 -25.915907 -115.1506
143866000 -25.863518 -120.32759 -0.085686199 -29.053225 -0.083392493 -29.038294 -25.841873 -115.59564
144865000 -25.800215 -120.86056 -0.086582102 -29.253155 -0.084369481 -29.236515 -25.785137 -115.83385
145864000 -25.748575 -121.16557 -0.087169439 -29.453329 -0.085429847 -29.444351 -25.751698 -116.13676
146863000 -25.7005 -121.53886 -0.088008329 -29.654926 -0.086097822 -29.641853 -25.700413 -116.44942
147862000 -25.664394 -121.84332 -0.088758342 -29.84963 -0.086842753 -29.836876 -25.676683 -116.72939
148861000 -25.63706 -122.29458 -0.089710638 -30.049145 -0.088090748 -30.036993 -25.647047 -116.90005
149860000 -25.599531 -122.45872 -0.090619005 -30.244284 -0.08795312 -30.229185 -25.598747 -116.98207
150859000 -25.576639 -122.9499 -0.090607904 -30.441948 -0.087765306 -30.426113 -25.57387 -117.35188
151858000 -25.562124 -123.2868 -0.089825064 -30.641138 -0.0882577 -30.627655 -25.56572 -117.68236
152857000 -25.554943 -123.62762 -0.090375572 -30.838737 -0.088351481 -30.828804 -25.554291 -117.87371
153856000 -25.54818 -123.83875 -0.089518256 -31.041418 -0.087499849 -31.02429 -25.56534 -118.19753
154855000 -25.543909 -123.99859 -0.090748787 -31.23941 -0.087776668 -31.22743 -25.55942 -118.41705
155854000 -25.565245 -124.26271 -0.090173915 -31.44014 -0.087875985 -31.425295 -25.543951 -118.70004
156853000 -25.551151 -124.93819 -0.088015988 -31.626215 -0.087545812 -31.618786 -25.54731 -119.01456
157852000 -25.559822 -125.15867 -0.089494213 -31.830639 -0.089105517 -31.815268 -25.53545 -119.37263
158851000 -25.552832 -125.39927 -0.090028293 -32.025898 -0.089217551 -32.018551 -25.517216 -119.64954
159850000 -25.546511 -125.48056 -0.091203712 -32.226318 -0.089022554 -32.217529 -25.519552 -119.79648
160849000 -25.533724 -125.57327 -0.090803236 -32.422611 -0.090117089 -32.420116 -25.490726 -120.07147
161848000 -25.5077 -125.66446 -0.091166705 -32.624653 -0.090289675 -32.617584 -25.45236 -120.232
162847000 -25.471424 -125.81909 -0.091420487 -32.826157 -0.090429492 -32.823608 -25.419987 -120.4482
163846000 -25.429869 -126.03562 -0.091361009 -33.023109 -0.090496093 -33.018311 -25.344234 -120.44943
164845000 -25.374109 -126.0098 -0.091887116 -33.227219 -0.090073749 -33.219078 -25.281492 -120.52046
165844000 -25.317135 -126.04996 -0.091723196 -33.422382 -0.091510639 -33.421677 -25.208031 -120.6899
166843000 -25.258125 -126.10297 -0.0923144 -33.623592 -0.091488428 -33.61861 -25.141466 -120.82061
167842000 -25.20352 -126.18897 -0.092356443 -33.822662 -0.092019849 -33.81728 -25.061846 -120.77433
168841000 -25.123592 -126.36495 -0.092431806 -34.021606 -0.091709979 -34.01947 -24.99268 -120.86003
169840000 -25.059587 -126.58137 -0.092986085 -34.217873 -0.092252001 -34.214245 -24.901283 -121.02064
170839000 -24.997246 -126.84412 -0.094281085 -34.415901 -0.093024693 -34.41325 -24.820618 -121.18523
171838000 -24.943007 -127.21571 -0.093203478 -34.61908 -0.093840644 -34.609131 -24.756687 -121.43745
172837000 -24.871153 -127.57302 -0.095074251 -34.814045 -0.093989834 -34.808178 -24.687521 -121.66906
173836000 -24.802931 -127.96084 -0.09557911 -35.016418 -0.095367953 -35.010429 -24.65077 -121.86757
174835000 -24.746616 -128.34904 -0.096475735 -35.207214 -0.095834479 -35.20932 -24.605577 -122.18823
175834000 -24.698744 -128.70721 -0.097646818 -35.411129 -0.096833594 -35.406914 -24.545265 -122.43291
176833000 -24.649683 -129.08006 -0.098490641 -35.607899 -0.097532973 -35.607441 -24.497051 -122.56906
177832000 -24.601263 -129.46129 -0.099350259 -35.807381 -0.0988288 -35.807026 -24.474537 -122.67348
178831000 -24.557585 -129.6956 -0.10097621 -36.001724 -0.10035071 -36.001247 -24.437969 -122.73802
179830000 -24.487852 -130.08224 -0.10181883 -36.191479 -0.10086785 -36.19104 -24.37813 -122.82835
180829000 -24.439262 -130.44888 -0.10135537 -36.383705 -0.10024157 -36.384373 -24.326838 -123.1642
181828000 -24.417376 -130.87573 -0.10052158 -36.581314 -0.098966241 -36.578999 -24.311459 -123.32519
182827000 -24.395994 -131.2531 -0.10040846 -36.779449 -0.099429451 -36.777153 -24.302029 -123.48232
183826000 -24.350969 -131.62198 -0.10130926 -36.980675 -0.099514201 -36.97567 -24.295004 -123.61917
184825000 -24.35726 -131.91325 -0.10072531 -37.175694 -0.099780135 -37.172958 -24.274506 -123.75617
185824000 -24.330564 -132.28438 -0.10082996 -37.368023 -0.099855885 -37.369278 -24.26791 -123.80392
186823000 -24.311064 -132.62733 -0.10061086 -37.573009 -0.099875219 -37.568794 -24.263351 -123.80686
187822000 -24.287155 -132.97458 -0.10190496 -37.76643 -0.10096243 -37.768715 -24.222538 -123.90895
188821000 -24.263737 -133.25833 -0.10193225 -37.960407 -0.10109252 -37.962158 -24.206717 -124.02657
189820000 -24.247231 -133.55363 -0.10206449 -38.160755 -0.10079101 -38.162277 -24.189503 -124.23628
190819000 -24.212542 -133.81665 -0.10255692 -38.358437 -0.1013914 -38.360126 -24.153898 -124.25938
191818000 -24.182417 -134.13768 -0.10280687 -38.553326 -0.10133682 -38.555077 -24.123148 -124.30824
192817000 -24.137756 -134.41263 -0.10280395 -38.753166 -0.10228605 -38.755451 -24.080961 -124.37685
193816000 -24.104725 -134.64925 -0.1030934 -38.948898 -0.10100244 -38.947968 -24.031561 -124.53237
194815000 -24.040653 -135.04314 -0.10382959 -39.141228 -0.10276048 -39.14436 -23.968409 -124.60891
195814000 -23.988396 -135.26778 -0.10429808 -39.341278 -0.1036289 -39.344994 -23.907246 -124.68391
196813000 -23.936724 -135.5842 -0.10387121 -39.537647 -0.10294311 -39.539337 -23.827868 -124.86168
197812000 -23.87797 -135.77863 -0.10440786 -39.733616 -0.10412043 -39.731438 -23.760921 -124.93775
198811000 -23.823429 -135.95555 -0.10416976 -39.931973 -0.10358886 -39.932934 -23.690016 -125.10776
199810000 -23.754398 -136.28442 -0.10470591 -40.125202 -0.10317876 -40.121677 -23.61297 -125.1736
200809000 -23.69799 -136.54333 -0.10490745 -40.32309 -0.10320102 -40.325813 -23.536787 -125.37274
201808000 -23.635904 -136.76132 -0.10551742 -40.523651 -0.10436597 -40.527866 -23.467173 -125.43965
202807000 -23.580013 -137.08597 -0.10650471 -40.724121 -0.10490797 -40.730816 -23.41448 -125.62321
