!Keysight Technologies,E5080B,MY59205177,A.15.75.32
!Date: Friday, February 23, 2024 02:59:46
!Correction: S11(Cdelta 2-Port  ) 
!S21(Cdelta 2-Port  ) 
!S12(Cdelta 2-Port  ) 
!S22(Cdelta 2-Port  ) 
!S2P File: Measurements: S11, S21, S12, S22:
# Hz S  dB   R 50
10000000 -44.072346 -3.7637682 -0.028057899 -2.040894 -0.031399015 -2.0936069 -48.091244 -149.70218
10999000 -43.455006 -5.3951631 -0.029558072 -2.256587 -0.030785019 -2.3106017 -47.796745 -143.12413
11998000 -42.674446 -7.9018893 -0.02986823 -2.480171 -0.030520156 -2.5247908 -47.935238 -137.09935
12997000 -42.057869 -12.753032 -0.028872937 -2.658313 -0.029720446 -2.6910574 -47.318428 -130.58386
13996000 -41.84465 -16.014273 -0.027828893 -2.8410714 -0.030728448 -2.8584816 -46.859306 -124.97891
14995000 -41.50843 -19.849716 -0.029737908 -3.049351 -0.029472066 -3.0707188 -46.423756 -122.0074
15994000 -41.411442 -23.743679 -0.030800922 -3.2650363 -0.032586578 -3.2885885 -46.169735 -118.1065
16993000 -41.41729 -27.31146 -0.02988413 -3.460825 -0.031257175 -3.4753988 -45.307816 -119.05192
17992000 -41.452137 -32.395924 -0.030456027 -3.6587801 -0.032493729 -3.6642616 -44.671986 -119.89851
18991000 -41.709316 -36.529755 -0.031750243 -3.8684874 -0.033136137 -3.8693616 -43.929585 -119.13219
19990000 -41.576172 -41.503468 -0.03409797 -4.0752249 -0.034772448 -4.0740519 -43.275799 -120.7683
20989000 -41.508801 -44.406147 -0.035787888 -4.2832217 -0.037099618 -4.2720919 -42.68935 -120.76975
21988000 -41.376949 -49.206345 -0.036088049 -4.4770784 -0.038375184 -4.4663415 -42.396694 -119.86507
22987000 -41.149406 -53.582211 -0.038237035 -4.673409 -0.038371526 -4.6693516 -42.089466 -119.65089
23986000 -41.227627 -57.265182 -0.037339557 -4.8698339 -0.036975607 -4.8661032 -42.013687 -119.35151
24985000 -40.871853 -60.016579 -0.038423497 -5.0806122 -0.037864391 -5.071856 -41.733242 -117.13596
25984000 -40.626915 -62.13163 -0.03900044 -5.2882557 -0.039011408 -5.284018 -41.376144 -115.79021
26983000 -40.363831 -63.873108 -0.040037766 -5.4854145 -0.039077751 -5.4985986 -41.249985 -114.96102
27982000 -40.225143 -64.664597 -0.040663261 -5.6861291 -0.040917508 -5.7177978 -40.943573 -113.53981
28981000 -40.178013 -66.406425 -0.040112488 -5.8794031 -0.040810633 -5.901731 -40.707104 -113.04845
29980000 -39.781105 -67.943146 -0.038947154 -6.0742974 -0.041624412 -6.0779099 -40.374401 -112.09895
30979000 -39.456863 -67.162132 -0.037383944 -6.4254365 -0.036056206 -6.4154058 -39.865349 -113.01384
31978000 -39.255424 -68.226204 -0.036290344 -6.6226611 -0.036959942 -6.6104131 -39.609581 -112.37254
32977000 -39.081821 -69.912697 -0.036126159 -6.8292699 -0.037983205 -6.8259335 -39.358452 -112.53344
33976000 -38.943195 -71.105247 -0.036863346 -7.0305414 -0.037670899 -7.025692 -39.032337 -112.12891
34975000 -38.669407 -72.108086 -0.037809033 -7.2310991 -0.038359515 -7.2285986 -38.819374 -111.87938
35974000 -38.489346 -72.6138 -0.03669418 -7.4240127 -0.038095754 -7.4280334 -38.510765 -111.19175
36973000 -38.25354 -73.581795 -0.036944799 -7.6281824 -0.038976409 -7.6270785 -38.21814 -110.46648
37972000 -38.110107 -73.435768 -0.036623955 -7.8350382 -0.038839545 -7.844265 -37.981205 -109.70297
38971000 -37.778507 -73.341049 -0.037362274 -8.0342846 -0.039244663 -8.0465393 -37.779217 -108.16582
39970000 -37.454868 -73.781242 -0.035737514 -8.2252808 -0.037704322 -8.2419367 -37.510643 -107.85405
40969000 -37.171078 -73.704842 -0.035849746 -8.4216709 -0.038088966 -8.4448872 -37.244862 -106.52461
41968000 -36.83017 -73.817856 -0.036061425 -8.626174 -0.038823351 -8.6465034 -37.025349 -105.37215
42967000 -36.566544 -74.207428 -0.036138166 -8.8364763 -0.039242834 -8.8559275 -36.792831 -103.60385
43966000 -36.31311 -75.028717 -0.03670932 -9.0418158 -0.039789319 -9.0541687 -36.505375 -103.17316
44965000 -36.082745 -75.994576 -0.03699623 -9.2389936 -0.039940841 -9.2601652 -36.282722 -103.06492
45964000 -35.86084 -77.041679 -0.038756229 -9.4417801 -0.041279439 -9.4600468 -36.053211 -102.69775
46963000 -35.712013 -79.031372 -0.039052416 -9.6354856 -0.041610297 -9.6541519 -35.865406 -103.13176
47962000 -35.555397 -80.560562 -0.040608391 -9.8371019 -0.043129016 -9.8537035 -35.647709 -103.36732
48961000 -35.366653 -82.149605 -0.042824183 -10.030267 -0.04439877 -10.053354 -35.422832 -103.63721
49960000 -35.138542 -83.4832 -0.043513879 -10.230489 -0.045364145 -10.25313 -35.295277 -103.85083
50959000 -34.929279 -84.85508 -0.043975912 -10.443522 -0.046396717 -10.454934 -35.110893 -104.21291
51958000 -34.72974 -85.954323 -0.046134822 -10.641824 -0.048413381 -10.649761 -34.936234 -104.75716
52957000 -34.542759 -87.053436 -0.047928367 -10.841115 -0.04977135 -10.849607 -34.758968 -104.65601
53956000 -34.374203 -87.789635 -0.04885526 -11.044548 -0.050153922 -11.04085 -34.632992 -104.66151
54955000 -34.219997 -88.303429 -0.049948622 -11.241012 -0.050450888 -11.241298 -34.482384 -104.71928
55954000 -34.070858 -89.245102 -0.050917853 -11.442413 -0.051495671 -11.439409 -34.35759 -104.38786
56953000 -33.952286 -89.286697 -0.050112024 -11.63874 -0.0508199 -11.629144 -34.307362 -104.64929
57952000 -33.796619 -89.893135 -0.051680084 -11.838201 -0.051780939 -11.830013 -34.207546 -104.73892
58951000 -33.685143 -90.283287 -0.052331101 -12.039839 -0.052149542 -12.02188 -34.048492 -104.78367
59950000 -33.556591 -90.652031 -0.052453194 -12.245245 -0.052759487 -12.21929 -33.993931 -105.1003
60949000 -33.458134 -91.180504 -0.053301126 -12.443507 -0.053444471 -12.423224 -33.890511 -105.47941
61948000 -33.399342 -91.521278 -0.053981476 -12.641397 -0.053538818 -12.624546 -33.80452 -105.45833
62947000 -33.313026 -91.793449 -0.053409357 -12.852937 -0.053887121 -12.834306 -33.670372 -105.74497
63946000 -33.235367 -92.505531 -0.054695226 -13.051482 -0.055114407 -13.031587 -33.567394 -105.98009
64945000 -33.14732 -92.602852 -0.055854041 -13.253391 -0.055151638 -13.235246 -33.450798 -106.35606
65944000 -33.043385 -92.975662 -0.056485228 -13.452978 -0.055891536 -13.433792 -33.365005 -106.91076
66943000 -32.900822 -93.450966 -0.054007422 -13.652692 -0.054095753 -13.635698 -33.266682 -107.12039
67942000 -32.838917 -93.354134 -0.056266516 -13.847377 -0.056191258 -13.839784 -33.143604 -107.47452
68941000 -32.732384 -93.423927 -0.055612028 -14.041843 -0.055080064 -14.033121 -33.032475 -107.49202
69940000 -32.638077 -93.453857 -0.056368526 -14.24316 -0.05623138 -14.231901 -32.889824 -107.85617
70939000 -32.52589 -93.522102 -0.055915136 -14.434499 -0.055457335 -14.425587 -32.761166 -107.79187
71938000 -32.388996 -93.065018 -0.055877116 -14.630984 -0.055460744 -14.628742 -32.630951 -107.67014
72937000 -32.233425 -92.9645 -0.055487223 -14.833849 -0.054390628 -14.825076 -32.494995 -107.42414
73936000 -32.086788 -92.636803 -0.054861952 -15.027804 -0.054410551 -15.017818 -32.369663 -107.1992
74935000 -31.977312 -92.90049 -0.054558128 -15.226326 -0.053809807 -15.21899 -32.214485 -106.91868
75934000 -31.847075 -93.224197 -0.054896031 -15.436556 -0.053497408 -15.427592 -32.130508 -106.84499
76933000 -31.713243 -93.595818 -0.05589075 -15.626021 -0.055611767 -15.617651 -31.96648 -107.27521
77932000 -31.627399 -94.374481 -0.057508379 -15.819231 -0.056706045 -15.8185 -31.86902 -107.23445
78931000 -31.551445 -95.24189 -0.055570602 -16.023727 -0.056308214 -16.016233 -31.765568 -107.14834
79930000 -31.447109 -96.05143 -0.058013093 -16.216997 -0.058674503 -16.211884 -31.676804 -107.46931
80929000 -31.325268 -96.941856 -0.060170595 -16.407473 -0.059822571 -16.406376 -31.567884 -107.79638
81928000 -31.240458 -97.77533 -0.059438623 -16.599554 -0.059770867 -16.598845 -31.448101 -107.92184
82927000 -31.154348 -98.557022 -0.061272848 -16.802197 -0.061588693 -16.795626 -31.356293 -108.23708
83926000 -31.028847 -99.231178 -0.062495399 -16.995947 -0.062376436 -16.997494 -31.228622 -108.525
84925000 -30.93157 -99.699341 -0.063791841 -17.196125 -0.062194981 -17.195255 -31.132378 -108.53369
85924000 -30.854105 -100.19304 -0.064744458 -17.397429 -0.063973367 -17.392864 -31.050161 -108.59435
86923000 -30.746428 -100.69067 -0.064521655 -17.59289 -0.064416565 -17.584856 -30.957653 -108.43717
87922000 -30.640087 -101.05489 -0.064665109 -17.803082 -0.063757956 -17.789312 -30.865276 -108.45428
88921000 -30.574774 -101.38982 -0.065668114 -17.998333 -0.064198509 -17.991596 -30.772545 -108.50487
89920000 -30.470215 -101.9299 -0.06688454 -18.196781 -0.065172501 -18.190413 -30.725189 -108.65461
90919000 -30.371365 -102.22208 -0.067942485 -18.393669 -0.065644465 -18.389753 -30.645685 -108.87011
91918000 -30.284441 -102.56583 -0.067887008 -18.590813 -0.066143289 -18.587505 -30.568916 -108.89889
92917000 -30.191101 -102.95588 -0.06951569 -18.787933 -0.067704797 -18.784679 -30.507454 -109.00375
93916000 -30.114048 -103.35094 -0.068663798 -18.984959 -0.06790252 -18.979176 -30.42819 -109.62431
94915000 -30.032784 -103.94063 -0.070898429 -19.182848 -0.06849996 -19.175406 -30.364416 -109.50763
95914000 -29.974112 -104.18621 -0.071004465 -19.377661 -0.069739535 -19.376066 -30.272463 -109.79239
96913000 -29.888454 -104.39168 -0.072017625 -19.577013 -0.070349857 -19.576107 -30.207861 -110.08117
97912000 -29.821896 -104.91324 -0.073050231 -19.770929 -0.07118234 -19.773571 -30.129501 -110.41061
98911000 -29.716923 -105.06948 -0.073662072 -19.977173 -0.071753919 -19.972454 -30.085642 -110.58985
99910000 -29.645668 -105.25317 -0.073948011 -20.178497 -0.072070524 -20.174889 -29.983446 -110.91709
100909000 -29.559988 -105.50552 -0.073405638 -20.383043 -0.071425229 -20.374477 -29.900757 -111.0828
101908000 -29.476542 -105.73989 -0.07472799 -20.580441 -0.073048651 -20.578842 -29.784294 -110.87473
102907000 -29.34021 -105.82107 -0.075018741 -20.781919 -0.073118679 -20.777359 -29.707878 -110.85555
103906000 -29.254171 -105.86871 -0.075494148 -20.986385 -0.072124742 -20.980993 -29.56834 -110.83999
104905000 -29.099594 -105.7595 -0.076252274 -21.182117 -0.073117621 -21.181517 -29.428505 -110.48297
105904000 -28.963062 -105.90569 -0.076205648 -21.385168 -0.072817259 -21.377752 -29.32202 -110.36727
106903000 -28.853094 -106.01264 -0.076175354 -21.58931 -0.073165014 -21.583733 -29.199406 -110.30319
107902000 -28.694538 -106.3577 -0.076779202 -21.787964 -0.073964074 -21.783197 -29.057745 -110.30495
108901000 -28.579762 -106.62238 -0.0783448 -21.992527 -0.075500205 -21.984861 -28.919218 -110.21185
109900000 -28.451839 -107.09669 -0.079002194 -22.190718 -0.076475948 -22.178602 -28.768641 -110.28141
110899000 -28.339417 -107.74754 -0.080149844 -22.387758 -0.077062443 -22.381182 -28.645046 -110.57191
111898000 -28.251921 -108.40648 -0.081844591 -22.587664 -0.07784088 -22.582743 -28.524874 -110.69467
112897000 -28.119289 -108.97739 -0.083146304 -22.787405 -0.078834541 -22.776688 -28.392834 -110.87685
113896000 -28.022913 -109.60362 -0.083825804 -22.991291 -0.080675133 -22.977392 -28.280645 -111.05054
114895000 -27.916859 -110.26791 -0.085044682 -23.185518 -0.082081482 -23.173134 -28.176085 -111.14544
115894000 -27.786364 -110.62758 -0.086052671 -23.388727 -0.082645252 -23.373983 -28.101337 -111.34822
116893000 -27.710115 -111.158 -0.087126128 -23.583244 -0.083498575 -23.564743 -27.968176 -111.47072
117892000 -27.624409 -111.67134 -0.086677432 -23.780874 -0.084318012 -23.767109 -27.898512 -111.67636
118891000 -27.56801 -112.08974 -0.087681308 -23.980055 -0.084230386 -23.962542 -27.806023 -111.82025
119890000 -27.482056 -112.50405 -0.08782316 -24.179857 -0.085460998 -24.163479 -27.791391 -111.96063
120889000 -27.422976 -112.95138 -0.089369491 -24.380606 -0.085696235 -24.360474 -27.718479 -111.93888
121888000 -27.385588 -113.29134 -0.089222044 -24.576094 -0.086141922 -24.563951 -27.655142 -112.23426
122887000 -27.339851 -113.47344 -0.090171538 -24.779182 -0.086347617 -24.765364 -27.610565 -112.27702
123886000 -27.285807 -113.92223 -0.090885177 -24.980261 -0.086933866 -24.96166 -27.594761 -112.42574
124885000 -27.251314 -114.39532 -0.090692751 -25.179337 -0.087361448 -25.161886 -27.569744 -112.47915
125884000 -27.200842 -114.61063 -0.091724254 -25.376671 -0.087820515 -25.362103 -27.534809 -112.67879
126883000 -27.177475 -114.99655 -0.091809921 -25.578993 -0.088403791 -25.563156 -27.496655 -112.71928
127882000 -27.128633 -115.27512 -0.092284791 -25.776785 -0.088617258 -25.763035 -27.450727 -112.8619
128881000 -27.09082 -115.63612 -0.092590205 -25.979622 -0.088428095 -25.962332 -27.405638 -112.97913
129880000 -27.036547 -115.9454 -0.093267478 -26.182884 -0.088754378 -26.16148 -27.366152 -113.02536
130879000 -26.975775 -116.12542 -0.092976831 -26.379105 -0.089661486 -26.363293 -27.282654 -113.07304
131878000 -26.904976 -116.30592 -0.093898572 -26.584047 -0.090571426 -26.566305 -27.222635 -112.92675
132877000 -26.841471 -116.39758 -0.09303686 -26.783741 -0.09002988 -26.764397 -27.140444 -112.9891
133876000 -26.755522 -116.56878 -0.092638329 -26.983791 -0.090235494 -26.96335 -27.047188 -112.87725
134875000 -26.662107 -116.70818 -0.093035541 -27.18428 -0.089839071 -27.165609 -26.947042 -112.77978
135874000 -26.582563 -116.72134 -0.09318655 -27.382813 -0.090648606 -27.36587 -26.849688 -112.7195
136873000 -26.472773 -116.64473 -0.093673207 -27.584824 -0.091287516 -27.568411 -26.766296 -112.70907
137872000 -26.388229 -116.77862 -0.093973167 -27.790318 -0.090754338 -27.771935 -26.657915 -112.66095
138871000 -26.315542 -116.99721 -0.094626054 -27.984522 -0.090446144 -27.967609 -26.560104 -112.84698
139870000 -26.221773 -117.20919 -0.095266871 -28.186543 -0.092716604 -28.169956 -26.480299 -112.98421
140869000 -26.132986 -117.64581 -0.097255535 -28.379612 -0.093464255 -28.361195 -26.371737 -113.12003
141868000 -26.034851 -118.17476 -0.097421519 -28.570265 -0.094439283 -28.558411 -26.303637 -113.4907
142867000 -25.962006 -118.42585 -0.095297039 -28.77128 -0.093539372 -28.753222 -26.22768 -113.67027
143866000 -25.895826 -118.91701 -0.097369902 -28.968731 -0.094556481 -28.951895 -26.152609 -114.15424
144865000 -25.838699 -119.42831 -0.098775841 -29.167107 -0.095376156 -29.151453 -26.097927 -114.45407
145864000 -25.78347 -119.75813 -0.099065028 -29.367067 -0.096838884 -29.354494 -26.063482 -114.73792
146863000 -25.734619 -120.16408 -0.09926869 -29.569067 -0.097074211 -29.554239 -26.012476 -115.04582
147862000 -25.697195 -120.52646 -0.100458 -29.764357 -0.097598635 -29.749357 -25.979601 -115.38426
148861000 -25.665131 -121.03967 -0.10059126 -29.961821 -0.098496206 -29.943983 -25.955267 -115.61153
149860000 -25.648781 -121.22035 -0.10202924 -30.158848 -0.098802581 -30.14934 -25.924637 -115.76012
150859000 -25.632713 -121.60278 -0.10207615 -30.359755 -0.098828271 -30.344889 -25.916203 -116.01546
151858000 -25.61307 -121.92989 -0.1016238 -30.558157 -0.099531159 -30.543226 -25.908104 -116.29782
152857000 -25.59642 -122.2126 -0.10228128 -30.757378 -0.099398196 -30.740263 -25.892933 -116.4459
153856000 -25.589682 -122.46808 -0.10182916 -30.956652 -0.099167779 -30.939064 -25.911411 -116.7259
154855000 -25.584848 -122.61952 -0.10289327 -31.153183 -0.099208035 -31.141272 -25.897215 -116.97572
155854000 -25.602976 -122.87096 -0.10292323 -31.350443 -0.099202476 -31.338951 -25.890924 -117.16817
156853000 -25.582026 -123.59674 -0.10003972 -31.538671 -0.099404551 -31.530455 -25.884935 -117.49975
157852000 -25.588175 -123.83015 -0.1018758 -31.738533 -0.1002972 -31.733114 -25.878382 -117.85612
158851000 -25.587624 -124.0755 -0.10273079 -31.938622 -0.1009521 -31.929443 -25.862738 -118.12259
159850000 -25.57119 -124.17554 -0.10291898 -32.137123 -0.10100191 -32.128231 -25.864645 -118.29735
160849000 -25.552652 -124.30494 -0.10323177 -32.333935 -0.10154668 -32.330029 -25.832397 -118.5611
161848000 -25.5336 -124.38241 -0.10282833 -32.53635 -0.10169984 -32.527771 -25.792263 -118.67229
162847000 -25.493742 -124.55721 -0.10306107 -32.731697 -0.10250179 -32.726742 -25.764317 -118.94085
163846000 -25.449165 -124.81775 -0.1035483 -32.933338 -0.10200354 -32.924564 -25.684544 -118.93549
164845000 -25.388559 -124.78979 -0.10380864 -33.13092 -0.10232501 -33.123692 -25.618784 -119.01117
165844000 -25.339119 -124.88067 -0.10367662 -33.330437 -0.10267725 -33.3242 -25.53688 -119.1944
166843000 -25.275421 -124.95619 -0.10367449 -33.529903 -0.1032498 -33.523258 -25.468695 -119.34929
167842000 -25.212685 -125.12553 -0.10459772 -33.725433 -0.10273768 -33.725067 -25.388029 -119.2929
168841000 -25.139147 -125.30267 -0.10481092 -33.926849 -0.10313211 -33.921329 -25.314486 -119.35433
169840000 -25.072762 -125.55131 -0.10511059 -34.119644 -0.10321905 -34.11998 -25.2211 -119.57209
170839000 -25.014145 -125.8298 -0.10602881 -34.31686 -0.10386432 -34.318089 -25.141113 -119.74417
171838000 -24.955893 -126.24203 -0.10572271 -34.519024 -0.10486343 -34.51268 -25.076714 -119.98898
172837000 -24.883162 -126.60402 -0.10709501 -34.714901 -0.10583623 -34.708313 -25.003666 -120.20393
173836000 -24.820932 -127.03096 -0.10801418 -34.915932 -0.10638029 -34.915062 -24.962725 -120.45811
174835000 -24.764715 -127.46355 -0.1087374 -35.10656 -0.10721679 -35.108295 -24.916521 -120.82306
175834000 -24.718847 -127.87247 -0.10984117 -35.308819 -0.10800356 -35.30349 -24.851345 -121.04808
176833000 -24.66613 -128.23039 -0.1104991 -35.503544 -0.10851312 -35.501518 -24.801012 -121.2319
177832000 -24.618982 -128.66768 -0.10993754 -35.698082 -0.1087504 -35.701305 -24.783489 -121.41308
178831000 -24.579338 -129.09122 -0.11123096 -35.897251 -0.10992586 -35.892784 -24.739544 -121.66119
179830000 -24.545258 -129.51932 -0.11183227 -36.093876 -0.11070463 -36.096928 -24.715961 -121.77139
180829000 -24.504215 -129.71605 -0.11221317 -36.289944 -0.11050999 -36.290035 -24.685041 -121.94124
181828000 -24.477936 -130.06892 -0.11196402 -36.49144 -0.10995878 -36.487663 -24.663174 -122.06148
182827000 -24.451344 -130.45343 -0.11184236 -36.6847 -0.11127134 -36.686726 -24.652315 -122.13657
183826000 -24.414703 -130.76143 -0.11356786 -36.881779 -0.11132232 -36.880524 -24.645182 -122.28955
184825000 -24.413177 -131.06807 -0.11327239 -37.074184 -0.11089264 -37.078259 -24.626272 -122.37746
185824000 -24.38471 -131.39081 -0.11281355 -37.269753 -0.11119166 -37.271839 -24.622469 -122.40188
186823000 -24.373791 -131.75322 -0.11362392 -37.474392 -0.11195552 -37.468102 -24.620775 -122.41924
187822000 -24.351923 -132.07524 -0.11389656 -37.66972 -0.11241931 -37.66925 -24.587353 -122.48183
188821000 -24.331726 -132.32031 -0.1136319 -37.863426 -0.11297322 -37.869011 -24.568399 -122.58113
189820000 -24.315067 -132.59998 -0.11457425 -38.064304 -0.11312015 -38.063438 -24.563698 -122.73218
190819000 -24.283634 -132.83849 -0.11548357 -38.265301 -0.11400605 -38.26289 -24.528456 -122.6788
191818000 -24.250343 -133.00925 -0.11677972 -38.458069 -0.11500005 -38.458996 -24.492153 -122.56981
192817000 -24.184273 -133.28687 -0.11644734 -38.643406 -0.11583662 -38.64325 -24.420774 -122.69157
193816000 -24.147533 -133.63814 -0.11614317 -38.835678 -0.11435206 -38.835346 -24.366781 -122.91582
194815000 -24.09115 -134.0988 -0.11584859 -39.030937 -0.11489054 -39.033218 -24.304188 -123.03228
195814000 -24.035784 -134.29668 -0.11654732 -39.22908 -0.11507262 -39.230164 -24.255289 -123.16997
196813000 -23.985678 -134.66295 -0.11567418 -39.422497 -0.1151069 -39.426071 -24.177675 -123.34187
197812000 -23.925097 -134.88576 -0.11572576 -39.628094 -0.11491074 -39.62001 -24.105137 -123.42953
198811000 -23.873507 -135.05185 -0.11610435 -39.819347 -0.1150043 -39.822151 -24.035608 -123.59142
199810000 -23.805006 -135.44009 -0.11667176 -40.014103 -0.11478369 -40.011505 -23.957476 -123.69571
200809000 -23.748249 -135.70047 -0.11652631 -40.208649 -0.11542536 -40.209831 -23.88139 -123.91927
201808000 -23.686924 -135.92912 -0.11720254 -40.408962 -0.11621948 -40.411152 -23.813044 -123.97572
202807000 -23.629862 -136.30246 -0.11795043 -40.614452 -0.11714696 -40.61454 -23.75811 -124.2057
203806000 -23.578697 -136.74841 -0.11899588 -40.809994 -0.11676749 -40.810596 -23.692472 -124.36682
