!Keysight Technologies,E5080B,MY59205177,A.15.75.32
!Date: Friday, February 23, 2024 03:38:09
!Correction: S11(Cdelta 2-Port  ) 
!S21(Cdelta 2-Port  ) 
!S12(Cdelta 2-Port  ) 
!S22(Cdelta 2-Port  ) 
!S2P File: Measurements: S11, S21, S12, S22:
# Hz S  dB   R 50
10000000 -46.064346 -2.3492756 -0.015072084 -2.0421503 -0.018204356 -2.1002235 -45.969654 -157.19264
10999000 -45.304375 -4.8904772 -0.016317289 -2.2633743 -0.017955594 -2.3158202 -45.842285 -151.64851
11998000 -44.362705 -7.8210535 -0.016255191 -2.4838119 -0.017385079 -2.5311327 -46.015553 -147.38354
12997000 -43.575802 -13.353295 -0.016188674 -2.6659267 -0.017608337 -2.6976907 -45.63261 -141.57559
13996000 -43.286903 -17.375576 -0.014717786 -2.8470957 -0.017398335 -2.8662045 -45.371395 -136.40591
14995000 -42.879135 -21.866961 -0.017449016 -3.0542779 -0.017110636 -3.0818708 -45.102703 -132.68813
15994000 -42.728905 -26.093723 -0.018725321 -3.2751949 -0.019147025 -3.2984023 -44.967308 -129.12044
16993000 -42.67564 -30.540222 -0.017990945 -3.4698436 -0.01839724 -3.4793684 -44.135609 -129.01855
17992000 -42.719986 -36.481266 -0.01782017 -3.6692059 -0.019654322 -3.6714945 -43.513668 -129.17175
18991000 -42.946747 -41.538033 -0.019056546 -3.8860571 -0.019928407 -3.8795671 -42.916607 -127.97839
19990000 -42.708771 -46.953529 -0.021656783 -4.0905681 -0.022084758 -4.0892959 -42.248665 -128.66539
20989000 -42.563148 -50.7934 -0.023393396 -4.2949114 -0.024429606 -4.2863297 -41.726105 -128.22958
21988000 -42.345978 -55.566704 -0.024651404 -4.4923024 -0.025223395 -4.4820504 -41.469433 -127.39233
22987000 -42.02631 -60.608116 -0.025008077 -4.6912122 -0.026407707 -4.6851625 -41.205696 -127.11729
23986000 -41.953064 -64.728592 -0.024621466 -4.8884087 -0.024841452 -4.8831635 -41.050045 -126.8596
24985000 -41.559742 -67.311256 -0.026064985 -5.0965619 -0.025580373 -5.0897636 -40.852497 -124.31232
25984000 -41.192223 -69.679008 -0.026406405 -5.29668 -0.026623616 -5.3021073 -40.528702 -122.79481
26983000 -40.877178 -71.49337 -0.028600894 -5.5009284 -0.026560327 -5.5156131 -40.403934 -122.27702
27982000 -40.727386 -72.398964 -0.028734569 -5.6987791 -0.027933884 -5.7330441 -40.131737 -120.67013
28981000 -40.689625 -73.942047 -0.026893193 -5.8997426 -0.028160032 -5.9196167 -39.913799 -119.92855
29980000 -40.279675 -75.273819 -0.027228687 -6.0942688 -0.028206408 -6.101757 -39.636673 -119.15125
30979000 -39.891693 -74.232681 -0.025232768 -6.4431353 -0.023352016 -6.4370131 -39.140625 -119.56134
31978000 -39.666569 -75.138382 -0.024005566 -6.6395764 -0.024503799 -6.6330738 -38.901112 -118.66702
32977000 -39.489491 -76.658035 -0.024050077 -6.8508544 -0.024950538 -6.8506675 -38.675526 -118.80724
33976000 -39.31076 -77.742706 -0.02440748 -7.0532537 -0.024934396 -7.0475144 -38.403072 -118.19872
34975000 -39.02338 -78.502945 -0.024988551 -7.2519946 -0.026210301 -7.2511706 -38.164192 -117.8718
35974000 -38.833305 -79.016357 -0.023695827 -7.4441934 -0.026181914 -7.4505777 -37.882519 -116.95442
36973000 -38.588844 -79.782303 -0.024143005 -7.6466522 -0.027066927 -7.6512651 -37.621216 -115.94923
37972000 -38.423016 -79.420151 -0.023615142 -7.855598 -0.026825732 -7.8640094 -37.407337 -115.23618
38971000 -38.117607 -78.99025 -0.024986727 -8.0593958 -0.026878867 -8.0650291 -37.240944 -113.67307
39970000 -37.790974 -79.300446 -0.022780793 -8.2584219 -0.025795199 -8.2686749 -36.996712 -113.11284
40969000 -37.507874 -78.82457 -0.024087559 -8.4519358 -0.02531088 -8.4666662 -36.75127 -111.73872
41968000 -37.162102 -78.786987 -0.023976153 -8.6546087 -0.02625848 -8.6711264 -36.580006 -110.39985
42967000 -36.893188 -78.946823 -0.023221631 -8.8670158 -0.026077745 -8.8800697 -36.359486 -108.68455
43966000 -36.60844 -79.738297 -0.023978757 -9.062253 -0.027650438 -9.080142 -36.090569 -107.88387
44965000 -36.350525 -80.304787 -0.025686614 -9.2675171 -0.027720256 -9.2824821 -35.888947 -107.68533
45964000 -36.126469 -81.403503 -0.026275408 -9.4689445 -0.02876219 -9.4894428 -35.66227 -107.35726
46963000 -35.932373 -83.282486 -0.025831917 -9.6595802 -0.02947415 -9.6828699 -35.475082 -107.63683
47962000 -35.758179 -84.69146 -0.028112873 -9.8647346 -0.031061893 -9.8825541 -35.276676 -107.60336
48961000 -35.552757 -86.102364 -0.029451737 -10.061502 -0.032824442 -10.083348 -35.062862 -107.82293
49960000 -35.318256 -87.399429 -0.030445861 -10.260321 -0.033402465 -10.28309 -34.924725 -107.76391
50959000 -35.085922 -88.616905 -0.031919479 -10.475557 -0.034163978 -10.48311 -34.743515 -108.16472
51958000 -34.873894 -89.638031 -0.033845425 -10.674795 -0.035886809 -10.681921 -34.556305 -108.6067
52957000 -34.665909 -90.74707 -0.035098374 -10.872138 -0.037165411 -10.881921 -34.408688 -108.34669
53956000 -34.493446 -91.420265 -0.036516927 -11.078448 -0.037869614 -11.080946 -34.269455 -108.29367
54955000 -34.338444 -91.89846 -0.037071161 -11.276755 -0.038239382 -11.28056 -34.123707 -108.28899
55954000 -34.158981 -92.69397 -0.037790492 -11.478043 -0.038834844 -11.472683 -34.009781 -107.94467
56953000 -34.032162 -92.815208 -0.037882406 -11.678743 -0.037617892 -11.66652 -33.931461 -108.19499
57952000 -33.872173 -93.369408 -0.039007232 -11.87373 -0.039423335 -11.865838 -33.827553 -108.2217
58951000 -33.745018 -93.598633 -0.039684825 -12.08006 -0.040149063 -12.05865 -33.681271 -108.39751
59950000 -33.623329 -94.067276 -0.039699189 -12.282022 -0.040252004 -12.254816 -33.601479 -108.53784
60949000 -33.509724 -94.541595 -0.04042732 -12.480516 -0.041199472 -12.45686 -33.509315 -108.84736
61948000 -33.448471 -94.969345 -0.041292243 -12.677374 -0.040982839 -12.658773 -33.416409 -108.92491
62947000 -33.353943 -95.034256 -0.040707421 -12.890518 -0.041722417 -12.868923 -33.27634 -109.22151
63946000 -33.288216 -95.940079 -0.041903283 -13.088732 -0.042721968 -13.068935 -33.172081 -109.3446
64945000 -33.173878 -95.979805 -0.043110453 -13.291354 -0.04366684 -13.27282 -33.053188 -109.87098
65944000 -33.068829 -96.275047 -0.044009123 -13.490588 -0.043353602 -13.474321 -32.961109 -110.30795
66943000 -32.922588 -96.714859 -0.041720327 -13.691949 -0.041591741 -13.673844 -32.857487 -110.53171
67942000 -32.878452 -96.615295 -0.043668408 -13.887581 -0.043568 -13.875791 -32.737907 -110.84785
68941000 -32.763401 -96.780792 -0.042963788 -14.08312 -0.042732947 -14.074998 -32.63525 -110.74009
69940000 -32.663696 -96.723656 -0.04360513 -14.283687 -0.043154377 -14.270536 -32.485378 -111.081
70939000 -32.557163 -96.661598 -0.043309417 -14.478051 -0.042912286 -14.471474 -32.364529 -111.00576
71938000 -32.416866 -96.231796 -0.043529827 -14.673437 -0.043127187 -14.665308 -32.222042 -110.83308
72937000 -32.258545 -96.045219 -0.042207528 -14.874283 -0.042578977 -14.866732 -32.086529 -110.57719
73936000 -32.123814 -95.703735 -0.042094611 -15.07187 -0.042219289 -15.063848 -31.973215 -110.31182
74935000 -32.003109 -95.9533 -0.041726079 -15.269142 -0.040930573 -15.266289 -31.831427 -110.01728
75934000 -31.880236 -96.145943 -0.042259019 -15.478678 -0.041492168 -15.472228 -31.740099 -109.88731
76933000 -31.748446 -96.53949 -0.043059211 -15.67193 -0.042122055 -15.664832 -31.565178 -110.2702
77932000 -31.645067 -97.314194 -0.044506516 -15.866304 -0.043870796 -15.863316 -31.470646 -110.24225
78931000 -31.561743 -97.9879 -0.042791244 -16.068958 -0.043206666 -16.06212 -31.367756 -110.10241
79930000 -31.459557 -98.883949 -0.045634363 -16.261471 -0.045609511 -16.260021 -31.268684 -110.31909
80929000 -31.342522 -99.682381 -0.047672659 -16.457592 -0.047468003 -16.457457 -31.166912 -110.60907
81928000 -31.240213 -100.39195 -0.047755104 -16.648521 -0.047757458 -16.646563 -31.035534 -110.60008
82927000 -31.137831 -101.14118 -0.049168367 -16.849176 -0.048862327 -16.846527 -30.928938 -110.9038
83926000 -31.031059 -101.79429 -0.050180633 -17.043598 -0.05011595 -17.045271 -30.812033 -111.02946
84925000 -30.919304 -102.18316 -0.051855601 -17.245461 -0.050396942 -17.242834 -30.716902 -111.0837
85924000 -30.822336 -102.64687 -0.052619047 -17.445648 -0.051892016 -17.444849 -30.627081 -111.06327
86923000 -30.726933 -103.07637 -0.051365223 -17.640726 -0.052185956 -17.639694 -30.533157 -110.96153
87922000 -30.612823 -103.44796 -0.05242411 -17.851835 -0.051504053 -17.841785 -30.439137 -110.97916
88921000 -30.541035 -103.75468 -0.053090438 -18.051483 -0.052721232 -18.044937 -30.353273 -110.91888
89920000 -30.437641 -104.19614 -0.053245045 -18.246752 -0.052511621 -18.2395 -30.302736 -111.10831
90919000 -30.338104 -104.46831 -0.054840717 -18.444017 -0.05357603 -18.442303 -30.21393 -111.26059
91918000 -30.236916 -104.82526 -0.055652406 -18.647779 -0.054419726 -18.642338 -30.144226 -111.28656
92917000 -30.149479 -105.13467 -0.056353319 -18.845026 -0.05581025 -18.839903 -30.079325 -111.40351
93916000 -30.064167 -105.4979 -0.056498338 -19.036633 -0.055514228 -19.033211 -29.992601 -111.95718
94915000 -29.987858 -106.13682 -0.057456966 -19.235977 -0.056286708 -19.234406 -29.939486 -111.84866
95914000 -29.911547 -106.3067 -0.058552235 -19.432446 -0.057202272 -19.429577 -29.844917 -112.13287
96913000 -29.833439 -106.48209 -0.059650671 -19.63419 -0.058108587 -19.63088 -29.781561 -112.4483
97912000 -29.75633 -106.9676 -0.060995094 -19.826992 -0.058353361 -19.832956 -29.707659 -112.72822
98911000 -29.640228 -107.19769 -0.060470086 -20.029327 -0.059311874 -20.02788 -29.657547 -112.95621
99910000 -29.586905 -107.31847 -0.061771963 -20.232334 -0.059837267 -20.229143 -29.560692 -113.26858
100909000 -29.495808 -107.4926 -0.06121378 -20.439442 -0.059316073 -20.434038 -29.468227 -113.40562
101908000 -29.395979 -107.75072 -0.062695511 -20.63785 -0.060544368 -20.636904 -29.364254 -113.17539
102907000 -29.265636 -107.79541 -0.063031949 -20.839102 -0.060674567 -20.838305 -29.285683 -113.19061
103906000 -29.174314 -107.831 -0.063899286 -21.047789 -0.060240936 -21.039248 -29.140606 -113.14083
104905000 -29.02154 -107.69382 -0.063966274 -21.243092 -0.060689531 -21.242418 -29.018354 -112.83777
105904000 -28.891716 -107.73907 -0.06419535 -21.444485 -0.06121273 -21.442284 -28.902437 -112.70144
106903000 -28.775108 -107.82701 -0.064303331 -21.652205 -0.061527781 -21.650167 -28.776144 -112.60094
107902000 -28.614288 -108.19173 -0.064958341 -21.850693 -0.061801895 -21.84371 -28.646427 -112.58569
108901000 -28.500219 -108.33174 -0.065674953 -22.05439 -0.063870125 -22.044611 -28.516491 -112.46703
109900000 -28.378151 -108.85675 -0.066379055 -22.256556 -0.064461231 -22.24608 -28.366102 -112.58983
110899000 -28.256004 -109.41335 -0.068141274 -22.452738 -0.064906053 -22.443903 -28.246426 -112.83792
111898000 -28.161469 -110.09966 -0.069219522 -22.653423 -0.066148289 -22.648287 -28.128473 -112.96392
112897000 -28.035751 -110.61414 -0.07118208 -22.849806 -0.067747392 -22.84004 -27.99017 -113.13445
113896000 -27.929831 -111.17943 -0.071698122 -23.051994 -0.068597525 -23.040855 -27.887234 -113.22134
114895000 -27.831316 -111.85717 -0.072731711 -23.250206 -0.069518581 -23.235197 -27.772581 -113.34808
115894000 -27.710379 -112.20805 -0.073986456 -23.452255 -0.071073666 -23.439713 -27.703182 -113.55423
116893000 -27.629578 -112.70085 -0.074669264 -23.649969 -0.071977615 -23.632954 -27.578062 -113.58584
117892000 -27.544886 -113.19955 -0.074119687 -23.845522 -0.072476909 -23.835119 -27.499926 -113.8145
118891000 -27.495806 -113.56081 -0.07547044 -24.044296 -0.072317407 -24.031721 -27.408052 -113.91415
119890000 -27.405296 -113.96083 -0.075685114 -24.246407 -0.0727375 -24.234295 -27.396086 -114.06767
120889000 -27.350624 -114.4248 -0.077045843 -24.44977 -0.073466189 -24.430567 -27.322563 -113.99565
121888000 -27.311995 -114.77702 -0.07681635 -24.645454 -0.074208163 -24.634613 -27.261271 -114.27545
122887000 -27.269884 -114.9725 -0.077994525 -24.845934 -0.074428834 -24.833803 -27.218473 -114.25426
123886000 -27.221495 -115.41674 -0.078503206 -25.051582 -0.074810944 -25.030478 -27.203817 -114.40268
124885000 -27.182592 -115.8914 -0.078759938 -25.246759 -0.076125562 -25.23518 -27.17218 -114.4894
125884000 -27.129057 -116.08336 -0.079474345 -25.446812 -0.076178513 -25.433861 -27.143143 -114.63811
126883000 -27.116543 -116.45766 -0.080143519 -25.650158 -0.077185765 -25.636074 -27.107399 -114.64275
127882000 -27.062223 -116.75495 -0.080330998 -25.851622 -0.077363633 -25.835428 -27.064634 -114.74738
128881000 -27.031528 -117.10513 -0.080142729 -26.055668 -0.077234775 -26.036257 -27.025337 -114.89029
129880000 -26.979042 -117.41456 -0.080926724 -26.254196 -0.077108823 -26.235104 -26.981695 -114.80546
130879000 -26.927711 -117.56976 -0.08084444 -26.453369 -0.07806094 -26.438623 -26.910093 -114.81973
131878000 -26.858351 -117.77571 -0.081561036 -26.655579 -0.078185335 -26.637638 -26.852558 -114.69592
132877000 -26.793795 -117.84917 -0.080820702 -26.856808 -0.07827574 -26.841513 -26.774944 -114.68569
133876000 -26.70941 -118.04031 -0.081346862 -27.059856 -0.079073898 -27.042355 -26.688646 -114.52821
134875000 -26.611599 -118.16309 -0.081755169 -27.259394 -0.078785509 -27.239584 -26.59119 -114.35709
135874000 -26.532352 -118.16475 -0.081795 -27.455324 -0.079165109 -27.445009 -26.497421 -114.35497
136873000 -26.420643 -118.10534 -0.08234819 -27.663307 -0.079376802 -27.646963 -26.413609 -114.30238
137872000 -26.344812 -118.26984 -0.082429968 -27.857777 -0.079027504 -27.849699 -26.312304 -114.24078
138871000 -26.268614 -118.4581 -0.082271419 -28.062426 -0.078890949 -28.049828 -26.221228 -114.34789
139870000 -26.167833 -118.72028 -0.082146108 -28.259472 -0.080144837 -28.24655 -26.139406 -114.5502
140869000 -26.090784 -119.27982 -0.083660334 -28.461391 -0.080302782 -28.442125 -26.041925 -114.73752
141868000 -26.016832 -119.68552 -0.084519923 -28.659727 -0.082386702 -28.644842 -25.988234 -115.01273
142867000 -25.937061 -119.84421 -0.083181657 -28.856249 -0.081206545 -28.839025 -25.914152 -115.1231
143866000 -25.861818 -120.32759 -0.085652933 -29.053419 -0.082621768 -29.036947 -25.841818 -115.57563
144865000 -25.807098 -120.86062 -0.086944163 -29.250761 -0.083664298 -29.235321 -25.781122 -115.88658
145864000 -25.746868 -121.14627 -0.086977966 -29.452158 -0.085725799 -29.440191 -25.756479 -116.14654
146863000 -25.705484 -121.52636 -0.08806856 -29.65267 -0.085646071 -29.640488 -25.704788 -116.41368
147862000 -25.669388 -121.85182 -0.089069583 -29.851543 -0.086536422 -29.837191 -25.6742 -116.7447
148861000 -25.628586 -122.30493 -0.089723058 -30.05213 -0.087626107 -30.036846 -25.643848 -116.88882
149860000 -25.594151 -122.48482 -0.090793192 -30.24332 -0.088292837 -30.231354 -25.59936 -117.03111
150859000 -25.57435 -122.99599 -0.090390906 -30.440189 -0.087633505 -30.424765 -25.580507 -117.33209
151858000 -25.566755 -123.30799 -0.089769833 -30.639706 -0.087983765 -30.625275 -25.565697 -117.73266
152857000 -25.552536 -123.64252 -0.090497151 -30.839527 -0.087770328 -30.822178 -25.557064 -117.85059
153856000 -25.547695 -123.84996 -0.090307645 -31.041018 -0.087472908 -31.024096 -25.567472 -118.22038
154855000 -25.548586 -124.05073 -0.090350464 -31.239103 -0.087721728 -31.228239 -25.555353 -118.46784
155854000 -25.563988 -124.2709 -0.090395659 -31.442251 -0.087771915 -31.424772 -25.552986 -118.71807
156853000 -25.549002 -124.97055 -0.088117957 -31.625395 -0.087404236 -31.615427 -25.547871 -119.03723
157852000 -25.556902 -125.13273 -0.089188747 -31.827343 -0.089114763 -31.816292 -25.533035 -119.35004
158851000 -25.555729 -125.37793 -0.089843825 -32.024757 -0.089065887 -32.016987 -25.515463 -119.65561
159850000 -25.544491 -125.49616 -0.090770461 -32.226646 -0.088948041 -32.216003 -25.515663 -119.82642
160849000 -25.525921 -125.5442 -0.090810902 -32.425571 -0.090158321 -32.417992 -25.486185 -120.12865
161848000 -25.512987 -125.66797 -0.091734305 -32.626236 -0.089846469 -32.61985 -25.44799 -120.20951
162847000 -25.467514 -125.82546 -0.090945974 -32.825157 -0.090776011 -32.815914 -25.419491 -120.47898
163846000 -25.431913 -126.0405 -0.091302052 -33.02557 -0.090139821 -33.019012 -25.343367 -120.46782
164845000 -25.369728 -126.00011 -0.091371052 -33.22488 -0.091015764 -33.219841 -25.282709 -120.55407
165844000 -25.317911 -126.0256 -0.091912501 -33.422791 -0.091270328 -33.41827 -25.206497 -120.69904
166843000 -25.254059 -126.10336 -0.091638066 -33.624268 -0.091381095 -33.617077 -25.134092 -120.89841
167842000 -25.204243 -126.20718 -0.0923144 -33.823738 -0.091128372 -33.822128 -25.061621 -120.77184
168841000 -25.124321 -126.34615 -0.092782453 -34.023167 -0.092162102 -34.019073 -24.988014 -120.8324
169840000 -25.054441 -126.59563 -0.092561908 -34.217781 -0.091750167 -34.213604 -24.90044 -121.04035
170839000 -24.999044 -126.84798 -0.093225695 -34.416023 -0.092607126 -34.414619 -24.820723 -121.19872
171838000 -24.941675 -127.23096 -0.094004117 -34.618279 -0.093413472 -34.613335 -24.761055 -121.41104
172837000 -24.865568 -127.56945 -0.095377475 -34.815544 -0.093957298 -34.80756 -24.686821 -121.66567
173836000 -24.805548 -127.94826 -0.096699655 -35.011906 -0.094967619 -35.01239 -24.650547 -121.87514
174835000 -24.752512 -128.3718 -0.096871711 -35.210976 -0.095798224 -35.209465 -24.607395 -122.18284
175834000 -24.698767 -128.73221 -0.097733915 -35.411259 -0.096894205 -35.406158 -24.544815 -122.428
176833000 -24.647785 -129.04919 -0.09890613 -35.609619 -0.097701885 -35.604568 -24.49992 -122.54835
177832000 -24.60483 -129.47746 -0.099714972 -35.804966 -0.098544925 -35.806774 -24.484877 -122.69789
178831000 -24.557444 -129.70386 -0.10120805 -36.003586 -0.10019309 -35.997734 -24.442188 -122.72805
179830000 -24.487892 -130.09494 -0.1018069 -36.185692 -0.10035203 -36.189316 -24.375141 -122.83398
180829000 -24.440388 -130.46581 -0.10147355 -36.379635 -0.099915482 -36.382389 -24.333414 -123.17188
181828000 -24.414436 -130.86932 -0.10053218 -36.581867 -0.099287756 -36.579739 -24.316402 -123.36155
182827000 -24.394646 -131.24992 -0.10078254 -36.777332 -0.099996276 -36.78035 -24.301838 -123.49572
183826000 -24.35051 -131.5827 -0.10182068 -36.980888 -0.09989085 -36.976414 -24.292994 -123.65795
184825000 -24.356537 -131.91878 -0.10170832 -37.171059 -0.099635512 -37.174099 -24.2728 -123.76015
185824000 -24.32733 -132.28529 -0.10112591 -37.36618 -0.1001711 -37.371826 -24.267178 -123.79797
186823000 -24.311737 -132.67368 -0.10151117 -37.568607 -0.10078996 -37.571136 -24.263189 -123.84913
187822000 -24.286379 -132.9836 -0.10214903 -37.767189 -0.1006551 -37.76321 -24.227579 -123.93128
188821000 -24.260202 -133.27596 -0.10137179 -37.962067 -0.10190549 -37.964348 -24.202171 -124.0675
189820000 -24.252226 -133.56145 -0.10230567 -38.160954 -0.10112353 -38.15992 -24.184454 -124.24496
190819000 -24.211746 -133.85651 -0.10298844 -38.357113 -0.10197969 -38.359993 -24.147432 -124.27691
191818000 -24.180983 -134.17082 -0.10239392 -38.554108 -0.10201573 -38.55809 -24.120085 -124.33102
192817000 -24.135576 -134.40872 -0.10303827 -38.752563 -0.1020523 -38.75251 -24.077244 -124.41702
193816000 -24.101398 -134.65862 -0.10344438 -38.951382 -0.10185037 -38.948418 -24.024389 -124.51427
194815000 -24.047171 -135.06253 -0.10307644 -39.145222 -0.10304039 -39.145687 -23.957754 -124.61968
195814000 -23.987238 -135.26134 -0.10445983 -39.343117 -0.10291183 -39.340687 -23.906488 -124.71493
196813000 -23.935223 -135.6091 -0.10404143 -39.532864 -0.10277903 -39.539047 -23.825584 -124.83649
197812000 -23.879126 -135.8116 -0.1038272 -39.735802 -0.10357375 -39.733139 -23.757336 -124.92146
198811000 -23.82126 -135.95889 -0.10381606 -39.930859 -0.10332615 -39.933037 -23.689268 -125.09587
199810000 -23.752228 -136.29312 -0.10444233 -40.122276 -0.10413846 -40.125496 -23.61253 -125.16169
200809000 -23.697241 -136.54434 -0.10504694 -40.324009 -0.10351092 -40.325668 -23.535545 -125.37356
201808000 -23.63755 -136.77025 -0.10571582 -40.523983 -0.10486289 -40.524685 -23.467087 -125.42858
202807000 -23.579967 -137.10487 -0.1063397 -40.726055 -0.10570043 -40.725983 -23.408741 -125.62737
