!Keysight Technologies,E5080B,MY59205177,A.15.75.32
!Date: Friday, February 23, 2024 02:59:53
!Correction: S11(Cdelta 2-Port  ) 
!S21(Cdelta 2-Port  ) 
!S12(Cdelta 2-Port  ) 
!S22(Cdelta 2-Port  ) 
!S2P File: Measurements: S11, S21, S12, S22:
# Hz S  dB   R 50
10000000 -44.113392 -3.5980279 -0.027815085 -2.042383 -0.030737311 -2.0952702 -48.129299 -150.53798
10999000 -43.443665 -5.5989604 -0.0291979 -2.2583795 -0.030438822 -2.3099265 -47.839081 -142.47302
11998000 -42.707005 -8.1341496 -0.02941473 -2.4787841 -0.029803591 -2.5230455 -47.945141 -137.38541
12997000 -42.080013 -12.589828 -0.028645711 -2.6601326 -0.030046776 -2.6898499 -47.266323 -130.38965
13996000 -41.825104 -16.122593 -0.028052688 -2.8374691 -0.030010285 -2.8556597 -46.872734 -125.05918
14995000 -41.496098 -19.654659 -0.029761106 -3.0488033 -0.029899508 -3.0711961 -46.37299 -121.93839
15994000 -41.38155 -23.660746 -0.030591844 -3.263999 -0.032082461 -3.2893555 -46.177319 -117.95631
16993000 -41.397678 -27.341673 -0.029522367 -3.4626622 -0.030783195 -3.4703779 -45.223354 -119.2249
17992000 -41.441704 -32.109589 -0.030824646 -3.6586556 -0.031880625 -3.6629913 -44.606922 -119.50649
18991000 -41.720013 -36.205124 -0.031098133 -3.8712368 -0.032579273 -3.8717363 -43.98531 -119.12035
19990000 -41.586975 -41.832703 -0.034116492 -4.0779109 -0.035497922 -4.073997 -43.288532 -121.13656
20989000 -41.499317 -44.40181 -0.035737775 -4.2787189 -0.036626305 -4.2707353 -42.630482 -120.40708
21988000 -41.432217 -48.905567 -0.036204986 -4.4799509 -0.037345823 -4.4627442 -42.341766 -119.77834
22987000 -41.177647 -53.841583 -0.037663851 -4.6748533 -0.038186371 -4.6704946 -42.071636 -119.73618
23986000 -41.207474 -57.358387 -0.036991794 -4.8701391 -0.037403267 -4.8709679 -41.974838 -119.41341
24985000 -40.899014 -59.893494 -0.037642438 -5.0838737 -0.038096014 -5.0744572 -41.697075 -116.93818
25984000 -40.643978 -62.082348 -0.038536061 -5.2843533 -0.03846189 -5.2860699 -41.33923 -115.90849
26983000 -40.311947 -63.782467 -0.039561 -5.4767394 -0.039561521 -5.5013199 -41.244358 -115.01488
27982000 -40.196648 -64.93927 -0.041125257 -5.6834841 -0.040480882 -5.7137566 -40.93203 -113.37832
28981000 -40.214558 -66.260307 -0.038826749 -5.8812017 -0.040288057 -5.9038773 -40.706772 -112.67226
29980000 -39.806477 -68.14006 -0.03900044 -6.0694427 -0.04089164 -6.0785284 -40.404392 -112.20374
30979000 -39.436878 -67.114487 -0.037019204 -6.4292121 -0.035299581 -6.4172187 -39.869297 -112.86203
31978000 -39.27964 -68.323761 -0.035983905 -6.6237779 -0.035945795 -6.613687 -39.604855 -112.23309
32977000 -39.106552 -69.91156 -0.036559738 -6.8306642 -0.036970645 -6.8272104 -39.373505 -112.37954
33976000 -38.954342 -71.158775 -0.037323631 -7.0309076 -0.037594132 -7.0282636 -39.063091 -112.01859
34975000 -38.674324 -72.0037 -0.036741432 -7.2320223 -0.038485914 -7.2302208 -38.79562 -111.90714
35974000 -38.480518 -72.777748 -0.035627373 -7.4257588 -0.037611626 -7.4290843 -38.511349 -111.05461
36973000 -38.258694 -73.627113 -0.035991471 -7.626071 -0.039056595 -7.6274772 -38.230377 -110.34068
37972000 -38.078228 -73.490791 -0.036154088 -7.8315916 -0.038964394 -7.8399448 -37.976688 -109.7853
38971000 -37.779186 -73.342209 -0.037271675 -8.034584 -0.039349146 -8.0448456 -37.781071 -108.31023
39970000 -37.445896 -73.821457 -0.03598547 -8.2308836 -0.037992083 -8.244113 -37.506889 -107.82094
40969000 -37.172977 -73.69342 -0.036097445 -8.4255028 -0.037987906 -8.4403172 -37.231964 -106.61471
41968000 -36.841629 -73.850098 -0.035327245 -8.6268892 -0.038337577 -8.6454983 -37.037571 -105.501
42967000 -36.593021 -74.113564 -0.035854183 -8.841713 -0.038876113 -8.8585672 -36.811676 -103.74506
43966000 -36.308472 -74.939262 -0.036689479 -9.0403624 -0.039470613 -9.0544882 -36.49128 -103.00918
44965000 -36.088333 -75.849358 -0.037209533 -9.2386103 -0.039971408 -9.2611723 -36.284492 -102.96707
45964000 -35.868992 -77.097519 -0.038559042 -9.4414444 -0.040864985 -9.4571867 -36.04641 -102.90389
46963000 -35.703026 -79.038498 -0.038752832 -9.6326084 -0.041473873 -9.6540012 -35.851311 -103.25799
47962000 -35.552467 -80.574585 -0.040019479 -9.8368092 -0.042331688 -9.8515759 -35.643677 -103.58324
48961000 -35.370571 -82.012794 -0.042531397 -10.031827 -0.043991864 -10.052134 -35.405464 -103.77533
49960000 -35.146568 -83.446594 -0.043297127 -10.230622 -0.044999521 -10.256037 -35.27763 -104.02387
50959000 -34.920235 -84.865608 -0.044381771 -10.444795 -0.045943581 -10.451439 -35.095329 -104.26143
51958000 -34.746906 -85.965103 -0.046109967 -10.641726 -0.047559075 -10.652537 -34.933586 -104.88046
52957000 -34.539398 -87.082001 -0.047471929 -10.843386 -0.049035896 -10.847829 -34.77013 -104.66582
53956000 -34.391457 -87.763489 -0.048637193 -11.044477 -0.049253717 -11.044199 -34.623428 -104.68598
54955000 -34.227009 -88.306808 -0.049569737 -11.244583 -0.050722994 -11.237957 -34.474335 -104.63184
55954000 -34.06517 -89.253616 -0.050946664 -11.44044 -0.05158421 -11.43999 -34.363888 -104.39747
56953000 -33.949596 -89.359039 -0.050408199 -11.63899 -0.050626617 -11.629719 -34.294113 -104.63853
57952000 -33.801064 -89.912437 -0.051363651 -11.835339 -0.051804781 -11.827929 -34.199261 -104.80046
58951000 -33.682365 -90.289032 -0.052308045 -12.043779 -0.05237826 -12.020345 -34.039875 -104.85553
59950000 -33.570343 -90.671165 -0.053202592 -12.242253 -0.052403938 -12.222836 -33.97699 -105.13906
60949000 -33.448895 -91.23175 -0.053045891 -12.444443 -0.053226702 -12.424363 -33.881542 -105.3977
61948000 -33.394085 -91.591454 -0.054165997 -12.641477 -0.052907534 -12.627675 -33.797081 -105.49229
62947000 -33.30331 -91.745064 -0.053333357 -12.856845 -0.053295884 -12.833554 -33.663475 -105.81474
63946000 -33.235443 -92.484833 -0.055122796 -13.049772 -0.054124322 -13.029338 -33.568886 -105.96139
64945000 -33.132885 -92.649803 -0.055434261 -13.250695 -0.055546217 -13.233238 -33.455956 -106.54172
65944000 -33.036098 -93.053711 -0.056629203 -13.451995 -0.05519909 -13.435981 -33.362354 -106.93175
66943000 -32.889156 -93.404816 -0.054221038 -13.652613 -0.054367039 -13.635329 -33.266106 -107.21252
67942000 -32.837296 -93.44754 -0.056127798 -13.846806 -0.055778526 -13.837681 -33.151543 -107.53628
68941000 -32.729126 -93.504951 -0.055160813 -14.043774 -0.054679234 -14.031466 -33.036278 -107.4968
69940000 -32.631756 -93.46875 -0.055803433 -14.240514 -0.056355152 -14.230217 -32.896915 -107.8643
70939000 -32.517639 -93.406517 -0.055658698 -14.434616 -0.055503216 -14.429832 -32.760853 -107.74916
71938000 -32.385967 -93.100136 -0.055565093 -14.627945 -0.055473588 -14.62774 -32.62727 -107.64288
72937000 -32.230984 -93.025711 -0.054668751 -14.833097 -0.055157665 -14.82494 -32.493507 -107.48284
73936000 -32.09856 -92.677345 -0.054595351 -15.031006 -0.053731441 -15.019982 -32.376637 -107.23681
74935000 -31.972754 -92.910393 -0.054737955 -15.22706 -0.05331213 -15.222579 -32.215179 -106.93092
75934000 -31.850197 -93.211357 -0.054704662 -15.434185 -0.053557687 -15.430322 -32.122688 -106.89824
76933000 -31.726341 -93.5961 -0.055087406 -15.625747 -0.055390738 -15.621939 -31.966805 -107.22587
77932000 -31.618914 -94.441582 -0.056727812 -15.823846 -0.056504108 -15.817145 -31.87188 -107.31644
78931000 -31.54804 -95.247688 -0.054600071 -16.022623 -0.055832013 -16.016325 -31.764357 -107.17184
79930000 -31.449961 -95.959007 -0.058026209 -16.216034 -0.058532819 -16.214134 -31.670116 -107.40921
80929000 -31.314964 -96.944366 -0.059263587 -16.405767 -0.059913643 -16.40465 -31.561691 -107.85416
81928000 -31.237343 -97.762505 -0.059428126 -16.601967 -0.060083717 -16.597614 -31.43705 -107.92637
82927000 -31.159286 -98.473022 -0.061879091 -16.797707 -0.061262872 -16.797617 -31.336288 -108.2602
83926000 -31.040232 -99.215469 -0.063210025 -16.997206 -0.062426593 -17.000559 -31.222967 -108.48277
84925000 -30.937271 -99.684433 -0.064057954 -17.198914 -0.06269341 -17.19244 -31.132891 -108.58014
85924000 -30.845329 -100.17507 -0.063852526 -17.396078 -0.063601397 -17.395428 -31.037794 -108.5971
86923000 -30.740147 -100.72762 -0.064109445 -17.594896 -0.064596534 -17.586422 -30.941605 -108.40283
87922000 -30.641279 -101.02898 -0.063783698 -17.798355 -0.063689917 -17.791559 -30.860039 -108.49578
88921000 -30.565928 -101.32262 -0.065094195 -17.997293 -0.064543463 -17.993473 -30.762991 -108.47429
89920000 -30.470335 -101.89153 -0.065590069 -18.195627 -0.065241344 -18.18894 -30.71656 -108.68953
90919000 -30.378042 -102.15051 -0.066903733 -18.389202 -0.065606885 -18.386093 -30.63427 -108.82869
91918000 -30.274075 -102.58775 -0.067029387 -18.592331 -0.065796107 -18.586922 -30.576593 -108.89918
92917000 -30.195313 -102.96012 -0.068370841 -18.792274 -0.067574911 -18.785295 -30.50065 -108.99464
93916000 -30.108389 -103.30643 -0.06772688 -18.982397 -0.06704963 -18.978052 -30.420689 -109.58347
94915000 -30.035919 -103.97617 -0.069392323 -19.182924 -0.068010591 -19.179131 -30.362556 -109.47909
95914000 -29.969265 -104.15823 -0.070242256 -19.378695 -0.069387063 -19.375036 -30.268469 -109.73384
96913000 -29.886072 -104.45856 -0.071639441 -19.579464 -0.070550337 -19.575886 -30.207766 -110.11075
97912000 -29.813747 -104.86274 -0.072417162 -19.775011 -0.070208579 -19.775574 -30.125771 -110.41784
98911000 -29.710136 -105.04781 -0.072474018 -19.976967 -0.071860768 -19.97102 -30.092165 -110.63368
99910000 -29.647591 -105.26365 -0.073272683 -20.174782 -0.07200288 -20.174076 -29.978279 -110.86181
100909000 -29.556368 -105.542 -0.072683014 -20.379826 -0.071129978 -20.374283 -29.888243 -111.08722
101908000 -29.472889 -105.76969 -0.073545434 -20.584021 -0.07273487 -20.57444 -29.789724 -110.91386
102907000 -29.342155 -105.84984 -0.074299276 -20.780373 -0.073143423 -20.780581 -29.713106 -110.9113
103906000 -29.245729 -105.90366 -0.074983709 -20.984209 -0.072449006 -20.979656 -29.559917 -110.84846
104905000 -29.10059 -105.81772 -0.075244457 -21.184156 -0.071355492 -21.181149 -29.428843 -110.56803
105904000 -28.960644 -105.90183 -0.076042056 -21.381905 -0.072642215 -21.380625 -29.323336 -110.37402
106903000 -28.853182 -106.04169 -0.075755186 -21.592644 -0.073045231 -21.584974 -29.191896 -110.28698
107902000 -28.680191 -106.40638 -0.076735459 -21.790031 -0.073910624 -21.785593 -29.057476 -110.24392
108901000 -28.577839 -106.6507 -0.077136226 -21.995495 -0.074729569 -21.983606 -28.918013 -110.20737
109900000 -28.454992 -107.13947 -0.078517176 -22.192324 -0.076108441 -22.181938 -28.763433 -110.32381
110899000 -28.332558 -107.77632 -0.079606436 -22.389662 -0.076328941 -22.377464 -28.641762 -110.61111
111898000 -28.245697 -108.42451 -0.080836527 -22.592091 -0.078067794 -22.582747 -28.522917 -110.75443
112897000 -28.118519 -109.0094 -0.0826471 -22.791235 -0.0790594 -22.77536 -28.38188 -110.90196
113896000 -28.016302 -109.6084 -0.083325997 -22.987617 -0.080080763 -22.975904 -28.273256 -111.11794
114895000 -27.918943 -110.27119 -0.084742174 -23.187958 -0.081212349 -23.173994 -28.166311 -111.17789
115894000 -27.790955 -110.59171 -0.085637093 -23.384884 -0.082987987 -23.373104 -28.096359 -111.33271
116893000 -27.711761 -111.21949 -0.086204499 -23.582523 -0.083904713 -23.566113 -27.968536 -111.5189
117892000 -27.629333 -111.6905 -0.086107329 -23.779509 -0.083800204 -23.763506 -27.893522 -111.68133
118891000 -27.562357 -112.1015 -0.086831927 -23.977848 -0.084465288 -23.963299 -27.796761 -111.78701
119890000 -27.478697 -112.42195 -0.087366998 -24.178156 -0.084772006 -24.166227 -27.791721 -111.97244
120889000 -27.425421 -112.96212 -0.088148072 -24.381903 -0.085504293 -24.363632 -27.713947 -111.9241
121888000 -27.384127 -113.32018 -0.088576309 -24.577303 -0.086434752 -24.561043 -27.656441 -112.21996
122887000 -27.343386 -113.53785 -0.089903288 -24.779663 -0.086046338 -24.764559 -27.609322 -112.27769
123886000 -27.290358 -113.91064 -0.089848846 -24.977535 -0.086851731 -24.961452 -27.590637 -112.43858
124885000 -27.251057 -114.43361 -0.090145633 -25.177656 -0.086924091 -25.164127 -27.564133 -112.50935
125884000 -27.198915 -114.64727 -0.091347791 -25.377056 -0.087490872 -25.362986 -27.533106 -112.64848
126883000 -27.172007 -115.02595 -0.091308929 -25.580212 -0.08859612 -25.56399 -27.492308 -112.74093
127882000 -27.118477 -115.28831 -0.091479972 -25.778986 -0.088417001 -25.75967 -27.455139 -112.8987
128881000 -27.096458 -115.59115 -0.091431059 -25.978518 -0.088658735 -25.964211 -27.408754 -113.02527
129880000 -27.040718 -115.94577 -0.093059339 -26.181875 -0.088829145 -26.160944 -27.371443 -112.98737
130879000 -26.977074 -116.0777 -0.092236929 -26.37969 -0.090003453 -26.362957 -27.290125 -113.05103
131878000 -26.916054 -116.32994 -0.092574865 -26.581064 -0.090697773 -26.563519 -27.230513 -112.96432
132877000 -26.838228 -116.39442 -0.092162892 -26.784712 -0.090142466 -26.766939 -27.15004 -112.96351
133876000 -26.758154 -116.57838 -0.093033686 -26.983521 -0.089421019 -26.964287 -27.054457 -112.90253
134875000 -26.663235 -116.69151 -0.092828996 -27.184706 -0.090483941 -27.16773 -26.952732 -112.75417
135874000 -26.583168 -116.73326 -0.092665307 -27.381342 -0.090308443 -27.367907 -26.848219 -112.73761
136873000 -26.469379 -116.63567 -0.093168564 -27.588848 -0.090365529 -27.563841 -26.765074 -112.73639
137872000 -26.391733 -116.78849 -0.09370786 -27.788033 -0.091642559 -27.770332 -26.656786 -112.67829
138871000 -26.324413 -116.93609 -0.094368644 -27.98876 -0.091145553 -27.969656 -26.562695 -112.82656
139870000 -26.219151 -117.2364 -0.094940901 -28.187778 -0.092238776 -28.166712 -26.478094 -113.04724
140869000 -26.137413 -117.69584 -0.096023165 -28.384157 -0.093980841 -28.36611 -26.37154 -113.14098
141868000 -26.037361 -118.20341 -0.096533701 -28.577707 -0.094568916 -28.558075 -26.306379 -113.48373
142867000 -25.963631 -118.43309 -0.094502777 -28.772602 -0.093296573 -28.754522 -26.224228 -113.69393
143866000 -25.896988 -118.8788 -0.097329929 -28.967537 -0.09448611 -28.95517 -26.154627 -114.14346
144865000 -25.840221 -119.47319 -0.098019332 -29.163546 -0.096246004 -29.149454 -26.094387 -114.47546
145864000 -25.780308 -119.76838 -0.098213144 -29.367662 -0.096797064 -29.354351 -26.063282 -114.73283
146863000 -25.738419 -120.13934 -0.09919665 -29.56918 -0.097090356 -29.552347 -26.011326 -115.03255
147862000 -25.702868 -120.50812 -0.10018832 -29.761721 -0.097478703 -29.749487 -25.972044 -115.39822
148861000 -25.66641 -121.00486 -0.10039866 -29.95849 -0.097928517 -29.945103 -25.951614 -115.63078
149860000 -25.652872 -121.25386 -0.10078254 -30.163034 -0.098731346 -30.145187 -25.915773 -115.75577
150859000 -25.632969 -121.62335 -0.10147408 -30.363596 -0.098282255 -30.345304 -25.912912 -116.01388
151858000 -25.617743 -121.93367 -0.10129496 -30.556583 -0.098687656 -30.542034 -25.904055 -116.29009
152857000 -25.593485 -122.24151 -0.10105861 -30.754135 -0.098864816 -30.746752 -25.887836 -116.43793
153856000 -25.593891 -122.47129 -0.10150482 -30.957348 -0.098124973 -30.943995 -25.903887 -116.71359
154855000 -25.58613 -122.62345 -0.1016858 -31.154303 -0.098820329 -31.138573 -25.892784 -116.94254
155854000 -25.596886 -122.89378 -0.10156682 -31.354223 -0.098721549 -31.338049 -25.886721 -117.19843
156853000 -25.585886 -123.57293 -0.099755764 -31.536451 -0.099099986 -31.530687 -25.882294 -117.51024
157852000 -25.590061 -123.81759 -0.10130476 -31.739794 -0.10044449 -31.729248 -25.870939 -117.87022
158851000 -25.579885 -124.04076 -0.10204647 -31.937889 -0.10039045 -31.927662 -25.858046 -118.15953
159850000 -25.56724 -124.16732 -0.1023857 -32.136448 -0.10007045 -32.12859 -25.864717 -118.28259
160849000 -25.550632 -124.27715 -0.10283417 -32.335426 -0.10166169 -32.328773 -25.833771 -118.57593
161848000 -25.533127 -124.37196 -0.10322224 -32.535206 -0.10118235 -32.527592 -25.790997 -118.69055
162847000 -25.490503 -124.60644 -0.10241804 -32.735928 -0.10215407 -32.732117 -25.761526 -118.92948
163846000 -25.444881 -124.83578 -0.10270376 -32.934818 -0.10165745 -32.92535 -25.687693 -118.95426
164845000 -25.392109 -124.82556 -0.10353505 -33.132286 -0.10170462 -33.126526 -25.616117 -119.04597
165844000 -25.337414 -124.90011 -0.10365063 -33.332188 -0.10301865 -33.324684 -25.539835 -119.20248
166843000 -25.270981 -124.96887 -0.10331448 -33.530972 -0.10280713 -33.526165 -25.466961 -119.38531
167842000 -25.214758 -125.12926 -0.10345551 -33.728855 -0.10312998 -33.721848 -25.384575 -119.29205
168841000 -25.138691 -125.27702 -0.10395605 -33.929504 -0.10320792 -33.919678 -25.310007 -119.38652
169840000 -25.073467 -125.59357 -0.10436039 -34.122013 -0.10395976 -34.11861 -25.22101 -119.58309
170839000 -25.009111 -125.83616 -0.10512703 -34.320255 -0.10460488 -34.312977 -25.136377 -119.74809
171838000 -24.955469 -126.24368 -0.10526334 -34.51873 -0.10482391 -34.511494 -25.074816 -120.02486
172837000 -24.889154 -126.64492 -0.10662515 -34.717018 -0.10546942 -34.708714 -24.998724 -120.25417
173836000 -24.815052 -127.02499 -0.10776022 -34.912628 -0.10655989 -34.909676 -24.953707 -120.47208
174835000 -24.765438 -127.48391 -0.10757766 -35.110714 -0.10716346 -35.110214 -24.91151 -120.81736
175834000 -24.714268 -127.83038 -0.10804629 -35.305565 -0.10747523 -35.303585 -24.84993 -121.10598
176833000 -24.662096 -128.20491 -0.10915652 -35.504436 -0.10830797 -35.504726 -24.794247 -121.25526
177832000 -24.615526 -128.7079 -0.10918147 -35.700947 -0.10838944 -35.700718 -24.768421 -121.42876
178831000 -24.576571 -129.07239 -0.10954489 -35.898266 -0.10958471 -35.895969 -24.732075 -121.62937
179830000 -24.53994 -129.49869 -0.11119432 -36.096928 -0.10980453 -36.094467 -24.707855 -121.7653
180829000 -24.499893 -129.73094 -0.11129152 -36.291504 -0.11066692 -36.290962 -24.678347 -121.93332
181828000 -24.475855 -130.09338 -0.11154329 -36.491135 -0.11069161 -36.486641 -24.662327 -122.05949
182827000 -24.450775 -130.42168 -0.11126762 -36.684273 -0.11082784 -36.686657 -24.647739 -122.13409
183826000 -24.411366 -130.74864 -0.11253035 -36.884766 -0.11091892 -36.87611 -24.636143 -122.21925
184825000 -24.416603 -131.04185 -0.11189469 -37.080872 -0.11115926 -37.083004 -24.621872 -122.35616
185824000 -24.386786 -131.43251 -0.11203627 -37.270561 -0.11157782 -37.272442 -24.620691 -122.41212
186823000 -24.371727 -131.76364 -0.11256303 -37.47364 -0.11091707 -37.471424 -24.617628 -122.38981
187822000 -24.349457 -132.10266 -0.11343633 -37.668873 -0.11184821 -37.667229 -24.581758 -122.46658
188821000 -24.332668 -132.30864 -0.11305851 -37.863628 -0.11245385 -37.867779 -24.563808 -122.54697
189820000 -24.313461 -132.61166 -0.11373394 -38.063297 -0.11275829 -38.065113 -24.562788 -122.72905
190819000 -24.287727 -132.81766 -0.11493413 -38.264221 -0.11377645 -38.260834 -24.531939 -122.66724
191818000 -24.249937 -133.00365 -0.11603868 -38.45676 -0.11487193 -38.457821 -24.491341 -122.55204
192817000 -24.184778 -133.27707 -0.11604107 -38.64032 -0.11493785 -38.644489 -24.42444 -122.63516
193816000 -24.146492 -133.65175 -0.1155168 -38.835552 -0.11361755 -38.833305 -24.368053 -122.92648
194815000 -24.081381 -134.10278 -0.11555934 -39.032066 -0.11471352 -39.032478 -24.302385 -123.0154
195814000 -24.035889 -134.33479 -0.11577308 -39.228092 -0.11429041 -39.230659 -24.251894 -123.13599
196813000 -23.982849 -134.68596 -0.11599215 -39.422234 -0.11374775 -39.424206 -24.175089 -123.31129
197812000 -23.923639 -134.92587 -0.11581881 -39.618416 -0.11488894 -39.621166 -24.107311 -123.40062
198811000 -23.87833 -135.08374 -0.11528394 -39.821426 -0.11422795 -39.82093 -24.035564 -123.62003
199810000 -23.79928 -135.42805 -0.11601183 -40.0117 -0.11435791 -40.009628 -23.957016 -123.71593
200809000 -23.74551 -135.74278 -0.11646622 -40.210896 -0.11513136 -40.212372 -23.877773 -123.90353
201808000 -23.688284 -135.94446 -0.11685524 -40.414078 -0.11666697 -40.41404 -23.811255 -123.98252
202807000 -23.630915 -136.31972 -0.11733392 -40.608784 -0.1165412 -40.615265 -23.756838 -124.19149
