!Keysight Technologies,E5080B,MY59205177,A.15.75.32
!Date: Friday, February 23, 2024 03:38:15
!Correction: S11(Cdelta 2-Port  ) 
!S21(Cdelta 2-Port  ) 
!S12(Cdelta 2-Port  ) 
!S22(Cdelta 2-Port  ) 
!S2P File: Measurements: S11, S21, S12, S22:
# Hz S  dB   R 50
10000000 -46.089542 -2.5344546 -0.015131569 -2.0435059 -0.017567271 -2.0988278 -45.906021 -157.44626
10999000 -45.286449 -5.0369496 -0.015850393 -2.2627766 -0.017006425 -2.3147812 -45.790752 -151.30295
11998000 -44.333836 -7.7696543 -0.016692767 -2.4875648 -0.017320884 -2.5300956 -45.985397 -147.12595
12997000 -43.605465 -13.264319 -0.015195211 -2.6669137 -0.016499957 -2.7000215 -45.608269 -141.36581
13996000 -43.324669 -17.275824 -0.014123285 -2.8480051 -0.01712285 -2.8628242 -45.367367 -136.26402
14995000 -42.967266 -21.388971 -0.016937818 -3.0582218 -0.016626764 -3.0795386 -45.096882 -132.8374
15994000 -42.757023 -26.355715 -0.017984705 -3.2762675 -0.018571155 -3.2970257 -44.966988 -129.64481
16993000 -42.690018 -30.630201 -0.017434981 -3.4765544 -0.018500445 -3.4829626 -44.136692 -128.99236
17992000 -42.69529 -36.025696 -0.018268563 -3.6757431 -0.01873442 -3.6732519 -43.52673 -129.14885
18991000 -42.960011 -41.467903 -0.018822033 -3.8868046 -0.02017156 -3.8792281 -42.961277 -127.98702
19990000 -42.746513 -47.599987 -0.020822031 -4.0935683 -0.022064725 -4.0866723 -42.259739 -128.88692
20989000 -42.592979 -50.640347 -0.02274202 -4.2981706 -0.023746321 -4.282661 -41.698215 -128.15109
21988000 -42.341564 -56.116379 -0.023481626 -4.4904494 -0.025286144 -4.4799337 -41.459709 -127.44321
22987000 -42.058582 -60.801239 -0.025339 -4.6937675 -0.025461378 -4.680438 -41.224472 -126.96483
23986000 -41.950386 -64.935707 -0.02474096 -4.8862038 -0.024866706 -4.8846579 -41.054768 -126.756
24985000 -41.550198 -67.49543 -0.026153788 -5.0985131 -0.024373118 -5.0918007 -40.883427 -124.22697
25984000 -41.200619 -69.589066 -0.026672322 -5.2981706 -0.025672812 -5.2990608 -40.52512 -122.726
26983000 -40.885777 -71.504181 -0.02767753 -5.4997554 -0.025669949 -5.5172224 -40.389606 -122.11225
27982000 -40.721878 -72.340286 -0.02843309 -5.6981435 -0.028148567 -5.7308311 -40.131496 -120.53351
28981000 -40.676411 -73.788422 -0.026805677 -5.8976479 -0.02743578 -5.9206405 -39.870129 -119.83492
29980000 -40.282215 -75.36673 -0.026905173 -6.0901928 -0.02787214 -6.099546 -39.629375 -119.06567
30979000 -39.892056 -74.010719 -0.025161689 -6.4445181 -0.022721464 -6.4346728 -39.118484 -119.42613
31978000 -39.704708 -75.133621 -0.023794213 -6.6388144 -0.023423327 -6.6317811 -38.90836 -118.74758
32977000 -39.46973 -76.552963 -0.023754651 -6.8544517 -0.024361143 -6.8492427 -38.660458 -118.67918
33976000 -39.319321 -77.765244 -0.024514472 -7.0532608 -0.024953403 -7.0440478 -38.370625 -118.21686
34975000 -39.010586 -78.661179 -0.024781574 -7.2531667 -0.026221238 -7.2502851 -38.144497 -117.8449
35974000 -38.837746 -79.153152 -0.023852516 -7.4458137 -0.0256775 -7.4492359 -37.883461 -116.8744
36973000 -38.596802 -79.649353 -0.024245305 -7.6469398 -0.026200404 -7.6518841 -37.606495 -116.0207
37972000 -38.422512 -79.50248 -0.023332236 -7.8541636 -0.026160298 -7.8667774 -37.396069 -115.21696
38971000 -38.114811 -78.883499 -0.025252035 -8.0649109 -0.02654939 -8.0701485 -37.24559 -113.79246
39970000 -37.795761 -79.309715 -0.022725366 -8.2512636 -0.025895195 -8.2707548 -36.980587 -113.22573
40969000 -37.485508 -79.045616 -0.024074806 -8.4442053 -0.02455977 -8.4670057 -36.743935 -111.64091
41968000 -37.133949 -78.887833 -0.023765583 -8.6500378 -0.02576864 -8.6680546 -36.551197 -110.51891
42967000 -36.873154 -78.907356 -0.023560746 -8.8649197 -0.025955349 -8.8823452 -36.359974 -108.74819
43966000 -36.598904 -79.658531 -0.024524625 -9.0671434 -0.027012227 -9.0828295 -36.100136 -107.88965
44965000 -36.353004 -80.306007 -0.02435047 -9.2654915 -0.026869491 -9.2871056 -35.892838 -107.74368
45964000 -36.124016 -81.297089 -0.025982693 -9.466342 -0.028378373 -9.485652 -35.666645 -107.31427
46963000 -35.937378 -83.311974 -0.026180873 -9.6619968 -0.029485097 -9.6860199 -35.481667 -107.52025
47962000 -35.776257 -84.728935 -0.027593125 -9.8617754 -0.030074667 -9.8785477 -35.263577 -107.63638
48961000 -35.554691 -86.175659 -0.029704548 -10.059045 -0.031773452 -10.083549 -35.049324 -107.68101
49960000 -35.314877 -87.39299 -0.031190168 -10.259947 -0.032689858 -10.283247 -34.912392 -107.90736
50959000 -35.092915 -88.733078 -0.031580232 -10.474555 -0.034225028 -10.484728 -34.723995 -108.15652
51958000 -34.873882 -89.699799 -0.033375859 -10.671316 -0.034840815 -10.683758 -34.567036 -108.54858
52957000 -34.656757 -90.75396 -0.034505513 -10.874686 -0.037305877 -10.88194 -34.405323 -108.26949
53956000 -34.489197 -91.38958 -0.035676442 -11.073562 -0.037216324 -11.078841 -34.258415 -108.25443
54955000 -34.319355 -91.945999 -0.037653405 -11.276045 -0.03818376 -11.274982 -34.113216 -108.27586
55954000 -34.169971 -92.759285 -0.038342278 -11.476026 -0.038275424 -11.475112 -34.002979 -108.01299
56953000 -34.032925 -92.790932 -0.037570111 -11.676425 -0.037580553 -11.665373 -33.93306 -108.12475
57952000 -33.868748 -93.306831 -0.039114062 -11.871011 -0.037839845 -11.865795 -33.828621 -108.26929
58951000 -33.750824 -93.641655 -0.040256705 -12.076678 -0.039458077 -12.055655 -33.674366 -108.3692
59950000 -33.614323 -94.106323 -0.040980224 -12.280087 -0.039873179 -12.257959 -33.597195 -108.57252
60949000 -33.510895 -94.544853 -0.040933449 -12.479565 -0.040788684 -12.457245 -33.506149 -108.82011
61948000 -33.448738 -94.880798 -0.041834019 -12.67738 -0.040133648 -12.66128 -33.411327 -108.84988
62947000 -33.353828 -95.065689 -0.041394688 -12.88771 -0.040903658 -12.868501 -33.286572 -109.189
63946000 -33.280354 -95.874237 -0.042132247 -13.088998 -0.041652899 -13.072237 -33.174316 -109.33886
64945000 -33.175186 -96.039383 -0.043159083 -13.291158 -0.042634916 -13.274973 -33.050499 -109.78926
65944000 -33.07198 -96.347946 -0.044160794 -13.486226 -0.042906273 -13.474931 -32.970364 -110.30006
66943000 -32.923874 -96.593933 -0.041706998 -13.692713 -0.040785026 -13.677985 -32.858078 -110.47497
67942000 -32.869362 -96.734871 -0.043421581 -13.891363 -0.042882223 -13.879767 -32.734955 -110.75391
68941000 -32.748409 -96.762825 -0.043633368 -14.080394 -0.042489313 -14.074438 -32.622025 -110.77358
69940000 -32.659676 -96.769287 -0.043123264 -14.281964 -0.042733993 -14.274086 -32.483673 -111.06415
70939000 -32.559887 -96.676155 -0.04346969 -14.476569 -0.042421609 -14.470449 -32.356773 -110.95736
71938000 -32.421211 -96.28717 -0.043864779 -14.676772 -0.043091107 -14.669618 -32.22995 -110.85856
72937000 -32.263908 -96.074203 -0.042578451 -14.876547 -0.042595968 -14.866643 -32.080956 -110.54798
73936000 -32.117645 -95.739388 -0.042773731 -15.070727 -0.041651592 -15.068019 -31.967131 -110.35908
74935000 -31.997736 -95.944527 -0.042321492 -15.269159 -0.041143287 -15.263871 -31.812269 -109.98795
75934000 -31.876459 -96.196877 -0.042132508 -15.476403 -0.040900264 -15.471002 -31.734005 -109.96591
76933000 -31.741768 -96.509262 -0.043655332 -15.670821 -0.041945625 -15.662577 -31.560955 -110.25577
77932000 -31.645336 -97.31781 -0.044944856 -15.867774 -0.043781888 -15.86203 -31.462164 -110.20117
78931000 -31.569387 -98.037811 -0.043504465 -16.06768 -0.042495586 -16.063774 -31.364407 -110.07938
79930000 -31.443909 -98.858704 -0.045159858 -16.257292 -0.045246962 -16.261106 -31.270151 -110.37316
80929000 -31.344576 -99.636948 -0.04763576 -16.458303 -0.046877377 -16.455456 -31.167225 -110.63879
81928000 -31.241318 -100.3422 -0.047530811 -16.648533 -0.047290046 -16.647129 -31.046482 -110.63138
82927000 -31.139883 -101.11268 -0.049365513 -16.844158 -0.04878667 -16.84844 -30.927248 -110.87613
83926000 -31.018419 -101.73606 -0.050774328 -17.043983 -0.048806567 -17.04694 -30.819494 -111.05824
84925000 -30.918133 -102.22224 -0.051840145 -17.245422 -0.0499028 -17.241564 -30.716908 -111.15451
85924000 -30.826176 -102.65175 -0.052507952 -17.444639 -0.051665679 -17.444181 -30.634008 -111.06722
86923000 -30.720779 -103.13284 -0.052305687 -17.640921 -0.051552776 -17.637268 -30.52919 -110.97589
87922000 -30.608545 -103.41844 -0.05156273 -17.851961 -0.050584715 -17.842432 -30.448196 -110.96024
88921000 -30.53829 -103.73754 -0.05377128 -18.049414 -0.052248571 -18.043106 -30.356899 -110.95132
89920000 -30.431612 -104.25057 -0.053409617 -18.249271 -0.05258996 -18.242762 -30.298586 -111.13864
90919000 -30.325912 -104.53327 -0.054974675 -18.444094 -0.053202856 -18.438587 -30.213495 -111.25218
91918000 -30.233353 -104.82816 -0.055343285 -18.643524 -0.053788051 -18.639488 -30.143126 -111.27551
92917000 -30.151497 -105.14201 -0.056645464 -18.842587 -0.055391263 -18.834656 -30.083979 -111.37274
93916000 -30.066977 -105.46921 -0.055642441 -19.03409 -0.054719865 -19.030453 -29.996685 -112.02959
94915000 -29.976704 -106.14046 -0.057546675 -19.237837 -0.055940047 -19.234756 -29.937674 -111.85257
95914000 -29.912046 -106.30501 -0.058565091 -19.432133 -0.05655656 -19.431782 -29.84458 -112.13744
96913000 -29.823994 -106.5305 -0.059476152 -19.63349 -0.057021033 -19.631025 -29.782976 -112.44298
97912000 -29.749308 -106.95534 -0.060333855 -19.830936 -0.057173945 -19.829994 -29.701046 -112.69218
98911000 -29.650333 -107.1741 -0.061654333 -20.031792 -0.05953861 -20.027411 -29.663092 -112.92155
99910000 -29.58378 -107.32207 -0.062439725 -20.230757 -0.059452794 -20.229925 -29.549757 -113.21334
100909000 -29.485321 -107.54255 -0.061339274 -20.436165 -0.05904815 -20.433313 -29.466677 -113.4132
101908000 -29.395285 -107.78442 -0.06247649 -20.640848 -0.059790816 -20.638178 -29.355192 -113.22005
102907000 -29.26903 -107.74859 -0.0624392 -20.838039 -0.06016482 -20.834791 -29.287882 -113.24371
103906000 -29.168077 -107.81999 -0.063501582 -21.044428 -0.05999133 -21.039265 -29.141153 -113.1167
104905000 -29.022057 -107.70373 -0.064043246 -21.243254 -0.059756171 -21.244678 -29.017782 -112.81615
105904000 -28.881542 -107.79954 -0.063946567 -21.444918 -0.059858792 -21.435816 -28.907774 -112.69609
106903000 -28.774349 -107.86259 -0.063859351 -21.651594 -0.060677718 -21.647045 -28.780577 -112.62988
107902000 -28.611984 -108.16502 -0.064889237 -21.854105 -0.060670629 -21.843534 -28.6436 -112.56223
108901000 -28.507204 -108.44233 -0.065973505 -22.055485 -0.062258266 -22.048103 -28.518085 -112.4959
109900000 -28.370794 -108.8896 -0.066253155 -22.255125 -0.064081073 -22.245024 -28.371998 -112.56347
110899000 -28.250357 -109.4896 -0.067956686 -22.446207 -0.064465694 -22.441744 -28.240675 -112.84457
111898000 -28.163425 -110.13894 -0.069302104 -22.655087 -0.06551832 -22.648319 -28.119463 -112.96201
112897000 -28.034836 -110.6475 -0.070634261 -22.85195 -0.066508122 -22.841394 -27.987595 -113.15511
113896000 -27.935152 -111.23567 -0.071348913 -23.055193 -0.068347171 -23.041891 -27.883307 -113.27156
114895000 -27.833488 -111.84278 -0.072658531 -23.251951 -0.068998329 -23.240555 -27.769754 -113.31839
115894000 -27.704187 -112.21352 -0.073598616 -23.454002 -0.07063847 -23.438663 -27.703762 -113.53688
116893000 -27.633844 -112.6897 -0.074806996 -23.64805 -0.071711019 -23.631241 -27.577534 -113.56791
117892000 -27.54558 -113.16374 -0.074552074 -23.847754 -0.07154496 -23.832323 -27.505663 -113.76707
118891000 -27.486856 -113.58819 -0.075825781 -24.046518 -0.071894981 -24.034054 -27.401911 -113.92604
119890000 -27.401249 -113.95449 -0.076314189 -24.247448 -0.072902553 -24.233263 -27.387957 -114.04203
120889000 -27.345579 -114.4525 -0.07701607 -24.450317 -0.07262405 -24.431913 -27.320343 -113.98735
121888000 -27.305944 -114.80168 -0.076956525 -24.644756 -0.072957829 -24.629843 -27.265139 -114.25288
122887000 -27.269688 -115.00571 -0.077695668 -24.848619 -0.074397229 -24.835131 -27.218491 -114.25836
123886000 -27.217188 -115.38083 -0.078820832 -25.05055 -0.074174456 -25.035238 -27.196096 -114.42808
124885000 -27.183039 -115.88242 -0.079166166 -25.247713 -0.074671634 -25.233774 -27.168768 -114.48686
125884000 -27.133583 -116.08936 -0.080039896 -25.449888 -0.074849658 -25.435158 -27.145788 -114.62479
126883000 -27.114067 -116.45995 -0.080151953 -25.649649 -0.075768881 -25.638912 -27.10013 -114.63132
127882000 -27.059479 -116.7631 -0.080256373 -25.851515 -0.076235943 -25.836733 -27.065186 -114.71353
128881000 -27.035618 -117.08215 -0.080701239 -26.050898 -0.076359503 -26.036449 -27.028265 -114.88224
129880000 -26.9823 -117.39516 -0.081148259 -26.254416 -0.076954678 -26.235714 -26.986746 -114.82587
130879000 -26.922264 -117.57174 -0.08080963 -26.453278 -0.077502236 -26.440731 -26.916079 -114.84049
131878000 -26.857496 -117.76149 -0.081716657 -26.658079 -0.07811971 -26.638786 -26.862915 -114.74254
132877000 -26.792253 -117.87257 -0.081002414 -26.861963 -0.077936545 -26.840891 -26.777767 -114.67956
133876000 -26.705843 -118.02203 -0.082284078 -27.058409 -0.077057175 -27.039661 -26.686035 -114.54321
134875000 -26.612246 -118.17584 -0.081269845 -27.260172 -0.078388549 -27.239882 -26.596853 -114.42646
135874000 -26.534214 -118.20623 -0.082121842 -27.458605 -0.07831791 -27.443056 -26.492861 -114.36256
136873000 -26.415821 -118.13169 -0.082037427 -27.662685 -0.078531675 -27.644926 -26.415228 -114.30919
137872000 -26.340586 -118.25166 -0.082222611 -27.863869 -0.078067526 -27.852346 -26.314507 -114.22394
138871000 -26.271908 -118.462 -0.08277005 -28.064993 -0.078411214 -28.046747 -26.217754 -114.37973
139870000 -26.172005 -118.72021 -0.083271377 -28.261641 -0.079651251 -28.246393 -26.139769 -114.55403
140869000 -26.087748 -119.2892 -0.084004998 -28.46117 -0.080120839 -28.443365 -26.039791 -114.75818
141868000 -26.013588 -119.66108 -0.084447339 -28.657862 -0.081567101 -28.646832 -25.991245 -115.01499
142867000 -25.931604 -119.8862 -0.083332591 -28.855518 -0.080581516 -28.842834 -25.91427 -115.11985
143866000 -25.858393 -120.37817 -0.085312627 -29.052643 -0.082310461 -29.039911 -25.840864 -115.55993
144865000 -25.800465 -120.88577 -0.086547509 -29.255894 -0.083463736 -29.23712 -25.781145 -115.88628
145864000 -25.74262 -121.18085 -0.087403707 -29.45253 -0.08486677 -29.443443 -25.738245 -116.15257
146863000 -25.699318 -121.54808 -0.088526636 -29.652939 -0.085485026 -29.64102 -25.700464 -116.42571
147862000 -25.661856 -121.88049 -0.089273833 -29.850618 -0.085767254 -29.836504 -25.669333 -116.73512
148861000 -25.627377 -122.31865 -0.089616299 -30.04801 -0.087473176 -30.033688 -25.644388 -116.87728
149860000 -25.599079 -122.47763 -0.090147749 -30.242579 -0.087561131 -30.231268 -25.597998 -116.98841
150859000 -25.576788 -122.94853 -0.089964069 -30.434628 -0.087776668 -30.425419 -25.578873 -117.36996
151858000 -25.565386 -123.30281 -0.090171538 -30.641438 -0.087187134 -30.625944 -25.566484 -117.71262
152857000 -25.553869 -123.62753 -0.090028293 -30.836891 -0.087397374 -30.824863 -25.550247 -117.86304
153856000 -25.545809 -123.85973 -0.089980721 -31.040577 -0.086789407 -31.024157 -25.567675 -118.23649
154855000 -25.546347 -124.01711 -0.090326145 -31.235203 -0.087070398 -31.226673 -25.562155 -118.39716
155854000 -25.563334 -124.26941 -0.09037742 -31.439337 -0.087861724 -31.424622 -25.545835 -118.71439
156853000 -25.548529 -124.9489 -0.088660851 -31.625282 -0.086626731 -31.620823 -25.542788 -119.01813
157852000 -25.558128 -125.16167 -0.090200081 -31.825905 -0.087767161 -31.819317 -25.53644 -119.34025
158851000 -25.553581 -125.3968 -0.090712838 -32.025299 -0.08892823 -32.016838 -25.515772 -119.64601
159850000 -25.546564 -125.45951 -0.090923242 -32.225536 -0.088573664 -32.218517 -25.516485 -119.79384
160849000 -25.52804 -125.57978 -0.090889409 -32.424896 -0.089514561 -32.419914 -25.486542 -120.10645
161848000 -25.50898 -125.68121 -0.091130227 -32.627632 -0.088932186 -32.618561 -25.452417 -120.21554
162847000 -25.470501 -125.82949 -0.091077089 -32.825382 -0.090008207 -32.821922 -25.4193 -120.45121
163846000 -25.430006 -126.00819 -0.091978602 -33.025734 -0.089404106 -33.016518 -25.345604 -120.49008
164845000 -25.372862 -126.00072 -0.092115566 -33.221073 -0.090059482 -33.21814 -25.278427 -120.55631
165844000 -25.325125 -126.03914 -0.092298009 -33.42778 -0.090795308 -33.419319 -25.204311 -120.71985
166843000 -25.254871 -126.14786 -0.091662392 -33.625038 -0.08999975 -33.61927 -25.140009 -120.873
167842000 -25.198042 -126.19418 -0.092608452 -33.823826 -0.090100706 -33.817505 -25.058624 -120.78694
168841000 -25.12059 -126.3788 -0.093576401 -34.023205 -0.090761736 -34.018997 -24.989939 -120.86427
169840000 -25.055885 -126.60298 -0.093463197 -34.215927 -0.091617972 -34.214886 -24.897558 -121.0248
170839000 -24.995598 -126.8258 -0.094390869 -34.420925 -0.092386328 -34.413891 -24.82065 -121.20227
171838000 -24.93685 -127.22343 -0.094140351 -34.619019 -0.0928602 -34.610237 -24.757158 -121.45261
172837000 -24.867365 -127.54959 -0.095877349 -34.812775 -0.093379624 -34.808453 -24.689325 -121.65577
173836000 -24.801712 -127.97011 -0.096666835 -35.014626 -0.095086418 -35.011513 -24.650331 -121.84865
174835000 -24.749786 -128.37799 -0.096520729 -35.209976 -0.09558361 -35.210232 -24.603264 -122.18334
175834000 -24.695953 -128.76051 -0.098196201 -35.407997 -0.096401893 -35.405399 -24.545374 -122.43761
176833000 -24.644785 -129.06909 -0.099002525 -35.611168 -0.097130589 -35.608849 -24.494961 -122.53776
177832000 -24.602133 -129.44907 -0.099907272 -35.807133 -0.097082414 -35.808159 -24.476124 -122.69693
178831000 -24.557293 -129.70866 -0.10146772 -36.006058 -0.099090718 -35.999855 -24.43541 -122.76029
179830000 -24.489662 -130.09622 -0.10246945 -36.186604 -0.10014302 -36.190689 -24.369379 -122.85561
180829000 -24.441725 -130.45386 -0.10129336 -36.380993 -0.099087007 -36.378487 -24.32756 -123.15182
181828000 -24.412302 -130.88535 -0.10034753 -36.580238 -0.098821916 -36.578358 -24.310863 -123.35777
182827000 -24.39325 -131.23491 -0.10043602 -36.775612 -0.099106871 -36.777977 -24.304346 -123.52212
183826000 -24.352594 -131.59703 -0.10156311 -36.977123 -0.099288285 -36.9729 -24.29357 -123.6111
184825000 -24.349691 -131.92807 -0.10140412 -37.172955 -0.10041323 -37.176121 -24.27224 -123.74473
185824000 -24.322632 -132.27478 -0.10087845 -37.368546 -0.09995389 -37.371727 -24.269512 -123.79896
186823000 -24.310661 -132.64012 -0.10126554 -37.571331 -0.099402964 -37.569458 -24.261984 -123.83592
187822000 -24.283489 -132.97037 -0.10185725 -37.765423 -0.10061245 -37.763893 -24.222588 -123.92091
188821000 -24.265556 -133.24689 -0.10147196 -37.960793 -0.10086308 -37.962292 -24.201262 -124.04462
189820000 -24.246008 -133.54234 -0.10177086 -38.161297 -0.10048503 -38.159527 -24.188505 -124.22013
190819000 -24.216747 -133.86156 -0.10297359 -38.357929 -0.10030621 -38.358307 -24.14854 -124.26621
191818000 -24.180136 -134.13515 -0.10248376 -38.55555 -0.10114922 -38.559429 -24.12023 -124.3207
192817000 -24.136051 -134.41841 -0.1028885 -38.755379 -0.10185328 -38.754379 -24.076916 -124.43066
193816000 -24.101376 -134.66388 -0.10317213 -38.949661 -0.10157716 -38.948509 -24.031118 -124.54373
194815000 -24.040907 -135.08839 -0.10348044 -39.145226 -0.10260569 -39.148144 -23.962557 -124.59927
195814000 -23.986881 -135.26593 -0.10439327 -39.340691 -0.10243288 -39.340702 -23.904627 -124.69497
196813000 -23.93593 -135.60254 -0.10381235 -39.53479 -0.1018069 -39.540703 -23.831066 -124.86616
197812000 -23.876081 -135.79805 -0.10413263 -39.732189 -0.10250338 -39.733521 -23.756779 -124.92966
198811000 -23.822903 -135.9673 -0.10448927 -39.93018 -0.10254949 -39.934719 -23.688704 -125.0868
199810000 -23.753571 -136.30121 -0.10478599 -40.125866 -0.10194524 -40.125004 -23.61083 -125.2045
200809000 -23.694637 -136.57799 -0.10503792 -40.322021 -0.10320898 -40.326187 -23.532316 -125.37492
201808000 -23.635714 -136.77824 -0.10525326 -40.520782 -0.1039762 -40.526821 -23.466444 -125.45462
202807000 -23.57933 -137.10913 -0.10569035 -40.720318 -0.10485388 -40.730225 -23.412495 -125.63775
