!Keysight Technologies,E5080B,MY59205177,A.15.75.32
!Date: Friday, February 23, 2024 03:00:00
!Correction: S11(Cdelta 2-Port  ) 
!S21(Cdelta 2-Port  ) 
!S12(Cdelta 2-Port  ) 
!S22(Cdelta 2-Port  ) 
!S2P File: Measurements: S11, S21, S12, S22:
# Hz S  dB   R 50
10000000 -44.135532 -3.7883189 -0.027688993 -2.0387931 -0.030804312 -2.0934753 -48.061569 -150.09286
10999000 -43.467346 -5.5427823 -0.029682133 -2.2577457 -0.030143742 -2.3120875 -47.876663 -143.00929
11998000 -42.697205 -8.1449537 -0.029450174 -2.4775622 -0.029869534 -2.5210934 -47.959003 -137.1756
12997000 -42.075512 -12.399337 -0.028372118 -2.6596613 -0.028971178 -2.6920145 -47.328396 -130.23912
13996000 -41.829937 -16.017353 -0.027473293 -2.8377171 -0.029923227 -2.8582129 -46.807991 -125.38863
14995000 -41.509895 -19.727268 -0.030374434 -3.0458975 -0.029851288 -3.0728571 -46.415913 -121.64858
15994000 -41.414886 -23.564156 -0.031054594 -3.2662268 -0.03217217 -3.2860196 -46.146736 -118.31731
16993000 -41.392628 -27.560696 -0.029630527 -3.4604456 -0.031500705 -3.4682348 -45.230576 -118.92979
17992000 -41.490932 -32.209892 -0.030156774 -3.6593699 -0.031707738 -3.6645305 -44.680111 -119.76929
18991000 -41.729237 -36.400585 -0.03200762 -3.8690832 -0.03199067 -3.8663721 -43.917534 -119.46016
19990000 -41.574142 -41.642071 -0.03358246 -4.0773692 -0.034687903 -4.0741782 -43.208813 -120.55652
20989000 -41.476822 -44.699608 -0.035529763 -4.2822089 -0.036684521 -4.2710357 -42.654682 -120.8799
21988000 -41.396011 -48.947014 -0.03644279 -4.4755659 -0.037284207 -4.4702773 -42.372528 -119.87762
22987000 -41.193005 -53.737762 -0.037982944 -4.6765056 -0.038704775 -4.6671772 -42.055386 -119.78387
23986000 -41.207462 -57.300522 -0.037470367 -4.8687215 -0.036729943 -4.8687048 -42.000946 -119.5626
24985000 -40.864399 -59.910645 -0.038191855 -5.0796328 -0.037504833 -5.0760236 -41.702862 -117.06158
25984000 -40.629829 -62.344391 -0.03878339 -5.2822132 -0.037646353 -5.2863369 -41.367691 -116.04013
26983000 -40.342644 -64.128059 -0.040108047 -5.482964 -0.039107792 -5.5001893 -41.175732 -114.83253
27982000 -40.220478 -65.091919 -0.041067503 -5.6790533 -0.040687822 -5.7171445 -40.892975 -113.22502
28981000 -40.203968 -66.219215 -0.0391616 -5.8802466 -0.03976633 -5.9025741 -40.671345 -112.64204
29980000 -39.819256 -68.023521 -0.039364297 -6.074255 -0.041688181 -6.0771456 -40.355534 -112.25648
30979000 -39.437752 -67.260132 -0.036820531 -6.4267883 -0.035501316 -6.4168005 -39.876301 -112.86731
31978000 -39.263397 -68.445503 -0.03734687 -6.6181397 -0.036468372 -6.6122365 -39.618889 -112.35322
32977000 -39.104362 -69.826385 -0.036205247 -6.8308434 -0.037294649 -6.8266425 -39.377884 -112.48884
33976000 -38.952671 -71.071297 -0.037114501 -7.0314555 -0.037872486 -7.0239744 -39.051193 -112.14362
34975000 -38.660393 -72.072006 -0.037396476 -7.2310805 -0.038209874 -7.2296386 -38.811489 -112.03093
35974000 -38.485504 -72.830719 -0.036311228 -7.4280801 -0.037860472 -7.4268403 -38.518082 -111.1807
36973000 -38.259396 -73.593086 -0.036530238 -7.6217475 -0.038848165 -7.6279244 -38.228645 -110.20211
37972000 -38.087498 -73.483841 -0.036496304 -7.8373137 -0.038180366 -7.8402233 -37.985027 -109.82251
38971000 -37.791252 -73.355286 -0.038146418 -8.0344038 -0.038450398 -8.0488129 -37.804008 -108.22167
39970000 -37.451721 -73.891411 -0.035608582 -8.2263765 -0.03817749 -8.2428236 -37.507267 -107.74081
40969000 -37.18013 -73.769333 -0.036000088 -8.4184504 -0.037012156 -8.441577 -37.238789 -106.51174
41968000 -36.840588 -73.873672 -0.036512226 -8.6292305 -0.038566876 -8.6438255 -37.053585 -105.38153
42967000 -36.575794 -74.195892 -0.035494793 -8.8355255 -0.037988167 -8.8576164 -36.8125 -103.71679
43966000 -36.309826 -75.019287 -0.036706448 -9.0372162 -0.039402176 -9.0564814 -36.504517 -103.16998
44965000 -36.084457 -75.845695 -0.037336946 -9.243206 -0.039588168 -9.2620239 -36.289421 -102.92589
45964000 -35.864819 -77.104118 -0.03832243 -9.4407282 -0.040410336 -9.4571476 -36.047073 -102.81956
46963000 -35.693077 -78.988266 -0.039385717 -9.6351595 -0.041311581 -9.6558151 -35.863003 -103.16934
47962000 -35.553444 -80.620224 -0.040196352 -9.836132 -0.04225719 -9.8512955 -35.654652 -103.47909
48961000 -35.359264 -82.044029 -0.042368546 -10.033243 -0.043950286 -10.053882 -35.436905 -103.73536
49960000 -35.14072 -83.445175 -0.043458972 -10.230461 -0.044714436 -10.254941 -35.291996 -103.91422
50959000 -34.941303 -84.807083 -0.044474874 -10.443617 -0.046356425 -10.451962 -35.092003 -104.30587
51958000 -34.736366 -85.968216 -0.045958493 -10.641454 -0.047160771 -10.650401 -34.920761 -104.7566
52957000 -34.547428 -87.046715 -0.047288217 -10.839682 -0.048545837 -10.850553 -34.764183 -104.69407
53956000 -34.380505 -87.823807 -0.048695832 -11.043529 -0.049647763 -11.042416 -34.629845 -104.68185
54955000 -34.218933 -88.392456 -0.050102856 -11.242888 -0.050074838 -11.23718 -34.473209 -104.7296
55954000 -34.072807 -89.216835 -0.050920997 -11.440962 -0.050746828 -11.442244 -34.367813 -104.47453
56953000 -33.955509 -89.341736 -0.050860755 -11.641085 -0.049933437 -11.631965 -34.293655 -104.61258
57952000 -33.789444 -89.889679 -0.05128219 -11.836358 -0.050417628 -11.830757 -34.196644 -104.76797
58951000 -33.68111 -90.26606 -0.05224045 -12.043381 -0.051654153 -12.022651 -34.048855 -104.8522
59950000 -33.559563 -90.606834 -0.053054538 -12.242844 -0.051547274 -12.220535 -33.983025 -105.09331
60949000 -33.444153 -91.201767 -0.052951295 -12.444408 -0.052449524 -12.421089 -33.890705 -105.39803
61948000 -33.386093 -91.579498 -0.054013975 -12.64427 -0.052501403 -12.626151 -33.793598 -105.55608
62947000 -33.304527 -91.808922 -0.053637616 -12.850442 -0.05314206 -12.836335 -33.666679 -105.80634
63946000 -33.243366 -92.597313 -0.054732975 -13.053414 -0.054267697 -13.031695 -33.564827 -105.95643
64945000 -33.13298 -92.692406 -0.055391788 -13.250989 -0.054999057 -13.234915 -33.441822 -106.5452
65944000 -33.039566 -92.993881 -0.056393441 -13.451108 -0.055065647 -13.433356 -33.355316 -106.90595
66943000 -32.89204 -93.420029 -0.054713313 -13.651825 -0.053188443 -13.635134 -33.263622 -107.20938
67942000 -32.830963 -93.387062 -0.056633137 -13.847115 -0.055386022 -13.836586 -33.133476 -107.53757
68941000 -32.727451 -93.533653 -0.056705784 -14.042005 -0.054380145 -14.030095 -33.034618 -107.5194
69940000 -32.626564 -93.509911 -0.055752303 -14.245053 -0.055276692 -14.230249 -32.885193 -107.90463
70939000 -32.534584 -93.476807 -0.056156378 -14.436812 -0.054946102 -14.428013 -32.765224 -107.78386
71938000 -32.389774 -93.140587 -0.055758074 -14.634631 -0.054871649 -14.626379 -32.624752 -107.67341
72937000 -32.22715 -92.90815 -0.05516186 -14.83296 -0.054662459 -14.824292 -32.491516 -107.40456
73936000 -32.090813 -92.634224 -0.055392314 -15.033463 -0.053215172 -15.021169 -32.373917 -107.25695
74935000 -31.959692 -92.877914 -0.054728255 -15.222528 -0.052971471 -15.218507 -32.214485 -106.9808
75934000 -31.841368 -93.269852 -0.054615535 -15.432946 -0.05293164 -15.42497 -32.140175 -106.92979
76933000 -31.721003 -93.635857 -0.055036809 -15.632365 -0.05483862 -15.61942 -31.962263 -107.35793
77932000 -31.620636 -94.421089 -0.057168961 -15.820128 -0.055766463 -15.81286 -31.86062 -107.32413
78931000 -31.560993 -95.17263 -0.054998796 -16.024426 -0.054863784 -16.015921 -31.767181 -107.15372
79930000 -31.448797 -96.025124 -0.058351263 -16.21348 -0.057829984 -16.213867 -31.669903 -107.52564
80929000 -31.322245 -96.942703 -0.059773754 -16.40922 -0.058904093 -16.406322 -31.559065 -107.89993
81928000 -31.238411 -97.851822 -0.059854589 -16.601156 -0.059616555 -16.598518 -31.438225 -107.91327
82927000 -31.147532 -98.493835 -0.061729688 -16.803202 -0.060512606 -16.797043 -31.346071 -108.25423
83926000 -31.040407 -99.281387 -0.063254409 -16.994148 -0.062022723 -16.995611 -31.225565 -108.51598
84925000 -30.928957 -99.739944 -0.063735366 -17.195736 -0.061571367 -17.19413 -31.125105 -108.57332
85924000 -30.845919 -100.12164 -0.064767845 -17.395147 -0.063526534 -17.392996 -31.04645 -108.54632
86923000 -30.744085 -100.7085 -0.065146744 -17.591959 -0.064054012 -17.587709 -30.95402 -108.44529
87922000 -30.635187 -101.09422 -0.065082893 -17.798513 -0.063728012 -17.792181 -30.864044 -108.53607
88921000 -30.571148 -101.3658 -0.066094406 -17.996616 -0.064523235 -17.990532 -30.767973 -108.5276
89920000 -30.474083 -102.00294 -0.06599243 -18.198217 -0.065379567 -18.189009 -30.720041 -108.6545
90919000 -30.366488 -102.29241 -0.067124031 -18.393044 -0.065744333 -18.386972 -30.633583 -108.88068
91918000 -30.277863 -102.58908 -0.06834428 -18.594326 -0.066209003 -18.585417 -30.56938 -108.92744
92917000 -30.192539 -102.97025 -0.068714552 -18.79104 -0.067471586 -18.783104 -30.502645 -109.0016
93916000 -30.106764 -103.33574 -0.068999901 -18.983364 -0.067405336 -18.977654 -30.415476 -109.65723
94915000 -30.036554 -104.01302 -0.070111245 -19.182518 -0.068427116 -19.176773 -30.361641 -109.47727
95914000 -29.96899 -104.17345 -0.071072616 -19.376963 -0.069075391 -19.374098 -30.271887 -109.78812
96913000 -29.881575 -104.4339 -0.072197385 -19.576338 -0.070301451 -19.575117 -30.207808 -110.14548
97912000 -29.817665 -104.92362 -0.072740659 -19.772579 -0.070771866 -19.772305 -30.126352 -110.40092
98911000 -29.712694 -105.11037 -0.073381938 -19.973654 -0.071513124 -19.972361 -30.08897 -110.62023
99910000 -29.64604 -105.23015 -0.074369058 -20.174202 -0.071918666 -20.17223 -29.982563 -110.90477
100909000 -29.55797 -105.58344 -0.073544905 -20.382557 -0.071331285 -20.373777 -29.898773 -111.097
101908000 -29.474674 -105.81859 -0.074970283 -20.582443 -0.072474018 -20.580809 -29.776056 -110.90366
102907000 -29.337841 -105.83756 -0.075165436 -20.781683 -0.072386362 -20.781235 -29.710527 -110.85539
103906000 -29.247173 -105.93528 -0.075935103 -20.988045 -0.071833923 -20.982597 -29.560768 -110.84899
104905000 -29.100395 -105.80552 -0.076069973 -21.183504 -0.072920449 -21.183922 -29.428801 -110.52485
105904000 -28.962955 -105.91371 -0.076480165 -21.386475 -0.072743289 -21.37899 -29.315216 -110.39299
106903000 -28.84726 -106.01588 -0.075639546 -21.586586 -0.073077083 -21.583395 -29.19269 -110.29042
107902000 -28.693838 -106.42318 -0.077335961 -21.79273 -0.073873229 -21.780638 -29.052687 -110.25343
108901000 -28.576351 -106.62681 -0.077991888 -21.992338 -0.07530424 -21.985064 -28.918674 -110.18519
109900000 -28.450659 -107.14259 -0.078615755 -22.189014 -0.075806022 -22.180807 -28.760208 -110.30959
110899000 -28.337105 -107.73151 -0.080571495 -22.386726 -0.076536015 -22.37908 -28.642118 -110.62853
111898000 -28.244961 -108.447 -0.08158794 -22.589159 -0.077627942 -22.584606 -28.528349 -110.73558
112897000 -28.119869 -109.01585 -0.082743138 -22.78779 -0.079003774 -22.774706 -28.383211 -110.94604
113896000 -28.017502 -109.60549 -0.084013969 -22.985744 -0.080148265 -22.97554 -28.278019 -111.06788
114895000 -27.919682 -110.25925 -0.08442913 -23.186274 -0.081395395 -23.171694 -28.169807 -111.18339
115894000 -27.787083 -110.61974 -0.086238295 -23.385269 -0.082811207 -23.374434 -28.10133 -111.36485
116893000 -27.711821 -111.20184 -0.086542226 -23.583914 -0.083526544 -23.565176 -27.97578 -111.48908
117892000 -27.629684 -111.73015 -0.086811587 -23.780563 -0.083845332 -23.762125 -27.894939 -111.69579
118891000 -27.574589 -112.08187 -0.087353267 -23.979246 -0.084221147 -23.962624 -27.798401 -111.81694
119890000 -27.477446 -112.49612 -0.088115051 -24.179258 -0.084503032 -24.162169 -27.787603 -111.97405
120889000 -27.416193 -112.98888 -0.089076191 -24.379709 -0.085038088 -24.36463 -27.712296 -111.9362
121888000 -27.388313 -113.34362 -0.088488862 -24.576496 -0.085615441 -24.562292 -27.651564 -112.23344
122887000 -27.345282 -113.51176 -0.089774586 -24.77644 -0.086247541 -24.764126 -27.609671 -112.28419
123886000 -27.288965 -113.92633 -0.090643056 -24.978308 -0.087227277 -24.967001 -27.591543 -112.42582
124885000 -27.251328 -114.44016 -0.090441383 -25.180548 -0.087400012 -25.165493 -27.562675 -112.48393
125884000 -27.197655 -114.64175 -0.091450363 -25.377613 -0.087064326 -25.362595 -27.539909 -112.72425
126883000 -27.18268 -115.02611 -0.092344284 -25.581114 -0.08871422 -25.564177 -27.495836 -112.73314
127882000 -27.12443 -115.30556 -0.092483632 -25.777151 -0.088833906 -25.760977 -27.444345 -112.91437
128881000 -27.095293 -115.63484 -0.092295364 -25.978905 -0.088661641 -25.963711 -27.415545 -113.02867
129880000 -27.040627 -115.96342 -0.093147412 -26.183142 -0.088623069 -26.159878 -27.366163 -112.99651
130879000 -26.979601 -116.09467 -0.092693865 -26.378424 -0.089711167 -26.363251 -27.292389 -113.07655
131878000 -26.914963 -116.34203 -0.093230985 -26.582853 -0.089564241 -26.564135 -27.227285 -112.97806
132877000 -26.841803 -116.40005 -0.092585705 -26.784164 -0.089742616 -26.766249 -27.143759 -112.98036
133876000 -26.754602 -116.57167 -0.093585134 -26.984903 -0.089644574 -26.963863 -27.055363 -112.86889
134875000 -26.664761 -116.69518 -0.093056165 -27.181501 -0.089997634 -27.166216 -26.954859 -112.76355
135874000 -26.579092 -116.7228 -0.093196869 -27.38415 -0.090135589 -27.363131 -26.848927 -112.75967
136873000 -26.473789 -116.65104 -0.094079509 -27.584757 -0.090026177 -27.568893 -26.765949 -112.7252
137872000 -26.392523 -116.76762 -0.093301602 -27.785349 -0.090431869 -27.772652 -26.659727 -112.6642
138871000 -26.320171 -116.92411 -0.09539891 -27.986109 -0.091008887 -27.969061 -26.556936 -112.86152
139870000 -26.216402 -117.23517 -0.095628336 -28.183197 -0.091989174 -28.165836 -26.479921 -113.0293
140869000 -26.141306 -117.67248 -0.09744826 -28.382071 -0.093230188 -28.36237 -26.376995 -113.15565
141868000 -26.038256 -118.1614 -0.097381815 -28.573854 -0.094174474 -28.556255 -26.29883 -113.48625
142867000 -25.9643 -118.42323 -0.095740005 -28.769911 -0.092831641 -28.75148 -26.221802 -113.66288
143866000 -25.891985 -118.93356 -0.097290747 -28.967684 -0.094483986 -28.949329 -26.150747 -114.19015
144865000 -25.840727 -119.45565 -0.098969683 -29.166372 -0.095701106 -29.151234 -26.090284 -114.49709
145864000 -25.785141 -119.78865 -0.09907721 -29.368277 -0.09677536 -29.355867 -26.058472 -114.7409
146863000 -25.73502 -120.14751 -0.099826217 -29.565874 -0.096549317 -29.553154 -26.010708 -115.05795
147862000 -25.704206 -120.55623 -0.10059708 -29.759579 -0.097253948 -29.749067 -25.980774 -115.383
148861000 -25.666929 -121.08267 -0.10072796 -29.963367 -0.098052159 -29.942816 -25.957062 -115.61438
149860000 -25.654392 -121.24938 -0.10146666 -30.160517 -0.098804176 -30.147793 -25.926197 -115.77132
150859000 -25.634706 -121.62206 -0.10187448 -30.358238 -0.099129908 -30.345236 -25.907852 -116.02943
151858000 -25.622604 -121.93602 -0.10161876 -30.556765 -0.099006236 -30.539047 -25.902697 -116.3269
152857000 -25.60251 -122.2636 -0.10278725 -30.753597 -0.099460706 -30.740913 -25.890696 -116.4463
153856000 -25.590296 -122.46401 -0.10170355 -30.955435 -0.099060789 -30.940887 -25.906956 -116.78384
154855000 -25.584509 -122.63145 -0.10171892 -31.15094 -0.098816618 -31.141472 -25.898396 -116.97127
155854000 -25.601202 -122.90535 -0.10233004 -31.353741 -0.099179432 -31.344107 -25.885168 -117.22098
156853000 -25.581621 -123.59505 -0.10021614 -31.53702 -0.097990736 -31.532446 -25.881786 -117.53777
157852000 -25.592108 -123.79419 -0.1017025 -31.737431 -0.1000474 -31.730505 -25.874798 -117.85669
158851000 -25.581308 -124.00977 -0.10183526 -31.938562 -0.10029508 -31.930428 -25.858585 -118.12558
159850000 -25.567678 -124.16796 -0.10260357 -32.137146 -0.10025958 -32.128582 -25.859993 -118.28246
160849000 -25.552773 -124.29002 -0.10246283 -32.334335 -0.10119718 -32.32856 -25.83024 -118.57478
161848000 -25.530182 -124.4025 -0.10313343 -32.534801 -0.10096217 -32.528118 -25.795507 -118.67332
162847000 -25.486143 -124.57276 -0.10326464 -32.732872 -0.10156815 -32.72892 -25.757698 -118.92482
163846000 -25.445515 -124.8437 -0.10348202 -32.93428 -0.10066782 -32.925766 -25.683128 -118.97002
164845000 -25.386353 -124.85048 -0.10392397 -33.134762 -0.10195637 -33.130424 -25.615261 -119.03651
165844000 -25.332811 -124.88654 -0.103464 -33.33186 -0.10227174 -33.326038 -25.534071 -119.20762
166843000 -25.266556 -124.96758 -0.10358647 -33.530876 -0.10185514 -33.526974 -25.467216 -119.39422
167842000 -25.212156 -125.10551 -0.10420184 -33.72744 -0.10294549 -33.720707 -25.386108 -119.30907
168841000 -25.13088 -125.2894 -0.10503314 -33.925835 -0.10335451 -33.922768 -25.303972 -119.40778
169840000 -25.070122 -125.5792 -0.10466931 -34.119091 -0.1036167 -34.115192 -25.218485 -119.57143
170839000 -25.009977 -125.86072 -0.10562458 -34.323265 -0.10410479 -34.31739 -25.13422 -119.78998
171838000 -24.948259 -126.26118 -0.10532275 -34.5219 -0.10538746 -34.513447 -25.069933 -120.04357
172837000 -24.883314 -126.60533 -0.10668192 -34.71574 -0.10640124 -34.707108 -24.997759 -120.23223
173836000 -24.813507 -127.0363 -0.10835999 -34.912968 -0.10657474 -34.909191 -24.954519 -120.42696
174835000 -24.763277 -127.45892 -0.10839024 -35.106155 -0.10725633 -35.108967 -24.9128 -120.78935
175834000 -24.709505 -127.86282 -0.10908645 -35.30851 -0.10839289 -35.304039 -24.854322 -121.07549
176833000 -24.664196 -128.24622 -0.11054424 -35.503002 -0.10849906 -35.50436 -24.79784 -121.28255
177832000 -24.613503 -128.71111 -0.11064515 -35.699154 -0.10951622 -35.702065 -24.775991 -121.41078
178831000 -24.57362 -129.08533 -0.11078163 -35.897297 -0.10978621 -35.89098 -24.734941 -121.6637
179830000 -24.542076 -129.51266 -0.11145193 -36.091064 -0.11008038 -36.096882 -24.707151 -121.7803
180829000 -24.502565 -129.72719 -0.11205592 -36.290131 -0.11033952 -36.294174 -24.674255 -121.93766
181828000 -24.478195 -130.10333 -0.11178765 -36.493683 -0.11042847 -36.485172 -24.658367 -122.07435
182827000 -24.453003 -130.42389 -0.11173452 -36.682373 -0.11104719 -36.682526 -24.648401 -122.13075
183826000 -24.406759 -130.76793 -0.11262493 -36.882362 -0.11170531 -36.880081 -24.640181 -122.25674
184825000 -24.416628 -131.07281 -0.11273066 -37.07951 -0.11163333 -37.079617 -24.617008 -122.3605
185824000 -24.389879 -131.42743 -0.11236193 -37.272572 -0.11192656 -37.271317 -24.617943 -122.42669
186823000 -24.371365 -131.76917 -0.11316904 -37.473915 -0.11198101 -37.471748 -24.618288 -122.42968
187822000 -24.351929 -132.11003 -0.11293895 -37.668076 -0.11188566 -37.667984 -24.583578 -122.47812
188821000 -24.332031 -132.3111 -0.11289751 -37.861469 -0.1119093 -37.86496 -24.568157 -122.55459
189820000 -24.311333 -132.60469 -0.11331782 -38.065388 -0.11247457 -38.06575 -24.558207 -122.72655
190819000 -24.287073 -132.84598 -0.11489586 -38.262722 -0.11420271 -38.262817 -24.528641 -122.66382
191818000 -24.246496 -133.03571 -0.11599002 -38.455235 -0.11567233 -38.457344 -24.497286 -122.57112
192817000 -24.179365 -133.29961 -0.11658294 -38.642616 -0.11545407 -38.644234 -24.422728 -122.66721
193816000 -24.142191 -133.66554 -0.1157574 -38.835831 -0.11414637 -38.833092 -24.367359 -122.93549
194815000 -24.088308 -134.08795 -0.11566674 -39.032234 -0.11471246 -39.035122 -24.302444 -123.03027
195814000 -24.032763 -134.32355 -0.11595652 -39.231228 -0.11457106 -39.232616 -24.254349 -123.16546
196813000 -23.98275 -134.67729 -0.11574357 -39.426685 -0.11451153 -39.42305 -24.173506 -123.33599
197812000 -23.926388 -134.88237 -0.11621336 -39.624844 -0.11457531 -39.6231 -24.105417 -123.43299
198811000 -23.874783 -135.07562 -0.11554499 -39.815548 -0.11414929 -39.821434 -24.032513 -123.6134
199810000 -23.804108 -135.43703 -0.11695469 -40.014606 -0.11396088 -40.009602 -23.9566 -123.68738
200809000 -23.745895 -135.73547 -0.11678503 -40.211624 -0.11444615 -40.213223 -23.882343 -123.90665
201808000 -23.68248 -135.95757 -0.11748232 -40.408966 -0.11536422 -40.412647 -23.809965 -123.98098
202807000 -23.631544 -136.32396 -0.11789777 -40.611408 -0.11609106 -40.615978 -23.756603 -124.19032
203806000 -23.57963 -136.77538 -0.11929493 -40.811371 -0.1168345 -40.810837 -23.687885 -124.36219
