!Keysight Technologies,E5080B,MY59205177,A.15.75.32
!Date: Friday, February 23, 2024 03:00:07
!Correction: S11(Cdelta 2-Port  ) 
!S21(Cdelta 2-Port  ) 
!S12(Cdelta 2-Port  ) 
!S22(Cdelta 2-Port  ) 
!S2P File: Measurements: S11, S21, S12, S22:
# Hz S  dB   R 50
10000000 -44.101307 -3.9855528 -0.027772099 -2.0420027 -0.031171657 -2.0904448 -48.124332 -149.98555
10999000 -43.474674 -5.264235 -0.029117374 -2.2588181 -0.030706549 -2.313076 -47.862274 -142.41013
11998000 -42.70636 -8.0147104 -0.029305793 -2.478272 -0.02997666 -2.5248687 -47.966286 -137.14995
12997000 -42.098949 -12.585936 -0.028660825 -2.6563632 -0.029950855 -2.6921725 -47.273983 -130.57974
13996000 -41.853046 -15.889713 -0.027941441 -2.8364244 -0.030106729 -2.8626308 -46.864353 -124.99942
14995000 -41.58065 -19.663914 -0.030015498 -3.0486164 -0.029760063 -3.070632 -46.46447 -122.10769
15994000 -41.412575 -23.520844 -0.030515462 -3.2656388 -0.031737726 -3.2864895 -46.161854 -118.18686
16993000 -41.382568 -27.620258 -0.030220639 -3.4575038 -0.031955726 -3.4717646 -45.287506 -118.84031
17992000 -41.435993 -32.03614 -0.031150278 -3.6620781 -0.032369066 -3.6612239 -44.642826 -119.60098
18991000 -41.707039 -36.524513 -0.03136538 -3.8706725 -0.032678645 -3.8659315 -43.942863 -119.32977
19990000 -41.568966 -41.654255 -0.033441335 -4.0791383 -0.0354225 -4.0744066 -43.238441 -120.74625
20989000 -41.5014 -44.577892 -0.035791282 -4.2822328 -0.036250927 -4.2686634 -42.661301 -120.72755
21988000 -41.418427 -49.33548 -0.036565218 -4.477984 -0.037523635 -4.4628253 -42.371799 -120.07029
22987000 -41.190639 -53.796455 -0.037641395 -4.677424 -0.038712088 -4.6715126 -42.090679 -119.66637
23986000 -41.150089 -57.290031 -0.037475329 -4.8706331 -0.037187342 -4.8709755 -41.954185 -119.7375
24985000 -40.918911 -60.237255 -0.038455099 -5.078094 -0.037886325 -5.0748663 -41.712563 -117.18087
25984000 -40.623615 -62.241417 -0.038712088 -5.2855849 -0.038081393 -5.2893338 -41.365326 -116.052
26983000 -40.348209 -64.302963 -0.04022849 -5.4843807 -0.039270524 -5.5006733 -41.22308 -115.17676
27982000 -40.210659 -65.170097 -0.040759679 -5.6820755 -0.040764906 -5.7147884 -40.922817 -113.34283
28981000 -40.228325 -66.14505 -0.039356463 -5.8764176 -0.040599506 -5.9030523 -40.683956 -112.73815
29980000 -39.764622 -68.096275 -0.039694227 -6.0733542 -0.040660124 -6.0801673 -40.334446 -112.2
30979000 -39.445591 -67.282463 -0.036605943 -6.4274368 -0.035593968 -6.4152956 -39.870853 -112.92674
31978000 -39.26757 -68.25499 -0.036141299 -6.62114 -0.036950544 -6.6102104 -39.608223 -112.28865
32977000 -39.099937 -69.936119 -0.036204986 -6.8293777 -0.03725183 -6.826755 -39.358109 -112.58755
33976000 -38.957336 -71.246666 -0.037082911 -7.031002 -0.037576117 -7.0232258 -39.034779 -112.26444
34975000 -38.677944 -71.909973 -0.037226766 -7.2295256 -0.038730893 -7.2273479 -38.821243 -111.95464
35974000 -38.468513 -72.663322 -0.03608831 -7.4261565 -0.037876662 -7.4257817 -38.483799 -111.17357
36973000 -38.272823 -73.640121 -0.036474638 -7.623795 -0.039194509 -7.6231632 -38.21283 -110.57655
37972000 -38.098907 -73.542397 -0.035870627 -7.8348317 -0.039341833 -7.8453259 -37.975086 -109.79999
38971000 -37.800526 -73.231133 -0.037047923 -8.0306644 -0.039658178 -8.0443192 -37.770195 -108.26789
39970000 -37.455532 -73.856308 -0.035082716 -8.2275019 -0.037374284 -8.2435369 -37.499348 -107.94202
40969000 -37.187817 -73.794739 -0.036018096 -8.4243011 -0.038328961 -8.4421453 -37.237549 -106.5224
41968000 -36.844845 -73.91201 -0.036008179 -8.6297827 -0.038511772 -8.6434555 -37.016872 -105.35199
42967000 -36.581108 -74.079613 -0.035462171 -8.8362617 -0.03919686 -8.8610067 -36.781006 -103.62569
43966000 -36.325493 -75.069168 -0.03662996 -9.0341043 -0.040204976 -9.0549269 -36.496559 -103.08799
44965000 -36.091492 -75.873985 -0.03657566 -9.2410936 -0.039643548 -9.2598505 -36.281387 -103.04306
45964000 -35.877106 -77.048119 -0.039118499 -9.443675 -0.041014194 -9.4556046 -36.037857 -102.83247
46963000 -35.692986 -79.170624 -0.038241211 -9.6369476 -0.041701771 -9.6541662 -35.844158 -103.23972
47962000 -35.54929 -80.708336 -0.03995312 -9.8351755 -0.042493496 -9.8533354 -35.656479 -103.356
48961000 -35.341629 -82.11618 -0.04205488 -10.029976 -0.044325545 -10.054002 -35.424217 -103.67025
49960000 -35.145508 -83.493866 -0.043645397 -10.227209 -0.045455176 -10.252415 -35.292599 -103.98237
50959000 -34.941723 -84.827911 -0.044138044 -10.443437 -0.045970526 -10.454876 -35.110088 -104.29755
51958000 -34.739502 -85.960342 -0.046406921 -10.64214 -0.047021557 -10.652175 -34.918026 -104.84969
52957000 -34.548195 -87.12236 -0.047029145 -10.843902 -0.049061812 -10.849309 -34.772839 -104.68602
53956000 -34.37537 -87.813889 -0.048012644 -11.041382 -0.049608488 -11.044208 -34.63586 -104.68798
54955000 -34.229496 -88.408379 -0.049231727 -11.241717 -0.05154806 -11.239397 -34.487862 -104.76291
55954000 -34.075539 -89.204704 -0.050462935 -11.444053 -0.05060802 -11.440917 -34.358601 -104.45405
56953000 -33.960442 -89.356567 -0.050204463 -11.643612 -0.049860381 -11.63102 -34.29224 -104.73908
57952000 -33.804115 -89.93045 -0.051200464 -11.839869 -0.051266998 -11.830539 -34.202473 -104.76349
58951000 -33.680004 -90.30851 -0.052113388 -12.041932 -0.052473105 -12.021413 -34.045246 -104.86696
59950000 -33.558716 -90.690956 -0.052816346 -12.240563 -0.052676428 -12.220292 -33.981102 -105.17358
60949000 -33.445984 -91.267212 -0.053516801 -12.444413 -0.053023878 -12.421721 -33.884792 -105.48722
61948000 -33.398438 -91.601913 -0.054598495 -12.643447 -0.053016018 -12.624119 -33.798489 -105.58896
62947000 -33.312958 -91.768501 -0.053858556 -12.855376 -0.053530954 -12.831773 -33.645882 -105.88316
63946000 -33.243191 -92.510849 -0.054389056 -13.050387 -0.054679498 -13.031878 -33.554813 -105.979
64945000 -33.136497 -92.703613 -0.055149801 -13.250654 -0.055349052 -13.233669 -33.459694 -106.49931
65944000 -33.036148 -92.997032 -0.05606224 -13.452202 -0.055882622 -13.430752 -33.366665 -106.95389
66943000 -32.899876 -93.40638 -0.053920671 -13.651175 -0.053937443 -13.634767 -33.258408 -107.17413
67942000 -32.849796 -93.422829 -0.055551462 -13.846593 -0.055547528 -13.838054 -33.14468 -107.57536
68941000 -32.725403 -93.496239 -0.055269875 -14.044971 -0.055041526 -14.030448 -33.037804 -107.55307
69940000 -32.640163 -93.506531 -0.055355344 -14.240788 -0.056121502 -14.229754 -32.884491 -107.86516
70939000 -32.522083 -93.500641 -0.055559326 -14.436255 -0.055233695 -14.430983 -32.762627 -107.78511
71938000 -32.388672 -93.098686 -0.055673383 -14.633267 -0.055331226 -14.630136 -32.627224 -107.66871
72937000 -32.223755 -92.939896 -0.054881874 -14.833351 -0.054952394 -14.825421 -32.487385 -107.4248
73936000 -32.084858 -92.682076 -0.054762073 -15.025411 -0.054189585 -15.023583 -32.37252 -107.15887
74935000 -31.96755 -92.896049 -0.05427425 -15.225896 -0.053885289 -15.221405 -32.208134 -106.98522
75934000 -31.843672 -93.202774 -0.054253016 -15.429153 -0.053482994 -15.42387 -32.123753 -106.88608
76933000 -31.721743 -93.610611 -0.055109952 -15.627871 -0.055554081 -15.620306 -31.963108 -107.31209
77932000 -31.624798 -94.504936 -0.056150347 -15.822709 -0.056972776 -15.815346 -31.863911 -107.23045
78931000 -31.5548 -95.272247 -0.05559551 -16.0207 -0.05611416 -16.016685 -31.76425 -107.16994
79930000 -31.436033 -96.022835 -0.057959575 -16.213276 -0.058365431 -16.210871 -31.662806 -107.4775
80929000 -31.32707 -96.936821 -0.059554093 -16.409956 -0.05981496 -16.406448 -31.56288 -107.85755
81928000 -31.236881 -97.893768 -0.058967594 -16.60218 -0.06010944 -16.59754 -31.445198 -107.9324
82927000 -31.147013 -98.57962 -0.06074807 -16.800974 -0.061506253 -16.79681 -31.351704 -108.2989
83926000 -31.028574 -99.22464 -0.062602021 -16.996906 -0.061950512 -16.998833 -31.226814 -108.48235
84925000 -30.930439 -99.738266 -0.06395629 -17.195715 -0.062331531 -17.190817 -31.123358 -108.60892
85924000 -30.84223 -100.2329 -0.064437583 -17.396721 -0.063434333 -17.393816 -31.041056 -108.59841
86923000 -30.734339 -100.75115 -0.064629905 -17.593538 -0.064445466 -17.587412 -30.95273 -108.48045
87922000 -30.627411 -101.10186 -0.064618871 -17.798706 -0.063713297 -17.792177 -30.853441 -108.52063
88921000 -30.561953 -101.42812 -0.066015035 -17.995848 -0.065155677 -17.989775 -30.773464 -108.53888
89920000 -30.477396 -101.98351 -0.065515697 -18.192579 -0.066257887 -18.186874 -30.713545 -108.73862
90919000 -30.3703 -102.24654 -0.067124031 -18.39233 -0.066333324 -18.386726 -30.630919 -108.91374
91918000 -30.279245 -102.62562 -0.067390613 -18.590992 -0.066656373 -18.585154 -30.556892 -108.92142
92917000 -30.192142 -102.97166 -0.068401344 -18.784842 -0.068128131 -18.785566 -30.500423 -109.0074
93916000 -30.099701 -103.33959 -0.068262234 -18.984556 -0.068006121 -18.977655 -30.418421 -109.68365
94915000 -30.030338 -104.01102 -0.069421522 -19.182018 -0.068536513 -19.178347 -30.352991 -109.54005
95914000 -29.968229 -104.19811 -0.070816599 -19.377914 -0.069435462 -19.375877 -30.264574 -109.8095
96913000 -29.89159 -104.44627 -0.071143664 -19.578373 -0.070736609 -19.573507 -30.202454 -110.19176
97912000 -29.815733 -104.91136 -0.072566144 -19.772255 -0.071386278 -19.774136 -30.120974 -110.43325
98911000 -29.708164 -105.12275 -0.072990999 -19.973967 -0.072009198 -19.971418 -30.083979 -110.64648
99910000 -29.650459 -105.26071 -0.07327795 -20.173449 -0.071867868 -20.170294 -29.966867 -110.93147
100909000 -29.56382 -105.54099 -0.073667333 -20.379662 -0.071650229 -20.373194 -29.890785 -111.165
101908000 -29.471695 -105.7973 -0.07400541 -20.583549 -0.072648533 -20.578804 -29.785667 -110.91424
102907000 -29.341402 -105.80537 -0.074823588 -20.779036 -0.073322706 -20.77598 -29.704605 -110.86272
103906000 -29.249901 -105.91886 -0.075296864 -20.986191 -0.072378471 -20.982012 -29.55195 -110.81891
104905000 -29.100283 -105.83919 -0.075311877 -21.181334 -0.073033385 -21.186403 -29.428396 -110.54982
105904000 -28.960806 -105.94955 -0.075991735 -21.38409 -0.072518237 -21.37833 -29.320322 -110.40685
106903000 -28.848949 -106.05139 -0.075467542 -21.587322 -0.07298784 -21.580566 -29.181463 -110.28802
107902000 -28.686493 -106.40906 -0.076710962 -21.789795 -0.073544383 -21.785782 -29.047613 -110.26996
108901000 -28.570099 -106.6675 -0.077147551 -21.988558 -0.075039022 -21.982964 -28.911352 -110.20435
109900000 -28.454182 -107.17696 -0.078073591 -22.191923 -0.076451182 -22.18288 -28.766973 -110.29929
110899000 -28.338823 -107.82192 -0.07965336 -22.386019 -0.076321036 -22.380239 -28.638863 -110.65092
111898000 -28.242558 -108.44509 -0.081138767 -22.589092 -0.077851944 -22.585316 -28.520128 -110.72624
112897000 -28.12199 -109.04152 -0.082149014 -22.788435 -0.078741752 -22.776114 -28.38694 -110.95492
113896000 -28.020412 -109.62529 -0.083536044 -22.98789 -0.080077335 -22.975521 -28.279652 -111.08
114895000 -27.914679 -110.30958 -0.084042735 -23.187042 -0.081875458 -23.172478 -28.166229 -111.15207
115894000 -27.783426 -110.63905 -0.085578479 -23.385895 -0.083013318 -23.375591 -28.098379 -111.37033
116893000 -27.708939 -111.21416 -0.085826397 -23.580357 -0.08368171 -23.563618 -27.972506 -111.47414
117892000 -27.625877 -111.70072 -0.085975043 -23.776958 -0.084353641 -23.766193 -27.893816 -111.65173
118891000 -27.563761 -112.07875 -0.086777255 -23.980738 -0.083730534 -23.962584 -27.802248 -111.82391
119890000 -27.473782 -112.48503 -0.087327644 -24.180931 -0.084994003 -24.162312 -27.78142 -111.99377
120889000 -27.421066 -112.99844 -0.088731393 -24.378752 -0.085458092 -24.369659 -27.710274 -111.97608
121888000 -27.384245 -113.32516 -0.088636279 -24.572298 -0.085788108 -24.566574 -27.656223 -112.21861
122887000 -27.342358 -113.50534 -0.089992352 -24.776432 -0.086254664 -24.76293 -27.61026 -112.25296
123886000 -27.287855 -113.91264 -0.090066351 -24.977798 -0.087301761 -24.960745 -27.591888 -112.44058
124885000 -27.252947 -114.45061 -0.090364739 -25.178116 -0.087564826 -25.166576 -27.561531 -112.5158
125884000 -27.202473 -114.67259 -0.091375813 -25.372988 -0.087100506 -25.36112 -27.533833 -112.66689
126883000 -27.180069 -115.00983 -0.091453537 -25.579113 -0.088265359 -25.562777 -27.495857 -112.7067
127882000 -27.133142 -115.33495 -0.091747522 -25.776554 -0.088536941 -25.763008 -27.448456 -112.9043
128881000 -27.103331 -115.6155 -0.092235081 -25.978065 -0.088638924 -25.962767 -27.408779 -112.97444
129880000 -27.041965 -115.95212 -0.092585973 -26.176123 -0.088442892 -26.16135 -27.368563 -112.94984
130879000 -26.980268 -116.12425 -0.092392407 -26.380537 -0.089456163 -26.366634 -27.286579 -113.07426
131878000 -26.916372 -116.34691 -0.092408538 -26.583744 -0.089533322 -26.563713 -27.226604 -112.97313
132877000 -26.842857 -116.432 -0.091842704 -26.786417 -0.08987686 -26.766733 -27.15032 -113.00703
133876000 -26.763212 -116.55991 -0.093109854 -26.983669 -0.090229943 -26.967108 -27.049772 -112.88814
134875000 -26.665583 -116.71674 -0.092699945 -27.18483 -0.090426058 -27.166515 -26.951847 -112.75041
135874000 -26.585466 -116.72276 -0.092451908 -27.380085 -0.09044905 -27.367189 -26.853874 -112.77805
136873000 -26.474363 -116.65698 -0.093699135 -27.586241 -0.089711957 -27.564199 -26.765175 -112.71161
137872000 -26.396046 -116.78989 -0.093812339 -27.786613 -0.090287298 -27.769176 -26.656034 -112.70621
138871000 -26.322645 -116.98784 -0.093954653 -27.98546 -0.091044575 -27.971569 -26.564138 -112.82252
139870000 -26.223841 -117.26707 -0.094667062 -28.18471 -0.092096262 -28.169228 -26.484579 -113.03921
140869000 -26.134586 -117.72105 -0.0971523 -28.379606 -0.093543604 -28.358839 -26.374104 -113.18585
141868000 -26.041914 -118.18673 -0.096449003 -28.575979 -0.093988247 -28.556314 -26.302423 -113.54375
142867000 -25.964474 -118.42986 -0.095032446 -28.770741 -0.09314397 -28.753761 -26.222574 -113.66985
143866000 -25.898764 -118.93828 -0.097119473 -28.968271 -0.093891434 -28.953241 -26.151863 -114.19641
144865000 -25.837543 -119.45563 -0.097755365 -29.167089 -0.095589168 -29.150404 -26.097319 -114.49968
145864000 -25.780668 -119.77356 -0.098492764 -29.36746 -0.096908763 -29.354702 -26.06126 -114.76157
146863000 -25.739265 -120.19233 -0.099560551 -29.566393 -0.096540585 -29.554195 -26.006939 -115.07081
147862000 -25.700235 -120.5206 -0.1006408 -29.7617 -0.09704271 -29.748079 -25.973633 -115.39657
148861000 -25.665493 -121.0375 -0.10044502 -29.962002 -0.097973786 -29.943153 -25.956293 -115.63927
149860000 -25.650482 -121.21838 -0.10069458 -30.161634 -0.09784247 -30.147196 -25.922709 -115.75735
150859000 -25.635185 -121.6153 -0.10121758 -30.359758 -0.09851633 -30.341648 -25.914125 -116.04545
151858000 -25.617035 -121.91836 -0.10094097 -30.557205 -0.099289343 -30.540388 -25.904968 -116.34109
152857000 -25.595274 -122.27569 -0.10107504 -30.759434 -0.099692725 -30.740625 -25.885086 -116.44432
153856000 -25.590666 -122.45111 -0.10147461 -30.951908 -0.098964393 -30.938398 -25.904339 -116.75453
154855000 -25.582479 -122.64278 -0.10196219 -31.151121 -0.098598413 -31.141729 -25.894573 -116.95708
155854000 -25.60186 -122.91 -0.10198791 -31.350607 -0.099398464 -31.337345 -25.884741 -117.24709
156853000 -25.584532 -123.60416 -0.099658027 -31.536934 -0.098842569 -31.53013 -25.883438 -117.51988
157852000 -25.58806 -123.82188 -0.1013135 -31.735723 -0.1002723 -31.727022 -25.881227 -117.87929
158851000 -25.581738 -124.02528 -0.10145818 -31.938545 -0.10075393 -31.927797 -25.856049 -118.12637
159850000 -25.567245 -124.16215 -0.10191238 -32.13612 -0.10020342 -32.125893 -25.858299 -118.28563
160849000 -25.547709 -124.28595 -0.10264226 -32.331833 -0.10146083 -32.332554 -25.823036 -118.59959
161848000 -25.530182 -124.41338 -0.10265631 -32.534756 -0.10097647 -32.528778 -25.786888 -118.69334
162847000 -25.489109 -124.61604 -0.10294125 -32.731949 -0.10140094 -32.731133 -25.753962 -118.96791
163846000 -25.441105 -124.81413 -0.10257865 -32.93404 -0.10186785 -32.927067 -25.67857 -118.95756
164845000 -25.386848 -124.81271 -0.10351755 -33.13826 -0.10234489 -33.12542 -25.616076 -119.06581
165844000 -25.335066 -124.91714 -0.1033447 -33.329597 -0.10242758 -33.326729 -25.532574 -119.22941
166843000 -25.270138 -124.99547 -0.10339666 -33.529018 -0.10228552 -33.523468 -25.462681 -119.36598
167842000 -25.210503 -125.15128 -0.10395101 -33.727272 -0.10307591 -33.721806 -25.380081 -119.30502
168841000 -25.130863 -125.3294 -0.10429756 -33.923691 -0.10255824 -33.926117 -25.302584 -119.3797
169840000 -25.070646 -125.58815 -0.10467621 -34.127136 -0.10341018 -34.115444 -25.217796 -119.5838
170839000 -25.006536 -125.8414 -0.1052416 -34.319729 -0.10383675 -34.314083 -25.130314 -119.7855
171838000 -24.950516 -126.25838 -0.10529305 -34.519108 -0.10465924 -34.513378 -25.068016 -120.03138
172837000 -24.881926 -126.63411 -0.10704486 -34.714329 -0.10527899 -34.711052 -25.002312 -120.25958
173836000 -24.817167 -127.05007 -0.10763896 -34.913601 -0.10657474 -34.91114 -24.957767 -120.48161
174835000 -24.757778 -127.47055 -0.10802878 -35.107872 -0.10686021 -35.106174 -24.908491 -120.80141
175834000 -24.706856 -127.889 -0.1095287 -35.308178 -0.1083146 -35.306461 -24.843927 -121.12544
176833000 -24.655361 -128.25549 -0.10964444 -35.502403 -0.10816678 -35.503319 -24.794697 -121.27557
177832000 -24.608358 -128.72002 -0.11017065 -35.703232 -0.10912175 -35.701809 -24.773714 -121.43727
178831000 -24.573271 -129.08134 -0.11005887 -35.893764 -0.10926934 -35.893227 -24.736082 -121.64619
179830000 -24.53643 -129.52458 -0.11110456 -36.094315 -0.10937287 -36.097305 -24.706587 -121.78902
180829000 -24.50264 -129.7218 -0.11148486 -36.289692 -0.11012525 -36.292213 -24.67544 -121.94949
181828000 -24.471516 -130.0928 -0.11182059 -36.483566 -0.11038253 -36.480515 -24.662842 -122.062
182827000 -24.446024 -130.42624 -0.11156853 -36.679386 -0.11067674 -36.683914 -24.647818 -122.14053
183826000 -24.409159 -130.75874 -0.11247244 -36.882095 -0.11103816 -36.874584 -24.637934 -122.27068
184825000 -24.412289 -131.07147 -0.11237309 -37.076653 -0.11128275 -37.076794 -24.619102 -122.35848
185824000 -24.387756 -131.40967 -0.11244827 -37.270912 -0.1120028 -37.266769 -24.620111 -122.40041
186823000 -24.368637 -131.7552 -0.1126499 -37.470211 -0.11176533 -37.46806 -24.618969 -122.40191
187822000 -24.351376 -132.11674 -0.11323174 -37.664684 -0.11196295 -37.665588 -24.583239 -122.47397
188821000 -24.331619 -132.34856 -0.11312573 -37.860039 -0.11274554 -37.867496 -24.565498 -122.58922
189820000 -24.313623 -132.59818 -0.11408524 -38.064941 -0.11239806 -38.062355 -24.556839 -122.72144
190819000 -24.285503 -132.86166 -0.11475259 -38.263878 -0.1133258 -38.261822 -24.524902 -122.68314
191818000 -24.252178 -133.03056 -0.11607085 -38.45602 -0.1148007 -38.456028 -24.49221 -122.59811
192817000 -24.179371 -133.31007 -0.11669409 -38.639996 -0.1153286 -38.644623 -24.419928 -122.65447
193816000 -24.146849 -133.65907 -0.11499261 -38.835312 -0.1142936 -38.833858 -24.365776 -122.95151
194815000 -24.087442 -134.10254 -0.1153193 -39.030518 -0.11441425 -39.033443 -24.304541 -123.05635
195814000 -24.037014 -134.36739 -0.11557157 -39.230812 -0.11369939 -39.232182 -24.250097 -123.17544
196813000 -23.984278 -134.68417 -0.11515529 -39.423279 -0.11436376 -39.426033 -24.174606 -123.31702
197812000 -23.920603 -134.90703 -0.11624633 -39.623356 -0.11434436 -39.622654 -24.097891 -123.41502
198811000 -23.869978 -135.0992 -0.11528102 -39.819557 -0.11378017 -39.818588 -24.034981 -123.63161
199810000 -23.803675 -135.46458 -0.11599534 -40.013584 -0.1138211 -40.013866 -23.955931 -123.68871
200809000 -23.747053 -135.75766 -0.11623994 -40.209396 -0.1142346 -40.211819 -23.877029 -123.90083
201808000 -23.68644 -135.99106 -0.11675339 -40.408108 -0.11529829 -40.414848 -23.809082 -124.00094
202807000 -23.630106 -136.33295 -0.11786213 -40.61105 -0.11685497 -40.608727 -23.751238 -124.19469
203806000 -23.580442 -136.77899 -0.11928509 -40.810535 -0.11647233 -40.809357 -23.686302 -124.37653
