!Keysight Technologies,E5080B,MY59205177,A.15.75.32
!Date: Friday, February 23, 2024 03:38:22
!Correction: S11(Cdelta 2-Port  ) 
!S21(Cdelta 2-Port  ) 
!S12(Cdelta 2-Port  ) 
!S22(Cdelta 2-Port  ) 
!S2P File: Measurements: S11, S21, S12, S22:
# Hz S  dB   R 50
10000000 -46.161797 -2.871881 -0.015805706 -2.0429354 -0.017874235 -2.0993474 -45.942646 -157.17209
10999000 -45.273865 -4.6968107 -0.016158275 -2.2632077 -0.017738035 -2.3151853 -45.868408 -151.011
11998000 -44.312588 -8.0660572 -0.016803727 -2.4851897 -0.017303212 -2.5272186 -45.994289 -147.17906
12997000 -43.581543 -13.55443 -0.015818438 -2.668066 -0.016887143 -2.6989577 -45.620754 -141.01779
13996000 -43.332798 -17.267517 -0.015177547 -2.8447669 -0.017394437 -2.8668542 -45.389023 -135.86272
14995000 -42.901886 -21.949591 -0.017819392 -3.0578165 -0.017044106 -3.081496 -45.116779 -132.72855
15994000 -42.709373 -26.019457 -0.019087486 -3.2776971 -0.019201886 -3.2996035 -44.983715 -129.31218
16993000 -42.659954 -30.750017 -0.018215273 -3.4709268 -0.018471589 -3.4805396 -44.155788 -129.38306
17992000 -42.731388 -36.047958 -0.018548019 -3.6725557 -0.01994817 -3.6700392 -43.600845 -129.13239
18991000 -42.983967 -41.721119 -0.019071884 -3.8800244 -0.019811125 -3.8809092 -42.947964 -127.91215
19990000 -42.753677 -47.395226 -0.022177642 -4.0900893 -0.021946605 -4.0847116 -42.280132 -128.70412
20989000 -42.560345 -50.490112 -0.0241745 -4.2951908 -0.023581568 -4.2868729 -41.702507 -128.14626
21988000 -42.352242 -56.141289 -0.024738617 -4.4920454 -0.024454597 -4.478446 -41.469147 -127.79578
22987000 -42.03619 -60.703869 -0.025353581 -4.6908307 -0.025861083 -4.6816764 -41.238426 -127.21491
23986000 -41.932442 -64.656174 -0.02520569 -4.8846803 -0.024519939 -4.8836236 -41.104794 -126.79514
24985000 -41.558632 -67.424866 -0.026107172 -5.0920143 -0.025224958 -5.0875149 -40.860947 -124.58427
25984000 -41.201817 -69.76355 -0.02729876 -5.300159 -0.02554418 -5.3006434 -40.523468 -122.84949
26983000 -40.883884 -71.717453 -0.027933365 -5.4967513 -0.02614858 -5.5163317 -40.432083 -122.34346
27982000 -40.723019 -72.05867 -0.02878486 -5.6991463 -0.028436737 -5.7353606 -40.159275 -120.66586
28981000 -40.679062 -74.002945 -0.027175028 -5.893219 -0.027688732 -5.9216814 -39.923565 -119.8521
29980000 -40.252861 -75.336761 -0.02668847 -6.0919437 -0.028194424 -6.0953741 -39.652988 -119.31084
30979000 -39.889771 -74.212372 -0.02525568 -6.4460115 -0.023304651 -6.4325376 -39.150738 -119.5303
31978000 -39.679844 -75.065536 -0.023974853 -6.6403494 -0.0241568 -6.6319251 -38.902794 -118.64025
32977000 -39.482437 -76.709366 -0.024236454 -6.8527279 -0.024949497 -6.8496695 -38.651844 -118.77831
33976000 -39.30138 -77.822495 -0.024675095 -7.050776 -0.02507655 -7.0499296 -38.367287 -118.18029
34975000 -38.997852 -78.469116 -0.024828697 -7.251791 -0.026380623 -7.2499804 -38.123222 -117.84972
35974000 -38.812458 -79.098724 -0.024347346 -7.4489293 -0.025709268 -7.4522853 -37.887177 -117.04765
36973000 -38.586445 -79.864334 -0.024424922 -7.6465597 -0.027088547 -7.6507478 -37.6175 -116.00418
37972000 -38.437626 -79.462036 -0.023453517 -7.857975 -0.027377428 -7.8659072 -37.38937 -115.27135
38971000 -38.11776 -79.052193 -0.025089828 -8.05618 -0.026987743 -8.0687437 -37.233608 -113.66135
39970000 -37.771481 -79.346367 -0.023527432 -8.2543373 -0.0261616 -8.2691765 -36.972084 -113.06438
40969000 -37.483982 -78.93779 -0.023996456 -8.4514551 -0.025849884 -8.4662952 -36.744396 -111.72749
41968000 -37.15123 -78.847443 -0.023966001 -8.6573668 -0.025638701 -8.672224 -36.560249 -110.48551
42967000 -36.902203 -78.903694 -0.02368906 -8.8670263 -0.026163684 -8.8881006 -36.365044 -108.70367
43966000 -36.591431 -79.762985 -0.024945851 -9.0653639 -0.027279744 -9.0835781 -36.085575 -107.97564
44965000 -36.340206 -80.420639 -0.025546003 -9.2682886 -0.027395403 -9.283884 -35.888962 -107.66771
45964000 -36.125332 -81.346565 -0.026937211 -9.4641895 -0.029185392 -9.4912186 -35.646584 -107.328
46963000 -35.933857 -83.265884 -0.027232595 -9.6622305 -0.029682394 -9.686305 -35.476192 -107.57191
47962000 -35.767296 -84.612 -0.028537314 -9.8642406 -0.030411972 -9.8814764 -35.269035 -107.6524
48961000 -35.560364 -86.112495 -0.030643201 -10.0613 -0.031458464 -10.082272 -35.0453 -107.75495
49960000 -35.315411 -87.409698 -0.031748418 -10.259569 -0.032555018 -10.284997 -34.91217 -107.88456
50959000 -35.08593 -88.669807 -0.032164346 -10.475994 -0.034221638 -10.486296 -34.734581 -108.04406
51958000 -34.872097 -89.713776 -0.034447066 -10.672876 -0.035453558 -10.681784 -34.552834 -108.56316
52957000 -34.668465 -90.790001 -0.035874803 -10.870512 -0.03679077 -10.881574 -34.401714 -108.38251
53956000 -34.494076 -91.423233 -0.036477245 -11.072293 -0.037326504 -11.078381 -34.272057 -108.3373
54955000 -34.32275 -91.886444 -0.03718473 -11.277198 -0.038094189 -11.272511 -34.110466 -108.26987
55954000 -34.147236 -92.713158 -0.039135218 -11.478902 -0.038829882 -11.474167 -34.018105 -108.00843
56953000 -34.046432 -92.876778 -0.038620938 -11.673748 -0.037687611 -11.66423 -33.927307 -108.17275
57952000 -33.866791 -93.352715 -0.039769463 -11.871874 -0.039082192 -11.865203 -33.84074 -108.2095
58951000 -33.748959 -93.688278 -0.040652812 -12.075659 -0.039717216 -12.061422 -33.67535 -108.33036
59950000 -33.627033 -94.018471 -0.040875178 -12.275262 -0.040552214 -12.255359 -33.600189 -108.67018
60949000 -33.503098 -94.646431 -0.0410189 -12.480739 -0.040757589 -12.456166 -33.503395 -108.83408
61948000 -33.43985 -94.90229 -0.042171195 -12.680854 -0.040389173 -12.659989 -33.415226 -109.04247
62947000 -33.356754 -95.105034 -0.041841861 -12.889911 -0.041878715 -12.870901 -33.274483 -109.29027
63946000 -33.276405 -95.809219 -0.043250326 -13.087843 -0.042721968 -13.067322 -33.15667 -109.38423
64945000 -33.176201 -96.010971 -0.043243531 -13.291572 -0.043026794 -13.273794 -33.049324 -109.89453
65944000 -33.06115 -96.36541 -0.044284489 -13.490786 -0.042759351 -13.474689 -32.956947 -110.32398
66943000 -32.926613 -96.787849 -0.042258237 -13.692817 -0.041652899 -13.676654 -32.85144 -110.59879
67942000 -32.866772 -96.641006 -0.044425707 -13.888367 -0.043462891 -13.87548 -32.731613 -110.89074
68941000 -32.756985 -96.798569 -0.043706845 -14.079096 -0.042667072 -14.075203 -32.615898 -110.74351
69940000 -32.654255 -96.734566 -0.044035275 -14.279475 -0.042955946 -14.272515 -32.477852 -111.0732
70939000 -32.548233 -96.706955 -0.043824513 -14.476835 -0.04303699 -14.470884 -32.343143 -110.97706
71938000 -32.410103 -96.358177 -0.044286057 -14.673938 -0.043171108 -14.669058 -32.221043 -110.79377
72937000 -32.247669 -96.081612 -0.043904789 -14.875363 -0.04237717 -14.867058 -32.083611 -110.54752
73936000 -32.111595 -95.70507 -0.043006662 -15.071938 -0.042453762 -15.066023 -31.969427 -110.3035
74935000 -31.995789 -95.896484 -0.042657923 -15.266457 -0.041415595 -15.266945 -31.814005 -109.96347
75934000 -31.875908 -96.153 -0.042394947 -15.479413 -0.041150603 -15.472766 -31.731157 -109.92192
76933000 -31.746817 -96.506828 -0.043524336 -15.674272 -0.042830199 -15.665987 -31.557064 -110.24747
77932000 -31.637348 -97.241753 -0.045099176 -15.864985 -0.044340715 -15.861438 -31.465063 -110.14068
78931000 -31.557438 -98.051895 -0.043655071 -16.069782 -0.04364958 -16.063122 -31.361343 -110.03392
79930000 -31.450666 -98.876106 -0.045966338 -16.25972 -0.045953259 -16.257465 -31.266935 -110.39088
80929000 -31.326231 -99.693008 -0.048145086 -16.456848 -0.047105819 -16.455593 -31.16988 -110.60735
81928000 -31.233065 -100.37511 -0.048018664 -16.647587 -0.047928628 -16.643421 -31.038826 -110.55352
82927000 -31.14163 -101.12125 -0.04988892 -16.849949 -0.048759446 -16.845688 -30.932581 -110.89487
83926000 -31.026119 -101.77351 -0.050865471 -17.044691 -0.049733646 -17.047451 -30.816425 -111.0906
84925000 -30.911764 -102.22913 -0.051976893 -17.246847 -0.050044987 -17.244379 -30.722412 -111.15443
85924000 -30.823067 -102.59053 -0.053016804 -17.444082 -0.051661748 -17.442694 -30.641479 -111.08881
86923000 -30.717398 -103.14375 -0.053044055 -17.641304 -0.051377535 -17.636127 -30.539543 -110.9207
87922000 -30.605762 -103.41231 -0.052385334 -17.851341 -0.05136627 -17.842916 -30.445171 -111.06139
88921000 -30.531136 -103.6727 -0.053961556 -18.055172 -0.05240158 -18.043127 -30.349154 -110.97837
89920000 -30.436228 -104.24565 -0.054507799 -18.249453 -0.05339966 -18.243612 -30.300587 -111.19037
90919000 -30.334236 -104.54506 -0.055352725 -18.443266 -0.054237291 -18.4389 -30.216932 -111.32191
91918000 -30.228159 -104.88391 -0.056590915 -18.646221 -0.054838095 -18.638083 -30.14576 -111.37606
92917000 -30.14283 -105.14343 -0.057479002 -18.845945 -0.055174444 -18.840595 -30.079412 -111.41742
93916000 -30.061882 -105.5706 -0.056642842 -19.037855 -0.056035232 -19.032497 -29.988823 -112.04291
94915000 -29.983185 -106.17301 -0.057804275 -19.238214 -0.056497816 -19.233881 -29.931641 -111.91252
95914000 -29.912985 -106.31413 -0.059467491 -19.432478 -0.057338931 -19.427467 -29.845274 -112.17744
96913000 -29.824768 -106.54424 -0.060134109 -19.637663 -0.058206704 -19.630051 -29.776121 -112.50018
97912000 -29.745461 -107.03433 -0.061176501 -19.828762 -0.058351524 -19.831699 -29.692287 -112.70387
98911000 -29.644108 -107.15195 -0.061426699 -20.030941 -0.059234198 -20.029064 -29.653954 -112.94688
99910000 -29.570389 -107.29357 -0.062213887 -20.230831 -0.059731763 -20.230125 -29.542448 -113.23534
100909000 -29.482977 -107.56532 -0.061630443 -20.438017 -0.059613142 -20.434332 -29.45994 -113.41604
101908000 -29.394381 -107.74474 -0.062807657 -20.635876 -0.060643069 -20.637142 -29.356535 -113.21745
102907000 -29.262302 -107.7951 -0.063548073 -20.840057 -0.060311545 -20.837891 -29.276844 -113.17165
103906000 -29.16398 -107.82724 -0.063656032 -21.044228 -0.060230963 -21.038197 -29.135624 -113.10851
104905000 -29.029791 -107.65013 -0.06395524 -21.241974 -0.061181225 -21.243513 -29.014032 -112.83166
105904000 -28.88073 -107.75569 -0.064424179 -21.450056 -0.060640704 -21.441847 -28.904909 -112.71069
106903000 -28.77718 -107.85171 -0.064659595 -21.648691 -0.061272588 -21.646971 -28.777422 -112.60192
107902000 -28.607222 -108.15607 -0.065223478 -21.852745 -0.062103335 -21.846786 -28.6401 -112.57838
108901000 -28.503256 -108.38972 -0.065813713 -22.055727 -0.063391261 -22.045839 -28.510878 -112.506
109900000 -28.370283 -108.8749 -0.066724718 -22.2516 -0.064393967 -22.24371 -28.366171 -112.57233
110899000 -28.248892 -109.47694 -0.067850985 -22.453968 -0.064946778 -22.44549 -28.242325 -112.85448
111898000 -28.157087 -110.11237 -0.069236882 -22.652061 -0.065967984 -22.648678 -28.118391 -113.00085
112897000 -28.033556 -110.64815 -0.07117787 -22.85297 -0.067601733 -22.841547 -27.990604 -113.14839
113896000 -27.929504 -111.26888 -0.072047099 -23.052343 -0.068108931 -23.042871 -27.880228 -113.28708
114895000 -27.828987 -111.90073 -0.073036805 -23.251156 -0.07003285 -23.238045 -27.769056 -113.33291
115894000 -27.705227 -112.23067 -0.074153922 -23.454393 -0.071391016 -23.440504 -27.703873 -113.53773
116893000 -27.626297 -112.73339 -0.074994512 -23.650806 -0.072174221 -23.632538 -27.585047 -113.58571
117892000 -27.545725 -113.18691 -0.074641086 -23.849653 -0.072081842 -23.828617 -27.504187 -113.81155
118891000 -27.488811 -113.63708 -0.075807869 -24.047812 -0.0728807 -24.031691 -27.406353 -113.94971
119890000 -27.398033 -113.97781 -0.076304704 -24.248129 -0.073024958 -24.232735 -27.397087 -114.04807
120889000 -27.34598 -114.46964 -0.077562056 -24.449453 -0.073490411 -24.433691 -27.320694 -114.00951
121888000 -27.310057 -114.76572 -0.077431351 -24.644463 -0.073689453 -24.634432 -27.263401 -114.32024
122887000 -27.268166 -114.97506 -0.078133419 -24.84873 -0.074283473 -24.835651 -27.219574 -114.30197
123886000 -27.214434 -115.38715 -0.078605212 -25.050507 -0.074893378 -25.034342 -27.204165 -114.435
124885000 -27.179667 -115.89014 -0.078792363 -25.250677 -0.075257361 -25.233957 -27.165117 -114.53168
125884000 -27.13204 -116.08988 -0.079309575 -25.446217 -0.075891897 -25.433161 -27.138905 -114.60613
126883000 -27.108122 -116.47964 -0.079914652 -25.650732 -0.07622119 -25.638611 -27.101305 -114.65462
127882000 -27.063316 -116.77529 -0.080187023 -25.850458 -0.076970749 -25.834581 -27.063534 -114.7858
128881000 -27.035006 -117.1152 -0.08037293 -26.051712 -0.076786049 -26.037285 -27.02635 -114.84073
129880000 -26.981272 -117.43948 -0.081355564 -26.253498 -0.076949932 -26.233534 -26.984043 -114.82331
130879000 -26.920698 -117.58362 -0.080987379 -26.450802 -0.077940233 -26.438257 -26.910961 -114.86093
131878000 -26.854439 -117.83569 -0.081291474 -26.655043 -0.078412801 -26.640482 -26.855282 -114.7065
132877000 -26.787621 -117.85661 -0.081150636 -26.856689 -0.078141853 -26.84169 -26.77096 -114.67905
133876000 -26.708572 -118.05039 -0.081088386 -27.056543 -0.077816106 -27.036991 -26.686625 -114.55087
134875000 -26.611757 -118.12276 -0.082652114 -27.260971 -0.078591242 -27.238379 -26.584051 -114.398
135874000 -26.528509 -118.18472 -0.081751212 -27.460184 -0.078476585 -27.442297 -26.493244 -114.32389
136873000 -26.421135 -118.09988 -0.08191397 -27.664444 -0.078614436 -27.64509 -26.416492 -114.30248
137872000 -26.346149 -118.25183 -0.082020804 -27.866072 -0.078603104 -27.849506 -26.312845 -114.21114
138871000 -26.264206 -118.43254 -0.082768731 -28.064238 -0.078927331 -28.047129 -26.219765 -114.38369
139870000 -26.173836 -118.7475 -0.08280804 -28.263672 -0.080798022 -28.249252 -26.138237 -114.54208
140869000 -26.093019 -119.30069 -0.083632097 -28.459927 -0.080851033 -28.443357 -26.037106 -114.75407
141868000 -26.013163 -119.6828 -0.084672228 -28.661844 -0.082047448 -28.643066 -25.992754 -114.99021
142867000 -25.927874 -119.86616 -0.083568767 -28.858328 -0.081417024 -28.839729 -25.915159 -115.11164
143866000 -25.860815 -120.34337 -0.085436448 -29.055393 -0.082764246 -29.038895 -25.839828 -115.58345
144865000 -25.79772 -120.85567 -0.087013885 -29.251747 -0.083704405 -29.235184 -25.784245 -115.90527
145864000 -25.750065 -121.14559 -0.087176569 -29.451715 -0.084905304 -29.441763 -25.75066 -116.11595
146863000 -25.700331 -121.53364 -0.088367335 -29.651642 -0.085777551 -29.63994 -25.705702 -116.44331
147862000 -25.664223 -121.87415 -0.089645103 -29.851107 -0.085414797 -29.837326 -25.669888 -116.73677
148861000 -25.628908 -122.30249 -0.090122908 -30.049965 -0.08699064 -30.032686 -25.643169 -116.91276
149860000 -25.600904 -122.49656 -0.09154474 -30.241564 -0.087448083 -30.232525 -25.598913 -117.0349
150859000 -25.579407 -122.98092 -0.091079205 -30.440104 -0.087245241 -30.423828 -25.584023 -117.36073
151858000 -25.559505 -123.28596 -0.089899324 -30.641579 -0.087035015 -30.624432 -25.565702 -117.68502
152857000 -25.549841 -123.62955 -0.090629309 -30.839804 -0.087305725 -30.827168 -25.548952 -117.93001
153856000 -25.545959 -123.85844 -0.090636186 -31.041601 -0.086505257 -31.024319 -25.567377 -118.19221
154855000 -25.545668 -124.03004 -0.091044836 -31.239012 -0.086862825 -31.223301 -25.556877 -118.44335
155854000 -25.555676 -124.2938 -0.090919279 -31.439512 -0.087495893 -31.42584 -25.548618 -118.73566
156853000 -25.545685 -124.94943 -0.088467985 -31.627157 -0.086310379 -31.614723 -25.539476 -119.02193
157852000 -25.553904 -125.16199 -0.090176292 -31.82679 -0.088260077 -31.818388 -25.530359 -119.39814
158851000 -25.546459 -125.42203 -0.090821736 -32.025177 -0.08814358 -32.016197 -25.513771 -119.65633
159850000 -25.539076 -125.4747 -0.091439523 -32.226707 -0.088511847 -32.218716 -25.517277 -119.84264
160849000 -25.523083 -125.57819 -0.092012443 -32.422787 -0.08924979 -32.420776 -25.483925 -120.15002
161848000 -25.51033 -125.68272 -0.091967493 -32.624214 -0.089591719 -32.620255 -25.449936 -120.24339
162847000 -25.470127 -125.82464 -0.092265218 -32.824989 -0.090167835 -32.822655 -25.414024 -120.45973
163846000 -25.428394 -126.04787 -0.091776073 -33.026321 -0.090492927 -33.016201 -25.340044 -120.48771
164845000 -25.370403 -126.01073 -0.092414357 -33.223373 -0.09032245 -33.219158 -25.276794 -120.55952
165844000 -25.320028 -126.04713 -0.092435509 -33.425632 -0.090678476 -33.4184 -25.199606 -120.70538
166843000 -25.25453 -126.09144 -0.092190392 -33.623714 -0.090447992 -33.618656 -25.135448 -120.84087
167842000 -25.192965 -126.21045 -0.092607394 -33.822258 -0.090630367 -33.817486 -25.058073 -120.78722
168841000 -25.121357 -126.40548 -0.092575394 -34.021488 -0.091236755 -34.017559 -24.980354 -120.85154
169840000 -25.057676 -126.59106 -0.093449444 -34.216511 -0.091784537 -34.211403 -24.897943 -121.03026
170839000 -24.996855 -126.83757 -0.093917087 -34.414986 -0.09177687 -34.417274 -24.819149 -121.20191
171838000 -24.938877 -127.22659 -0.093892753 -34.615414 -0.09294536 -34.614777 -24.757235 -121.4262
172837000 -24.869324 -127.57223 -0.095159449 -34.812172 -0.093131542 -34.805336 -24.689516 -121.64661
173836000 -24.802694 -127.95808 -0.0967158 -35.01524 -0.094390869 -35.010529 -24.647415 -121.86048
174835000 -24.745279 -128.36351 -0.096828036 -35.207558 -0.095409758 -35.211056 -24.60659 -122.17785
175834000 -24.693747 -128.73009 -0.097825788 -35.410221 -0.095874965 -35.405918 -24.542326 -122.45304
176833000 -24.646622 -129.06042 -0.098789081 -35.608589 -0.096806064 -35.606937 -24.495955 -122.5695
177832000 -24.605015 -129.4726 -0.099642396 -35.805973 -0.097912624 -35.805401 -24.4748 -122.68153
178831000 -24.556059 -129.71365 -0.10156523 -36.004215 -0.099745698 -36.00069 -24.438179 -122.78701
179830000 -24.485691 -130.10152 -0.10224047 -36.187908 -0.10080241 -36.190235 -24.375366 -122.83229
180829000 -24.439098 -130.47929 -0.10194736 -36.378845 -0.099666499 -36.381672 -24.332821 -123.19358
181828000 -24.414877 -130.87839 -0.10109385 -36.582153 -0.098613508 -36.573975 -24.3155 -123.3779
182827000 -24.391256 -131.26225 -0.10111478 -36.775764 -0.10002515 -36.781864 -24.30304 -123.48118
183826000 -24.350229 -131.60776 -0.10172608 -36.974178 -0.099309206 -36.975296 -24.29023 -123.64281
184825000 -24.354782 -131.93709 -0.10176742 -37.174522 -0.10059153 -37.174526 -24.273695 -123.76682
185824000 -24.324068 -132.3053 -0.10139193 -37.368099 -0.099723451 -37.37315 -24.264786 -123.84413
186823000 -24.309116 -132.67433 -0.10132729 -37.568066 -0.10000687 -37.568832 -24.263233 -123.83734
187822000 -24.287687 -132.99124 -0.10252988 -37.765884 -0.10031494 -37.766304 -24.221964 -123.9342
188821000 -24.262976 -133.2529 -0.10219514 -37.959782 -0.10106232 -37.966175 -24.203791 -124.06245
189820000 -24.243568 -133.54401 -0.10226671 -38.160126 -0.10035124 -38.162014 -24.18228 -124.23083
190819000 -24.211323 -133.86728 -0.10265128 -38.357674 -0.10125389 -38.358074 -24.144171 -124.2766
191818000 -24.185966 -134.17032 -0.10280024 -38.55489 -0.10163201 -38.556187 -24.119703 -124.34465
192817000 -24.134563 -134.43439 -0.10309128 -38.751568 -0.10213976 -38.753574 -24.07394 -124.4006
193816000 -24.100855 -134.66003 -0.10338633 -38.949795 -0.101539 -38.94849 -24.024754 -124.53991
194815000 -24.04257 -135.05629 -0.10397779 -39.143211 -0.10264333 -39.148361 -23.955925 -124.58835
195814000 -23.988064 -135.24899 -0.10429914 -39.342182 -0.10267195 -39.344635 -23.901794 -124.69746
196813000 -23.932138 -135.59206 -0.1039815 -39.537689 -0.10248695 -39.538658 -23.825682 -124.84104
197812000 -23.874086 -135.82704 -0.10482047 -39.730423 -0.10313529 -39.731884 -23.752974 -124.91644
198811000 -23.822495 -135.96848 -0.10445983 -39.931458 -0.10258555 -39.935589 -23.686563 -125.07948
199810000 -23.752247 -136.30583 -0.10541399 -40.125935 -0.10284317 -40.126854 -23.60808 -125.16909
200809000 -23.691315 -136.55696 -0.10502466 -40.325176 -0.10314244 -40.320992 -23.529758 -125.35531
201808000 -23.637259 -136.77931 -0.10559328 -40.52108 -0.10447521 -40.52459 -23.464981 -125.4289
202807000 -23.578712 -137.07106 -0.10679149 -40.722878 -0.10552803 -40.729317 -23.41021 -125.63943
