!Keysight Technologies,E5080B,MY59205177,A.15.75.32
!Date: Friday, February 23, 2024 03:00:14
!Correction: S11(Cdelta 2-Port  ) 
!S21(Cdelta 2-Port  ) 
!S12(Cdelta 2-Port  ) 
!S22(Cdelta 2-Port  ) 
!S2P File: Measurements: S11, S21, S12, S22:
# Hz S  dB   R 50
10000000 -44.098835 -3.5692244 -0.027721297 -2.0398052 -0.030707853 -2.0956452 -48.10273 -150.03905
10999000 -43.449413 -5.7382059 -0.0292667 -2.2567909 -0.030817086 -2.312351 -47.848396 -142.32335
11998000 -42.703018 -7.8007555 -0.029084278 -2.4790566 -0.030711241 -2.5235918 -47.900883 -137.03909
12997000 -42.096996 -12.561641 -0.028228816 -2.6581321 -0.030749304 -2.6936786 -47.315262 -130.67715
13996000 -41.820152 -15.886506 -0.027687952 -2.8388815 -0.030413276 -2.8613563 -46.870785 -125.1576
14995000 -41.532787 -19.960094 -0.029301101 -3.0472555 -0.029387103 -3.0711331 -46.414303 -121.58759
15994000 -41.378197 -23.544027 -0.030926842 -3.2653766 -0.031577364 -3.28704 -46.146881 -118.01724
16993000 -41.372265 -27.522446 -0.030242013 -3.462553 -0.031341914 -3.4718874 -45.278534 -118.72546
17992000 -41.482265 -32.380806 -0.030716976 -3.6591854 -0.031525735 -3.6645277 -44.623764 -120.02709
18991000 -41.71962 -36.598854 -0.031372681 -3.8696706 -0.032713592 -3.8677402 -43.925949 -119.14876
19990000 -41.600082 -41.763016 -0.033277515 -4.0795064 -0.035008866 -4.0763884 -43.257141 -120.99654
20989000 -41.506516 -44.536381 -0.035684269 -4.2803984 -0.03701973 -4.2717152 -42.682842 -120.68736
21988000 -41.406986 -49.163879 -0.036642492 -4.4758272 -0.037217107 -4.4648366 -42.368015 -120.06895
22987000 -41.192822 -53.523342 -0.037448697 -4.67486 -0.038650714 -4.6676955 -42.144733 -119.82593
23986000 -41.214127 -57.408634 -0.037534863 -4.8687334 -0.038440213 -4.8685713 -41.988518 -119.71854
24985000 -40.904224 -60.100468 -0.039089508 -5.0788512 -0.03830624 -5.0746231 -41.714333 -117.25506
25984000 -40.613144 -62.173313 -0.039449979 -5.2832398 -0.038091313 -5.2886634 -41.39819 -115.99432
26983000 -40.342232 -64.106255 -0.039836604 -5.4858937 -0.038981892 -5.5017376 -41.225719 -114.74519
27982000 -40.206352 -64.917503 -0.041164715 -5.6785069 -0.040583044 -5.7174082 -40.966587 -113.57421
28981000 -40.162754 -66.462433 -0.03946957 -5.8782845 -0.040966634 -5.9038196 -40.681911 -112.885
29980000 -39.802341 -67.815559 -0.039434567 -6.0727401 -0.04083572 -6.0773306 -40.360226 -112.11036
30979000 -39.44611 -67.422386 -0.037045054 -6.4218044 -0.035541248 -6.4164748 -39.873638 -113.0919
31978000 -39.251526 -68.339783 -0.035501055 -6.6205463 -0.036708537 -6.6082788 -39.586903 -112.31056
32977000 -39.105637 -69.865387 -0.036079958 -6.8308487 -0.037418932 -6.8251095 -39.33363 -112.60229
33976000 -38.968876 -71.182571 -0.03644827 -7.0332322 -0.037051581 -7.0263286 -39.033348 -112.01723
34975000 -38.678059 -71.955391 -0.03677563 -7.2281809 -0.038391635 -7.2277679 -38.813061 -111.97006
35974000 -38.474041 -72.839149 -0.03602384 -7.425139 -0.037666984 -7.4296556 -38.489067 -111.25012
36973000 -38.271992 -73.659294 -0.036287993 -7.6238384 -0.039257985 -7.6269155 -38.210388 -110.36274
37972000 -38.111687 -73.716904 -0.036405198 -7.8339992 -0.038438905 -7.8408737 -37.961071 -109.75664
38971000 -37.779808 -73.285492 -0.037077166 -8.034153 -0.038515687 -8.0442553 -37.782089 -108.36906
39970000 -37.439968 -73.900963 -0.035223376 -8.2272253 -0.03738812 -8.2416706 -37.477112 -107.87583
40969000 -37.175312 -73.792641 -0.035284445 -8.4230871 -0.038065985 -8.4412098 -37.211464 -106.58382
41968000 -36.840725 -73.862259 -0.035882369 -8.6266632 -0.038357686 -8.6439848 -37.021034 -105.43296
42967000 -36.579994 -74.173126 -0.036280949 -8.8419323 -0.038747869 -8.8546896 -36.799133 -103.75182
43966000 -36.318676 -75.002113 -0.036066644 -9.0351839 -0.0390485 -9.0582905 -36.511425 -103.15177
44965000 -36.08223 -75.903748 -0.03721058 -9.2414932 -0.038743954 -9.258316 -36.288223 -103.08849
45964000 -35.872215 -77.178307 -0.038853388 -9.4370279 -0.040522426 -9.4605951 -36.040443 -102.92145
46963000 -35.689232 -79.03965 -0.039066784 -9.6329622 -0.041838203 -9.6530924 -35.868332 -103.19798
47962000 -35.554516 -80.6521 -0.039910015 -9.8343678 -0.042467091 -9.8502455 -35.646149 -103.36208
48961000 -35.347385 -82.133141 -0.042035799 -10.033849 -0.04403292 -10.050888 -35.419281 -103.75136
49960000 -35.146313 -83.391289 -0.043511003 -10.232273 -0.045060989 -10.252586 -35.287815 -103.92282
50959000 -34.949898 -84.848625 -0.043506294 -10.442304 -0.046129066 -10.453744 -35.099125 -104.35561
51958000 -34.74247 -85.987434 -0.045442622 -10.639387 -0.047563266 -10.651672 -34.942188 -104.80067
52957000 -34.54652 -87.064537 -0.047096398 -10.842313 -0.048567038 -10.850284 -34.753006 -104.65314
53956000 -34.380783 -87.890236 -0.048118647 -11.041611 -0.049715839 -11.042789 -34.639244 -104.62956
54955000 -34.22184 -88.34967 -0.049136426 -11.243324 -0.050660923 -11.240947 -34.475201 -104.69764
55954000 -34.072517 -89.234848 -0.05011569 -11.44341 -0.050599903 -11.438581 -34.372746 -104.36824
56953000 -33.95417 -89.258606 -0.048960235 -11.640792 -0.049741764 -11.632009 -34.288151 -104.62201
57952000 -33.792847 -89.902458 -0.051344007 -11.836741 -0.051138651 -11.831143 -34.195133 -104.77139
58951000 -33.681335 -90.289932 -0.052227352 -12.041892 -0.051576875 -12.024686 -34.045155 -104.89286
59950000 -33.558174 -90.685081 -0.052354418 -12.241219 -0.052548826 -12.223473 -33.977047 -105.15129
60949000 -33.442245 -91.225319 -0.052756343 -12.442761 -0.053641025 -12.421412 -33.877522 -105.51466
61948000 -33.375557 -91.575684 -0.054113314 -12.644378 -0.053063445 -12.624461 -33.788013 -105.60555
62947000 -33.296104 -91.791672 -0.053663563 -12.851259 -0.053641286 -12.835538 -33.671783 -105.79064
63946000 -33.241135 -92.557182 -0.054483946 -13.050571 -0.05484727 -13.031611 -33.554474 -105.93334
64945000 -33.130627 -92.751709 -0.054997746 -13.254287 -0.055357181 -13.232242 -33.451908 -106.54768
65944000 -33.037216 -93.005302 -0.056098428 -13.448776 -0.055578467 -13.435764 -33.357758 -106.95709
66943000 -32.898731 -93.374756 -0.053569216 -13.653385 -0.054161277 -13.635281 -33.253937 -107.25063
67942000 -32.833168 -93.446877 -0.055588167 -13.848484 -0.055634312 -13.836161 -33.13736 -107.50709
68941000 -32.724571 -93.517433 -0.055705894 -14.040693 -0.054928537 -14.031766 -33.027618 -107.56349
69940000 -32.640739 -93.566833 -0.056152709 -14.242416 -0.055737097 -14.233624 -32.898209 -107.86281
70939000 -32.522198 -93.525322 -0.054989621 -14.437188 -0.054907303 -14.425524 -32.750023 -107.75954
71938000 -32.384136 -93.083542 -0.055252049 -14.634251 -0.055399917 -14.622307 -32.627098 -107.67894
72937000 -32.220768 -92.912209 -0.054255113 -14.831304 -0.054514091 -14.824823 -32.479053 -107.41244
73936000 -32.080605 -92.679497 -0.05418146 -15.026582 -0.054178841 -15.020387 -32.362415 -107.17762
74935000 -31.963942 -92.922958 -0.054228902 -15.224881 -0.053625561 -15.223369 -32.206112 -106.97468
75934000 -31.848227 -93.264679 -0.054672681 -15.431171 -0.053917523 -15.430817 -32.119972 -106.89927
76933000 -31.712948 -93.706322 -0.055286132 -15.625345 -0.054390367 -15.618746 -31.960234 -107.32941
77932000 -31.617342 -94.479095 -0.056325257 -15.8224 -0.05679233 -15.815481 -31.856808 -107.28956
78931000 -31.553438 -95.202721 -0.055531535 -16.020851 -0.055896781 -16.018972 -31.75469 -107.18295
79930000 -31.447216 -95.992188 -0.057584975 -16.214205 -0.058195684 -16.211752 -31.663395 -107.457
80929000 -31.316608 -96.869675 -0.05987611 -16.408461 -0.059473526 -16.40329 -31.559299 -107.90498
81928000 -31.244303 -97.719986 -0.059444658 -16.598965 -0.059783991 -16.597475 -31.435768 -107.92255
82927000 -31.151464 -98.503426 -0.061501265 -16.797918 -0.060902689 -16.794531 -31.337019 -108.28441
83926000 -31.038656 -99.292534 -0.063149616 -16.994316 -0.062296081 -16.99979 -31.224501 -108.50601
84925000 -30.935013 -99.769463 -0.063469008 -17.197315 -0.06229293 -17.193153 -31.131552 -108.5873
85924000 -30.843699 -100.18549 -0.064803578 -17.395113 -0.064089216 -17.394238 -31.041523 -108.62139
86923000 -30.740141 -100.67675 -0.064597063 -17.595646 -0.063735105 -17.586357 -30.946865 -108.50139
87922000 -30.637285 -101.09067 -0.06456054 -17.798676 -0.063878007 -17.793409 -30.857456 -108.563
88921000 -30.554569 -101.37952 -0.064806469 -17.997408 -0.064760223 -17.995741 -30.768497 -108.52658
89920000 -30.465136 -101.91611 -0.065283388 -18.193476 -0.064715035 -18.189827 -30.708357 -108.72996
90919000 -30.369087 -102.23692 -0.066718407 -18.391483 -0.065733291 -18.385983 -30.626648 -108.86746
91918000 -30.274078 -102.6121 -0.067604885 -18.589083 -0.065972455 -18.585667 -30.557606 -108.903
92917000 -30.187202 -103.00419 -0.068611197 -18.789379 -0.067084335 -18.785034 -30.503227 -109.01974
93916000 -30.108717 -103.32575 -0.068023741 -18.982801 -0.066849843 -18.978987 -30.410645 -109.68008
94915000 -30.027348 -104.03846 -0.069130622 -19.182146 -0.06789621 -19.178583 -30.353113 -109.52006
95914000 -29.963575 -104.23717 -0.070552438 -19.377129 -0.068757683 -19.372305 -30.265301 -109.75158
96913000 -29.884443 -104.46648 -0.071162082 -19.576599 -0.069620378 -19.576071 -30.196489 -110.17294
97912000 -29.808079 -104.94722 -0.072449535 -19.770506 -0.070015483 -19.773859 -30.125799 -110.42847
98911000 -29.708382 -105.09165 -0.072932564 -19.976295 -0.071512595 -19.973072 -30.079819 -110.64135
99910000 -29.642731 -105.25211 -0.073715784 -20.171972 -0.071464173 -20.177031 -29.96977 -110.91358
100909000 -29.553816 -105.55211 -0.073222928 -20.380072 -0.070846066 -20.375103 -29.892406 -111.11118
101908000 -29.461805 -105.79314 -0.07431981 -20.583496 -0.071906298 -20.575539 -29.776686 -110.94546
102907000 -29.331419 -105.82032 -0.074509412 -20.777576 -0.072316878 -20.779184 -29.702963 -110.89022
103906000 -29.239731 -105.93969 -0.075323999 -20.984983 -0.072012097 -20.981789 -29.555527 -110.86543
104905000 -29.100595 -105.85416 -0.075879253 -21.182045 -0.072517179 -21.180712 -29.423395 -110.53458
105904000 -28.95278 -105.97554 -0.075185984 -21.387302 -0.072032362 -21.379801 -29.310984 -110.44176
106903000 -28.852823 -106.05662 -0.075641915 -21.590687 -0.073163435 -21.581747 -29.183783 -110.34148
107902000 -28.683079 -106.44131 -0.076435111 -21.790482 -0.073720254 -21.780838 -29.039145 -110.27979
108901000 -28.573948 -106.67581 -0.077176802 -21.988894 -0.074750639 -21.984125 -28.91613 -110.23089
109900000 -28.447079 -107.16863 -0.07782717 -22.190699 -0.075780474 -22.181353 -28.762936 -110.30232
110899000 -28.331955 -107.83237 -0.079434805 -22.38689 -0.075734898 -22.381458 -28.635031 -110.6302
111898000 -28.247236 -108.46972 -0.081054367 -22.591183 -0.077637956 -22.582939 -28.518238 -110.74426
112897000 -28.120178 -109.07932 -0.08223211 -22.789545 -0.078197196 -22.77561 -28.386036 -110.95822
113896000 -28.015944 -109.68912 -0.082777701 -22.988255 -0.079860598 -22.976192 -28.27363 -111.10526
114895000 -27.915173 -110.27714 -0.084010802 -23.186106 -0.081340797 -23.17168 -28.159113 -111.1739
115894000 -27.785879 -110.59593 -0.084748775 -23.385475 -0.082553707 -23.373318 -28.095543 -111.35129
116893000 -27.70409 -111.2004 -0.085809231 -23.580267 -0.08324182 -23.564459 -27.963015 -111.51301
117892000 -27.629091 -111.68972 -0.085361995 -23.774858 -0.083651103 -23.766172 -27.892977 -111.68993
118891000 -27.567368 -112.08652 -0.086479381 -23.974228 -0.084186576 -23.966911 -27.797783 -111.86552
119890000 -27.476961 -112.48414 -0.087424837 -24.179976 -0.084403262 -24.165354 -27.788219 -112.00798
120889000 -27.423038 -112.97868 -0.088415414 -24.381056 -0.084673546 -24.364758 -27.708786 -111.91511
121888000 -27.382061 -113.28174 -0.088398509 -24.578068 -0.08514896 -24.562567 -27.65317 -112.21798
122887000 -27.345274 -113.54359 -0.089706935 -24.776649 -0.086422868 -24.763239 -27.60552 -112.28169
123886000 -27.283895 -113.93913 -0.089900911 -24.978642 -0.085765406 -24.959419 -27.591787 -112.43947
124885000 -27.247843 -114.46776 -0.091087401 -25.179306 -0.086914845 -25.162586 -27.557514 -112.54721
125884000 -27.200796 -114.68358 -0.090952322 -25.37484 -0.087390505 -25.365004 -27.523705 -112.70957
126883000 -27.177195 -115.04613 -0.091396958 -25.579437 -0.087958932 -25.563118 -27.488539 -112.70428
127882000 -27.12826 -115.34283 -0.091650225 -25.779556 -0.088776834 -25.762249 -27.446232 -112.89717
128881000 -27.092535 -115.63412 -0.091787182 -25.980408 -0.088378958 -25.963602 -27.403866 -113.01099
129880000 -27.034483 -115.96248 -0.092398755 -26.182165 -0.088355184 -26.162821 -27.372192 -112.98452
130879000 -26.979284 -116.15 -0.092313081 -26.377174 -0.089657255 -26.361959 -27.289944 -113.07182
131878000 -26.913223 -116.36596 -0.092899874 -26.582212 -0.088965483 -26.563498 -27.228466 -112.96841
132877000 -26.851023 -116.45697 -0.092171088 -26.784498 -0.089654878 -26.762545 -27.139498 -112.99878
133876000 -26.762987 -116.59283 -0.092689894 -26.985128 -0.089278854 -26.964693 -27.051741 -112.90149
134875000 -26.66436 -116.73706 -0.093037657 -27.179977 -0.090080887 -27.169287 -26.952019 -112.75836
135874000 -26.585371 -116.73926 -0.092824236 -27.381617 -0.090114981 -27.366518 -26.849762 -112.77638
136873000 -26.475639 -116.6562 -0.09280017 -27.585886 -0.089578509 -27.566172 -26.761915 -112.71946
137872000 -26.391973 -116.78937 -0.093600735 -27.78607 -0.09019585 -27.771761 -26.656921 -112.71244
138871000 -26.317719 -116.97658 -0.094140351 -27.986052 -0.090851605 -27.969511 -26.560501 -112.86075
139870000 -26.219933 -117.25424 -0.094926082 -28.184252 -0.091595769 -28.167538 -26.479113 -113.03259
140869000 -26.140318 -117.69845 -0.097020209 -28.384144 -0.093141854 -28.358406 -26.374968 -113.17696
141868000 -26.043848 -118.17125 -0.097388431 -28.573637 -0.093918413 -28.559076 -26.301516 -113.49525
142867000 -25.970404 -118.44579 -0.095327206 -28.773012 -0.092382096 -28.752966 -26.224339 -113.70757
143866000 -25.896418 -118.96337 -0.096846037 -28.967779 -0.093984015 -28.952768 -26.151529 -114.20139
144865000 -25.83662 -119.50395 -0.09843 -29.16622 -0.094982438 -29.150692 -26.095581 -114.49346
145864000 -25.781914 -119.79752 -0.098482698 -29.36698 -0.095943771 -29.354862 -26.059345 -114.78336
146863000 -25.739611 -120.17483 -0.099834166 -29.566257 -0.096316144 -29.555223 -26.009701 -115.08406
147862000 -25.698639 -120.54109 -0.10057165 -29.760569 -0.096842065 -29.747673 -25.973627 -115.42308
148861000 -25.664724 -121.05209 -0.10060503 -29.960274 -0.097886413 -29.945633 -25.953836 -115.64079
149860000 -25.649462 -121.25648 -0.10090043 -30.159489 -0.09809161 -30.150528 -25.917532 -115.81388
150859000 -25.638046 -121.64671 -0.10198367 -30.358019 -0.09846919 -30.344755 -25.914923 -116.04777
151858000 -25.61429 -121.96033 -0.10176609 -30.557335 -0.098583855 -30.545877 -25.901325 -116.34673
152857000 -25.596117 -122.27695 -0.10219754 -30.755243 -0.099066086 -30.739929 -25.885315 -116.49328
153856000 -25.589691 -122.46989 -0.1017025 -30.949001 -0.098004766 -30.940992 -25.903568 -116.75013
154855000 -25.583025 -122.65704 -0.10216891 -31.150093 -0.098582529 -31.140554 -25.89082 -116.99
155854000 -25.594908 -122.8843 -0.10284927 -31.352077 -0.098427355 -31.335815 -25.885298 -117.23404
156853000 -25.578022 -123.58139 -0.099881843 -31.539803 -0.098432124 -31.531954 -25.87841 -117.53939
157852000 -25.584858 -123.80121 -0.10139459 -31.739319 -0.10000396 -31.73184 -25.870535 -117.86866
158851000 -25.584639 -124.05055 -0.10155357 -31.937334 -0.099859066 -31.928518 -25.858665 -118.15273
159850000 -25.564571 -124.17442 -0.10231785 -32.133957 -0.10028554 -32.127441 -25.85384 -118.30606
160849000 -25.546255 -124.29652 -0.10289248 -32.335171 -0.10117466 -32.332973 -25.821241 -118.60561
161848000 -25.521736 -124.391 -0.10318512 -32.533928 -0.10123613 -32.530426 -25.785717 -118.70962
162847000 -25.482832 -124.60381 -0.1030107 -32.732723 -0.10153238 -32.728508 -25.758181 -118.95519
163846000 -25.442057 -124.84969 -0.10294549 -32.93317 -0.10203481 -32.925247 -25.675743 -118.97156
164845000 -25.387333 -124.8426 -0.10439778 -33.134197 -0.1013665 -33.123684 -25.608391 -119.08736
165844000 -25.330254 -124.90891 -0.10378902 -33.329857 -0.10136332 -33.322975 -25.529419 -119.21541
166843000 -25.26992 -124.98962 -0.10407695 -33.530746 -0.10243315 -33.522919 -25.463291 -119.37811
167842000 -25.208103 -125.12526 -0.10404965 -33.729889 -0.1020417 -33.720413 -25.379728 -119.32207
168841000 -25.131783 -125.3018 -0.10458976 -33.92733 -0.10229559 -33.921776 -25.304096 -119.39428
169840000 -25.064724 -125.57368 -0.10452798 -34.120186 -0.10281879 -34.112934 -25.21381 -119.60839
170839000 -25.006336 -125.84792 -0.10570574 -34.321308 -0.10319678 -34.321014 -25.13431 -119.7713
171838000 -24.946615 -126.25711 -0.10497454 -34.520382 -0.10364427 -34.513702 -25.065561 -120.05782
172837000 -24.880953 -126.62923 -0.1064994 -34.715141 -0.1046847 -34.709118 -24.993988 -120.24699
173836000 -24.813269 -127.03315 -0.10781515 -34.913689 -0.10614897 -34.908703 -24.954626 -120.47997
174835000 -24.76301 -127.51453 -0.10756067 -35.108353 -0.10703213 -35.10759 -24.90732 -120.80702
175834000 -24.71257 -127.86337 -0.10844412 -35.308598 -0.10737705 -35.304035 -24.842369 -121.09625
176833000 -24.65921 -128.23369 -0.10981993 -35.505226 -0.10747099 -35.502552 -24.793707 -121.27744
177832000 -24.613981 -128.72975 -0.11056947 -35.699368 -0.10849162 -35.702644 -24.763563 -121.4475
178831000 -24.572227 -129.1236 -0.11054344 -35.896873 -0.10904451 -35.89201 -24.731245 -121.67967
179830000 -24.539389 -129.52977 -0.11104613 -36.09325 -0.10891524 -36.094894 -24.702103 -121.78323
180829000 -24.499031 -129.73077 -0.11140731 -36.296074 -0.10985391 -36.286602 -24.675446 -121.95779
181828000 -24.471678 -130.12741 -0.11119378 -36.488899 -0.10993409 -36.482101 -24.660112 -122.06403
182827000 -24.449312 -130.44185 -0.11140332 -36.684692 -0.11078163 -36.682972 -24.647804 -122.15728
183826000 -24.406488 -130.75641 -0.11278539 -36.883358 -0.11081616 -36.881702 -24.63586 -122.27798
184825000 -24.414097 -131.07883 -0.11279442 -37.075531 -0.11136535 -37.077244 -24.618017 -122.38419
185824000 -24.38278 -131.44177 -0.11194861 -37.269855 -0.11190664 -37.273758 -24.616837 -122.41133
186823000 -24.366184 -131.7709 -0.11164581 -37.472412 -0.11131755 -37.468407 -24.61524 -122.38457
187822000 -24.352665 -132.10062 -0.11339913 -37.665794 -0.11234175 -37.66674 -24.579897 -122.467
188821000 -24.326147 -132.34612 -0.11269879 -37.859886 -0.11230934 -37.867924 -24.56575 -122.5535
189820000 -24.312576 -132.60838 -0.11339328 -38.062859 -0.11200386 -38.064426 -24.556377 -122.69431
190819000 -24.285166 -132.85817 -0.11426862 -38.261726 -0.11311377 -38.262062 -24.518463 -122.68749
191818000 -24.247877 -133.03033 -0.11570928 -38.457558 -0.11487699 -38.454788 -24.492157 -122.5672
192817000 -24.176975 -133.31369 -0.11631174 -38.638554 -0.11508989 -38.643551 -24.420219 -122.6718
193816000 -24.143076 -133.68011 -0.115201 -38.833881 -0.11374085 -38.833408 -24.364271 -122.93122
194815000 -24.085283 -134.12314 -0.11554818 -39.031166 -0.11445731 -39.033329 -24.299734 -123.03048
195814000 -24.03421 -134.3539 -0.115625 -39.227123 -0.11425798 -39.228569 -24.249878 -123.17465
196813000 -23.982826 -134.68649 -0.11528102 -39.420372 -0.114077 -39.423763 -24.169641 -123.31924
197812000 -23.924072 -134.92735 -0.11559071 -39.623333 -0.11436535 -39.622383 -24.098953 -123.43644
198811000 -23.870661 -135.09668 -0.11569439 -39.820171 -0.11467046 -39.81955 -24.028254 -123.61431
199810000 -23.79921 -135.48576 -0.11638512 -40.01519 -0.11444668 -40.014454 -23.957575 -123.68928
200809000 -23.74609 -135.73709 -0.11628249 -40.214893 -0.11450993 -40.209206 -23.878368 -123.91654
201808000 -23.682451 -135.99918 -0.11682147 -40.409645 -0.11551575 -40.413311 -23.807091 -123.9881
202807000 -23.629961 -136.35103 -0.11758552 -40.612267 -0.11637501 -40.611187 -23.747517 -124.20142
203806000 -23.577391 -136.77347 -0.11872905 -40.807938 -0.1161857 -40.812412 -23.688581 -124.4027
