!Keysight Technologies,E5080B,MY59205177,A.15.75.32
!Date: Friday, February 23, 2024 03:38:29
!Correction: S11(Cdelta 2-Port  ) 
!S21(Cdelta 2-Port  ) 
!S12(Cdelta 2-Port  ) 
!S22(Cdelta 2-Port  ) 
!S2P File: Measurements: S11, S21, S12, S22:
# Hz S  dB   R 50
10000000 -46.128651 -2.2518978 -0.014705838 -2.0412476 -0.018498885 -2.0995085 -45.894867 -157.85341
10999000 -45.254982 -5.0903044 -0.015571631 -2.2599065 -0.017939737 -2.3158281 -45.799145 -151.50092
11998000 -44.364738 -7.8731728 -0.016405893 -2.4894836 -0.018124033 -2.5269847 -46.030983 -146.96323
12997000 -43.567226 -13.363648 -0.01560878 -2.6676865 -0.018013299 -2.6964855 -45.585953 -141.1317
13996000 -43.289982 -17.36729 -0.014999611 -2.8428688 -0.017837845 -2.8645489 -45.407078 -136.15134
14995000 -42.892265 -21.81768 -0.016995769 -3.0571389 -0.017189382 -3.0808914 -45.131256 -132.74394
15994000 -42.762508 -26.275917 -0.018212674 -3.2752199 -0.01977914 -3.2984748 -44.980114 -129.43947
16993000 -42.673161 -30.960943 -0.01714546 -3.4735584 -0.018943967 -3.4789672 -44.147881 -129.10474
17992000 -42.725792 -36.400711 -0.017142862 -3.668422 -0.019616097 -3.6732771 -43.544338 -128.9236
18991000 -42.972271 -41.5783 -0.018471589 -3.8845975 -0.020128649 -3.8770852 -42.938564 -128.0777
19990000 -42.679417 -47.048019 -0.021250963 -4.0900846 -0.022619721 -4.0871367 -42.242981 -128.98035
20989000 -42.544159 -51.027195 -0.023224233 -4.2952456 -0.02457669 -4.2861753 -41.722095 -128.11432
21988000 -42.38158 -55.956047 -0.024289036 -4.49196 -0.024902634 -4.4784336 -41.442356 -127.80244
22987000 -42.017448 -60.638706 -0.02571786 -4.6902008 -0.026691856 -4.6818452 -41.178646 -126.7724
23986000 -41.973064 -64.885559 -0.024595955 -4.88589 -0.025328325 -4.884059 -41.064133 -126.79333
24985000 -41.53241 -67.518204 -0.025765514 -5.0956507 -0.026057431 -5.0889359 -40.859505 -124.40244
25984000 -41.201195 -69.497536 -0.027097926 -5.2991176 -0.025935037 -5.3026404 -40.496395 -122.93984
26983000 -40.893028 -71.609207 -0.028130069 -5.4992251 -0.026639504 -5.5150561 -40.422016 -122.10257
27982000 -40.706562 -72.378929 -0.028571971 -5.7002683 -0.028458364 -5.7300391 -40.136658 -120.4963
28981000 -40.652706 -73.784325 -0.026415782 -5.8954682 -0.028617831 -5.9227104 -39.900581 -119.89987
29980000 -40.263454 -75.454948 -0.02694216 -6.0897965 -0.02873978 -6.097928 -39.636738 -119.06927
30979000 -39.877663 -74.004684 -0.024359321 -6.4448404 -0.023055075 -6.4378896 -39.123489 -119.45389
31978000 -39.674931 -75.104591 -0.023940494 -6.641449 -0.023885053 -6.6308236 -38.908562 -118.81886
32977000 -39.486015 -76.747002 -0.023931904 -6.8518476 -0.025362434 -6.8476348 -38.681446 -118.89017
33976000 -39.318542 -77.877037 -0.024546493 -7.0513301 -0.025744682 -7.0465579 -38.37862 -118.1944
34975000 -38.998619 -78.644264 -0.024726121 -7.2502222 -0.026612679 -7.2519345 -38.137577 -117.80106
35974000 -38.839676 -79.006119 -0.023899367 -7.4468298 -0.026335306 -7.4491863 -37.884911 -116.88568
36973000 -38.58577 -79.91291 -0.024549877 -7.6467972 -0.02657361 -7.652288 -37.60358 -115.98528
37972000 -38.414211 -79.545799 -0.023876984 -7.8529263 -0.026944244 -7.8666263 -37.411186 -115.23266
38971000 -38.094688 -78.986626 -0.025021875 -8.0619726 -0.027381076 -8.0687962 -37.237869 -113.74196
39970000 -37.766678 -79.180359 -0.023474598 -8.2550764 -0.026598353 -8.2730923 -36.967381 -113.05377
40969000 -37.502968 -78.891121 -0.023898847 -8.4481249 -0.025579071 -8.4685726 -36.747032 -111.82421
41968000 -37.144413 -78.931038 -0.023498543 -8.6541147 -0.025900925 -8.6665401 -36.54921 -110.54941
42967000 -36.880024 -78.941879 -0.023417601 -8.8603115 -0.026166288 -8.8889532 -36.370476 -108.70511
43966000 -36.58519 -79.600716 -0.023587555 -9.066925 -0.027857291 -9.0816851 -36.095978 -107.94576
44965000 -36.352425 -80.331116 -0.024661819 -9.2657223 -0.027013529 -9.289916 -35.86319 -107.70014
45964000 -36.109173 -81.408554 -0.026248323 -9.4664698 -0.028782515 -9.4880161 -35.646355 -107.37143
46963000 -35.909122 -83.347916 -0.025985558 -9.6622429 -0.029361824 -9.6821127 -35.48362 -107.6307
47962000 -35.756897 -84.660355 -0.02751914 -9.8678446 -0.029976139 -9.8817844 -35.284721 -107.70151
48961000 -35.539455 -86.135544 -0.02996441 -10.059649 -0.031371377 -10.081571 -35.043541 -107.82528
49960000 -35.311451 -87.344147 -0.031117426 -10.2596 -0.033159614 -10.28528 -34.919628 -107.80648
50959000 -35.081539 -88.651901 -0.03131558 -10.474526 -0.034230508 -10.482757 -34.726105 -108.12904
51958000 -34.885384 -89.683731 -0.033946909 -10.671664 -0.035400316 -10.680399 -34.552345 -108.54576
52957000 -34.658581 -90.721939 -0.034771666 -10.874416 -0.036502305 -10.880059 -34.399593 -108.36932
53956000 -34.503834 -91.453705 -0.035583004 -11.076813 -0.03757716 -11.077628 -34.251129 -108.31032
54955000 -34.332855 -91.965988 -0.036756832 -11.276297 -0.038075648 -11.273508 -34.102081 -108.18101
55954000 -34.156353 -92.813339 -0.037807986 -11.47858 -0.039124768 -11.475309 -34.003777 -107.96747
56953000 -34.047256 -92.749268 -0.037341647 -11.676491 -0.037500136 -11.66408 -33.91687 -108.18492
57952000 -33.87484 -93.362923 -0.038714439 -11.873511 -0.038219538 -11.864914 -33.82259 -108.25473
58951000 -33.751591 -93.644829 -0.039064433 -12.082064 -0.039393295 -12.056348 -33.668274 -108.3209
59950000 -33.613033 -94.084351 -0.040366963 -12.279119 -0.039924644 -12.254344 -33.615162 -108.64387
60949000 -33.513142 -94.595337 -0.041193984 -12.477571 -0.040414777 -12.455497 -33.493916 -108.89212
61948000 -33.440208 -94.872704 -0.041060187 -12.681448 -0.040212553 -12.663877 -33.405735 -108.92807
62947000 -33.35096 -95.205528 -0.041223776 -12.891435 -0.041377701 -12.872492 -33.27047 -109.24614
63946000 -33.268162 -95.942619 -0.042831767 -13.086421 -0.042700794 -13.068262 -33.167973 -109.46973
64945000 -33.159065 -96.088936 -0.042861044 -13.292737 -0.043071762 -13.272279 -33.053123 -109.85618
65944000 -33.058353 -96.305267 -0.043953165 -13.49107 -0.043562248 -13.472763 -32.956524 -110.28834
66943000 -32.916687 -96.690742 -0.041861463 -13.693627 -0.041968886 -13.67296 -32.851852 -110.58116
67942000 -32.858101 -96.6903 -0.04361036 -13.888393 -0.043571923 -13.875131 -32.729591 -110.83527
68941000 -32.744198 -96.783134 -0.043816142 -14.085243 -0.042633872 -14.076623 -32.623943 -110.77217
69940000 -32.646828 -96.737076 -0.043393865 -14.278327 -0.043304447 -14.272594 -32.477646 -111.0491
70939000 -32.546768 -96.67453 -0.043204576 -14.476854 -0.043160912 -14.47111 -32.349545 -110.96227
71938000 -32.409107 -96.268417 -0.043650888 -14.675642 -0.043646183 -14.669884 -32.219471 -110.8454
72937000 -32.250412 -96.096207 -0.042935554 -14.873182 -0.042736348 -14.87009 -32.084568 -110.51877
73936000 -32.117897 -95.744736 -0.042848237 -15.073925 -0.042272352 -15.06396 -31.969654 -110.31634
74935000 -31.990736 -95.925369 -0.042126235 -15.268003 -0.04167825 -15.264588 -31.818863 -109.9997
75934000 -31.872442 -96.189034 -0.042051483 -15.47584 -0.041251998 -15.470338 -31.721281 -109.89599
76933000 -31.733347 -96.528954 -0.04328876 -15.670307 -0.042844314 -15.66454 -31.559309 -110.27382
77932000 -31.631487 -97.225861 -0.044191912 -15.867454 -0.044271674 -15.862432 -31.465048 -110.28294
78931000 -31.561937 -98.07872 -0.042635702 -16.067492 -0.042967971 -16.062119 -31.358631 -110.09901
79930000 -31.445465 -98.914551 -0.045140505 -16.262428 -0.045794725 -16.258076 -31.261543 -110.39857
80929000 -31.333731 -99.698151 -0.047403101 -16.456545 -0.047583416 -16.455936 -31.155569 -110.63939
81928000 -31.23781 -100.38255 -0.048024684 -16.647345 -0.047677632 -16.64613 -31.032171 -110.6246
82927000 -31.123903 -101.14796 -0.049382269 -16.847773 -0.049675781 -16.843987 -30.932846 -110.87244
83926000 -31.020357 -101.80491 -0.050395891 -17.046104 -0.049655881 -17.045984 -30.807749 -111.08467
84925000 -30.913828 -102.24175 -0.05138094 -17.247545 -0.050139256 -17.241125 -30.716913 -111.1433
85924000 -30.823669 -102.65755 -0.05245398 -17.446236 -0.051550418 -17.440725 -30.637068 -111.05788
86923000 -30.716141 -103.08577 -0.051798232 -17.645269 -0.051773869 -17.638981 -30.533451 -110.9605
87922000 -30.607431 -103.44324 -0.051986586 -17.85005 -0.051082075 -17.839893 -30.438047 -111.01184
88921000 -30.529642 -103.69736 -0.053589657 -18.048071 -0.051797181 -18.043625 -30.35808 -110.95345
89920000 -30.434528 -104.24166 -0.054006115 -18.247881 -0.052049987 -18.241142 -30.296015 -111.13811
90919000 -30.330294 -104.53654 -0.054802179 -18.447224 -0.053107206 -18.437195 -30.206867 -111.26206
91918000 -30.230865 -104.81811 -0.055372912 -18.646954 -0.053494789 -18.638607 -30.143887 -111.30287
92917000 -30.143984 -105.11221 -0.056231901 -18.840736 -0.054881874 -18.841015 -30.07934 -111.41263
93916000 -30.054153 -105.49683 -0.05582441 -19.037542 -0.054847796 -19.033167 -29.997345 -111.958
94915000 -29.974226 -106.09558 -0.057304308 -19.240469 -0.055563521 -19.233824 -29.931324 -111.85793
95914000 -29.906115 -106.27668 -0.058150563 -19.433544 -0.056341518 -19.432598 -29.84218 -112.07626
96913000 -29.826046 -106.56077 -0.059766669 -19.632771 -0.058095731 -19.630367 -29.780519 -112.50954
97912000 -29.745867 -106.96999 -0.060109966 -19.830236 -0.057863299 -19.831755 -29.699652 -112.73734
98911000 -29.634182 -107.18216 -0.06132352 -20.034395 -0.059642009 -20.030874 -29.658735 -112.95031
99910000 -29.570286 -107.31613 -0.061734941 -20.228741 -0.059430487 -20.229101 -29.551422 -113.24373
100909000 -29.48015 -107.55807 -0.061081991 -20.43907 -0.059147079 -20.435028 -29.464293 -113.45216
101908000 -29.395567 -107.76626 -0.062043991 -20.640066 -0.060230177 -20.636826 -29.351336 -113.22997
102907000 -29.256203 -107.75986 -0.062326543 -20.83639 -0.060946792 -20.840195 -29.286493 -113.20381
103906000 -29.165106 -107.81954 -0.062928468 -21.046659 -0.05971523 -21.038651 -29.135807 -113.1791
104905000 -29.022629 -107.7246 -0.063585639 -21.242504 -0.060169544 -21.246328 -29.01 -112.87966
105904000 -28.87645 -107.74605 -0.064335123 -21.445692 -0.061240297 -21.437098 -28.901785 -112.70747
106903000 -28.775599 -107.86196 -0.063703313 -21.655668 -0.061295427 -21.649643 -28.781246 -112.59837
107902000 -28.607897 -108.15404 -0.064507991 -21.85248 -0.062367506 -21.84639 -28.638983 -112.52163
108901000 -28.497496 -108.38142 -0.065976396 -22.053221 -0.062731758 -22.046957 -28.507078 -112.52494
109900000 -28.367149 -108.88593 -0.066602483 -22.255894 -0.064018026 -22.244373 -28.361303 -112.57259
110899000 -28.251654 -109.4825 -0.06791462 -22.452972 -0.064762063 -22.4426 -28.242697 -112.85662
111898000 -28.159204 -110.13326 -0.068656169 -22.651169 -0.065999523 -22.645464 -28.122944 -112.96758
112897000 -28.0317 -110.69842 -0.070648208 -22.85149 -0.066722877 -22.841509 -27.988358 -113.15734
113896000 -27.925823 -111.22428 -0.071322337 -23.052174 -0.068133913 -23.042589 -27.87365 -113.25436
114895000 -27.831125 -111.88784 -0.072479807 -23.251036 -0.069890797 -23.238676 -27.766085 -113.34871
115894000 -27.708355 -112.22263 -0.073826365 -23.453205 -0.070576906 -23.443321 -27.700092 -113.57553
116893000 -27.624556 -112.6972 -0.074427254 -23.648983 -0.071343124 -23.632853 -27.575546 -113.59438
117892000 -27.54958 -113.19501 -0.07429032 -23.842291 -0.071460225 -23.831926 -27.500137 -113.75908
118891000 -27.483871 -113.62503 -0.074857295 -24.047138 -0.07226108 -24.030331 -27.40877 -113.89165
119890000 -27.395533 -113.9748 -0.075971715 -24.246269 -0.073378257 -24.231258 -27.390993 -114.05434
120889000 -27.346262 -114.47967 -0.077210791 -24.447502 -0.073001534 -24.43626 -27.321074 -113.96716
121888000 -27.308012 -114.79086 -0.076681711 -24.648327 -0.073009163 -24.629076 -27.258028 -114.30886
122887000 -27.267817 -114.98413 -0.07819166 -24.845684 -0.07502348 -24.834599 -27.215925 -114.26696
123886000 -27.215788 -115.40575 -0.078344271 -25.049644 -0.074644774 -25.031929 -27.193436 -114.39358
124885000 -27.182003 -115.89693 -0.078700103 -25.248465 -0.075543404 -25.233805 -27.173323 -114.49424
125884000 -27.126852 -116.08948 -0.079399735 -25.448051 -0.075205736 -25.43317 -27.14426 -114.63573
126883000 -27.113121 -116.48464 -0.079768844 -25.649666 -0.075971715 -25.635071 -27.104839 -114.63277
127882000 -27.062052 -116.77805 -0.080224998 -25.85054 -0.07681872 -25.833479 -27.062504 -114.76134
128881000 -27.027691 -117.12157 -0.080841541 -26.054249 -0.076712541 -26.03476 -27.022846 -114.86157
129880000 -26.976528 -117.42911 -0.081142455 -26.25342 -0.076852709 -26.235142 -26.98163 -114.80213
130879000 -26.921141 -117.59101 -0.080566749 -26.455168 -0.077455595 -26.438437 -26.91157 -114.83391
131878000 -26.849102 -117.77256 -0.080824926 -26.65906 -0.077653505 -26.636612 -26.850567 -114.69136
132877000 -26.787708 -117.8809 -0.080589429 -26.858925 -0.077642433 -26.841455 -26.775417 -114.64542
133876000 -26.7008 -118.03745 -0.081355304 -27.056782 -0.078391708 -27.041824 -26.68922 -114.57523
134875000 -26.607208 -118.13956 -0.081491403 -27.258972 -0.078427032 -27.239374 -26.589474 -114.40509
135874000 -26.529108 -118.21481 -0.081005841 -27.459099 -0.078390397 -27.442673 -26.492758 -114.35156
136873000 -26.420555 -118.13313 -0.081419393 -27.661547 -0.078057513 -27.644491 -26.410322 -114.32715
137872000 -26.342731 -118.26994 -0.081249535 -27.862705 -0.078641057 -27.850163 -26.306887 -114.2261
138871000 -26.268923 -118.46452 -0.082214169 -28.063181 -0.079118185 -28.04755 -26.215845 -114.38453
139870000 -26.164686 -118.73138 -0.082404904 -28.263027 -0.08001326 -28.246431 -26.138378 -114.58907
140869000 -26.089581 -119.29375 -0.083594628 -28.460522 -0.080454409 -28.44405 -26.035265 -114.7855
141868000 -26.012014 -119.67323 -0.084778599 -28.657804 -0.081320219 -28.64208 -25.989578 -115.05089
142867000 -25.923536 -119.85791 -0.083001442 -28.855127 -0.08136005 -28.84116 -25.909967 -115.10859
143866000 -25.859541 -120.36254 -0.084977105 -29.049385 -0.08202371 -29.036684 -25.830742 -115.58733
144865000 -25.802395 -120.88935 -0.086557813 -29.248701 -0.084308244 -29.235334 -25.776632 -115.92711
145864000 -25.749346 -121.159 -0.086743981 -29.448326 -0.08468727 -29.442848 -25.74678 -116.16019
146863000 -25.704153 -121.5796 -0.087962367 -29.653322 -0.085084543 -29.640043 -25.69685 -116.45613
147862000 -25.666397 -121.89258 -0.089210153 -29.852709 -0.085987456 -29.836124 -25.665421 -116.71596
148861000 -25.630274 -122.34051 -0.089510329 -30.049753 -0.087321043 -30.035706 -25.641533 -116.92187
149860000 -25.595333 -122.49771 -0.090807468 -30.240725 -0.088253736 -30.229536 -25.594421 -116.99831
150859000 -25.577032 -122.98025 -0.090563759 -30.43911 -0.088024706 -30.424166 -25.570656 -117.35736
151858000 -25.566713 -123.29996 -0.089638762 -30.642315 -0.087411635 -30.62772 -25.562799 -117.69691
152857000 -25.550076 -123.65746 -0.090464376 -30.839437 -0.087893158 -30.828646 -25.551224 -117.90747
153856000 -25.543327 -123.88631 -0.089933947 -31.03985 -0.086926207 -31.026295 -25.562252 -118.19988
154855000 -25.545212 -124.00177 -0.089906462 -31.239496 -0.087614752 -31.226643 -25.550627 -118.45924
155854000 -25.559387 -124.23601 -0.090407819 -31.435509 -0.088370502 -31.424789 -25.547356 -118.73164
156853000 -25.544617 -124.96819 -0.08860299 -31.625778 -0.087079912 -31.620098 -25.538269 -119.02598
157852000 -25.550774 -125.15355 -0.089173689 -31.82863 -0.088452667 -31.817394 -25.529993 -119.37679
158851000 -25.550791 -125.41019 -0.090127662 -32.024426 -0.088336691 -32.018543 -25.514183 -119.62339
159850000 -25.537359 -125.49899 -0.090612128 -32.228413 -0.088506296 -32.21666 -25.514778 -119.82306
160849000 -25.526392 -125.57778 -0.091151632 -32.426903 -0.089847527 -32.418961 -25.482738 -120.14204
161848000 -25.505634 -125.67834 -0.091055147 -32.623211 -0.089636646 -32.616299 -25.448893 -120.23097
162847000 -25.46627 -125.85709 -0.091260023 -32.823818 -0.090086967 -32.819408 -25.419149 -120.45921
163846000 -25.427965 -126.05154 -0.091576204 -33.024391 -0.090272233 -33.017208 -25.343603 -120.46139
164845000 -25.368507 -126.00448 -0.092154428 -33.225323 -0.09024924 -33.217728 -25.278036 -120.56053
165844000 -25.313251 -126.04912 -0.092017733 -33.4259 -0.090595476 -33.416286 -25.201212 -120.70305
166843000 -25.252766 -126.10004 -0.092416473 -33.622154 -0.090933815 -33.617489 -25.131582 -120.87069
167842000 -25.202019 -126.22919 -0.092687778 -33.823738 -0.091019988 -33.815876 -25.055065 -120.79166
168841000 -25.120586 -126.38738 -0.092570372 -34.02346 -0.090971351 -34.017677 -24.987278 -120.84584
169840000 -25.053104 -126.60995 -0.092452958 -34.214336 -0.091089778 -34.214058 -24.899899 -121.05975
170839000 -24.995277 -126.82196 -0.093715794 -34.41465 -0.092172146 -34.415123 -24.820307 -121.2185
171838000 -24.934509 -127.24742 -0.093025222 -34.616421 -0.092767641 -34.612827 -24.753643 -121.44794
172837000 -24.865641 -127.60914 -0.094874755 -34.813686 -0.094034538 -34.811825 -24.689342 -121.62836
173836000 -24.802685 -127.98294 -0.09591943 -35.014114 -0.094986938 -35.011738 -24.647161 -121.87122
174835000 -24.74897 -128.34871 -0.096055984 -35.209518 -0.095877089 -35.205978 -24.601799 -122.19905
175834000 -24.698547 -128.72914 -0.097181946 -35.411476 -0.096637718 -35.407566 -24.543127 -122.44801
176833000 -24.646414 -129.07129 -0.098072544 -35.606911 -0.09711206 -35.608585 -24.493551 -122.60439
177832000 -24.602919 -129.48343 -0.099385485 -35.803059 -0.098405376 -35.808479 -24.472445 -122.69106
178831000 -24.557734 -129.717 -0.10112856 -36.004204 -0.099967666 -36.002186 -24.431761 -122.80058
179830000 -24.483463 -130.10416 -0.10221873 -36.187115 -0.10063656 -36.188969 -24.371899 -122.85822
180829000 -24.431684 -130.49823 -0.10093408 -36.38052 -0.099951245 -36.38007 -24.325468 -123.18928
181828000 -24.411852 -130.88705 -0.10041058 -36.579929 -0.099161953 -36.576263 -24.312582 -123.37451
182827000 -24.390823 -131.25433 -0.099569298 -36.773659 -0.099537514 -36.776844 -24.300861 -123.48399
183826000 -24.350605 -131.58504 -0.10069511 -36.976269 -0.099864095 -36.975063 -24.288588 -123.65005
184825000 -24.35203 -131.95418 -0.10075101 -37.175011 -0.099917866 -37.175728 -24.269701 -123.76706
185824000 -24.323982 -132.31319 -0.10099953 -37.369503 -0.10042965 -37.372467 -24.264 -123.85488
186823000 -24.30764 -132.69424 -0.10168687 -37.57048 -0.10034277 -37.567997 -24.259949 -123.85267
187822000 -24.285446 -133.02046 -0.10135007 -37.765106 -0.10099423 -37.766579 -24.220699 -123.93935
188821000 -24.260794 -133.25403 -0.1017547 -37.960987 -0.10059761 -37.965977 -24.2019 -124.04497
189820000 -24.24069 -133.58118 -0.10178199 -38.162647 -0.10128595 -38.161102 -24.187899 -124.2404
190819000 -24.207922 -133.88387 -0.10276128 -38.360325 -0.10122792 -38.356384 -24.145439 -124.26226
191818000 -24.17844 -134.17018 -0.1027459 -38.555981 -0.10173801 -38.557796 -24.118517 -124.30175
192817000 -24.131483 -134.4194 -0.10287445 -38.750977 -0.10228658 -38.752548 -24.076189 -124.40668
193816000 -24.103636 -134.6862 -0.1031944 -38.949364 -0.10191397 -38.94828 -24.026878 -124.55116
194815000 -24.037251 -135.07405 -0.10322117 -39.144676 -0.10293913 -39.145706 -23.954147 -124.60888
195814000 -23.985867 -135.26952 -0.10365779 -39.339806 -0.10293993 -39.341164 -23.903435 -124.7133
196813000 -23.933504 -135.60138 -0.10361087 -39.535667 -0.10277797 -39.541191 -23.824356 -124.86289
197812000 -23.877897 -135.79315 -0.1039709 -39.733562 -0.10323655 -39.731964 -23.756804 -124.93644
198811000 -23.818796 -135.97961 -0.10376145 -39.92915 -0.10374714 -39.930191 -23.683393 -125.11374
199810000 -23.747826 -136.29289 -0.104209 -40.124222 -0.10297677 -40.123169 -23.606619 -125.19416
200809000 -23.692587 -136.54785 -0.1049695 -40.323456 -0.1032384 -40.322102 -23.534267 -125.379
201808000 -23.632122 -136.73196 -0.10514506 -40.521687 -0.10444976 -40.524036 -23.463161 -125.45486
202807000 -23.577967 -137.09692 -0.10608451 -40.723488 -0.1052835 -40.72723 -23.407261 -125.63634
