!Keysight Technologies,E5080B,MY59205177,A.15.75.32
!Date: Friday, February 23, 2024 03:38:35
!Correction: S11(Cdelta 2-Port  ) 
!S21(Cdelta 2-Port  ) 
!S12(Cdelta 2-Port  ) 
!S22(Cdelta 2-Port  ) 
!S2P File: Measurements: S11, S21, S12, S22:
# Hz S  dB   R 50
10000000 -46.079121 -2.2754145 -0.014505325 -2.046186 -0.018132351 -2.0989664 -45.849304 -157.59161
10999000 -45.292034 -4.5668135 -0.015796613 -2.2643137 -0.017971709 -2.3135161 -45.813671 -150.99588
11998000 -44.330612 -7.6546826 -0.015764918 -2.4866004 -0.017598461 -2.5303426 -45.995567 -146.73126
12997000 -43.577942 -13.402611 -0.015400952 -2.6706278 -0.01706126 -2.6971037 -45.574818 -141.0687
13996000 -43.331947 -17.434351 -0.013848268 -2.847641 -0.017384039 -2.8691821 -45.406174 -135.98332
14995000 -42.915665 -21.773817 -0.016559722 -3.0533361 -0.017024357 -3.0795135 -45.086834 -132.90309
15994000 -42.779526 -26.331102 -0.017970929 -3.2756093 -0.019502465 -3.2969251 -44.929226 -129.60179
16993000 -42.688801 -30.796598 -0.016526721 -3.4720666 -0.018431295 -3.4789279 -44.122768 -129.31339
17992000 -42.720623 -36.40543 -0.016471114 -3.6692967 -0.019859234 -3.6727064 -43.542404 -129.27312
18991000 -42.97459 -41.798538 -0.017738296 -3.8842983 -0.020449318 -3.8782272 -42.944519 -128.08072
19990000 -42.699821 -47.334507 -0.020628517 -4.0946031 -0.02282295 -4.0863342 -42.274536 -129.08365
20989000 -42.514732 -50.843838 -0.023383508 -4.2933545 -0.024380147 -4.2844648 -41.726673 -128.01418
21988000 -42.335785 -56.050091 -0.023778075 -4.4918332 -0.025507726 -4.4792976 -41.463219 -127.35085
22987000 -42.011005 -61.048615 -0.024686811 -4.6916547 -0.026174361 -4.680974 -41.189617 -126.72168
23986000 -41.931202 -64.976967 -0.024500154 -4.887331 -0.025283281 -4.8828321 -41.079418 -126.8464
24985000 -41.561462 -67.436646 -0.025487415 -5.0975881 -0.025578029 -5.0911527 -40.865093 -124.38836
25984000 -41.173729 -69.483391 -0.026060035 -5.2996693 -0.026339473 -5.3022432 -40.514523 -123.02711
26983000 -40.857471 -71.368378 -0.026810626 -5.5002561 -0.026871054 -5.5138149 -40.416927 -122.10738
27982000 -40.687252 -72.398773 -0.028036013 -5.7022963 -0.027875267 -5.7321239 -40.161503 -120.88506
28981000 -40.641838 -73.744263 -0.026073057 -5.8981571 -0.02853523 -5.9225855 -39.927338 -119.84023
29980000 -40.236797 -75.205589 -0.026329577 -6.0897741 -0.028512562 -6.0966654 -39.700005 -119.08826
30979000 -39.907955 -74.057152 -0.023700513 -6.4441891 -0.022774808 -6.4329724 -39.115742 -119.32685
31978000 -39.673313 -75.121765 -0.023365289 -6.6371317 -0.023795255 -6.6336455 -38.905224 -118.63499
32977000 -39.480968 -76.509438 -0.02323178 -6.8493185 -0.02454493 -6.8436556 -38.652901 -118.75835
33976000 -39.311771 -77.763161 -0.02399906 -7.0495682 -0.025699634 -7.0465031 -38.374611 -118.20754
34975000 -39.023849 -78.553215 -0.024161747 -7.2499247 -0.025990246 -7.2497721 -38.144283 -117.84167
35974000 -38.818005 -79.079987 -0.023573238 -7.4464345 -0.026442086 -7.4503031 -37.872318 -116.86468
36973000 -38.590633 -79.76844 -0.0238382 -7.6485081 -0.02673379 -7.6528139 -37.615582 -116.03661
37972000 -38.418083 -79.479172 -0.023865791 -7.8553424 -0.026406666 -7.8659387 -37.403774 -115.30116
38971000 -38.089825 -78.935173 -0.025210377 -8.0613194 -0.026004046 -8.071394 -37.245125 -113.7899
39970000 -37.777573 -79.453629 -0.023460023 -8.2533922 -0.0249961 -8.2692938 -36.987244 -113.26061
40969000 -37.486614 -78.984962 -0.023352277 -8.4486942 -0.025611099 -8.4613476 -36.736431 -111.70547
41968000 -37.160931 -78.831009 -0.023672402 -8.6520176 -0.025004951 -8.6709785 -36.549187 -110.56673
42967000 -36.891373 -78.997086 -0.023673184 -8.8644028 -0.025580114 -8.8808336 -36.359818 -108.74525
43966000 -36.589428 -79.654213 -0.023948302 -9.0615187 -0.027361799 -9.0811844 -36.0942 -107.91251
44965000 -36.36269 -80.386948 -0.024811514 -9.2668648 -0.027377428 -9.290576 -35.880684 -107.78949
45964000 -36.132305 -81.380707 -0.025957953 -9.4655485 -0.028540963 -9.4859905 -35.649376 -107.43588
46963000 -35.919155 -83.392151 -0.026357964 -9.6610928 -0.02865405 -9.6845837 -35.472065 -107.60503
47962000 -35.760777 -84.762672 -0.027481368 -9.8637791 -0.030813696 -9.8821077 -35.285633 -107.60472
48961000 -35.536934 -86.170654 -0.029670665 -10.058932 -0.031699132 -10.082728 -35.044426 -107.74979
49960000 -35.296406 -87.412941 -0.030639291 -10.261106 -0.032458261 -10.284957 -34.904659 -107.91745
50959000 -35.071678 -88.797142 -0.031280901 -10.473188 -0.033738725 -10.482297 -34.744095 -108.2026
51958000 -34.867565 -89.800896 -0.033665158 -10.67048 -0.035270352 -10.682828 -34.554535 -108.57608
52957000 -34.654785 -90.816917 -0.035275571 -10.874728 -0.036813743 -10.881712 -34.389713 -108.42593
53956000 -34.484268 -91.434334 -0.036005307 -11.074966 -0.037101183 -11.076009 -34.260483 -108.29769
54955000 -34.310833 -91.970306 -0.036718979 -11.274794 -0.038370222 -11.273469 -34.108894 -108.27837
55954000 -34.138813 -92.686844 -0.038297098 -11.476166 -0.038580198 -11.47395 -34.001038 -107.90932
56953000 -34.031162 -92.774361 -0.037920009 -11.677264 -0.036954459 -11.668841 -33.925518 -108.16838
57952000 -33.869736 -93.418648 -0.038648102 -11.873597 -0.038989469 -11.862835 -33.825012 -108.29765
58951000 -33.741367 -93.645775 -0.039456509 -12.077568 -0.039777301 -12.054755 -33.660675 -108.27935
59950000 -33.61182 -94.018105 -0.040292241 -12.278185 -0.039592084 -12.257443 -33.598694 -108.55826
60949000 -33.494373 -94.613182 -0.04073146 -12.479834 -0.040758897 -12.460287 -33.501163 -108.86917
61948000 -33.445381 -94.914398 -0.041778348 -12.676412 -0.040701672 -12.660894 -33.418564 -108.96786
62947000 -33.348541 -95.194458 -0.041141979 -12.890781 -0.041710135 -12.870575 -33.269241 -109.25209
63946000 -33.28109 -95.896667 -0.042780526 -13.088923 -0.042805102 -13.069725 -33.166714 -109.35435
64945000 -33.166279 -96.079536 -0.043039866 -13.289351 -0.04293137 -13.274302 -33.050873 -109.77288
65944000 -33.064442 -96.379845 -0.043825295 -13.489639 -0.042928495 -13.472758 -32.952328 -110.25026
66943000 -32.924465 -96.74823 -0.041758485 -13.690519 -0.04164584 -13.676961 -32.844788 -110.50227
67942000 -32.872223 -96.735855 -0.043740053 -13.887312 -0.043634675 -13.875056 -32.728718 -110.85845
68941000 -32.753437 -96.746864 -0.043665007 -14.078693 -0.041884724 -14.074825 -32.617901 -110.7701
69940000 -32.657394 -96.762924 -0.043797839 -14.280981 -0.043217383 -14.275465 -32.479603 -111.05438
70939000 -32.551582 -96.660751 -0.043605391 -14.480639 -0.043123264 -14.469032 -32.347084 -110.94273
71938000 -32.401058 -96.22802 -0.04412863 -14.667691 -0.043326411 -14.666711 -32.215839 -110.78706
72937000 -32.24826 -96.043434 -0.043145489 -14.868395 -0.042168319 -14.86544 -32.079296 -110.52742
73936000 -32.122498 -95.690811 -0.042354431 -15.071301 -0.041934125 -15.063256 -31.961378 -110.36861
74935000 -31.993626 -95.985901 -0.041532937 -15.269766 -0.041134141 -15.262579 -31.805714 -110.02495
75934000 -31.865168 -96.212341 -0.042373773 -15.475737 -0.041279439 -15.469107 -31.726109 -109.91917
76933000 -31.731441 -96.582718 -0.043595981 -15.669269 -0.04302052 -15.662631 -31.558453 -110.28892
77932000 -31.646383 -97.328323 -0.044484813 -15.870152 -0.044512011 -15.859682 -31.458445 -110.17288
78931000 -31.560894 -98.071899 -0.043169539 -16.068954 -0.04302967 -16.063223 -31.360119 -110.08383
79930000 -31.443428 -98.893066 -0.045012861 -16.259575 -0.045680404 -16.258503 -31.263464 -110.35178
80929000 -31.334972 -99.699135 -0.047512755 -16.45875 -0.04729842 -16.45517 -31.168837 -110.61025
81928000 -31.234911 -100.39919 -0.047798809 -16.647633 -0.047878113 -16.643677 -31.041456 -110.65173
82927000 -31.126711 -101.17428 -0.048750807 -16.847395 -0.049291942 -16.84532 -30.930492 -110.8749
83926000 -31.01227 -101.88385 -0.050075099 -17.045568 -0.050346922 -17.045868 -30.815975 -111.06693
84925000 -30.912773 -102.27415 -0.051525794 -17.244452 -0.050078504 -17.240648 -30.71241 -111.08813
85924000 -30.826197 -102.63057 -0.05229966 -17.446276 -0.052217659 -17.442385 -30.627775 -111.08542
86923000 -30.71538 -103.16978 -0.052881856 -17.640966 -0.05167013 -17.639118 -30.531332 -110.97591
87922000 -30.603951 -103.45677 -0.052018024 -17.850201 -0.050780613 -17.843754 -30.446278 -111.01869
88921000 -30.525537 -103.72631 -0.053208619 -18.048605 -0.05196327 -18.047775 -30.356802 -110.97475
89920000 -30.4235 -104.20568 -0.054475032 -18.243298 -0.052817132 -18.240839 -30.302254 -111.14693
90919000 -30.331274 -104.55262 -0.054834947 -18.442356 -0.053643383 -18.442898 -30.21627 -111.32751
91918000 -30.232973 -104.83451 -0.055639032 -18.642023 -0.053943474 -18.640419 -30.14007 -111.31493
92917000 -30.139179 -105.13709 -0.056708407 -18.841997 -0.054800868 -18.841177 -30.08157 -111.43852
93916000 -30.05747 -105.55019 -0.055848271 -19.034069 -0.055276167 -19.030935 -29.988298 -111.99993
94915000 -29.979671 -106.16366 -0.057294078 -19.240013 -0.056300085 -19.232239 -29.932667 -111.8539
95914000 -29.907087 -106.31499 -0.058583196 -19.433428 -0.057073753 -19.428268 -29.831688 -112.1377
96913000 -29.817402 -106.55577 -0.059520766 -19.634502 -0.058640659 -19.63168 -29.774595 -112.52705
97912000 -29.746502 -107.0111 -0.060374539 -19.827518 -0.058425512 -19.830204 -29.6957 -112.72321
98911000 -29.634029 -107.16408 -0.061346099 -20.031044 -0.059377216 -20.028727 -29.661112 -112.92713
99910000 -29.577486 -107.30028 -0.061243445 -20.228168 -0.05932657 -20.22909 -29.550817 -113.24328
100909000 -29.488291 -107.54555 -0.061101418 -20.435827 -0.059253093 -20.432371 -29.459028 -113.44475
101908000 -29.396898 -107.75026 -0.062145613 -20.635517 -0.060475595 -20.637522 -29.353966 -113.23524
102907000 -29.261345 -107.7151 -0.062616989 -20.839405 -0.060992207 -20.837917 -29.280483 -113.17855
103906000 -29.166121 -107.81725 -0.062785327 -21.043818 -0.060330443 -21.041975 -29.141226 -113.16811
104905000 -29.018827 -107.70016 -0.06332349 -21.241068 -0.060972255 -21.238905 -29.00841 -112.88873
105904000 -28.885679 -107.8166 -0.063862771 -21.444727 -0.060969368 -21.441982 -28.904121 -112.73804
106903000 -28.773558 -107.86297 -0.064476728 -21.653728 -0.061173875 -21.644226 -28.777384 -112.62463
107902000 -28.603321 -108.17461 -0.06480936 -21.848549 -0.061968632 -21.84387 -28.637739 -112.52106
108901000 -28.496044 -108.38042 -0.065840259 -22.056269 -0.063096561 -22.048471 -28.505426 -112.507
109900000 -28.373278 -108.89241 -0.066901892 -22.254416 -0.064266026 -22.242834 -28.364124 -112.62753
110899000 -28.246279 -109.46437 -0.068340071 -22.449606 -0.065098137 -22.441408 -28.238333 -112.83006
111898000 -28.153114 -110.14764 -0.069245555 -22.651789 -0.066472635 -22.643723 -28.120356 -112.95298
112897000 -28.029663 -110.65994 -0.070619531 -22.851976 -0.066716827 -22.840656 -27.984907 -113.15034
113896000 -27.924723 -111.26938 -0.071013413 -23.052118 -0.068945728 -23.040394 -27.87961 -113.26743
114895000 -27.826805 -111.88326 -0.072421111 -23.24799 -0.069822401 -23.236479 -27.772476 -113.32668
115894000 -27.703627 -112.20339 -0.073357716 -23.451696 -0.070516393 -23.438326 -27.704847 -113.58936
116893000 -27.624947 -112.71139 -0.073970124 -23.646008 -0.071388386 -23.62808 -27.580494 -113.61484
117892000 -27.537363 -113.19321 -0.074436203 -23.84477 -0.071702071 -23.833796 -27.497179 -113.81544
118891000 -27.485189 -113.62535 -0.074641608 -24.0485 -0.072149217 -24.033237 -27.408136 -113.92194
119890000 -27.393127 -113.99942 -0.075370088 -24.246082 -0.073358774 -24.231894 -27.395144 -114.08248
120889000 -27.341146 -114.48778 -0.076587915 -24.450705 -0.073056288 -24.431429 -27.316591 -114.00771
121888000 -27.305632 -114.74979 -0.075698555 -24.643677 -0.07414075 -24.628607 -27.256351 -114.28564
122887000 -27.270884 -114.974 -0.077508301 -24.847748 -0.074368 -24.828115 -27.210037 -114.28801
123886000 -27.211594 -115.38961 -0.078308687 -25.051464 -0.075010836 -25.031401 -27.195358 -114.44567
124885000 -27.177168 -115.88658 -0.078508742 -25.249182 -0.075501263 -25.235699 -27.169321 -114.47566
125884000 -27.128359 -116.09396 -0.079780973 -25.445339 -0.075720944 -25.433182 -27.138016 -114.65119
126883000 -27.104965 -116.47379 -0.07957796 -25.647718 -0.076844804 -25.63472 -27.095619 -114.62408
127882000 -27.065077 -116.74297 -0.079879582 -25.848705 -0.076893024 -25.833033 -27.062387 -114.78651
128881000 -27.02877 -117.08508 -0.080217086 -26.053518 -0.077009745 -26.036503 -27.019705 -114.87608
129880000 -26.974974 -117.41824 -0.080926724 -26.254351 -0.077075094 -26.234131 -26.975719 -114.82518
130879000 -26.918072 -117.58481 -0.08015275 -26.454401 -0.077881463 -26.438011 -26.907621 -114.84836
131878000 -26.855928 -117.8233 -0.081017442 -26.656158 -0.078034848 -26.635571 -26.850893 -114.75421
132877000 -26.793493 -117.87946 -0.08027035 -26.859205 -0.078918099 -26.840679 -26.769201 -114.6921
133876000 -26.703644 -118.04214 -0.080758467 -27.055561 -0.078228302 -27.039822 -26.680857 -114.55206
134875000 -26.608633 -118.16211 -0.080969974 -27.258009 -0.079580069 -27.243822 -26.582758 -114.40379
135874000 -26.529331 -118.20446 -0.080714427 -27.458916 -0.079131626 -27.440182 -26.494051 -114.36362
136873000 -26.412231 -118.13468 -0.081121884 -27.660484 -0.078395136 -27.644241 -26.410561 -114.33321
137872000 -26.338503 -118.27115 -0.08155787 -27.861935 -0.079005882 -27.847279 -26.31039 -114.23559
138871000 -26.26535 -118.47667 -0.081476368 -28.059681 -0.078422554 -28.046963 -26.216228 -114.43803
139870000 -26.165379 -118.77024 -0.081771262 -28.262079 -0.079823688 -28.245636 -26.135622 -114.56818
140869000 -26.086966 -119.28356 -0.0827806 -28.4599 -0.08011847 -28.44133 -26.033972 -114.7745
141868000 -26.010912 -119.71255 -0.084451303 -28.657961 -0.082020275 -28.640097 -25.983932 -115.02168
142867000 -25.927883 -119.87313 -0.083189309 -28.856972 -0.081248745 -28.840654 -25.908773 -115.15949
143866000 -25.855347 -120.38523 -0.08474455 -29.051094 -0.082199663 -29.036268 -25.83638 -115.60289
144865000 -25.792276 -120.89291 -0.086678229 -29.251204 -0.083854571 -29.234884 -25.776819 -115.90138
145864000 -25.741293 -121.20101 -0.086917222 -29.45122 -0.085133381 -29.442436 -25.747814 -116.14938
146863000 -25.694378 -121.56349 -0.0879061 -29.652109 -0.085569508 -29.63975 -25.697586 -116.44968
147862000 -25.662107 -121.90874 -0.088447116 -29.848473 -0.086045541 -29.838509 -25.668726 -116.76972
148861000 -25.628538 -122.32307 -0.090223864 -30.05076 -0.087217771 -30.034828 -25.635559 -116.88608
149860000 -25.596064 -122.48682 -0.090698034 -30.23959 -0.087833196 -30.227898 -25.595615 -117.02917
150859000 -25.575739 -123.00819 -0.090509839 -30.436436 -0.087867267 -30.426758 -25.575872 -117.40049
151858000 -25.55821 -123.31309 -0.089894041 -30.63637 -0.088349901 -30.629496 -25.564108 -117.71193
152857000 -25.549118 -123.65005 -0.090776801 -30.834162 -0.088034742 -30.822783 -25.548237 -117.89215
153856000 -25.538885 -123.87631 -0.090038337 -31.037199 -0.087464988 -31.026838 -25.566444 -118.19016
154855000 -25.542906 -124.04501 -0.090506665 -31.239971 -0.087512001 -31.225142 -25.55681 -118.4151
155854000 -25.561209 -124.24109 -0.091084488 -31.44087 -0.088108443 -31.420073 -25.543018 -118.70625
156853000 -25.549154 -124.92735 -0.088353865 -31.62351 -0.087486647 -31.617523 -25.53775 -119.03538
157852000 -25.551929 -125.15352 -0.089733891 -31.828739 -0.089366846 -31.817053 -25.530754 -119.38274
158851000 -25.549801 -125.39113 -0.090603411 -32.025089 -0.089574546 -32.014462 -25.514507 -119.66198
159850000 -25.536713 -125.47323 -0.090781823 -32.224915 -0.089038141 -32.216949 -25.511585 -119.8309
160849000 -25.523207 -125.58089 -0.090843678 -32.423649 -0.090197168 -32.418457 -25.48621 -120.13677
161848000 -25.509499 -125.68053 -0.09158466 -32.624832 -0.090493187 -32.615894 -25.443707 -120.23704
162847000 -25.468632 -125.87492 -0.09082412 -32.825081 -0.090655744 -32.817558 -25.414598 -120.50231
163846000 -25.429682 -126.04804 -0.091356248 -33.024456 -0.089824006 -33.017231 -25.337433 -120.48111
164845000 -25.367287 -126.02541 -0.092747808 -33.223412 -0.091205828 -33.216846 -25.280401 -120.59941
165844000 -25.320307 -126.04794 -0.091855392 -33.422001 -0.090730809 -33.416088 -25.19943 -120.71265
166843000 -25.259174 -126.11214 -0.09200187 -33.619923 -0.090890467 -33.618969 -25.130455 -120.89231
167842000 -25.200434 -126.23087 -0.091696233 -33.823029 -0.091602109 -33.814541 -25.060751 -120.8062
168841000 -25.119286 -126.36362 -0.09279488 -34.021751 -0.091821022 -34.014797 -24.985533 -120.86039
169840000 -25.056456 -126.63511 -0.092635952 -34.218403 -0.092101552 -34.215069 -24.902119 -121.02795
170839000 -24.998909 -126.87598 -0.094100408 -34.414192 -0.09235803 -34.411556 -24.817518 -121.22199
171838000 -24.936098 -127.25041 -0.093212999 -34.615452 -0.092523299 -34.607697 -24.756027 -121.46071
172837000 -24.866121 -127.58146 -0.094529226 -34.814026 -0.094217591 -34.807961 -24.689394 -121.64663
173836000 -24.797737 -127.97729 -0.095875233 -35.013119 -0.094734527 -35.010033 -24.647778 -121.86508
174835000 -24.743887 -128.40771 -0.0964678 -35.208584 -0.095701896 -35.20895 -24.603027 -122.19173
175834000 -24.691702 -128.74356 -0.097485855 -35.409931 -0.096801296 -35.405273 -24.542381 -122.45049
176833000 -24.64048 -129.07878 -0.098435298 -35.609303 -0.097465731 -35.607948 -24.493017 -122.58607
177832000 -24.601408 -129.47021 -0.099509433 -35.805374 -0.098195136 -35.807648 -24.473482 -122.66693
178831000 -24.554684 -129.71725 -0.10105755 -36.00174 -0.10001852 -35.997597 -24.437399 -122.78233
179830000 -24.47868 -130.11734 -0.10233799 -36.186844 -0.10061722 -36.187878 -24.371101 -122.84359
180829000 -24.43214 -130.46175 -0.10086732 -36.377899 -0.10025614 -36.380096 -24.329962 -123.18693
181828000 -24.410069 -130.90901 -0.10043231 -36.579414 -0.098807618 -36.579018 -24.309925 -123.37674
182827000 -24.389851 -131.27612 -0.10048211 -36.778961 -0.099720538 -36.779144 -24.29567 -123.5071
183826000 -24.347925 -131.61644 -0.10148044 -36.976093 -0.099860653 -36.974728 -24.291498 -123.62917
184825000 -24.355511 -131.94417 -0.10110259 -37.172607 -0.099338077 -37.172516 -24.271311 -123.76389
185824000 -24.326208 -132.31937 -0.10070994 -37.367916 -0.10019283 -37.368271 -24.26195 -123.84031
186823000 -24.307865 -132.67625 -0.10062385 -37.569519 -0.10063815 -37.570332 -24.256485 -123.84531
187822000 -24.286917 -133.00211 -0.10086653 -37.763023 -0.10091235 -37.764385 -24.222744 -123.94616
188821000 -24.261751 -133.25797 -0.10114764 -37.959846 -0.10172582 -37.961884 -24.200449 -124.07025
189820000 -24.240917 -133.54646 -0.10156523 -38.160477 -0.10124356 -38.160568 -24.186001 -124.27827
190819000 -24.204586 -133.86436 -0.10233906 -38.358582 -0.10153873 -38.358688 -24.147005 -124.30064
191818000 -24.17804 -134.13847 -0.10226644 -38.553089 -0.10165638 -38.556377 -24.114988 -124.32914
192817000 -24.131912 -134.44695 -0.10300593 -38.751862 -0.10215858 -38.752586 -24.075157 -124.4227
193816000 -24.099709 -134.68871 -0.10278115 -38.94846 -0.10203375 -38.948181 -24.024998 -124.55025
194815000 -24.041386 -135.08794 -0.10334152 -39.140511 -0.10276737 -39.147552 -23.959827 -124.62018
195814000 -23.987852 -135.26506 -0.10451764 -39.342667 -0.1028286 -39.339535 -23.899902 -124.73271
196813000 -23.932409 -135.59674 -0.10365593 -39.535439 -0.10312309 -39.536472 -23.821774 -124.87933
197812000 -23.872784 -135.81094 -0.10389136 -39.734684 -0.10305258 -39.731983 -23.757742 -124.93167
198811000 -23.823425 -135.93874 -0.10378584 -39.93045 -0.10244799 -39.934921 -23.684118 -125.13065
199810000 -23.748518 -136.28612 -0.10474197 -40.124607 -0.10323655 -40.124512 -23.608177 -125.19112
200809000 -23.69162 -136.5656 -0.10519625 -40.318874 -0.10314907 -40.322224 -23.532253 -125.35752
201808000 -23.631565 -136.75491 -0.10516203 -40.523277 -0.1042196 -40.527958 -23.465462 -125.44988
202807000 -23.578482 -137.10378 -0.10611104 -40.723236 -0.10529756 -40.726761 -23.413588 -125.60011
