!Keysight Technologies,E5080B,MY59205177,A.15.75.32
!Date: Friday, February 23, 2024 03:00:20
!Correction: S11(Cdelta 2-Port  ) 
!S21(Cdelta 2-Port  ) 
!S12(Cdelta 2-Port  ) 
!S22(Cdelta 2-Port  ) 
!S2P File: Measurements: S11, S21, S12, S22:
# Hz S  dB   R 50
10000000 -44.121513 -3.7894444 -0.027683783 -2.0377996 -0.030855931 -2.0992959 -48.056068 -150.54198
10999000 -43.482513 -5.3461452 -0.028499011 -2.2577434 -0.030649457 -2.3089654 -47.806377 -142.88503
11998000 -42.722946 -7.8125277 -0.028204063 -2.4803967 -0.030545963 -2.5233352 -47.876247 -137.2469
12997000 -42.114208 -12.634773 -0.028851308 -2.6563573 -0.029667538 -2.6892812 -47.352032 -130.59111
13996000 -41.879543 -15.980073 -0.027210454 -2.8396857 -0.02984816 -2.8584952 -46.856186 -125.07515
14995000 -41.540802 -20.030764 -0.029078024 -3.0437388 -0.030078055 -3.0723403 -46.346638 -121.90617
15994000 -41.405769 -23.470949 -0.030577507 -3.2663074 -0.032072552 -3.2871821 -46.126839 -117.92763
16993000 -41.379448 -27.553253 -0.029626878 -3.4616327 -0.030980811 -3.4710343 -45.287422 -119.28941
17992000 -41.49559 -32.201492 -0.030279549 -3.6613584 -0.032123145 -3.6621127 -44.606037 -120.10311
18991000 -41.757565 -36.682064 -0.031300977 -3.8717773 -0.032919381 -3.8684506 -43.921669 -119.32869
19990000 -41.550037 -41.852345 -0.03379951 -4.0781608 -0.03475314 -4.0759125 -43.218479 -121.05466
20989000 -41.506882 -44.695686 -0.035311062 -4.2829647 -0.037190735 -4.2754617 -42.670902 -120.92963
21988000 -41.396194 -49.437336 -0.03703931 -4.4748626 -0.037516061 -4.4631639 -42.36792 -120.19535
22987000 -41.173439 -53.751839 -0.038138058 -4.6751938 -0.038565572 -4.6652265 -42.131805 -119.41417
23986000 -41.198589 -57.346035 -0.037415538 -4.8677473 -0.037413709 -4.8706431 -41.970779 -119.68201
24985000 -40.90353 -60.089115 -0.037792057 -5.0758224 -0.038123958 -5.0755639 -41.754238 -117.25613
25984000 -40.635761 -62.161388 -0.038855217 -5.2861171 -0.038775034 -5.2868347 -41.392582 -115.86673
26983000 -40.331264 -64.023705 -0.03933217 -5.4814243 -0.039224811 -5.5028381 -41.253178 -115.02996
27982000 -40.191193 -64.995705 -0.040774312 -5.6809297 -0.040719703 -5.7171121 -40.923679 -113.69332
28981000 -40.206028 -66.657471 -0.039256416 -5.8780332 -0.040831279 -5.9043479 -40.658073 -112.96127
29980000 -39.82093 -68.030624 -0.039191116 -6.0704579 -0.040700626 -6.0804362 -40.385033 -111.85947
30979000 -39.441933 -67.269104 -0.036806956 -6.4270563 -0.036270767 -6.4159756 -39.85799 -112.98224
31978000 -39.272942 -68.267021 -0.035477567 -6.6188493 -0.036882404 -6.6124134 -39.575768 -112.29926
32977000 -39.112812 -69.882484 -0.035475738 -6.8301401 -0.037530944 -6.8259978 -39.367508 -112.52974
33976000 -38.949867 -71.070404 -0.036773801 -7.0319791 -0.037457313 -7.025342 -39.031002 -112.08476
34975000 -38.689266 -72.02417 -0.036633875 -7.2303247 -0.038523525 -7.230907 -38.810883 -111.94884
35974000 -38.488316 -72.812263 -0.036249362 -7.4262524 -0.038018718 -7.4265389 -38.506702 -111.19354
36973000 -38.267849 -73.6008 -0.036526844 -7.6246786 -0.03855643 -7.6288648 -38.215061 -110.47993
37972000 -38.112629 -73.52713 -0.035349164 -7.8343635 -0.038312767 -7.8413563 -37.965427 -109.81134
38971000 -37.769455 -73.296974 -0.036844552 -8.030549 -0.038844768 -8.0456381 -37.788635 -108.24083
39970000 -37.474209 -73.964546 -0.035509408 -8.2302666 -0.037770908 -8.2462349 -37.497856 -107.94072
40969000 -37.177357 -73.64711 -0.035566304 -8.4242878 -0.037388906 -8.4410667 -37.227894 -106.5447
41968000 -36.843479 -73.972366 -0.036657371 -8.6281023 -0.037766207 -8.6401997 -37.01741 -105.4271
42967000 -36.57658 -74.197258 -0.03617236 -8.8375454 -0.038243562 -8.8601513 -36.781494 -103.7018
43966000 -36.319645 -75.143349 -0.036740907 -9.0382748 -0.039560739 -9.0584736 -36.496189 -103.10787
44965000 -36.090332 -75.965462 -0.038058411 -9.2409105 -0.039034657 -9.258687 -36.270302 -103.10023
45964000 -35.865681 -77.144348 -0.038896747 -9.4390621 -0.041013934 -9.4594212 -36.052551 -102.87121
46963000 -35.691284 -79.128288 -0.037872225 -9.6335859 -0.041204438 -9.6574526 -35.86729 -103.35874
47962000 -35.545025 -80.562531 -0.039714083 -9.835475 -0.042442258 -9.854517 -35.651951 -103.4353
48961000 -35.359272 -82.027 -0.042213015 -10.031244 -0.043493483 -10.053973 -35.426353 -103.77319
49960000 -35.134529 -83.451111 -0.043407202 -10.231854 -0.044988535 -10.251862 -35.266766 -103.84886
50959000 -34.932392 -84.848129 -0.043958392 -10.443343 -0.046565216 -10.453779 -35.115353 -104.25475
51958000 -34.74913 -86.084244 -0.046033051 -10.640056 -0.047686271 -10.650161 -34.93161 -104.85174
52957000 -34.542225 -87.103699 -0.047521915 -10.840707 -0.048894003 -10.847512 -34.751747 -104.69723
53956000 -34.399136 -87.846832 -0.048174925 -11.041114 -0.049525488 -11.043346 -34.620686 -104.63654
54955000 -34.230057 -88.378548 -0.048816252 -11.242454 -0.049736265 -11.24052 -34.47197 -104.73694
55954000 -34.064365 -89.285744 -0.049743596 -11.442333 -0.05039956 -11.440928 -34.361053 -104.45834
56953000 -33.954815 -89.340279 -0.050620854 -11.640476 -0.050147898 -11.625904 -34.310387 -104.65146
57952000 -33.786259 -89.902962 -0.050718803 -11.837931 -0.051005069 -11.824137 -34.187618 -104.72143
58951000 -33.664692 -90.295944 -0.051861104 -12.042563 -0.051702876 -12.021783 -34.037331 -104.93497
59950000 -33.566494 -90.716339 -0.052665945 -12.243578 -0.052736692 -12.219923 -33.968712 -105.20303
60949000 -33.440529 -91.249954 -0.053041436 -12.443503 -0.052976448 -12.420281 -33.888493 -105.46738
61948000 -33.398335 -91.587738 -0.053952906 -12.643543 -0.052830234 -12.623866 -33.787254 -105.55135
62947000 -33.297665 -91.768951 -0.053897604 -12.856241 -0.053458884 -12.832047 -33.664749 -105.87255
63946000 -33.239254 -92.54351 -0.054930635 -13.052413 -0.054536372 -13.031917 -33.553753 -105.99673
64945000 -33.128578 -92.676682 -0.055386543 -13.252931 -0.05444384 -13.232002 -33.44685 -106.49335
65944000 -33.029057 -93.005989 -0.055922478 -13.452993 -0.054753158 -13.434245 -33.359756 -107.01949
66943000 -32.891376 -93.47493 -0.053882405 -13.651528 -0.053731441 -13.635965 -33.255325 -107.29972
67942000 -32.837456 -93.404549 -0.055918019 -13.847331 -0.055053849 -13.834344 -33.127163 -107.57814
68941000 -32.725033 -93.523972 -0.055755977 -14.040905 -0.054211866 -14.032379 -33.027611 -107.59181
69940000 -32.62294 -93.560127 -0.056273859 -14.240246 -0.055219013 -14.232018 -32.897255 -107.9099
70939000 -32.52845 -93.464668 -0.055350628 -14.436288 -0.0547681 -14.427812 -32.75079 -107.82314
71938000 -32.384872 -93.107933 -0.05540647 -14.635082 -0.055301599 -14.627323 -32.624886 -107.67197
72937000 -32.223202 -92.999153 -0.054680023 -14.833358 -0.055145081 -14.82283 -32.473831 -107.39113
73936000 -32.082382 -92.762291 -0.054570448 -15.027786 -0.053843353 -15.019579 -32.362408 -107.28136
74935000 -31.96143 -92.979179 -0.054397967 -15.219824 -0.052877139 -15.221025 -32.204792 -106.92876
75934000 -31.845179 -93.236198 -0.054822627 -15.432117 -0.053255789 -15.424639 -32.127239 -106.91029
76933000 -31.70962 -93.621063 -0.055431377 -15.621161 -0.054455899 -15.617281 -31.951452 -107.32578
77932000 -31.622025 -94.435959 -0.057055917 -15.818875 -0.055855088 -15.814821 -31.855038 -107.32706
78931000 -31.554094 -95.281258 -0.055219539 -16.024576 -0.054823939 -16.014528 -31.755816 -107.2309
79930000 -31.441542 -96.026001 -0.058241859 -16.213402 -0.057795092 -16.212688 -31.659998 -107.51396
80929000 -31.306267 -97.034058 -0.059587158 -16.408876 -0.059102468 -16.405951 -31.558338 -107.84319
81928000 -31.232244 -97.841209 -0.059860364 -16.598633 -0.05970867 -16.597824 -31.4321 -107.92722
82927000 -31.144882 -98.526169 -0.06156664 -16.799583 -0.061006382 -16.796606 -31.335691 -108.2729
83926000 -31.025599 -99.315567 -0.062717833 -16.997013 -0.061458204 -16.998728 -31.224688 -108.50365
84925000 -30.929873 -99.768936 -0.063610591 -17.195938 -0.062322866 -17.193295 -31.124571 -108.56968
85924000 -30.845757 -100.17139 -0.064042196 -17.395903 -0.063002795 -17.391932 -31.039188 -108.58554
86923000 -30.73485 -100.74946 -0.064593911 -17.590763 -0.063756116 -17.580896 -30.94557 -108.4972
87922000 -30.631853 -101.07627 -0.06484063 -17.802185 -0.06336657 -17.793722 -30.853054 -108.56089
88921000 -30.560108 -101.38149 -0.065674685 -17.994261 -0.063985184 -17.995415 -30.76856 -108.50365
89920000 -30.45923 -101.97083 -0.066306517 -18.199018 -0.065446056 -18.186142 -30.70755 -108.70158
90919000 -30.367218 -102.21033 -0.067068033 -18.39171 -0.065069228 -18.384335 -30.625866 -108.8677
91918000 -30.266611 -102.69424 -0.06782417 -18.590403 -0.065748535 -18.584257 -30.563351 -108.89635
92917000 -30.186749 -102.9932 -0.068932839 -18.791988 -0.067570709 -18.784405 -30.495295 -109.03073
93916000 -30.107313 -103.35947 -0.067714788 -18.983877 -0.066797793 -18.97954 -30.400375 -109.66366
94915000 -30.031307 -103.99625 -0.069614068 -19.184748 -0.067944065 -19.178572 -30.348566 -109.52946
95914000 -29.961897 -104.22433 -0.070673205 -19.376606 -0.068826325 -19.375326 -30.264788 -109.80235
96913000 -29.878904 -104.45703 -0.071895242 -19.577965 -0.069599338 -19.574638 -30.196924 -110.15295
97912000 -29.812922 -104.96278 -0.07247033 -19.772354 -0.070324861 -19.773405 -30.118832 -110.39822
98911000 -29.712231 -105.14518 -0.072857536 -19.974382 -0.071203656 -19.97257 -30.081474 -110.62506
99910000 -29.646078 -105.26045 -0.074088879 -20.17433 -0.07158944 -20.169834 -29.971029 -110.94944
100909000 -29.55512 -105.60153 -0.072840691 -20.380054 -0.070620321 -20.377071 -29.879745 -111.16257
101908000 -29.473818 -105.80305 -0.07395117 -20.581516 -0.072644845 -20.57626 -29.774305 -110.90738
102907000 -29.334356 -105.83281 -0.074258454 -20.778894 -0.072024725 -20.777311 -29.698057 -110.90907
103906000 -29.241251 -105.92903 -0.074665308 -20.987286 -0.072336353 -20.981508 -29.560099 -110.84575
104905000 -29.099268 -105.81621 -0.0753664 -21.181671 -0.072836742 -21.184414 -29.421255 -110.53063
105904000 -28.956476 -105.98106 -0.076001219 -21.384008 -0.071844183 -21.378061 -29.316179 -110.43361
106903000 -28.843718 -106.09768 -0.075643763 -21.596617 -0.072420843 -21.584751 -29.181726 -110.31504
107902000 -28.678389 -106.4042 -0.076688297 -21.786863 -0.073560968 -21.78227 -29.047508 -110.26956
108901000 -28.576471 -106.71936 -0.077240832 -21.991589 -0.075055875 -21.98111 -28.908873 -110.23741
109900000 -28.44669 -107.17729 -0.077715166 -22.191734 -0.076032303 -22.178312 -28.759573 -110.3166
110899000 -28.326532 -107.79801 -0.079073898 -22.390032 -0.076589502 -22.381445 -28.636385 -110.60455
111898000 -28.243734 -108.52323 -0.080491856 -22.589556 -0.078054085 -22.582939 -28.512072 -110.73782
112897000 -28.117168 -109.05383 -0.082199663 -22.789625 -0.078804754 -22.777651 -28.380384 -110.95369
113896000 -28.012302 -109.65826 -0.083552405 -22.988092 -0.080136925 -22.976009 -28.273596 -111.09636
114895000 -27.910507 -110.29483 -0.084834561 -23.182446 -0.081313103 -23.171869 -28.167328 -111.19368
115894000 -27.786867 -110.65623 -0.085579805 -23.384758 -0.083077699 -23.372774 -28.095001 -111.37854
116893000 -27.697901 -111.24677 -0.086567052 -23.583139 -0.082887195 -23.564568 -27.964354 -111.50761
117892000 -27.624527 -111.68526 -0.086154595 -23.777355 -0.083730005 -23.764481 -27.883699 -111.71359
118891000 -27.567535 -112.13676 -0.086817928 -23.978462 -0.083701767 -23.964506 -27.798315 -111.8193
119890000 -27.475267 -112.50014 -0.086900055 -24.183187 -0.084567435 -24.162062 -27.786514 -111.94641
120889000 -27.424536 -113.00096 -0.088027351 -24.378126 -0.08421059 -24.362213 -27.711037 -111.93138
121888000 -27.380686 -113.30962 -0.088065386 -24.577072 -0.084961005 -24.563805 -27.648306 -112.23927
122887000 -27.343212 -113.53059 -0.088926114 -24.779814 -0.086086996 -24.767164 -27.597155 -112.26839
123886000 -27.281549 -113.97224 -0.090023801 -24.983 -0.086427622 -24.965656 -27.590315 -112.42896
124885000 -27.246874 -114.45277 -0.090528339 -25.179955 -0.086711764 -25.165154 -27.558399 -112.46707
125884000 -27.205385 -114.66813 -0.091218516 -25.373661 -0.086885795 -25.36272 -27.530315 -112.65826
126883000 -27.177429 -115.05309 -0.091471776 -25.576727 -0.087742329 -25.566378 -27.484556 -112.70523
127882000 -27.128366 -115.32807 -0.091670848 -25.7778 -0.088469043 -25.762171 -27.450476 -112.88789
128881000 -27.100666 -115.65621 -0.091790885 -25.98105 -0.088188492 -25.962172 -27.406977 -113.00449
129880000 -27.042389 -115.95097 -0.092362002 -26.179104 -0.08851026 -26.162664 -27.365934 -112.99713
130879000 -26.981256 -116.17194 -0.092446089 -26.377449 -0.089279912 -26.362329 -27.287712 -113.04536
131878000 -26.9181 -116.34233 -0.092339784 -26.583521 -0.089820042 -26.563969 -27.223879 -112.99185
132877000 -26.845537 -116.42691 -0.092454016 -26.783073 -0.090055779 -26.76531 -27.14315 -112.95777
133876000 -26.763144 -116.59682 -0.092682756 -26.986475 -0.089663602 -26.965395 -27.050688 -112.89691
134875000 -26.66584 -116.72482 -0.093304247 -27.186453 -0.090580679 -27.162903 -26.948635 -112.70841
135874000 -26.585068 -116.71347 -0.092953824 -27.384573 -0.089901969 -27.369211 -26.851032 -112.76149
136873000 -26.475523 -116.67416 -0.093571641 -27.588907 -0.089234725 -27.562464 -26.76387 -112.78276
137872000 -26.394396 -116.79663 -0.09278404 -27.788172 -0.090000011 -27.771065 -26.655609 -112.70253
138871000 -26.320425 -116.99912 -0.093908623 -27.983311 -0.090224393 -27.973553 -26.563768 -112.85757
139870000 -26.223873 -117.26723 -0.094390869 -28.186838 -0.091808863 -28.168175 -26.480789 -113.03928
140869000 -26.138462 -117.74113 -0.097102001 -28.383038 -0.093257427 -28.361414 -26.376215 -113.1308
141868000 -26.043705 -118.21594 -0.096161582 -28.572468 -0.093450502 -28.557358 -26.306713 -113.50924
142867000 -25.966419 -118.44391 -0.094370499 -28.771343 -0.092177168 -28.755926 -26.219625 -113.69659
143866000 -25.893969 -118.93959 -0.096035868 -28.9674 -0.093791179 -28.948887 -26.149178 -114.19395
144865000 -25.842503 -119.47311 -0.097902834 -29.166458 -0.094885603 -29.150999 -26.094257 -114.49718
145864000 -25.783381 -119.81723 -0.09849938 -29.367277 -0.095935307 -29.355591 -26.060974 -114.75893
146863000 -25.734369 -120.16632 -0.099261537 -29.566751 -0.096405864 -29.552931 -26.009417 -115.07278
147862000 -25.689526 -120.53233 -0.099691398 -29.760227 -0.09673354 -29.746355 -25.973715 -115.42189
148861000 -25.665516 -121.04202 -0.099842116 -29.958551 -0.097268775 -29.944086 -25.952005 -115.65401
149860000 -25.650316 -121.26664 -0.10080241 -30.158779 -0.097395048 -30.147594 -25.917238 -115.82581
150859000 -25.627352 -121.64172 -0.10165507 -30.360119 -0.097962402 -30.345732 -25.910746 -116.04919
151858000 -25.609436 -121.93964 -0.10005402 -30.558563 -0.098913282 -30.54126 -25.905071 -116.32042
152857000 -25.595848 -122.2643 -0.10139856 -30.75222 -0.098306879 -30.743916 -25.884651 -116.46847
153856000 -25.588541 -122.47755 -0.10196166 -30.951836 -0.097968228 -30.936352 -25.903862 -116.7793
154855000 -25.581394 -122.65488 -0.10212386 -31.15329 -0.098453306 -31.139448 -25.892307 -116.98331
155854000 -25.595833 -122.85579 -0.10164075 -31.350033 -0.099194266 -31.340111 -25.884329 -117.25806
156853000 -25.579466 -123.599 -0.099886082 -31.540577 -0.09800715 -31.527027 -25.87796 -117.54877
157852000 -25.586302 -123.7991 -0.10122977 -31.737629 -0.099760532 -31.728052 -25.866817 -117.90696
158851000 -25.578259 -124.02561 -0.10158299 -31.940563 -0.099396609 -31.929684 -25.85224 -118.1436
159850000 -25.566526 -124.18355 -0.10203455 -32.136692 -0.099903032 -32.127392 -25.853104 -118.34316
160849000 -25.549154 -124.32331 -0.10220522 -32.336678 -0.10094097 -32.329632 -25.827961 -118.59634
161848000 -25.528395 -124.39807 -0.102598 -32.536835 -0.10053827 -32.529713 -25.781622 -118.75307
162847000 -25.486254 -124.59448 -0.10235655 -32.732925 -0.10102788 -32.728645 -25.752182 -118.99825
163846000 -25.442394 -124.80544 -0.10295106 -32.932442 -0.10104483 -32.924049 -25.674967 -118.97591
164845000 -25.378439 -124.82838 -0.10358436 -33.132294 -0.10151912 -33.124218 -25.601419 -119.0909
165844000 -25.324959 -124.92463 -0.10322859 -33.330368 -0.10162565 -33.321995 -25.527512 -119.22714
166843000 -25.26725 -124.9994 -0.10304569 -33.530083 -0.10193039 -33.524269 -25.45789 -119.39213
167842000 -25.210112 -125.1559 -0.10311408 -33.73082 -0.10181406 -33.72221 -25.37746 -119.34849
168841000 -25.130619 -125.32446 -0.10360848 -33.924992 -0.10209312 -33.921288 -25.299866 -119.43803
169840000 -25.066708 -125.58437 -0.10444074 -34.118767 -0.10324264 -34.119904 -25.214737 -119.59319
170839000 -25.00214 -125.87598 -0.104559 -34.314758 -0.10310745 -34.313927 -25.125938 -119.82361
171838000 -24.94887 -126.3121 -0.1048735 -34.522427 -0.10467939 -34.50951 -25.063297 -120.03634
172837000 -24.875715 -126.64598 -0.10577735 -34.711884 -0.10479076 -34.709862 -24.992924 -120.26678
173836000 -24.80995 -127.08093 -0.10732824 -34.914669 -0.10662674 -34.91037 -24.956293 -120.49084
174835000 -24.75758 -127.48619 -0.10794837 -35.106682 -0.10681006 -35.109249 -24.908049 -120.83803
175834000 -24.705559 -127.89502 -0.10854444 -35.308041 -0.10743172 -35.304623 -24.84396 -121.13972
176833000 -24.65362 -128.29297 -0.10916847 -35.50602 -0.10797942 -35.500977 -24.794203 -121.25246
177832000 -24.608736 -128.72835 -0.10991338 -35.699543 -0.10834937 -35.700867 -24.767899 -121.43768
178831000 -24.570784 -129.10825 -0.11002834 -35.896896 -0.10870661 -35.896278 -24.728941 -121.6619
179830000 -24.532969 -129.52547 -0.11067808 -36.095924 -0.10894576 -36.097389 -24.705641 -121.77913
180829000 -24.500759 -129.74319 -0.11120972 -36.292046 -0.10894443 -36.289455 -24.670225 -121.9267
181828000 -24.471128 -130.06056 -0.11149761 -36.490669 -0.10937526 -36.488194 -24.654043 -122.06291
182827000 -24.438997 -130.47754 -0.11121795 -36.683857 -0.11036846 -36.683807 -24.645199 -122.16938
183826000 -24.407686 -130.75165 -0.1127551 -36.880993 -0.1106964 -36.883972 -24.636433 -122.28253
184825000 -24.408436 -131.07619 -0.11209045 -37.076584 -0.11113323 -37.075523 -24.619841 -122.37312
185824000 -24.382208 -131.42201 -0.11197252 -37.270866 -0.11104507 -37.274982 -24.617804 -122.42557
186823000 -24.369862 -131.76701 -0.11236751 -37.473305 -0.11114067 -37.470284 -24.615128 -122.4125
187822000 -24.347191 -132.09717 -0.11299846 -37.665821 -0.112121 -37.666195 -24.575703 -122.45658
188821000 -24.327621 -132.35481 -0.11255851 -37.861156 -0.11228064 -37.866592 -24.562601 -122.58425
189820000 -24.312288 -132.62514 -0.11307073 -38.065502 -0.11205751 -38.063259 -24.551825 -122.72872
190819000 -24.281504 -132.88374 -0.11463644 -38.261574 -0.11355856 -38.262691 -24.521803 -122.69857
191818000 -24.247869 -133.06439 -0.11578691 -38.454834 -0.1146795 -38.456635 -24.485205 -122.59675
192817000 -24.178017 -133.31844 -0.11614636 -38.641579 -0.11506544 -38.644165 -24.420406 -122.65552
193816000 -24.13965 -133.69812 -0.11518665 -38.835484 -0.11372969 -38.834076 -24.360003 -122.93767
194815000 -24.085833 -134.13191 -0.11499686 -39.029633 -0.11425745 -39.034504 -24.301897 -123.02908
195814000 -24.030302 -134.33867 -0.11553036 -39.228924 -0.11394227 -39.232498 -24.25025 -123.17998
196813000 -23.981644 -134.69569 -0.11500723 -39.424828 -0.11345918 -39.427528 -24.174677 -123.36499
197812000 -23.923141 -134.93938 -0.11503567 -39.61993 -0.11454874 -39.621277 -24.102509 -123.41246
198811000 -23.869951 -135.12074 -0.11522227 -39.816799 -0.11419474 -39.818211 -24.031134 -123.61704
199810000 -23.79995 -135.49333 -0.11525045 -40.012943 -0.1143021 -40.011059 -23.954157 -123.74516
200809000 -23.743645 -135.78262 -0.11531211 -40.211048 -0.11377379 -40.210747 -23.875914 -123.94932
201808000 -23.686077 -136.00551 -0.11642208 -40.410915 -0.11526852 -40.412422 -23.804369 -124.00922
202807000 -23.62742 -136.3423 -0.1170382 -40.612835 -0.11599135 -40.613113 -23.749611 -124.19373
