!Keysight Technologies,E5080B,MY59205177,A.15.75.32
!Date: Friday, February 23, 2024 03:00:27
!Correction: S11(Cdelta 2-Port  ) 
!S21(Cdelta 2-Port  ) 
!S12(Cdelta 2-Port  ) 
!S22(Cdelta 2-Port  ) 
!S2P File: Measurements: S11, S21, S12, S22:
# Hz S  dB   R 50
10000000 -44.140705 -3.9225466 -0.027197169 -2.0393806 -0.030927364 -2.0938687 -48.109913 -150.3035
10999000 -43.490551 -5.7658572 -0.028128244 -2.2559206 -0.03077798 -2.3105671 -47.902756 -142.24995
11998000 -42.706352 -7.8927889 -0.028716849 -2.482666 -0.030978203 -2.5238099 -47.911133 -137.24072
12997000 -42.050343 -12.767906 -0.028612358 -2.6572094 -0.030486006 -2.6905751 -47.288662 -130.62656
13996000 -41.840256 -15.972098 -0.026493654 -2.8350921 -0.030848892 -2.8590703 -46.852634 -125.28993
14995000 -41.508797 -19.739227 -0.029174445 -3.0460904 -0.030604618 -3.0732253 -46.392136 -121.87787
15994000 -41.392933 -23.622471 -0.030505296 -3.2680368 -0.032668993 -3.2874475 -46.152561 -118.19987
16993000 -41.39793 -27.504759 -0.029576838 -3.4591067 -0.032017529 -3.4695728 -45.242786 -118.79372
17992000 -41.434452 -32.347473 -0.029808544 -3.6592834 -0.033027366 -3.663269 -44.655384 -119.86325
18991000 -41.730312 -36.724545 -0.030979507 -3.8694007 -0.033314295 -3.8675153 -43.915951 -119.37932
19990000 -41.597214 -41.493702 -0.033293691 -4.0749278 -0.035373434 -4.0736737 -43.181866 -120.99559
20989000 -41.513855 -44.563751 -0.035468172 -4.2822762 -0.037328593 -4.2719021 -42.669922 -120.68048
21988000 -41.417728 -49.411438 -0.035955977 -4.4759283 -0.038118213 -4.464437 -42.368832 -120.07272
22987000 -41.185631 -53.736782 -0.037443735 -4.6791382 -0.038865924 -4.669045 -42.064339 -119.81939
23986000 -41.19059 -57.743362 -0.036235526 -4.8726482 -0.038139105 -4.8694673 -41.987679 -119.44927
24985000 -40.906761 -60.034508 -0.03805371 -5.079402 -0.038486436 -5.0762048 -41.709179 -117.15631
25984000 -40.682407 -62.324951 -0.038773205 -5.2866888 -0.038557999 -5.2838769 -41.374153 -115.88509
26983000 -40.353157 -64.111862 -0.039926995 -5.4806123 -0.040133912 -5.5003638 -41.256329 -115.00156
27982000 -40.207924 -64.959663 -0.040333781 -5.6807699 -0.041243114 -5.7160797 -40.948864 -113.4804
28981000 -40.219418 -66.452049 -0.039423857 -5.8824048 -0.041541301 -5.9039493 -40.685001 -113.13036
29980000 -39.812733 -68.087631 -0.039143838 -6.0732517 -0.041709352 -6.0792766 -40.350548 -112.04996
30979000 -39.462234 -67.176003 -0.036175493 -6.4273 -0.03617236 -6.4109468 -39.867882 -112.99958
31978000 -39.264881 -68.277657 -0.035589792 -6.6187811 -0.037832532 -6.6100202 -39.591221 -112.31303
32977000 -39.099102 -70.001862 -0.035498183 -6.8306389 -0.038301278 -6.8280449 -39.340454 -112.48625
33976000 -38.969135 -71.100525 -0.036417469 -7.0285788 -0.038776077 -7.0257707 -39.018684 -112.06244
34975000 -38.684235 -72.065742 -0.036899894 -7.2271094 -0.039501961 -7.2294326 -38.81678 -112.03831
35974000 -38.495457 -72.841759 -0.035811376 -7.4205313 -0.038410962 -7.4286079 -38.51572 -111.2142
36973000 -38.270214 -73.649231 -0.037160188 -7.6227064 -0.039895646 -7.6296425 -38.189152 -110.45377
37972000 -38.10944 -73.568329 -0.035703845 -7.8356495 -0.038992081 -7.8420596 -37.958622 -109.74019
38971000 -37.759064 -73.336487 -0.036874313 -8.034647 -0.039336085 -8.0495958 -37.772217 -108.24157
39970000 -37.449638 -73.87822 -0.035575699 -8.2269583 -0.038541544 -8.2444916 -37.48428 -107.90377
40969000 -37.191093 -73.795868 -0.035421196 -8.4235487 -0.038069379 -8.4417601 -37.236324 -106.58818
41968000 -36.840603 -73.934685 -0.035826776 -8.6277676 -0.038412008 -8.6418524 -37.014793 -105.47868
42967000 -36.580681 -74.215446 -0.034891177 -8.8362179 -0.039250933 -8.8588762 -36.793186 -103.67499
43966000 -36.301182 -75.141747 -0.036152784 -9.0353851 -0.039608542 -9.0565062 -36.492073 -103.07185
44965000 -36.075001 -76.013588 -0.036483251 -9.2413473 -0.040677112 -9.2587147 -36.286282 -103.09255
45964000 -35.872849 -77.127785 -0.037784487 -9.4418955 -0.04170334 -9.458025 -36.044037 -102.91787
46963000 -35.703979 -79.05751 -0.038110379 -9.6347103 -0.042008094 -9.6566315 -35.849976 -103.24583
47962000 -35.539738 -80.583412 -0.039579283 -9.8346243 -0.042997513 -9.8527584 -35.651054 -103.4817
48961000 -35.353191 -82.073303 -0.041442253 -10.030272 -0.045085575 -10.05183 -35.409218 -103.66959
49960000 -35.133327 -83.513748 -0.043013982 -10.229069 -0.045760192 -10.254336 -35.291889 -103.95901
50959000 -34.924732 -84.93499 -0.043805946 -10.442385 -0.046761457 -10.453928 -35.095776 -104.32307
51958000 -34.741333 -86.035278 -0.045593034 -10.639439 -0.047781013 -10.650554 -34.918297 -104.86219
52957000 -34.540821 -87.030266 -0.046691071 -10.841576 -0.049321529 -10.848991 -34.762157 -104.60754
53956000 -34.377956 -87.879318 -0.047372218 -11.044005 -0.050266262 -11.044298 -34.630562 -104.6675
54955000 -34.222256 -88.364029 -0.049009714 -11.241059 -0.050482053 -11.23948 -34.472664 -104.66431
55954000 -34.071533 -89.327255 -0.05000047 -11.443388 -0.050835874 -11.436539 -34.369167 -104.50414
56953000 -33.953365 -89.374168 -0.049644623 -11.641845 -0.050082956 -11.6298 -34.284264 -104.75745
57952000 -33.782677 -89.987152 -0.050718017 -11.837694 -0.05132724 -11.83062 -34.201687 -104.8377
58951000 -33.676971 -90.310699 -0.051816043 -12.041327 -0.052443501 -12.021062 -34.034641 -104.89161
59950000 -33.560364 -90.847321 -0.05202667 -12.242692 -0.052683242 -12.21919 -33.966045 -105.1972
60949000 -33.444099 -91.301353 -0.052779928 -12.443524 -0.052661754 -12.423095 -33.879181 -105.47263
61948000 -33.380535 -91.599625 -0.052993219 -12.640069 -0.053086244 -12.624915 -33.793327 -105.52775
62947000 -33.308643 -91.773933 -0.053218577 -12.853171 -0.053868253 -12.832674 -33.665051 -105.88325
63946000 -33.236172 -92.587296 -0.054012928 -13.049343 -0.054794841 -13.030574 -33.551083 -105.95898
64945000 -33.12326 -92.704849 -0.054644108 -13.250638 -0.055510297 -13.233139 -33.448524 -106.48302
65944000 -33.027458 -93.052528 -0.055177592 -13.450521 -0.055727918 -13.437711 -33.351719 -106.99361
66943000 -32.897827 -93.52272 -0.053051915 -13.652771 -0.053949762 -13.634735 -33.242733 -107.33829
67942000 -32.836239 -93.426765 -0.05550348 -13.847796 -0.055741817 -13.837533 -33.132824 -107.59954
68941000 -32.736507 -93.512222 -0.054534275 -14.039216 -0.055620681 -14.03311 -33.020134 -107.55611
69940000 -32.628956 -93.519417 -0.05513145 -14.240724 -0.05569724 -14.234642 -32.881401 -107.84999
70939000 -32.508369 -93.517982 -0.055547267 -14.436604 -0.055650569 -14.428213 -32.745255 -107.81677
71938000 -32.386791 -93.175606 -0.055289537 -14.633467 -0.055565093 -14.62742 -32.627781 -107.71001
72937000 -32.216415 -92.967667 -0.054415531 -14.82869 -0.05468579 -14.82076 -32.475857 -107.38503
73936000 -32.08913 -92.73558 -0.054813977 -15.027617 -0.054347642 -15.022646 -32.352463 -107.28953
74935000 -31.960756 -92.962372 -0.054424707 -15.223546 -0.05344421 -15.219753 -32.211678 -106.97183
75934000 -31.836189 -93.219215 -0.053482994 -15.432514 -0.053806659 -15.430325 -32.126179 -106.89247
76933000 -31.70886 -93.63401 -0.055072725 -15.625712 -0.055438194 -15.620573 -31.956343 -107.3332
77932000 -31.60726 -94.434616 -0.056001931 -15.82367 -0.05626547 -15.814219 -31.845482 -107.32709
78931000 -31.541637 -95.217506 -0.055023961 -16.018219 -0.056108128 -16.020023 -31.748518 -107.24754
79930000 -31.437101 -96.005684 -0.058282789 -16.213675 -0.058639608 -16.211176 -31.655121 -107.47365
80929000 -31.320549 -96.996902 -0.059373282 -16.409775 -0.059891336 -16.404541 -31.549749 -107.78123
81928000 -31.240622 -97.830254 -0.059250992 -16.6008 -0.059755385 -16.598778 -31.435326 -107.96704
82927000 -31.150782 -98.586266 -0.061155498 -16.799133 -0.06131617 -16.796511 -31.328846 -108.3212
83926000 -31.031137 -99.330902 -0.062498026 -16.99445 -0.062214151 -16.995615 -31.216158 -108.52769
84925000 -30.937664 -99.804832 -0.063189276 -17.197702 -0.062539518 -17.189646 -31.121841 -108.53631
85924000 -30.840874 -100.21867 -0.06363029 -17.395893 -0.064473048 -17.389204 -31.041174 -108.56032
86923000 -30.73563 -100.73335 -0.064273909 -17.592215 -0.064250521 -17.586311 -30.931839 -108.46645
87922000 -30.630692 -101.12362 -0.063954711 -17.799225 -0.063770302 -17.790138 -30.851915 -108.55423
88921000 -30.562637 -101.45755 -0.065387718 -17.998146 -0.065020621 -17.991789 -30.758951 -108.51048
89920000 -30.460083 -102.00642 -0.06580136 -18.195223 -0.065161988 -18.188442 -30.708357 -108.72317
90919000 -30.364908 -102.29623 -0.066604063 -18.390518 -0.066515476 -18.383213 -30.617634 -108.9213
91918000 -30.27207 -102.64761 -0.066666357 -18.592165 -0.066974707 -18.5872 -30.554398 -108.91919
92917000 -30.19084 -103.00123 -0.068556763 -18.789461 -0.066844061 -18.783804 -30.500423 -109.08316
93916000 -30.097061 -103.41721 -0.067775525 -18.984303 -0.067599103 -18.979019 -30.403017 -109.6834
94915000 -30.028156 -104.10373 -0.069773994 -19.184208 -0.068402395 -19.174026 -30.343245 -109.58302
95914000 -29.964939 -104.30048 -0.070501395 -19.377628 -0.069114573 -19.376579 -30.260071 -109.81392
96913000 -29.884058 -104.44766 -0.070951052 -19.57737 -0.070681095 -19.575619 -30.191729 -110.20749
97912000 -29.806173 -104.94063 -0.072889388 -19.771225 -0.070682414 -19.772425 -30.117491 -110.36452
98911000 -29.701658 -105.21771 -0.072865434 -19.973413 -0.072288185 -19.97205 -30.076065 -110.59755
99910000 -29.637091 -105.31937 -0.073357984 -20.169657 -0.072566144 -20.1714 -29.963406 -110.90517
100909000 -29.545059 -105.5686 -0.072890967 -20.379622 -0.071706548 -20.372679 -29.880505 -111.14674
101908000 -29.462547 -105.8326 -0.074628182 -20.578648 -0.072796993 -20.577993 -29.771074 -110.94106
102907000 -29.330822 -105.86654 -0.074690595 -20.778814 -0.073294006 -20.780233 -29.693359 -110.93459
103906000 -29.236927 -105.94729 -0.075075626 -20.989429 -0.072655641 -20.980572 -29.550659 -110.86948
104905000 -29.093908 -105.87893 -0.074965537 -21.183781 -0.072928347 -21.182091 -29.413261 -110.57983
105904000 -28.950926 -105.96321 -0.075204156 -21.386711 -0.072719075 -21.377329 -29.305977 -110.41522
106903000 -28.846401 -106.06637 -0.07547202 -21.588274 -0.073716305 -21.582846 -29.179522 -110.301
107902000 -28.686029 -106.45031 -0.076438271 -21.789722 -0.07429032 -21.77949 -29.03414 -110.25961
108901000 -28.570045 -106.67314 -0.07755468 -21.992634 -0.07542593 -21.982416 -28.911829 -110.19368
109900000 -28.45129 -107.16614 -0.078345589 -22.190483 -0.076519415 -22.181841 -28.75831 -110.34326
110899000 -28.327642 -107.78363 -0.079588242 -22.38777 -0.077152036 -22.381275 -28.632418 -110.63564
111898000 -28.236609 -108.47625 -0.080665112 -22.589083 -0.07753887 -22.583353 -28.519932 -110.71705
112897000 -28.111547 -109.03728 -0.082295157 -22.78775 -0.078653976 -22.775774 -28.378178 -110.95535
113896000 -28.01449 -109.61721 -0.083553195 -22.989599 -0.080005087 -22.976517 -28.269148 -111.08231
114895000 -27.910971 -110.31771 -0.083616003 -23.184191 -0.081745677 -23.172216 -28.160881 -111.17946
115894000 -27.786331 -110.63638 -0.085546799 -23.381969 -0.083131261 -23.37302 -28.087055 -111.39471
116893000 -27.705061 -111.24452 -0.085713394 -23.580687 -0.083998926 -23.561892 -27.960901 -111.49812
117892000 -27.625191 -111.72355 -0.085852005 -23.778273 -0.084000513 -23.768318 -27.88814 -111.69636
118891000 -27.564117 -112.13172 -0.086613797 -23.97963 -0.083562694 -23.965094 -27.790417 -111.84396
119890000 -27.481348 -112.54857 -0.087742329 -24.178696 -0.085235283 -24.164333 -27.78594 -112.05069
120889000 -27.424208 -113.00797 -0.088126406 -24.37686 -0.085595377 -24.366123 -27.711296 -111.94112
121888000 -27.384018 -113.36774 -0.088577628 -24.577625 -0.086018085 -24.563704 -27.648932 -112.26203
122887000 -27.341806 -113.53767 -0.089773536 -24.781675 -0.086310118 -24.762497 -27.604683 -112.29245
123886000 -27.295307 -113.99808 -0.090043359 -24.980446 -0.086846709 -24.960724 -27.587122 -112.43413
124885000 -27.251608 -114.44774 -0.09007322 -25.178949 -0.087416127 -25.164509 -27.561237 -112.48596
125884000 -27.198105 -114.69165 -0.090683758 -25.375179 -0.087500647 -25.362246 -27.5324 -112.69668
126883000 -27.180408 -115.05413 -0.090847112 -25.579012 -0.088016517 -25.564411 -27.489532 -112.72481
127882000 -27.12512 -115.36639 -0.09165895 -25.775801 -0.088583969 -25.762869 -27.450157 -112.89776
128881000 -27.095526 -115.64023 -0.091861211 -25.978504 -0.088457689 -25.962858 -27.409294 -113.00178
129880000 -27.038708 -116.0219 -0.092695981 -26.18092 -0.08862862 -26.160057 -27.373564 -113.0491
130879000 -26.983219 -116.13293 -0.091916993 -26.378225 -0.090051286 -26.364109 -27.292507 -113.07855
131878000 -26.914503 -116.36803 -0.092590995 -26.582668 -0.090191625 -26.560858 -27.21801 -112.98558
132877000 -26.840593 -116.42249 -0.0921584 -26.780903 -0.090145633 -26.766346 -27.144691 -112.97421
133876000 -26.758467 -116.6139 -0.09239611 -26.981176 -0.089969359 -26.962101 -27.050398 -112.89829
134875000 -26.66254 -116.72466 -0.092382625 -27.182892 -0.09052676 -27.16807 -26.947994 -112.77473
135874000 -26.585722 -116.72536 -0.092589676 -27.382486 -0.091128901 -27.368446 -26.852331 -112.74288
136873000 -26.474016 -116.66357 -0.093484886 -27.58292 -0.090050489 -27.567671 -26.761269 -112.73665
137872000 -26.392704 -116.80453 -0.09380573 -27.785666 -0.09029787 -27.772743 -26.658924 -112.71239
138871000 -26.31942 -117.00484 -0.09413559 -27.984955 -0.090827025 -27.970245 -26.558153 -112.81396
139870000 -26.220854 -117.23677 -0.094694316 -28.18778 -0.092365436 -28.169182 -26.481453 -113.00202
140869000 -26.13529 -117.72443 -0.096228011 -28.378531 -0.093981631 -28.361422 -26.377831 -113.13976
141868000 -26.045216 -118.20753 -0.096132472 -28.57073 -0.094546691 -28.557802 -26.301184 -113.49329
142867000 -25.965897 -118.45614 -0.094533987 -28.77206 -0.093378037 -28.756292 -26.225838 -113.66483
143866000 -25.895569 -118.95616 -0.096553549 -28.966608 -0.09418717 -28.953537 -26.150049 -114.1825
144865000 -25.8419 -119.44733 -0.097979613 -29.166159 -0.095317148 -29.149195 -26.093647 -114.47674
145864000 -25.782858 -119.81738 -0.098520562 -29.36762 -0.096932322 -29.355604 -26.060705 -114.76988
146863000 -25.736351 -120.18887 -0.099343635 -29.565739 -0.097156271 -29.552935 -26.009726 -115.11491
147862000 -25.693235 -120.55455 -0.099660411 -29.763014 -0.097553097 -29.750658 -25.975096 -115.43946
148861000 -25.666965 -121.10391 -0.10027071 -29.962914 -0.098239094 -29.943512 -25.949488 -115.64374
149860000 -25.655539 -121.26945 -0.10062967 -30.158585 -0.098779544 -30.148458 -25.918697 -115.81701
150859000 -25.623558 -121.65481 -0.10110153 -30.35947 -0.099194527 -30.346653 -25.912617 -116.10187
151858000 -25.609739 -121.96897 -0.10123454 -30.555296 -0.099274777 -30.540487 -25.903603 -116.36946
152857000 -25.595984 -122.28642 -0.10166487 -30.755642 -0.099149771 -30.73958 -25.888128 -116.51996
153856000 -25.590607 -122.48071 -0.10151197 -30.952242 -0.098498851 -30.94183 -25.900112 -116.79297
154855000 -25.576725 -122.65597 -0.10176291 -31.153429 -0.098702483 -31.142159 -25.885544 -116.97277
155854000 -25.594429 -122.92728 -0.1021114 -31.353901 -0.099793904 -31.338264 -25.885283 -117.24494
156853000 -25.57955 -123.61898 -0.099972963 -31.541824 -0.098800734 -31.533089 -25.874384 -117.56715
157852000 -25.583921 -123.82141 -0.10107663 -31.739149 -0.099937998 -31.732069 -25.866035 -117.89194
158851000 -25.582214 -124.08596 -0.10154086 -31.937729 -0.10004289 -31.926764 -25.849182 -118.14859
159850000 -25.561472 -124.18918 -0.10269368 -32.135822 -0.10037826 -32.129837 -25.851791 -118.31104
160849000 -25.546938 -124.2876 -0.10239312 -32.334404 -0.10168447 -32.330959 -25.823187 -118.61481
161848000 -25.526407 -124.41409 -0.10279016 -32.536255 -0.10134265 -32.531387 -25.77644 -118.73836
162847000 -25.481514 -124.61896 -0.10295928 -32.734493 -0.10180479 -32.726665 -25.751873 -118.98631
163846000 -25.439165 -124.81652 -0.10280024 -32.93647 -0.1020425 -32.925907 -25.67437 -118.99546
164845000 -25.38274 -124.82536 -0.1033622 -33.131382 -0.10208198 -33.125675 -25.607937 -119.09422
165844000 -25.328245 -124.94186 -0.10391628 -33.32848 -0.10186627 -33.323875 -25.528507 -119.22314
166843000 -25.264648 -124.96616 -0.10318486 -33.526791 -0.10205071 -33.524506 -25.452448 -119.41184
167842000 -25.209202 -125.11277 -0.10384867 -33.726601 -0.10267301 -33.722439 -25.372644 -119.35896
168841000 -25.133125 -125.31535 -0.1042668 -33.923149 -0.10311302 -33.9245 -25.301649 -119.39541
169840000 -25.063313 -125.56931 -0.1044402 -34.118649 -0.10375032 -34.11866 -25.20952 -119.60566
170839000 -25.007292 -125.86147 -0.10538349 -34.317543 -0.10373653 -34.314625 -25.124342 -119.80045
171838000 -24.95039 -126.27232 -0.10524265 -34.517765 -0.1047669 -34.513351 -25.062548 -120.05213
172837000 -24.873997 -126.65895 -0.10641557 -34.71558 -0.10526228 -34.70752 -24.993729 -120.24074
173836000 -24.80863 -127.05951 -0.10727146 -34.914505 -0.10631158 -34.908852 -24.946125 -120.52679
174835000 -24.759932 -127.51254 -0.10779472 -35.10767 -0.10683315 -35.10878 -24.903933 -120.84266
175834000 -24.708689 -127.89239 -0.10857496 -35.30682 -0.10819438 -35.301758 -24.840851 -121.11582
176833000 -24.65616 -128.27049 -0.10929058 -35.505566 -0.108037 -35.5037 -24.787506 -121.3047
177832000 -24.609821 -128.72382 -0.10989799 -35.69899 -0.1087581 -35.701145 -24.767473 -121.44944
178831000 -24.572174 -129.12289 -0.11033501 -35.899567 -0.10930385 -35.893047 -24.728283 -121.6632
179830000 -24.534372 -129.55113 -0.11104029 -36.092827 -0.10964365 -36.09354 -24.700079 -121.80358
180829000 -24.494658 -129.76923 -0.11115979 -36.291973 -0.11011994 -36.290577 -24.673784 -121.96336
181828000 -24.471334 -130.10793 -0.11118475 -36.488365 -0.11035465 -36.485626 -24.659128 -122.07637
182827000 -24.447453 -130.47276 -0.11138713 -36.684612 -0.11065258 -36.680573 -24.646128 -122.11463
183826000 -24.406075 -130.78564 -0.11183439 -36.884502 -0.11053734 -36.877525 -24.634977 -122.29366
184825000 -24.413332 -131.08432 -0.11254682 -37.075428 -0.11112367 -37.076553 -24.614077 -122.38803
185824000 -24.385639 -131.44661 -0.1122408 -37.270866 -0.11137173 -37.272594 -24.614075 -122.43613
186823000 -24.368547 -131.81395 -0.11268231 -37.472481 -0.11128833 -37.470726 -24.611797 -122.40887
187822000 -24.346956 -132.12437 -0.1126236 -37.669155 -0.11260686 -37.665836 -24.578188 -122.48584
188821000 -24.327482 -132.36057 -0.1125989 -37.861286 -0.11209125 -37.86734 -24.559523 -122.56985
189820000 -24.311052 -132.64392 -0.11336831 -38.061726 -0.11234493 -38.059494 -24.55308 -122.73753
190819000 -24.287077 -132.87785 -0.11433718 -38.26162 -0.11393005 -38.261227 -24.52137 -122.72081
191818000 -24.246777 -133.07944 -0.11573214 -38.456318 -0.11522014 -38.457386 -24.486715 -122.57003
192817000 -24.174458 -133.35432 -0.11631014 -38.640995 -0.11544929 -38.641254 -24.417114 -122.67766
193816000 -24.13843 -133.68469 -0.11483685 -38.834957 -0.11438768 -38.8335 -24.360611 -122.93694
194815000 -24.081387 -134.16049 -0.11528181 -39.029499 -0.11461465 -39.033546 -24.298136 -123.03368
195814000 -24.031406 -134.36794 -0.11580392 -39.229126 -0.11432867 -39.231697 -24.246363 -123.16958
196813000 -23.975019 -134.70743 -0.11510877 -39.422924 -0.11377034 -39.423172 -24.169449 -123.34145
197812000 -23.917034 -134.94244 -0.11507873 -39.621925 -0.11413573 -39.618549 -24.095011 -123.43584
198811000 -23.871267 -135.13145 -0.11548331 -39.816177 -0.11470687 -39.818626 -24.027691 -123.6089
199810000 -23.798315 -135.44716 -0.11568003 -40.012463 -0.11471777 -40.007751 -23.951765 -123.73777
200809000 -23.743734 -135.76559 -0.11580551 -40.21167 -0.11511727 -40.212234 -23.870642 -123.91763
201808000 -23.685068 -135.97099 -0.11622319 -40.408485 -0.11532275 -40.411304 -23.806021 -123.99027
202807000 -23.626514 -136.33391 -0.11775707 -40.611118 -0.11620219 -40.61021 -23.746532 -124.21446
203806000 -23.577793 -136.78415 -0.11879369 -40.812008 -0.11685152 -40.811852 -23.6849 -124.38862
