!Keysight Technologies,E5080B,MY59205177,A.15.75.32
!Date: Friday, February 23, 2024 03:38:42
!Correction: S11(Cdelta 2-Port  ) 
!S21(Cdelta 2-Port  ) 
!S12(Cdelta 2-Port  ) 
!S22(Cdelta 2-Port  ) 
!S2P File: Measurements: S11, S21, S12, S22:
# Hz S  dB   R 50
10000000 -46.092945 -2.4686797 -0.014042259 -2.0428715 -0.017745573 -2.0951505 -45.914471 -157.43054
10999000 -45.291416 -4.8289986 -0.015260673 -2.2600088 -0.017503854 -2.3149395 -45.855095 -151.05331
11998000 -44.371178 -7.618679 -0.015611378 -2.4835849 -0.017511651 -2.5300579 -46.024517 -146.98608
12997000 -43.577663 -13.466205 -0.015469794 -2.666343 -0.017353892 -2.697901 -45.622696 -141.36475
13996000 -43.310677 -17.425402 -0.014633112 -2.8453212 -0.017049564 -2.8659074 -45.409821 -136.24365
14995000 -42.904625 -21.81728 -0.016742919 -3.0571716 -0.017221088 -3.0825973 -45.086895 -132.93752
15994000 -42.728569 -26.416796 -0.018543599 -3.2732692 -0.019879516 -3.2969894 -44.995491 -129.17036
16993000 -42.674305 -30.887379 -0.016587786 -3.4713547 -0.01853684 -3.4782681 -44.112759 -128.96689
17992000 -42.727776 -36.063835 -0.017761948 -3.6706164 -0.019326432 -3.6759617 -43.559643 -129.44092
18991000 -42.952095 -41.435474 -0.018316394 -3.8828473 -0.020163238 -3.8793464 -42.913223 -128.2823
19990000 -42.7379 -47.535351 -0.020775992 -4.0940547 -0.021812879 -4.0867767 -42.307297 -129.06866
20989000 -42.569614 -50.39534 -0.022537233 -4.2925406 -0.023605773 -4.2852178 -41.735062 -128.20363
21988000 -42.353867 -55.778709 -0.024023006 -4.4928203 -0.02455977 -4.4783902 -41.442604 -127.51354
22987000 -41.999687 -60.454441 -0.024800578 -4.6919107 -0.026074359 -4.6837263 -41.187992 -127.10164
23986000 -41.95694 -65.019463 -0.024294503 -4.8837404 -0.02463969 -4.8846812 -41.056515 -126.71379
24985000 -41.52652 -67.695564 -0.025441067 -5.0942836 -0.025023438 -5.0939498 -40.876934 -124.55679
25984000 -41.213509 -69.527138 -0.026353277 -5.3009787 -0.02604389 -5.3032665 -40.536865 -122.622
26983000 -40.883465 -71.525581 -0.027458183 -5.4994631 -0.026698627 -5.5191135 -40.414188 -122.39059
27982000 -40.671539 -72.251221 -0.027813001 -5.6972518 -0.027890638 -5.7345443 -40.144192 -120.48021
28981000 -40.643589 -74.045578 -0.026545221 -5.8958688 -0.027588958 -5.9243765 -39.91029 -119.98109
29980000 -40.255722 -74.973389 -0.026440784 -6.0908175 -0.028483639 -6.0996161 -39.658752 -119.06187
30979000 -39.87394 -74.200188 -0.024247387 -6.4484444 -0.022700906 -6.4385014 -39.119907 -119.4585
31978000 -39.651745 -75.205574 -0.023333538 -6.6382399 -0.023740595 -6.6310353 -38.901154 -118.76388
32977000 -39.482483 -76.825859 -0.023061581 -6.8500538 -0.024273418 -6.844687 -38.651634 -118.8057
33976000 -39.311291 -77.825912 -0.023827529 -7.0510869 -0.024724038 -7.044908 -38.382484 -118.17918
34975000 -39.000278 -78.555 -0.023781719 -7.2512817 -0.025666824 -7.2526979 -38.162102 -117.74915
35974000 -38.802078 -79.168381 -0.023821281 -7.4481583 -0.02546346 -7.4496865 -37.869354 -116.91642
36973000 -38.579075 -79.799393 -0.023988647 -7.644803 -0.026589498 -7.6499906 -37.611057 -115.87582
37972000 -38.426647 -79.505791 -0.023322608 -7.8551197 -0.026362913 -7.8643165 -37.399574 -115.35349
38971000 -38.089706 -79.024506 -0.023529254 -8.0594797 -0.02671738 -8.0659466 -37.222927 -113.76003
39970000 -37.782654 -79.377472 -0.022272091 -8.2545996 -0.024935959 -8.2680426 -36.984722 -113.26323
40969000 -37.489353 -79.106667 -0.022797188 -8.4467907 -0.02490706 -8.4710426 -36.733829 -111.63187
41968000 -37.149307 -79.035713 -0.022994179 -8.6478739 -0.02503177 -8.6744595 -36.549263 -110.59019
42967000 -36.886234 -78.963348 -0.023005109 -8.8652811 -0.026072796 -8.8831968 -36.358536 -108.67789
43966000 -36.592865 -79.677834 -0.023609936 -9.0686398 -0.027204202 -9.0831404 -36.099476 -107.89451
44965000 -36.35675 -80.37603 -0.024920078 -9.2708378 -0.026750198 -9.2859936 -35.888824 -107.72892
45964000 -36.110821 -81.430428 -0.025645731 -9.4716969 -0.027700195 -9.4866629 -35.650597 -107.42207
46963000 -35.917423 -83.322189 -0.026160298 -9.6623468 -0.028699391 -9.6827688 -35.460434 -107.59137
47962000 -35.761883 -84.762474 -0.027158357 -9.8633499 -0.029873183 -9.8791094 -35.26416 -107.60924
48961000 -35.560303 -86.118034 -0.02927452 -10.059766 -0.031803437 -10.081555 -35.042282 -107.82865
49960000 -35.313042 -87.368103 -0.030456809 -10.258546 -0.0329872 -10.284994 -34.912079 -107.852
50959000 -35.076164 -88.648453 -0.031138545 -10.472322 -0.0342566 -10.483488 -34.721947 -108.13381
51958000 -34.882034 -89.729218 -0.033352382 -10.672264 -0.035104901 -10.682694 -34.551991 -108.65607
52957000 -34.665737 -90.751602 -0.034320522 -10.871551 -0.036024623 -10.879073 -34.393497 -108.3904
53956000 -34.489017 -91.436829 -0.035433982 -11.079321 -0.037656799 -11.077549 -34.26709 -108.30023
54955000 -34.318535 -91.956963 -0.036096662 -11.275767 -0.038408089 -11.268662 -34.110043 -108.259
55954000 -34.155144 -92.709984 -0.037282117 -11.476873 -0.038717315 -11.475512 -34.003117 -108.04641
56953000 -34.03788 -92.755196 -0.037568022 -11.674045 -0.037293606 -11.664533 -33.934296 -108.22774
57952000 -33.877644 -93.308441 -0.038141716 -11.869139 -0.038222931 -11.86122 -33.831028 -108.20733
58951000 -33.761658 -93.803162 -0.039577719 -12.07565 -0.039159771 -12.059092 -33.671898 -108.3676
59950000 -33.618031 -94.027023 -0.039954688 -12.27535 -0.03968665 -12.25606 -33.592777 -108.6418
60949000 -33.498161 -94.629501 -0.040898435 -12.479266 -0.040353898 -12.456807 -33.495598 -108.87043
61948000 -33.431858 -94.9356 -0.041317593 -12.678131 -0.040397272 -12.662459 -33.410995 -108.95785
62947000 -33.352032 -95.193306 -0.041336671 -12.890765 -0.04150654 -12.865 -33.26379 -109.22428
63946000 -33.275959 -95.87912 -0.042092256 -13.087419 -0.041863032 -13.067812 -33.165676 -109.4486
64945000 -33.150127 -96.033287 -0.042997774 -13.29026 -0.043215033 -13.271218 -33.050743 -109.89182
65944000 -33.053925 -96.319168 -0.043221045 -13.4901 -0.042974766 -13.47244 -32.948566 -110.29189
66943000 -32.919041 -96.757462 -0.04123266 -13.691027 -0.041177258 -13.675632 -32.842239 -110.54963
67942000 -32.858959 -96.66362 -0.043359093 -13.888865 -0.043346021 -13.875205 -32.726238 -110.81858
68941000 -32.738579 -96.81559 -0.042945225 -14.079881 -0.04182069 -14.07308 -32.621311 -110.73956
69940000 -32.652824 -96.742851 -0.043352034 -14.283484 -0.043630756 -14.270174 -32.47533 -111.09673
70939000 -32.535545 -96.804085 -0.042869151 -14.47016 -0.043175552 -14.471284 -32.343906 -110.95492
71938000 -32.405663 -96.331192 -0.04367625 -14.67286 -0.042280193 -14.66671 -32.213825 -110.85355
72937000 -32.251919 -96.081406 -0.042846669 -14.877314 -0.04206612 -14.867905 -32.081787 -110.51773
73936000 -32.105305 -95.729553 -0.042756215 -15.068907 -0.041823566 -15.065912 -31.961258 -110.37767
74935000 -31.987419 -95.969162 -0.04204338 -15.264746 -0.040555086 -15.264834 -31.812061 -109.99863
75934000 -31.864885 -96.226944 -0.04233744 -15.478747 -0.041154262 -15.470841 -31.724453 -109.93053
76933000 -31.73489 -96.540573 -0.043035161 -15.669581 -0.042748895 -15.66554 -31.560869 -110.1982
77932000 -31.629345 -97.271301 -0.044114247 -15.868302 -0.043691155 -15.862703 -31.462198 -110.19106
78931000 -31.56179 -98.082527 -0.042992808 -16.066814 -0.043388113 -16.061022 -31.356148 -110.08054
79930000 -31.447037 -98.864403 -0.04546538 -16.260029 -0.045686159 -16.260475 -31.27219 -110.40834
80929000 -31.333744 -99.657608 -0.046830799 -16.456549 -0.047110792 -16.454151 -31.156828 -110.61398
81928000 -31.233515 -100.40648 -0.046834722 -16.649969 -0.047647011 -16.644989 -31.033915 -110.63083
82927000 -31.135824 -101.19183 -0.048725151 -16.847172 -0.048803687 -16.845184 -30.936182 -110.85326
83926000 -31.017809 -101.81112 -0.049984761 -17.04351 -0.050209176 -17.044109 -30.808756 -111.0631
84925000 -30.910908 -102.2436 -0.050389607 -17.244949 -0.050163347 -17.243303 -30.718433 -111.15461
85924000 -30.826242 -102.6151 -0.051291879 -17.443151 -0.05127852 -17.440092 -30.63117 -111.03671
86923000 -30.714943 -103.13265 -0.051749244 -17.646471 -0.051642627 -17.637608 -30.531099 -110.98264
87922000 -30.605339 -103.46774 -0.051704708 -17.853132 -0.05137701 -17.843937 -30.438875 -111.00448
88921000 -30.542164 -103.73993 -0.053160142 -18.04863 -0.052336603 -18.045071 -30.356869 -110.98361
89920000 -30.43306 -104.24861 -0.053470153 -18.248652 -0.052776258 -18.241533 -30.301056 -111.12385
90919000 -30.329824 -104.54699 -0.054735597 -18.439829 -0.05368191 -18.435406 -30.213242 -111.33109
91918000 -30.234545 -104.86818 -0.05540254 -18.639681 -0.054332439 -18.63842 -30.149393 -111.328
92917000 -30.141874 -105.15668 -0.056325521 -18.841345 -0.055705633 -18.837427 -30.083899 -111.39241
93916000 -30.056726 -105.45607 -0.05584434 -19.036591 -0.054830756 -19.031397 -29.99198 -112.01971
94915000 -29.979086 -106.12994 -0.05719519 -19.23892 -0.056161888 -19.231005 -29.92345 -111.91918
95914000 -29.909678 -106.35372 -0.058223233 -19.433615 -0.057845723 -19.42877 -29.841866 -112.15446
96913000 -29.824036 -106.56425 -0.05921793 -19.632113 -0.05837094 -19.629364 -29.776329 -112.49416
97912000 -29.746872 -107.05576 -0.060317319 -19.828966 -0.05819726 -19.829517 -29.696211 -112.71954
98911000 -29.640759 -107.1629 -0.060610518 -20.032505 -0.059148125 -20.031275 -29.654398 -112.94681
99910000 -29.581413 -107.26547 -0.061495226 -20.230745 -0.059654083 -20.227837 -29.547081 -113.23292
100909000 -29.474138 -107.56796 -0.060737044 -20.438711 -0.058820654 -20.434172 -29.464268 -113.45948
101908000 -29.390707 -107.7836 -0.061932921 -20.638878 -0.059722841 -20.636011 -29.349709 -113.22555
102907000 -29.266405 -107.76439 -0.06213012 -20.834787 -0.060088966 -20.837229 -29.27581 -113.20051
103906000 -29.161816 -107.83235 -0.062636159 -21.045822 -0.060011279 -21.037506 -29.131849 -113.12326
104905000 -29.014597 -107.72014 -0.063091308 -21.240366 -0.060303405 -21.241556 -29.007105 -112.85465
105904000 -28.884941 -107.82328 -0.063376024 -21.447649 -0.060411811 -21.439497 -28.897404 -112.72472
106903000 -28.769531 -107.83762 -0.0632158 -21.649282 -0.061652232 -21.644741 -28.770266 -112.59773
107902000 -28.605234 -108.19585 -0.064741306 -21.849506 -0.061671928 -21.841171 -28.641373 -112.549
108901000 -28.502096 -108.40052 -0.065095767 -22.053638 -0.062943697 -22.04575 -28.512375 -112.48962
109900000 -28.366127 -108.88348 -0.065601364 -22.252766 -0.064205602 -22.243288 -28.359762 -112.61388
110899000 -28.251703 -109.46302 -0.067355379 -22.449173 -0.065098658 -22.443642 -28.240618 -112.8488
111898000 -28.157551 -110.13251 -0.068463929 -22.654024 -0.066307038 -22.646421 -28.128748 -113.01037
112897000 -28.032373 -110.63021 -0.069679566 -22.850254 -0.066774137 -22.838749 -27.987041 -113.15342
113896000 -27.931992 -111.22496 -0.070945263 -23.052374 -0.068133391 -23.03997 -27.882994 -113.27454
114895000 -27.82625 -111.89352 -0.071601018 -23.249628 -0.069490172 -23.237108 -27.768616 -113.36859
115894000 -27.702404 -112.26047 -0.073516734 -23.449215 -0.070520602 -23.439909 -27.695919 -113.5761
116893000 -27.621105 -112.71169 -0.074059129 -23.648958 -0.071649961 -23.63443 -27.579617 -113.6218
117892000 -27.540745 -113.21367 -0.073832154 -23.845325 -0.07254719 -23.832237 -27.502447 -113.80119
118891000 -27.487762 -113.62083 -0.074576303 -24.047338 -0.072419003 -24.03352 -27.40638 -113.94257
119890000 -27.398575 -114.01547 -0.075827889 -24.244444 -0.073765546 -24.230869 -27.388874 -114.04544
120889000 -27.350443 -114.47881 -0.077051908 -24.44577 -0.074068867 -24.434111 -27.316624 -114.02953
121888000 -27.309095 -114.76582 -0.076700948 -24.643484 -0.074109681 -24.628902 -27.255539 -114.284
122887000 -27.264328 -114.99121 -0.077561006 -24.848022 -0.074569978 -24.835274 -27.206518 -114.27628
123886000 -27.207668 -115.42326 -0.078413323 -25.048668 -0.074935518 -25.033449 -27.193045 -114.44997
124885000 -27.178535 -115.90248 -0.078229614 -25.248817 -0.074852295 -25.231054 -27.162615 -114.51066
125884000 -27.121929 -116.11655 -0.079260804 -25.446667 -0.075874515 -25.433838 -27.141159 -114.6264
126883000 -27.104563 -116.50237 -0.079400264 -25.648289 -0.076066025 -25.637579 -27.101248 -114.6403
127882000 -27.050638 -116.81322 -0.079557396 -25.851198 -0.076610841 -25.834993 -27.057365 -114.7945
128881000 -27.03042 -117.11159 -0.079722703 -26.05155 -0.076188788 -26.034016 -27.021555 -114.87704
129880000 -26.974352 -117.43925 -0.080391124 -26.253532 -0.076841116 -26.234173 -26.981098 -114.83154
130879000 -26.911366 -117.56502 -0.080602087 -26.451429 -0.077940233 -26.438093 -26.901247 -114.8754
131878000 -26.845812 -117.78426 -0.08089982 -26.657543 -0.078548543 -26.63719 -26.848528 -114.70824
132877000 -26.782156 -117.87324 -0.080640584 -26.854378 -0.078843236 -26.838715 -26.769104 -114.68697
133876000 -26.703682 -118.0593 -0.081085756 -27.058043 -0.078265198 -27.041655 -26.684923 -114.55749
134875000 -26.604689 -118.17744 -0.080625817 -27.258661 -0.078947887 -27.236923 -26.58366 -114.42389
135874000 -26.523777 -118.17464 -0.081955649 -27.453081 -0.078159772 -27.444054 -26.487082 -114.37534
136873000 -26.42004 -118.13898 -0.081980973 -27.663012 -0.077300914 -27.644871 -26.410942 -114.34544
137872000 -26.339817 -118.22914 -0.081626453 -27.860767 -0.078709595 -27.848091 -26.310755 -114.24573
138871000 -26.261518 -118.45634 -0.081770472 -28.060764 -0.078758888 -28.048208 -26.208815 -114.37841
139870000 -26.164288 -118.76874 -0.082807779 -28.264532 -0.07965336 -28.245708 -26.136173 -114.56556
140869000 -26.087357 -119.30614 -0.083495669 -28.459475 -0.080226578 -28.441345 -26.03702 -114.76356
141868000 -26.000448 -119.68968 -0.083918698 -28.654198 -0.082147695 -28.643753 -25.986795 -115.03282
142867000 -25.927071 -119.89033 -0.082831256 -28.855873 -0.080782197 -28.837551 -25.908779 -115.15807
143866000 -25.856163 -120.3646 -0.084494852 -29.053661 -0.08265581 -29.038631 -25.835293 -115.59547
144865000 -25.799257 -120.86558 -0.086896628 -29.250654 -0.08389125 -29.233385 -25.775171 -115.9076
145864000 -25.748533 -121.16313 -0.08716812 -29.451492 -0.08525455 -29.439045 -25.7467 -116.12294
146863000 -25.701107 -121.53916 -0.088030256 -29.654257 -0.085352227 -29.638933 -25.697081 -116.43517
147862000 -25.661604 -121.87794 -0.089113183 -29.848921 -0.085620195 -29.836086 -25.663713 -116.74871
148861000 -25.624458 -122.29485 -0.08986444 -30.051966 -0.087374657 -30.032785 -25.64341 -116.93467
149860000 -25.598398 -122.51683 -0.090559535 -30.239201 -0.087955229 -30.226925 -25.587786 -117.03066
150859000 -25.575083 -122.96078 -0.090618208 -30.433012 -0.087895006 -30.423868 -25.57618 -117.37993
151858000 -25.557117 -123.28899 -0.089330114 -30.637634 -0.086882889 -30.62495 -25.561678 -117.71472
152857000 -25.551661 -123.63004 -0.089322187 -30.834124 -0.08708255 -30.823589 -25.550739 -117.8716
153856000 -25.540991 -123.86815 -0.089606516 -31.036373 -0.086866781 -31.022802 -25.561234 -118.22607
154855000 -25.543158 -124.0229 -0.090441123 -31.235292 -0.086756662 -31.228895 -25.549671 -118.45175
155854000 -25.558979 -124.28659 -0.091008358 -31.437651 -0.087740742 -31.424479 -25.54463 -118.71475
156853000 -25.541613 -124.95396 -0.087794632 -31.625818 -0.086658157 -31.618032 -25.540989 -119.04015
157852000 -25.552029 -125.20024 -0.089127712 -31.825312 -0.088467725 -31.818211 -25.525406 -119.40949
158851000 -25.546843 -125.38326 -0.08966624 -32.024258 -0.088462971 -32.016006 -25.511019 -119.62861
159850000 -25.536493 -125.50866 -0.090276197 -32.221603 -0.088842094 -32.217159 -25.511269 -119.83408
160849000 -25.520639 -125.57327 -0.090366058 -32.422001 -0.089260884 -32.416718 -25.480465 -120.11631
161848000 -25.505875 -125.68112 -0.09037663 -32.622311 -0.089236841 -32.617439 -25.445736 -120.25782
162847000 -25.46324 -125.82742 -0.090993032 -32.822178 -0.089729398 -32.818623 -25.411797 -120.49887
163846000 -25.424709 -126.05202 -0.09049689 -33.025726 -0.089385077 -33.012318 -25.342117 -120.50452
164845000 -25.366302 -126.03281 -0.09193524 -33.223091 -0.09014722 -33.212963 -25.275887 -120.5628
165844000 -25.316299 -126.05831 -0.09146411 -33.426128 -0.090416804 -33.41703 -25.196758 -120.72219
166843000 -25.254025 -126.10376 -0.091670319 -33.622437 -0.09020219 -33.619564 -25.130369 -120.86087
167842000 -25.196012 -126.20462 -0.091888972 -33.822582 -0.09049134 -33.813194 -25.055195 -120.7905
168841000 -25.120628 -126.35664 -0.092334762 -34.022659 -0.090457506 -34.018978 -24.982353 -120.88187
169840000 -25.052086 -126.64922 -0.091722667 -34.218819 -0.091533899 -34.215584 -24.899624 -121.06329
170839000 -24.992832 -126.826 -0.093834035 -34.413746 -0.092023283 -34.40937 -24.815941 -121.21895
171838000 -24.938393 -127.22369 -0.093577459 -34.616829 -0.092391089 -34.609554 -24.751682 -121.44846
172837000 -24.86731 -127.57674 -0.095046997 -34.812542 -0.093101658 -34.80397 -24.68713 -121.65105
173836000 -24.797617 -127.96231 -0.096204191 -35.01218 -0.094384253 -35.010212 -24.644306 -121.877
174835000 -24.743862 -128.38477 -0.096778803 -35.211094 -0.095325351 -35.208569 -24.603987 -122.18146
175834000 -24.694231 -128.74025 -0.097429201 -35.408577 -0.096535027 -35.403122 -24.536913 -122.42567
176833000 -24.645279 -129.06039 -0.098746181 -35.607399 -0.096312433 -35.603966 -24.487894 -122.57162
177832000 -24.6015 -129.5062 -0.099187382 -35.806278 -0.097686 -35.807499 -24.471294 -122.68969
178831000 -24.559174 -129.71628 -0.10114393 -36.001766 -0.099102631 -35.996704 -24.430756 -122.78432
179830000 -24.485443 -130.11853 -0.10266055 -36.184258 -0.10021031 -36.187256 -24.366528 -122.82804
180829000 -24.438372 -130.44839 -0.10075287 -36.38113 -0.099440835 -36.381073 -24.326977 -123.17889
181828000 -24.413048 -130.88599 -0.10000052 -36.581387 -0.098801263 -36.577797 -24.309898 -123.38726
182827000 -24.389906 -131.26393 -0.09984529 -36.779037 -0.09880285 -36.775597 -24.295551 -123.48692
183826000 -24.343273 -131.58618 -0.10091819 -36.977516 -0.09915401 -36.971916 -24.287888 -123.61282
184825000 -24.351507 -131.95584 -0.10106868 -37.174198 -0.099161953 -37.171604 -24.269403 -123.75311
185824000 -24.322536 -132.30518 -0.10029402 -37.367836 -0.099924758 -37.373425 -24.262884 -123.83468
186823000 -24.306564 -132.658 -0.1003984 -37.571789 -0.10023972 -37.565086 -24.258488 -123.84863
187822000 -24.283609 -133.00206 -0.1012462 -37.762028 -0.10012554 -37.764286 -24.219547 -123.93822
188821000 -24.261124 -133.2849 -0.10088586 -37.957211 -0.1009052 -37.963104 -24.204645 -124.0716
189820000 -24.240929 -133.55083 -0.10131986 -38.159557 -0.10064371 -38.159931 -24.182549 -124.26868
190819000 -24.207895 -133.85191 -0.10234224 -38.360691 -0.10126263 -38.358677 -24.146717 -124.29076
191818000 -24.178068 -134.15961 -0.10205892 -38.554195 -0.10072319 -38.55558 -24.116903 -124.3295
192817000 -24.131258 -134.41826 -0.10258183 -38.751728 -0.10189117 -38.752399 -24.073563 -124.42513
193816000 -24.099001 -134.69781 -0.10312787 -38.945988 -0.10180902 -38.948715 -24.0191 -124.53416
194815000 -24.039034 -135.07416 -0.10329062 -39.143127 -0.10303243 -39.145401 -23.956825 -124.60397
195814000 -23.983826 -135.28333 -0.10366893 -39.340965 -0.1025108 -39.342648 -23.902868 -124.68932
196813000 -23.932198 -135.5934 -0.10375509 -39.53384 -0.10216493 -39.537636 -23.823742 -124.86749
197812000 -23.871187 -135.81677 -0.10406847 -39.731316 -0.10293171 -39.731384 -23.752792 -124.9402
198811000 -23.822718 -135.96286 -0.10322117 -39.928192 -0.10318962 -39.932003 -23.681908 -125.09612
199810000 -23.749516 -136.31451 -0.10419097 -40.123886 -0.10304781 -40.124443 -23.607395 -125.21111
200809000 -23.693947 -136.56667 -0.1048263 -40.323872 -0.10262875 -40.324726 -23.529041 -125.39752
201808000 -23.637878 -136.74451 -0.10501803 -40.522903 -0.10392053 -40.523457 -23.464396 -125.44482
202807000 -23.576321 -137.10968 -0.1056572 -40.726563 -0.10495014 -40.725693 -23.408672 -125.65689
