!Keysight Technologies,E5080B,MY59205177,A.15.75.32
!Date: Friday, February 23, 2024 03:00:33
!Correction: S11(Cdelta 2-Port  ) 
!S21(Cdelta 2-Port  ) 
!S12(Cdelta 2-Port  ) 
!S22(Cdelta 2-Port  ) 
!S2P File: Measurements: S11, S21, S12, S22:
# Hz S  dB   R 50
10000000 -44.145664 -3.8401787 -0.027998498 -2.0394008 -0.030315001 -2.0927522 -48.09811 -150.38324
10999000 -43.485733 -5.5847211 -0.029609155 -2.2588141 -0.030540749 -2.3082027 -47.759449 -142.07733
11998000 -42.687542 -7.8621855 -0.029454604 -2.4807034 -0.029619841 -2.5227358 -47.951164 -137.10365
12997000 -42.076454 -12.721566 -0.02891463 -2.6571167 -0.029533314 -2.6923742 -47.297764 -130.85286
13996000 -41.856899 -16.141857 -0.027677791 -2.8369591 -0.029993081 -2.8579443 -46.852516 -125.12046
14995000 -41.519444 -19.905569 -0.030009503 -3.0463305 -0.029526798 -3.0710404 -46.364082 -121.95782
15994000 -41.417625 -23.706701 -0.031273078 -3.2651238 -0.032362808 -3.2874389 -46.165668 -118.09755
16993000 -41.392269 -27.652451 -0.030327775 -3.4583881 -0.031331483 -3.4683764 -45.204655 -119.20228
17992000 -41.483368 -32.247852 -0.031069715 -3.6592538 -0.031978413 -3.6625307 -44.643818 -119.96728
18991000 -41.751431 -36.844463 -0.031411007 -3.8698769 -0.032383673 -3.8682785 -43.920891 -119.20672
19990000 -41.574074 -41.444099 -0.034053877 -4.0772491 -0.034348439 -4.0739946 -43.236645 -120.86382
20989000 -41.525532 -44.573063 -0.036385361 -4.2797208 -0.036422167 -4.2684135 -42.613693 -120.73795
21988000 -41.419559 -49.24754 -0.036962032 -4.480834 -0.037114762 -4.4643607 -42.360233 -119.94061
22987000 -41.205921 -53.785137 -0.037707455 -4.6757789 -0.038203083 -4.66854 -42.110443 -119.82581
23986000 -41.180328 -57.38858 -0.0376333 -4.8711367 -0.037176378 -4.8667493 -41.899231 -119.38706
24985000 -40.877922 -60.231846 -0.038703471 -5.082366 -0.037397522 -5.0742874 -41.698116 -117.35157
25984000 -40.643421 -62.209137 -0.039016109 -5.2881532 -0.037371151 -5.2864408 -41.330296 -115.86095
26983000 -40.335796 -64.200249 -0.040144101 -5.481132 -0.038364738 -5.4973254 -41.206692 -114.8689
27982000 -40.218025 -65.172508 -0.041333795 -5.6822023 -0.040469646 -5.7131557 -40.91703 -113.38711
28981000 -40.188526 -66.502892 -0.039164994 -5.8816218 -0.040116146 -5.903203 -40.688168 -112.97266
29980000 -39.814568 -68.03051 -0.039377883 -6.0736699 -0.040089495 -6.0761218 -40.380196 -112.2125
30979000 -39.456203 -67.264198 -0.03802577 -6.4265227 -0.035678528 -6.4175735 -39.86636 -113.11475
31978000 -39.269913 -68.485985 -0.036633354 -6.6231413 -0.036750566 -6.6104841 -39.595901 -112.36413
32977000 -39.105278 -69.975883 -0.036172099 -6.828681 -0.036994927 -6.8282104 -39.357525 -112.48544
33976000 -38.963306 -71.358162 -0.037670899 -7.0299563 -0.037450265 -7.0237646 -39.05201 -112.25634
34975000 -38.670151 -72.10611 -0.037248697 -7.2308354 -0.037820261 -7.2277684 -38.830997 -111.96501
35974000 -38.494041 -72.756462 -0.036239181 -7.4228764 -0.03718473 -7.4279556 -38.503445 -111.17873
36973000 -38.282871 -73.691162 -0.036564957 -7.6236038 -0.038918685 -7.6290183 -38.197266 -110.34379
37972000 -38.075432 -73.674583 -0.036222737 -7.8344193 -0.038959172 -7.8426614 -37.975216 -109.87148
38971000 -37.777943 -73.327217 -0.037079513 -8.0331678 -0.038926259 -8.0414371 -37.772224 -108.21484
39970000 -37.460762 -73.881241 -0.036066122 -8.229167 -0.037481073 -8.2477083 -37.501873 -107.88432
40969000 -37.16357 -73.722992 -0.035843741 -8.4217529 -0.037815038 -8.4379969 -37.230232 -106.60252
41968000 -36.83276 -73.975868 -0.036259543 -8.6254902 -0.037485514 -8.6434851 -37.020641 -105.53845
42967000 -36.590527 -74.184479 -0.036267113 -8.8404713 -0.037792321 -8.8604021 -36.799152 -103.74097
43966000 -36.290562 -75.064079 -0.036612991 -9.0409555 -0.038776338 -9.0559072 -36.51482 -103.29017
44965000 -36.075302 -75.969612 -0.037351307 -9.2395916 -0.040094461 -9.2599468 -36.28083 -103.03049
45964000 -35.867447 -77.173035 -0.039121374 -9.4408293 -0.040479574 -9.4559927 -36.043045 -102.81496
46963000 -35.69474 -79.092468 -0.03904406 -9.6312981 -0.040612571 -9.6534138 -35.844433 -103.30674
47962000 -35.544361 -80.563202 -0.040352855 -9.8347139 -0.042572439 -9.8535557 -35.642551 -103.49271
48961000 -35.357285 -82.013603 -0.042431805 -10.029587 -0.043616634 -10.053596 -35.419434 -103.81842
49960000 -35.150768 -83.410255 -0.043491129 -10.23011 -0.044610083 -10.252305 -35.268219 -103.92525
50959000 -34.940159 -84.862686 -0.044495273 -10.443635 -0.046458464 -10.454943 -35.098125 -104.34882
51958000 -34.73848 -85.938126 -0.046409797 -10.644275 -0.04744916 -10.649299 -34.91951 -104.88255
52957000 -34.552944 -87.045952 -0.047360968 -10.839995 -0.048594002 -10.846827 -34.75246 -104.70977
53956000 -34.38554 -87.861801 -0.048773844 -11.043734 -0.049627602 -11.042985 -34.620827 -104.66846
54955000 -34.219856 -88.343796 -0.049843881 -11.244255 -0.050186392 -11.241008 -34.471424 -104.7438
55954000 -34.063938 -89.256668 -0.050780088 -11.446428 -0.050377298 -11.441494 -34.358356 -104.39943
56953000 -33.952942 -89.371643 -0.05101319 -11.641481 -0.049518418 -11.626657 -34.285896 -104.75919
57952000 -33.793991 -90.009605 -0.052210584 -11.83907 -0.050547 -11.827799 -34.191135 -104.77126
58951000 -33.678295 -90.328598 -0.052651275 -12.042189 -0.050950069 -12.025855 -34.028542 -104.91371
59950000 -33.561661 -90.783272 -0.053118736 -12.239569 -0.05221137 -12.217809 -33.96146 -105.18014
60949000 -33.446278 -91.357925 -0.05311114 -12.444351 -0.052338962 -12.41812 -33.878143 -105.48943
61948000 -33.389336 -91.577454 -0.053834967 -12.643354 -0.052865349 -12.624688 -33.7915 -105.60677
62947000 -33.30109 -91.827103 -0.053719126 -12.851843 -0.053156473 -12.830184 -33.666306 -105.85915
63946000 -33.238846 -92.580429 -0.055216391 -13.049335 -0.054281849 -13.030977 -33.553131 -105.97559
64945000 -33.125397 -92.779526 -0.055678364 -13.253633 -0.054878727 -13.231367 -33.456356 -106.46934
65944000 -33.030453 -93.042366 -0.056395013 -13.449836 -0.055312347 -13.432375 -33.349903 -106.99388
66943000 -32.898022 -93.479134 -0.053971253 -13.651019 -0.053550087 -13.635158 -33.255249 -107.26113
67942000 -32.833542 -93.433212 -0.056268878 -13.847091 -0.055414859 -13.838038 -33.126625 -107.58839
68941000 -32.725433 -93.607727 -0.05588131 -14.040908 -0.054059844 -14.030568 -33.029804 -107.55206
69940000 -32.621357 -93.587257 -0.056327619 -14.238326 -0.055708777 -14.233135 -32.887829 -107.89977
70939000 -32.518219 -93.516617 -0.055500071 -14.433501 -0.055029206 -14.428715 -32.75861 -107.84769
71938000 -32.378292 -93.142593 -0.056105245 -14.631997 -0.054886069 -14.624381 -32.623489 -107.67543
72937000 -32.216965 -92.989952 -0.05533411 -14.828751 -0.054291811 -14.822704 -32.484539 -107.41508
73936000 -32.073067 -92.690712 -0.055451304 -15.02972 -0.053624254 -15.01544 -32.359821 -107.31197
74935000 -31.957186 -92.928223 -0.054249346 -15.226437 -0.052516598 -15.22365 -32.207092 -106.93884
75934000 -31.836132 -93.291695 -0.054158658 -15.43318 -0.052771017 -15.426908 -32.124363 -106.92379
76933000 -31.708452 -93.627861 -0.055797666 -15.625263 -0.054226805 -15.619304 -31.948067 -107.32304
77932000 -31.60911 -94.514687 -0.056690309 -15.824053 -0.056213807 -15.81357 -31.850281 -107.28378
78931000 -31.545925 -95.202965 -0.055375271 -16.021795 -0.055416435 -16.018631 -31.752094 -107.15193
79930000 -31.436018 -96.013405 -0.058405049 -16.212307 -0.058148462 -16.210459 -31.656435 -107.5284
80929000 -31.30769 -96.94381 -0.060707379 -16.408278 -0.059621539 -16.406448 -31.54525 -107.88255
81928000 -31.235558 -97.851723 -0.060243037 -16.60265 -0.059462242 -16.597706 -31.428511 -107.9608
82927000 -31.138285 -98.573616 -0.061616 -16.798172 -0.061342422 -16.79867 -31.32979 -108.23489
83926000 -31.033077 -99.257568 -0.062625133 -16.996513 -0.061496537 -16.996876 -31.213371 -108.49634
84925000 -30.929064 -99.7761 -0.063991755 -17.195898 -0.062405586 -17.191944 -31.121119 -108.56131
85924000 -30.855867 -100.21732 -0.064730011 -17.394094 -0.063176401 -17.393396 -31.028984 -108.53444
86923000 -30.737886 -100.7751 -0.064899221 -17.591122 -0.063291445 -17.588728 -30.928621 -108.49107
87922000 -30.623352 -101.13625 -0.064530067 -17.799772 -0.06326019 -17.788713 -30.853748 -108.61031
88921000 -30.567154 -101.45468 -0.066374063 -17.994778 -0.06458734 -17.9921 -30.758911 -108.59315
89920000 -30.45962 -101.9466 -0.065615818 -18.194128 -0.064788081 -18.186943 -30.70496 -108.67966
90919000 -30.359289 -102.32348 -0.067270987 -18.395853 -0.065289699 -18.383459 -30.619545 -108.90709
91918000 -30.272711 -102.70625 -0.067745812 -18.58971 -0.065953009 -18.583105 -30.550135 -108.89926
92917000 -30.181772 -103.0237 -0.069101691 -18.788439 -0.066453971 -18.786114 -30.490353 -109.01657
93916000 -30.094294 -103.41769 -0.068787925 -18.981543 -0.066839851 -18.976936 -30.404058 -109.67798
94915000 -30.02515 -104.03422 -0.069920786 -19.18585 -0.068052135 -19.178205 -30.347944 -109.49481
95914000 -29.959534 -104.23376 -0.070953161 -19.377895 -0.069048032 -19.374485 -30.250448 -109.81892
96913000 -29.879719 -104.4964 -0.072049998 -19.577768 -0.069770314 -19.572966 -30.186434 -110.18282
97912000 -29.803574 -105.01024 -0.07301522 -19.770653 -0.070331179 -19.774145 -30.113655 -110.42
98911000 -29.703112 -105.19229 -0.073241092 -19.974386 -0.071537331 -19.971102 -30.077085 -110.63509
99910000 -29.632133 -105.30937 -0.073922999 -20.172077 -0.072129741 -20.173515 -29.963646 -110.9573
100909000 -29.548666 -105.58901 -0.07392747 -20.380825 -0.071017362 -20.375473 -29.885046 -111.17951
101908000 -29.462854 -105.82778 -0.07431823 -20.57876 -0.072481386 -20.578602 -29.767376 -110.96416
102907000 -29.324158 -105.88056 -0.074364312 -20.77928 -0.072471909 -20.778524 -29.692677 -110.89816
103906000 -29.236427 -105.94038 -0.074879423 -20.985298 -0.071714178 -20.97958 -29.547724 -110.88174
104905000 -29.088646 -105.85383 -0.075713299 -21.180174 -0.072337933 -21.182716 -29.414431 -110.55185
105904000 -28.952477 -105.97437 -0.075982258 -21.384735 -0.072109476 -21.377218 -29.307657 -110.41657
106903000 -28.842052 -106.06814 -0.076566838 -21.589104 -0.072656952 -21.585346 -29.173401 -110.32231
107902000 -28.684036 -106.42788 -0.077070087 -21.787991 -0.073495679 -21.782763 -29.031603 -110.27563
108901000 -28.568441 -106.66779 -0.078508213 -21.989643 -0.073786341 -21.984737 -28.905401 -110.27183
109900000 -28.446119 -107.15738 -0.079060189 -22.190468 -0.075733058 -22.183264 -28.756599 -110.34438
110899000 -28.329958 -107.78021 -0.07974828 -22.389662 -0.076291002 -22.377094 -28.629887 -110.64037
111898000 -28.244467 -108.49372 -0.081406996 -22.586769 -0.077967644 -22.580917 -28.505936 -110.73726
112897000 -28.114767 -109.04964 -0.082661614 -22.786263 -0.078520864 -22.776587 -28.378824 -110.94208
113896000 -28.008631 -109.63454 -0.083832137 -22.986084 -0.079362564 -22.97364 -28.269844 -111.10475
114895000 -27.91522 -110.32695 -0.085207298 -23.186956 -0.081508018 -23.175488 -28.152212 -111.21947
115894000 -27.784122 -110.63081 -0.086417593 -23.385777 -0.082699336 -23.37302 -28.084234 -111.38276
116893000 -27.704618 -111.23779 -0.086817928 -23.580065 -0.082874268 -23.564104 -27.957918 -111.50825
117892000 -27.618334 -111.71873 -0.087012567 -23.778395 -0.083674587 -23.766788 -27.883907 -111.72935
118891000 -27.564495 -112.13813 -0.087140918 -23.977234 -0.083854832 -23.96266 -27.793924 -111.88569
119890000 -27.477308 -112.53082 -0.087531544 -24.180473 -0.084853306 -24.162462 -27.777454 -111.94096
120889000 -27.419821 -113.02349 -0.088652663 -24.38088 -0.084566645 -24.362267 -27.705477 -111.96405
121888000 -27.382215 -113.38751 -0.089026518 -24.574499 -0.085675642 -24.559959 -27.652004 -112.25784
122887000 -27.336851 -113.55413 -0.090191625 -24.775702 -0.085942566 -24.76734 -27.605904 -112.25639
123886000 -27.285095 -113.97915 -0.09028624 -24.98024 -0.086215585 -24.959318 -27.589525 -112.44141
124885000 -27.252758 -114.47935 -0.091075242 -25.176556 -0.087016523 -25.166826 -27.559361 -112.49638
125884000 -27.20043 -114.65862 -0.091458291 -25.375889 -0.086171493 -25.357885 -27.530727 -112.66241
126883000 -27.181604 -115.08405 -0.091358095 -25.578438 -0.087448612 -25.564342 -27.495115 -112.73084
127882000 -27.127346 -115.3801 -0.09230224 -25.778116 -0.088481195 -25.758518 -27.450033 -112.90308
128881000 -27.098694 -115.6998 -0.092202291 -25.978228 -0.088189811 -25.963886 -27.408335 -112.99236
129880000 -27.032454 -116.00558 -0.093361638 -26.182096 -0.088387676 -26.160553 -27.368151 -112.97527
130879000 -26.977865 -116.15539 -0.0922639 -26.38019 -0.089174747 -26.360308 -27.287706 -113.09596
131878000 -26.914804 -116.40592 -0.092649966 -26.583647 -0.089353636 -26.562517 -27.23151 -112.95898
132877000 -26.849958 -116.4465 -0.092909917 -26.786293 -0.08889626 -26.76573 -27.149256 -112.97179
133876000 -26.759483 -116.60725 -0.093360841 -26.985294 -0.088920034 -26.96541 -27.053785 -112.9024
134875000 -26.666403 -116.74287 -0.093527474 -27.18499 -0.089927599 -27.16503 -26.949839 -112.77624
135874000 -26.587954 -116.7321 -0.093830332 -27.38336 -0.089955881 -27.36919 -26.852282 -112.75225
136873000 -26.470093 -116.66386 -0.093451031 -27.588753 -0.089686587 -27.563599 -26.765501 -112.75591
137872000 -26.388744 -116.84937 -0.093768433 -27.785412 -0.090199023 -27.768438 -26.66004 -112.70598
138871000 -26.322937 -116.99104 -0.094619177 -27.984684 -0.089980192 -27.971611 -26.562744 -112.90881
139870000 -26.225372 -117.26529 -0.095105737 -28.186167 -0.092031218 -28.165716 -26.481573 -113.08118
140869000 -26.13986 -117.75428 -0.09699215 -28.381096 -0.093208238 -28.362074 -26.372286 -113.17233
141868000 -26.040773 -118.2141 -0.097339459 -28.576298 -0.093589365 -28.553902 -26.300621 -113.51287
142867000 -25.96143 -118.48047 -0.094999373 -28.772158 -0.092564024 -28.755489 -26.224581 -113.68267
143866000 -25.893965 -118.9787 -0.097271949 -28.967884 -0.093816571 -28.953371 -26.147896 -114.19679
144865000 -25.839165 -119.47774 -0.09882801 -29.167213 -0.095176384 -29.151621 -26.090908 -114.50696
145864000 -25.782482 -119.82471 -0.099060789 -29.364733 -0.096087739 -29.354172 -26.05752 -114.75915
146863000 -25.732357 -120.20012 -0.09997005 -29.565437 -0.09637887 -29.552696 -26.006317 -115.08807
147862000 -25.692858 -120.55537 -0.10084321 -29.760628 -0.097158387 -29.751694 -25.970972 -115.43219
148861000 -25.663948 -121.09204 -0.10104271 -29.959764 -0.097474203 -29.945019 -25.945095 -115.68295
149860000 -25.651361 -121.26125 -0.10065961 -30.159616 -0.098095581 -30.147854 -25.916786 -115.83281
150859000 -25.630724 -121.66264 -0.10180797 -30.360607 -0.098510765 -30.342539 -25.907534 -116.07942
151858000 -25.607939 -121.93198 -0.10153926 -30.55648 -0.09824121 -30.54027 -25.904778 -116.38092
152857000 -25.593107 -122.27747 -0.10203693 -30.753145 -0.098134242 -30.741291 -25.8839 -116.48098
153856000 -25.588833 -122.48743 -0.10228419 -30.952642 -0.097553357 -30.93849 -25.894056 -116.78465
154855000 -25.579411 -122.64916 -0.10219276 -31.150482 -0.098213941 -31.140991 -25.887884 -117.00509
155854000 -25.591602 -122.90569 -0.10295026 -31.349674 -0.098716788 -31.340452 -25.880314 -117.27087
156853000 -25.577194 -123.6014 -0.10037085 -31.540728 -0.097670116 -31.528854 -25.874338 -117.54701
157852000 -25.580137 -123.84256 -0.10160604 -31.740299 -0.099067412 -31.730707 -25.867186 -117.90804
158851000 -25.573927 -124.05962 -0.10210318 -31.93858 -0.099769533 -31.925873 -25.851892 -118.13904
159850000 -25.558088 -124.22109 -0.10287286 -32.137135 -0.10004793 -32.129097 -25.848078 -118.34204
160849000 -25.543751 -124.30446 -0.10280713 -32.334389 -0.10069564 -32.329277 -25.819586 -118.59926
161848000 -25.526018 -124.39776 -0.10324635 -32.536766 -0.10082281 -32.527058 -25.779629 -118.74786
162847000 -25.486666 -124.62701 -0.10302872 -32.731098 -0.10069988 -32.726585 -25.748743 -119.01224
163846000 -25.439415 -124.86079 -0.10392582 -32.932999 -0.10173695 -32.92244 -25.669895 -118.99187
164845000 -25.382524 -124.83621 -0.10429808 -33.130653 -0.10125733 -33.120453 -25.612108 -119.09838
165844000 -25.322214 -124.91188 -0.10487615 -33.329357 -0.10225504 -33.321671 -25.522705 -119.23138
166843000 -25.258385 -125.00209 -0.10462211 -33.528908 -0.1016177 -33.521057 -25.454885 -119.41124
167842000 -25.201605 -125.14243 -0.10441449 -33.727169 -0.10210954 -33.720589 -25.377661 -119.35703
168841000 -25.128092 -125.29735 -0.1050777 -33.926685 -0.10250815 -33.92033 -25.295717 -119.42432
169840000 -25.062 -125.57913 -0.1049817 -34.116558 -0.10274564 -34.117764 -25.211407 -119.63837
170839000 -25.005606 -125.87548 -0.10609777 -34.316544 -0.10288665 -34.315693 -25.122101 -119.8243
171838000 -24.942528 -126.27848 -0.10531957 -34.519516 -0.10421589 -34.509663 -25.057997 -120.05212
172837000 -24.874741 -126.63798 -0.10752352 -34.711689 -0.10495412 -34.708733 -24.989792 -120.27395
173836000 -24.811258 -127.04129 -0.10836158 -34.912579 -0.10630468 -34.911888 -24.944075 -120.47974
174835000 -24.763426 -127.48924 -0.10893806 -35.106853 -0.10677902 -35.108479 -24.903833 -120.8344
175834000 -24.707998 -127.88699 -0.10944667 -35.30555 -0.10778198 -35.303417 -24.837776 -121.12115
176833000 -24.656057 -128.24005 -0.10999914 -35.503544 -0.10757341 -35.501686 -24.781685 -121.29848
177832000 -24.612923 -128.75668 -0.11114173 -35.702213 -0.10808557 -35.699741 -24.759405 -121.45827
178831000 -24.569164 -129.11011 -0.11152019 -35.895683 -0.10887118 -35.894413 -24.722095 -121.68947
179830000 -24.535263 -129.55423 -0.1122315 -36.095875 -0.10972329 -36.093807 -24.69919 -121.82394
180829000 -24.497814 -129.7688 -0.111849 -36.292183 -0.1092988 -36.292614 -24.668264 -121.98509
181828000 -24.470606 -130.1461 -0.11167078 -36.492046 -0.1093211 -36.489407 -24.645464 -122.08119
182827000 -24.447596 -130.49081 -0.11186467 -36.685829 -0.11079969 -36.684162 -24.642616 -122.15894
183826000 -24.406059 -130.79904 -0.11362419 -36.881935 -0.11050335 -36.881542 -24.63002 -122.29058
184825000 -24.409336 -131.11949 -0.11288236 -37.076523 -0.11132126 -37.078056 -24.612988 -122.38564
185824000 -24.38352 -131.48375 -0.11260793 -37.272335 -0.1114676 -37.272358 -24.612953 -122.41031
186823000 -24.368153 -131.84766 -0.11317169 -37.47332 -0.11124478 -37.469543 -24.608746 -122.41557
187822000 -24.347563 -132.14594 -0.11385857 -37.667034 -0.11172895 -37.663311 -24.577806 -122.46198
188821000 -24.324436 -132.36331 -0.11342251 -37.862606 -0.11192125 -37.867233 -24.5609 -122.57736
189820000 -24.310698 -132.64801 -0.1135272 -38.063236 -0.11176029 -38.063076 -24.552582 -122.75686
190819000 -24.278435 -132.89275 -0.11537538 -38.261795 -0.11305266 -38.259869 -24.522659 -122.68094
191818000 -24.245794 -133.07387 -0.11635454 -38.455166 -0.11413573 -38.458454 -24.485685 -122.60509
192817000 -24.177649 -133.3533 -0.11639602 -38.641148 -0.11508803 -38.642395 -24.414892 -122.68526
193816000 -24.139492 -133.71249 -0.1159544 -38.835258 -0.11364891 -38.833717 -24.35928 -122.93668
194815000 -24.084972 -134.1384 -0.11512019 -39.030834 -0.11415407 -39.03307 -24.297497 -123.04536
195814000 -24.031162 -134.34897 -0.11568482 -39.22974 -0.11446475 -39.231449 -24.244974 -123.16738
196813000 -23.976488 -134.71722 -0.11519383 -39.425175 -0.11368717 -39.430416 -24.16412 -123.33482
197812000 -23.920071 -134.93004 -0.115562 -39.622551 -0.11470024 -39.620888 -24.102789 -123.43181
198811000 -23.867702 -135.10886 -0.11581083 -39.818386 -0.11365528 -39.818405 -24.02861 -123.62928
199810000 -23.799574 -135.48952 -0.1162543 -40.011208 -0.11372437 -40.010345 -23.951994 -123.72694
200809000 -23.738438 -135.7438 -0.11706266 -40.211315 -0.11438608 -40.212097 -23.871864 -123.92857
201808000 -23.683113 -136.02896 -0.11676536 -40.407955 -0.115583 -40.412846 -23.802303 -124.00187
202807000 -23.626844 -136.33784 -0.11731531 -40.60923 -0.11553063 -40.613022 -23.750774 -124.21381
203806000 -23.574299 -136.78548 -0.11861252 -40.810104 -0.11671856 -40.811386 -23.682959 -124.37447
