!Keysight Technologies,E5080B,MY59205177,A.15.75.32
!Date: Friday, February 23, 2024 03:38:49
!Correction: S11(Cdelta 2-Port  ) 
!S21(Cdelta 2-Port  ) 
!S12(Cdelta 2-Port  ) 
!S22(Cdelta 2-Port  ) 
!S2P File: Measurements: S11, S21, S12, S22:
# Hz S  dB   R 50
10000000 -46.091629 -2.7949448 -0.015270025 -2.0448532 -0.01725981 -2.0958397 -45.873711 -157.45062
10999000 -45.278515 -4.6130795 -0.015528246 -2.2612717 -0.017134545 -2.3160706 -45.768818 -151.51547
11998000 -44.381626 -8.0126781 -0.015703864 -2.4859588 -0.017562075 -2.5296657 -45.998192 -146.88031
12997000 -43.590874 -13.448837 -0.015602805 -2.6643255 -0.017361689 -2.6988053 -45.605865 -140.97003
13996000 -43.311211 -17.529877 -0.014776487 -2.8443508 -0.01676137 -2.8644471 -45.391098 -135.82596
14995000 -42.930614 -21.512541 -0.016391343 -3.0572567 -0.017301133 -3.080662 -45.041389 -132.48409
15994000 -42.698067 -26.100224 -0.018596373 -3.2789547 -0.019914104 -3.2935803 -44.973873 -129.46176
16993000 -42.730564 -30.889154 -0.016811263 -3.4740338 -0.018943187 -3.4809055 -44.146893 -129.2327
17992000 -42.72459 -36.376179 -0.017565193 -3.6717262 -0.019325392 -3.6721129 -43.577095 -129.06596
18991000 -42.953529 -41.607414 -0.01873078 -3.8814378 -0.020788478 -3.8828187 -42.903912 -128.33231
19990000 -42.742073 -47.311924 -0.021642996 -4.0927134 -0.022194294 -4.0882077 -42.284447 -128.86546
20989000 -42.544479 -50.640614 -0.023290075 -4.2935314 -0.024500154 -4.2858038 -41.71933 -128.13603
21988000 -42.353848 -56.003384 -0.023449354 -4.4912815 -0.025128882 -4.4819946 -41.45142 -127.45413
22987000 -42.030251 -60.841747 -0.024473341 -4.6916423 -0.025628546 -4.6830401 -41.205135 -127.01556
23986000 -41.927921 -64.538139 -0.024697224 -4.8849144 -0.024554303 -4.8809342 -41.055206 -126.89036
24985000 -41.54985 -67.603737 -0.0259491 -5.0947614 -0.025228342 -5.0925851 -40.849537 -124.29615
25984000 -41.175842 -69.425003 -0.026131913 -5.3003893 -0.026586372 -5.3008962 -40.539574 -122.92413
26983000 -40.881813 -71.523438 -0.027183624 -5.496604 -0.026428282 -5.5164771 -40.43512 -122.32145
27982000 -40.660912 -72.539223 -0.027802579 -5.7000475 -0.028529238 -5.7352581 -40.146858 -120.56557
28981000 -40.652885 -74.046623 -0.026489746 -5.8988771 -0.02830177 -5.921452 -39.899349 -119.87613
29980000 -40.253212 -75.152618 -0.026603822 -6.0892301 -0.028709812 -6.0999641 -39.623718 -119.1369
30979000 -39.88583 -74.160927 -0.024378324 -6.444346 -0.022877337 -6.4376521 -39.138 -119.64467
31978000 -39.66441 -75.266983 -0.024119057 -6.6399016 -0.024362706 -6.6319518 -38.905842 -118.82449
32977000 -39.484138 -76.668259 -0.024003485 -6.8504252 -0.024567058 -6.8452897 -38.658512 -118.73289
33976000 -39.306046 -77.801712 -0.024435855 -7.0492024 -0.024713105 -7.0460682 -38.381683 -118.21414
34975000 -39.023113 -78.458435 -0.02422474 -7.251009 -0.026251968 -7.2498274 -38.134392 -117.79701
35974000 -38.817928 -79.13253 -0.023433998 -7.4464116 -0.026088944 -7.4491334 -37.872898 -116.87909
36973000 -38.577831 -79.720154 -0.023541486 -7.6451325 -0.026164204 -7.6489043 -37.584484 -115.98847
37972000 -38.414593 -79.54052 -0.023422806 -7.8581505 -0.026251707 -7.8671527 -37.374954 -115.31638
38971000 -38.093979 -79.120781 -0.024949236 -8.0547943 -0.026347548 -8.0689821 -37.2253 -113.71286
39970000 -37.771858 -79.288292 -0.022759456 -8.2545366 -0.025928266 -8.2668247 -36.970856 -113.09137
40969000 -37.475128 -78.976479 -0.023155788 -8.4453506 -0.025887383 -8.4665384 -36.7295 -111.63989
41968000 -37.152912 -78.942085 -0.023130285 -8.6533098 -0.02606212 -8.668314 -36.539063 -110.42919
42967000 -36.874531 -78.967903 -0.023598226 -8.8643208 -0.026226968 -8.8786516 -36.342644 -108.65291
43966000 -36.593887 -79.61776 -0.024296325 -9.0682182 -0.027211756 -9.0853186 -36.08535 -107.89757
44965000 -36.346451 -80.357582 -0.024967462 -9.2631121 -0.027255258 -9.2897091 -35.883007 -107.66865
45964000 -36.112297 -81.444237 -0.026321504 -9.4677382 -0.028774176 -9.4844341 -35.654774 -107.33876
46963000 -35.906029 -83.236259 -0.02660799 -9.6633682 -0.029443398 -9.683341 -35.475487 -107.58447
47962000 -35.753262 -84.627327 -0.028023768 -9.8614798 -0.030065283 -9.8803349 -35.264919 -107.58549
48961000 -35.5527 -86.011459 -0.030301968 -10.059414 -0.032083765 -10.082907 -35.04718 -107.82748
49960000 -35.312012 -87.415253 -0.031536948 -10.258377 -0.03286539 -10.281547 -34.90937 -107.80463
50959000 -35.086468 -88.64624 -0.031876452 -10.474519 -0.034358095 -10.485688 -34.738697 -108.15289
51958000 -34.86924 -89.765068 -0.033946909 -10.672825 -0.035155006 -10.682685 -34.554634 -108.57677
52957000 -34.660915 -90.804047 -0.035259131 -10.869788 -0.036603071 -10.879682 -34.404087 -108.27937
53956000 -34.487614 -91.450035 -0.036033496 -11.075388 -0.036572527 -11.076842 -34.26413 -108.34927
54955000 -34.328262 -91.915619 -0.037305616 -11.275977 -0.038116645 -11.271644 -34.113968 -108.30938
55954000 -34.145557 -92.781212 -0.038013496 -11.475277 -0.038579412 -11.473938 -34.010422 -107.9482
56953000 -34.029392 -92.739281 -0.03808609 -11.669628 -0.037858125 -11.664412 -33.939198 -108.29113
57952000 -33.874348 -93.353439 -0.03950588 -11.868526 -0.03880037 -11.862346 -33.827831 -108.31885
58951000 -33.744743 -93.691635 -0.040031496 -12.075289 -0.039681166 -12.058302 -33.668785 -108.30264
59950000 -33.616066 -94.056839 -0.040952262 -12.276156 -0.040330123 -12.25257 -33.592865 -108.6711
60949000 -33.498375 -94.63179 -0.041238148 -12.476025 -0.040990416 -12.458787 -33.509144 -108.93513
61948000 -33.43557 -94.885803 -0.041555151 -12.681204 -0.039973758 -12.663368 -33.401299 -109.03876
62947000 -33.344936 -95.208733 -0.041961309 -12.886975 -0.04175169 -12.87031 -33.268112 -109.34896
63946000 -33.271263 -95.892357 -0.042278104 -13.091203 -0.042222951 -13.067806 -33.155388 -109.39347
64945000 -33.162022 -96.019707 -0.043100521 -13.291183 -0.04292614 -13.270145 -33.045475 -109.93074
65944000 -33.062717 -96.345161 -0.043877069 -13.487686 -0.043028623 -13.471605 -32.948006 -110.29288
66943000 -32.926697 -96.757874 -0.041392859 -13.691566 -0.041645057 -13.674035 -32.839256 -110.53636
67942000 -32.852093 -96.670601 -0.043939043 -13.885981 -0.042958036 -13.876227 -32.720337 -110.78314
68941000 -32.755451 -96.77594 -0.043451127 -14.081284 -0.042703148 -14.074739 -32.613384 -110.81523
69940000 -32.658031 -96.7696 -0.04384752 -14.28043 -0.043149669 -14.273847 -32.474152 -111.07986
70939000 -32.535583 -96.709915 -0.043877855 -14.478961 -0.042545252 -14.471819 -32.341904 -110.93829
71938000 -32.411995 -96.307053 -0.043190196 -14.676465 -0.042703409 -14.664276 -32.21788 -110.81473
72937000 -32.243855 -96.105797 -0.042818956 -14.873713 -0.042369589 -14.865887 -32.080696 -110.49504
73936000 -32.119087 -95.820137 -0.043055288 -15.071661 -0.041398346 -15.065161 -31.959644 -110.28245
74935000 -31.994228 -95.982986 -0.042534798 -15.266397 -0.041112974 -15.260486 -31.812851 -110.01561
75934000 -31.863291 -96.231339 -0.042189229 -15.476648 -0.041202608 -15.467659 -31.722132 -109.91608
76933000 -31.729866 -96.564812 -0.042990975 -15.666861 -0.042815559 -15.661672 -31.559414 -110.18439
77932000 -31.634556 -97.306793 -0.044669714 -15.868693 -0.044483766 -15.861585 -31.458256 -110.085
78931000 -31.551968 -98.074272 -0.043117251 -16.062817 -0.04328144 -16.059256 -31.362535 -109.99736
79930000 -31.449667 -98.921989 -0.045533389 -16.261276 -0.045573674 -16.256662 -31.266115 -110.37344
80929000 -31.337126 -99.682671 -0.047265448 -16.455833 -0.047084622 -16.453691 -31.16132 -110.58766
81928000 -31.235052 -100.39594 -0.047440786 -16.648756 -0.047704589 -16.644049 -31.044474 -110.61215
82927000 -31.133425 -101.14874 -0.048891649 -16.844267 -0.048786931 -16.844355 -30.932987 -110.91817
83926000 -31.010811 -101.79294 -0.050632376 -17.04458 -0.049804606 -17.042715 -30.811975 -111.05497
84925000 -30.912283 -102.24734 -0.051308643 -17.24445 -0.049922962 -17.240396 -30.714743 -111.15139
85924000 -30.825115 -102.62652 -0.051373865 -17.445583 -0.051006906 -17.441351 -30.630564 -111.11147
86923000 -30.715975 -103.15833 -0.052464198 -17.64439 -0.051257305 -17.63648 -30.532282 -110.98898
87922000 -30.592291 -103.50677 -0.052489087 -17.848738 -0.051608834 -17.840235 -30.445164 -111.02912
88921000 -30.534866 -103.75541 -0.0540318 -18.047743 -0.051995758 -18.038349 -30.351967 -111.01395
89920000 -30.428017 -104.23889 -0.054111477 -18.2479 -0.052615378 -18.236137 -30.291954 -111.13624
90919000 -30.319101 -104.53143 -0.05497494 -18.447857 -0.053882405 -18.439518 -30.210499 -111.33557
91918000 -30.230425 -104.8875 -0.055925101 -18.647718 -0.054136377 -18.635094 -30.14003 -111.33341
92917000 -30.141584 -105.19746 -0.057155848 -18.840223 -0.05541119 -18.835806 -30.076775 -111.4277
93916000 -30.055338 -105.50698 -0.05610944 -19.033596 -0.05527984 -19.028837 -29.990551 -112.055
94915000 -29.977318 -106.19932 -0.057918388 -19.237103 -0.05669713 -19.232027 -29.930807 -111.89298
95914000 -29.907654 -106.39228 -0.058578998 -19.430002 -0.057184439 -19.429012 -29.840519 -112.15419
96913000 -29.818039 -106.54204 -0.05982887 -19.631742 -0.057839427 -19.632675 -29.771542 -112.49229
97912000 -29.74539 -107.02816 -0.060707379 -19.826496 -0.058466177 -19.831062 -29.696587 -112.74519
98911000 -29.638847 -107.20666 -0.061443765 -20.028963 -0.059762735 -20.028345 -29.646889 -112.98539
99910000 -29.578026 -107.32056 -0.062204171 -20.228846 -0.059692398 -20.231245 -29.544025 -113.22511
100909000 -29.481239 -107.57426 -0.061028961 -20.439142 -0.059181191 -20.427853 -29.449831 -113.4255
101908000 -29.394506 -107.78719 -0.062298182 -20.636494 -0.060220465 -20.638365 -29.339964 -113.20773
102907000 -29.259399 -107.79426 -0.063075021 -20.836275 -0.060623642 -20.837317 -29.268559 -113.2168
103906000 -29.166899 -107.77369 -0.063382067 -21.047384 -0.060413126 -21.039301 -29.127728 -113.14764
104905000 -29.021246 -107.71597 -0.064261295 -21.244093 -0.060894549 -21.240911 -29.005289 -112.82151
105904000 -28.879639 -107.79082 -0.063943945 -21.443401 -0.060753319 -21.441175 -28.898676 -112.69292
106903000 -28.772406 -107.85053 -0.063892975 -21.652775 -0.061400183 -21.649523 -28.774113 -112.58802
107902000 -28.605579 -108.21226 -0.065058455 -21.85231 -0.061345574 -21.839563 -28.635246 -112.50681
108901000 -28.494278 -108.3926 -0.066151701 -22.053612 -0.06358511 -22.046028 -28.504833 -112.48431
109900000 -28.367115 -108.86097 -0.066228978 -22.253124 -0.064354822 -22.24342 -28.362032 -112.63214
110899000 -28.248028 -109.48543 -0.067533635 -22.448229 -0.064912096 -22.444853 -28.232166 -112.84212
111898000 -28.158041 -110.13096 -0.069357604 -22.651939 -0.065973245 -22.64691 -28.113167 -112.99891
112897000 -28.030893 -110.64667 -0.070771866 -22.853109 -0.066948161 -22.839102 -27.985889 -113.14571
113896000 -27.928431 -111.28703 -0.071634702 -23.05056 -0.06835638 -23.040253 -27.882639 -113.23038
114895000 -27.823856 -111.90991 -0.072571144 -23.248533 -0.069422573 -23.234842 -27.76358 -113.36158
115894000 -27.702724 -112.25722 -0.073894292 -23.450031 -0.070494294 -23.438749 -27.69722 -113.55816
116893000 -27.623117 -112.72047 -0.07479462 -23.644543 -0.07200262 -23.631948 -27.57748 -113.63409
117892000 -27.545547 -113.20658 -0.073766336 -23.841681 -0.07191024 -23.831463 -27.501766 -113.81364
118891000 -27.481035 -113.62047 -0.075452797 -24.042166 -0.071970515 -24.032253 -27.409845 -113.94347
119890000 -27.39864 -113.98135 -0.07559108 -24.244164 -0.073192127 -24.232323 -27.389862 -114.09069
120889000 -27.344978 -114.49763 -0.076786838 -24.447821 -0.073094197 -24.42874 -27.314335 -114.02023
121888000 -27.306271 -114.78675 -0.076814242 -24.641645 -0.073627576 -24.628662 -27.25503 -114.29964
122887000 -27.266312 -115.02563 -0.077511199 -24.844227 -0.074733257 -24.837507 -27.210215 -114.30882
123886000 -27.215338 -115.44667 -0.078448646 -25.046465 -0.074904963 -25.02994 -27.195223 -114.48972
124885000 -27.180849 -115.89864 -0.078984529 -25.246445 -0.07538642 -25.233772 -27.165031 -114.48594
125884000 -27.12677 -116.09187 -0.079067044 -25.44718 -0.075305559 -25.431971 -27.137293 -114.65086
126883000 -27.110004 -116.51422 -0.080161452 -25.652092 -0.076210387 -25.635847 -27.099285 -114.65332
127882000 -27.062727 -116.79454 -0.080193885 -25.847979 -0.077172585 -25.834251 -27.052954 -114.81571
128881000 -27.025705 -117.1029 -0.080381893 -26.052557 -0.076064974 -26.035023 -27.019619 -114.92512
129880000 -26.973793 -117.46561 -0.080853403 -26.254177 -0.076632179 -26.231493 -26.982176 -114.82931
130879000 -26.919027 -117.59205 -0.080658779 -26.453609 -0.077349134 -26.436792 -26.903721 -114.82079
131878000 -26.849463 -117.82294 -0.080841012 -26.65572 -0.077875137 -26.639553 -26.842278 -114.70741
132877000 -26.782454 -117.85851 -0.080329947 -26.858376 -0.077757068 -26.837763 -26.75696 -114.68156
133876000 -26.703569 -118.05219 -0.081392229 -27.059793 -0.077327527 -27.035749 -26.688179 -114.5531
134875000 -26.613754 -118.15585 -0.081973061 -27.259581 -0.077740729 -27.241268 -26.585396 -114.38721
135874000 -26.525461 -118.19221 -0.081807397 -27.459303 -0.078414381 -27.438562 -26.485531 -114.32697
136873000 -26.418539 -118.11285 -0.082266144 -27.659786 -0.078232519 -27.64443 -26.406914 -114.30844
137872000 -26.342897 -118.25012 -0.082286455 -27.862906 -0.078410953 -27.848677 -26.305323 -114.232
138871000 -26.266399 -118.46895 -0.082772948 -28.062561 -0.078431778 -28.047432 -26.210154 -114.3652
139870000 -26.166332 -118.72021 -0.082815953 -28.260563 -0.079364412 -28.247978 -26.131565 -114.56251
140869000 -26.086103 -119.29193 -0.08355768 -28.458281 -0.07977201 -28.440519 -26.029966 -114.79803
141868000 -26.00629 -119.66134 -0.084478751 -28.657766 -0.081548639 -28.643377 -25.985411 -114.99177
142867000 -25.929905 -119.87523 -0.08307717 -28.856634 -0.080746599 -28.839945 -25.903555 -115.10229
143866000 -25.852005 -120.3576 -0.085063159 -29.052456 -0.082375094 -29.036032 -25.830816 -115.59698
144865000 -25.797659 -120.879 -0.087022334 -29.25156 -0.083827123 -29.234657 -25.779354 -115.89594
145864000 -25.736561 -121.16373 -0.086579993 -29.452629 -0.084779918 -29.441746 -25.74831 -116.14825
146863000 -25.695795 -121.5749 -0.087447822 -29.651949 -0.085731611 -29.638756 -25.69681 -116.46333
147862000 -25.656689 -121.89097 -0.089129299 -29.848562 -0.086127922 -29.837193 -25.664396 -116.77119
148861000 -25.630316 -122.31946 -0.090115771 -30.04546 -0.086987473 -30.033674 -25.642874 -116.93083
149860000 -25.597822 -122.49811 -0.090972938 -30.239645 -0.087468952 -30.229044 -25.59169 -117.01822
150859000 -25.569517 -122.95664 -0.089982308 -30.438206 -0.086879462 -30.425495 -25.573708 -117.39027
151858000 -25.562006 -123.29984 -0.089188486 -30.638027 -0.087681837 -30.623451 -25.563835 -117.72707
152857000 -25.544586 -123.66183 -0.090457506 -30.834654 -0.087152272 -30.821962 -25.546612 -117.91043
153856000 -25.542025 -123.87424 -0.090287298 -31.039562 -0.087085187 -31.02305 -25.559469 -118.24487
154855000 -25.538242 -124.03683 -0.090398304 -31.234987 -0.08671546 -31.221914 -25.553102 -118.44312
155854000 -25.557539 -124.2578 -0.090474948 -31.438015 -0.087389447 -31.421715 -25.543621 -118.73948
156853000 -25.550375 -124.96682 -0.0882717 -31.62224 -0.087302022 -31.615726 -25.537439 -119.05204
157852000 -25.551668 -125.17361 -0.089491308 -31.825762 -0.088110559 -31.814728 -25.528156 -119.4054
158851000 -25.550013 -125.37479 -0.090468079 -32.025803 -0.089232348 -32.016987 -25.512253 -119.67088
159850000 -25.538614 -125.50404 -0.090567462 -32.224476 -0.089136168 -32.216629 -25.512566 -119.83864
160849000 -25.523102 -125.6021 -0.090703852 -32.423744 -0.089548908 -32.417576 -25.478445 -120.14054
161848000 -25.503866 -125.66936 -0.090729751 -32.626621 -0.089573227 -32.617165 -25.442495 -120.24583
162847000 -25.464569 -125.84686 -0.091154546 -32.819614 -0.090382971 -32.818211 -25.40967 -120.52265
163846000 -25.425375 -126.05855 -0.091445602 -33.022976 -0.08966545 -33.016396 -25.333328 -120.49245
164845000 -25.370424 -126.04427 -0.091303907 -33.225479 -0.089994997 -33.21777 -25.27095 -120.5912
165844000 -25.309731 -126.05179 -0.091890819 -33.421398 -0.090868264 -33.413708 -25.190474 -120.71693
166843000 -25.250706 -126.10248 -0.092353798 -33.619583 -0.090682171 -33.617001 -25.132368 -120.89471
167842000 -25.195889 -126.22698 -0.092754424 -33.821354 -0.091198161 -33.813438 -25.05409 -120.77974
168841000 -25.117233 -126.35583 -0.092674032 -34.019588 -0.090961836 -34.01696 -24.977739 -120.90096
169840000 -25.054752 -126.61376 -0.092273682 -34.215385 -0.091934182 -34.211868 -24.893373 -121.04382
170839000 -24.994732 -126.86071 -0.093825564 -34.412987 -0.092099696 -34.411957 -24.812902 -121.21819
171838000 -24.934044 -127.25817 -0.093374334 -34.614677 -0.093179144 -34.607849 -24.749466 -121.40826
172837000 -24.863941 -127.5761 -0.095112875 -34.811687 -0.094120771 -34.805889 -24.687498 -121.61879
173836000 -24.796423 -127.98607 -0.096247859 -35.012646 -0.094710715 -35.008495 -24.648111 -121.8493
174835000 -24.752628 -128.36664 -0.096730888 -35.205921 -0.095881581 -35.209122 -24.600567 -122.18591
175834000 -24.691387 -128.70732 -0.097639404 -35.407608 -0.096403219 -35.405853 -24.541992 -122.45284
176833000 -24.645378 -129.05951 -0.098618545 -35.606873 -0.09716633 -35.605198 -24.493469 -122.5803
177832000 -24.5956 -129.51633 -0.099430241 -35.80619 -0.098661438 -35.807484 -24.480413 -122.6683
178831000 -24.54821 -129.7308 -0.10078466 -36.003342 -0.1000919 -35.99836 -24.43449 -122.7585
179830000 -24.480915 -130.13298 -0.10184188 -36.185104 -0.10148521 -36.187073 -24.373594 -122.86291
180829000 -24.432037 -130.46858 -0.10145977 -36.380585 -0.100027 -36.381042 -24.327564 -123.16077
181828000 -24.408257 -130.92023 -0.10059205 -36.584118 -0.099236108 -36.576912 -24.309879 -123.37766
182827000 -24.389042 -131.25217 -0.10016555 -36.776741 -0.099784367 -36.777687 -24.301447 -123.48904
183826000 -24.349344 -131.62489 -0.10167388 -36.973824 -0.099590488 -36.971455 -24.289743 -123.652
184825000 -24.353418 -131.94141 -0.10086493 -37.171062 -0.099667296 -37.171539 -24.26988 -123.7843
185824000 -24.320679 -132.28484 -0.1005849 -37.368538 -0.10020714 -37.369316 -24.26503 -123.84797
186823000 -24.307949 -132.65823 -0.10099714 -37.568497 -0.09997879 -37.566387 -24.262674 -123.8769
187822000 -24.284277 -133.0152 -0.1009521 -37.761021 -0.10068875 -37.759975 -24.2225 -123.92513
188821000 -24.260687 -133.26335 -0.10190707 -37.956211 -0.10100695 -37.964218 -24.202866 -124.07259
189820000 -24.237268 -133.57739 -0.1016018 -38.161236 -0.10116194 -38.158978 -24.183378 -124.27404
190819000 -24.207783 -133.85953 -0.1020698 -38.356667 -0.10184135 -38.355019 -24.14436 -124.3261
191818000 -24.17532 -134.17717 -0.10192192 -38.55423 -0.10146295 -38.554977 -24.119911 -124.35487
192817000 -24.130877 -134.4118 -0.10230089 -38.753052 -0.10181539 -38.753235 -24.072594 -124.427
193816000 -24.102911 -134.69092 -0.10228923 -38.947327 -0.10132729 -38.947052 -24.023081 -124.56723
194815000 -24.039543 -135.07581 -0.10327313 -39.140518 -0.10258024 -39.146408 -23.955906 -124.62923
195814000 -23.986248 -135.27252 -0.1036668 -39.337811 -0.10264491 -39.341042 -23.897741 -124.72826
196813000 -23.927187 -135.60439 -0.10413741 -39.534668 -0.10296351 -39.539024 -23.820795 -124.85041
197812000 -23.876699 -135.80142 -0.10393538 -39.736778 -0.10332244 -39.733982 -23.7507 -124.95175
198811000 -23.82135 -135.98196 -0.10430843 -39.927753 -0.10322224 -39.932274 -23.683746 -125.10555
199810000 -23.747244 -136.31769 -0.10396745 -40.124691 -0.10274961 -40.119518 -23.607014 -125.20992
200809000 -23.694386 -136.58051 -0.10492998 -40.320782 -0.10305523 -40.320843 -23.526718 -125.35614
201808000 -23.631781 -136.77267 -0.10514135 -40.521568 -0.10442748 -40.520233 -23.461439 -125.42628
202807000 -23.573668 -137.10374 -0.10611767 -40.720734 -0.10496207 -40.726215 -23.40884 -125.62138
