!Keysight Technologies,E5080B,MY59205177,A.15.75.32
!Date: Friday, February 23, 2024 02:47:14
!Correction: S11(Cdelta 2-Port  ) 
!S21(Cdelta 2-Port  ) 
!S12(Cdelta 2-Port  ) 
!S22(Cdelta 2-Port  ) 
!S2P File: Measurements: S11, S21, S12, S22:
# Hz S  dB   R 50
10000000 -39.957329 -3.4622295 -0.062424757 -2.0547848 -0.065172762 -2.1080542 -54.517792 -74.723221
10999000 -39.52367 -4.6526775 -0.063390993 -2.2709432 -0.064891338 -2.3254879 -52.331776 -72.219597
11998000 -39.017586 -6.2806964 -0.063621625 -2.4957433 -0.064505108 -2.537863 -51.355011 -67.527489
12997000 -38.600311 -9.6193542 -0.063434862 -2.6741233 -0.064157784 -2.7078557 -49.762089 -69.423561
13996000 -38.452965 -11.943944 -0.063122295 -2.8567233 -0.064362705 -2.8751962 -48.561317 -68.10965
14995000 -38.248688 -14.707804 -0.064677201 -3.0646927 -0.064027742 -3.0882447 -47.762291 -68.339653
15994000 -38.199425 -17.179684 -0.065632373 -3.2858438 -0.067299642 -3.305294 -47.178108 -67.026192
16993000 -38.258835 -20.165562 -0.064529277 -3.480391 -0.065964572 -3.4871163 -46.631393 -72.268982
17992000 -38.371841 -23.188887 -0.065545917 -3.6784647 -0.066599332 -3.6828394 -46.277256 -76.006836
18991000 -38.627285 -26.056009 -0.066309407 -3.8926964 -0.067669041 -3.8866091 -45.615479 -79.428078
19990000 -38.618725 -29.707611 -0.068194397 -4.1022491 -0.070060998 -4.0940428 -45.117592 -83.988373
20989000 -38.62175 -31.65023 -0.071052089 -4.3030419 -0.072035782 -4.2938495 -44.592197 -87.130318
21988000 -38.670776 -35.228779 -0.071792863 -4.500145 -0.072909132 -4.4946241 -44.255688 -87.324173
22987000 -38.623478 -38.670074 -0.073176593 -4.7018671 -0.074119948 -4.6961427 -43.974041 -88.107353
23986000 -38.737843 -41.321125 -0.072495073 -4.8990126 -0.07324636 -4.8961463 -43.882137 -88.968361
24985000 -38.561821 -43.692005 -0.073854804 -5.1046953 -0.073356137 -5.102994 -43.389957 -87.295868
25984000 -38.471741 -45.806328 -0.074792512 -5.3150201 -0.073324546 -5.3149447 -42.914631 -87.189575
26983000 -38.297962 -47.819992 -0.075677745 -5.5102186 -0.07458657 -5.5279484 -42.736969 -86.753181
27982000 -38.244766 -48.716103 -0.076001748 -5.710753 -0.075815506 -5.7463284 -42.229275 -86.095528
28981000 -38.277714 -49.957111 -0.074647404 -5.9077034 -0.076459877 -5.9331636 -41.97628 -86.467621
29980000 -38.030312 -51.708645 -0.074739575 -6.1052876 -0.077253744 -6.1095219 -41.58075 -86.786438
30979000 -37.697159 -51.858555 -0.07266169 -6.459156 -0.071837604 -6.44699 -41.164532 -89.183167
31978000 -37.55946 -52.996784 -0.07148575 -6.6550226 -0.072106317 -6.6454291 -40.85318 -89.224678
32977000 -37.484619 -54.505569 -0.071956828 -6.8672075 -0.072958887 -6.8594999 -40.604492 -90.159096
33976000 -37.400314 -55.739273 -0.072468489 -7.0645561 -0.073503576 -7.0598989 -40.262474 -90.632607
34975000 -37.174427 -57.006462 -0.072557718 -7.2650514 -0.074729308 -7.2647491 -39.961117 -91.032845
35974000 -37.032337 -57.842319 -0.071823128 -7.4605527 -0.075149901 -7.4608607 -39.619751 -90.961327
36973000 -36.868843 -58.874939 -0.072460853 -7.6626825 -0.075469919 -7.6618996 -39.250851 -90.704208
37972000 -36.719307 -59.24474 -0.071381807 -7.8701787 -0.07493525 -7.8807425 -38.98278 -90.605942
38971000 -36.422611 -59.410229 -0.073044971 -8.07479 -0.075327948 -8.084918 -38.68417 -89.595261
39970000 -36.161163 -60.504452 -0.071683124 -8.270052 -0.074058861 -8.2817364 -38.378429 -89.448776
40969000 -35.90683 -60.656399 -0.071503907 -8.4629087 -0.074327715 -8.483736 -38.040207 -88.641487
41968000 -35.605122 -61.301418 -0.072079733 -8.6703835 -0.074549705 -8.6850491 -37.788559 -87.941422
42967000 -35.38559 -61.842522 -0.071696281 -8.880558 -0.074906282 -8.8998518 -37.462711 -86.439552
43966000 -35.16753 -62.944401 -0.073474616 -9.0846758 -0.076520473 -9.0952845 -37.140656 -86.393944
44965000 -34.999096 -64.048813 -0.073570445 -9.2877531 -0.075887419 -9.3043089 -36.917706 -86.600006
45964000 -34.837341 -65.286636 -0.075347438 -9.4825993 -0.077473782 -9.5044832 -36.675892 -86.921646
46963000 -34.714878 -67.173836 -0.075214952 -9.6770954 -0.077585779 -9.7019377 -36.498848 -87.591484
47962000 -34.630581 -68.77005 -0.076681979 -9.8794746 -0.079060979 -9.8963203 -36.314854 -88.210587
48961000 -34.484005 -70.254005 -0.079019591 -10.075073 -0.080918811 -10.099254 -36.098316 -88.736267
49960000 -34.326675 -71.823593 -0.079900414 -10.276467 -0.0823007 -10.298599 -35.962139 -89.200432
50959000 -34.173321 -73.242165 -0.080741592 -10.489847 -0.083236806 -10.499935 -35.803402 -89.886086
51958000 -34.017532 -74.479332 -0.083048671 -10.68961 -0.084391385 -10.697671 -35.664257 -90.75676
52957000 -33.876125 -75.797882 -0.084857263 -10.889812 -0.086199477 -10.896774 -35.488537 -90.872566
53956000 -33.746017 -76.698097 -0.085657157 -11.090686 -0.087407671 -11.091199 -35.356255 -91.015648
54955000 -33.588997 -77.465645 -0.086404391 -11.292701 -0.088403001 -11.28824 -35.202805 -91.411667
55954000 -33.472149 -78.404655 -0.087923005 -11.496826 -0.088256381 -11.492194 -35.079754 -91.252205
56953000 -33.358147 -78.594154 -0.087157294 -11.691381 -0.087349832 -11.681814 -35.018135 -91.635498
57952000 -33.225254 -79.316132 -0.088390321 -11.888148 -0.088412248 -11.881661 -34.927525 -91.832787
58951000 -33.12838 -79.8909 -0.089818455 -12.09638 -0.089294441 -12.07462 -34.770996 -92.246101
59950000 -33.017033 -80.420311 -0.090221226 -12.296358 -0.090612397 -12.27095 -34.700897 -92.655495
60949000 -32.913509 -81.085739 -0.090841033 -12.498356 -0.090585433 -12.474851 -34.615009 -93.117043
61948000 -32.860962 -81.445076 -0.091447979 -12.697281 -0.090785794 -12.677308 -34.547489 -93.34269
62947000 -32.785751 -81.791946 -0.091451421 -12.907011 -0.091706276 -12.889619 -34.398052 -93.7883
63946000 -32.727886 -82.549202 -0.092587292 -13.109037 -0.092475705 -13.086808 -34.2966 -94.005577
64945000 -32.635048 -82.809944 -0.093546778 -13.309797 -0.093151905 -13.288629 -34.201447 -94.749268
65944000 -32.545204 -83.182442 -0.093952797 -13.506962 -0.093937986 -13.489498 -34.12265 -95.295052
66943000 -32.422592 -83.772675 -0.091863856 -13.70931 -0.092457987 -13.693563 -34.01881 -95.742439
67942000 -32.356308 -83.772644 -0.094315208 -13.905534 -0.094076864 -13.895446 -33.905983 -96.195442
68941000 -32.244003 -84.025948 -0.093827151 -14.097544 -0.093061723 -14.088235 -33.804718 -96.282127
69940000 -32.153305 -84.133812 -0.094801202 -14.295384 -0.094399862 -14.292402 -33.655231 -96.708717
70939000 -32.041515 -84.195206 -0.094541661 -14.497251 -0.093952537 -14.488363 -33.511078 -96.829056
71938000 -31.887617 -84.051445 -0.094555952 -14.690653 -0.094296955 -14.685218 -33.38055 -96.821518
72937000 -31.734083 -84.057129 -0.093873441 -14.889111 -0.093344711 -14.889091 -33.231354 -96.651794
73936000 -31.590715 -83.920387 -0.093583807 -15.088978 -0.092269979 -15.081154 -33.091988 -96.566223
74935000 -31.472519 -84.287605 -0.093385704 -15.283917 -0.092256233 -15.282557 -32.91787 -96.401779
75934000 -31.350195 -84.682068 -0.09314397 -15.495669 -0.092237458 -15.490557 -32.832565 -96.467239
76933000 -31.226603 -85.173576 -0.09431494 -15.689672 -0.093485944 -15.678771 -32.680229 -97.035896
77932000 -31.154776 -86.033073 -0.095559798 -15.886221 -0.095657177 -15.877878 -32.567696 -97.097748
78931000 -31.098331 -86.809311 -0.094511241 -16.084154 -0.094482668 -16.082531 -32.465958 -97.07103
79930000 -30.999769 -87.683968 -0.097244419 -16.274494 -0.09742973 -16.273565 -32.371464 -97.545303
80929000 -30.894958 -88.683235 -0.099064499 -16.472332 -0.098256834 -16.471811 -32.279919 -98.010262
81928000 -30.832966 -89.598755 -0.098885208 -16.664598 -0.099468917 -16.66131 -32.152122 -98.171387
82927000 -30.751608 -90.374504 -0.10109491 -16.863241 -0.10059337 -16.860662 -32.058567 -98.69635
83926000 -30.654232 -91.146492 -0.10205628 -17.061523 -0.10129973 -17.061295 -31.951862 -99.08728
84925000 -30.564919 -91.711929 -0.10354963 -17.260723 -0.10243791 -17.257828 -31.85284 -99.282722
85924000 -30.484444 -92.227638 -0.10374793 -17.464279 -0.10333728 -17.460106 -31.760508 -99.364319
86923000 -30.387846 -92.855423 -0.10401411 -17.661131 -0.10446195 -17.656832 -31.657145 -99.341309
87922000 -30.292273 -93.348083 -0.10447945 -17.865393 -0.10345075 -17.858088 -31.575176 -99.511292
88921000 -30.220675 -93.720932 -0.10534874 -18.062523 -0.10490797 -18.062252 -31.48052 -99.627289
89920000 -30.139202 -94.348732 -0.10635138 -18.263401 -0.10572749 -18.258816 -31.42749 -99.893311
90919000 -30.055529 -94.743828 -0.10712367 -18.458344 -0.10668643 -18.451405 -31.346666 -100.23015
91918000 -29.958799 -95.219467 -0.10761826 -18.661852 -0.10683022 -18.653851 -31.278038 -100.32144
92917000 -29.875507 -95.580254 -0.10892214 -18.859627 -0.10795049 -18.855141 -31.207581 -100.44106
93916000 -29.803894 -96.039192 -0.10824905 -19.051683 -0.10785947 -19.050508 -31.126202 -101.1791
94915000 -29.736185 -96.742989 -0.10994099 -19.254072 -0.10887675 -19.247145 -31.069939 -101.10802
95914000 -29.676712 -97.012161 -0.11102249 -19.449236 -0.1099771 -19.443907 -30.971926 -101.49475
96913000 -29.597147 -97.321472 -0.11166228 -19.648117 -0.11093991 -19.648525 -30.912937 -101.89561
97912000 -29.527668 -97.868568 -0.11320996 -19.844709 -0.11120494 -19.845324 -30.843725 -102.14394
98911000 -29.43191 -98.106316 -0.11326734 -20.04767 -0.11301281 -20.043205 -30.807667 -102.44626
99910000 -29.354103 -98.357567 -0.11439804 -20.247105 -0.11323493 -20.243357 -30.687788 -102.83441
100909000 -29.27 -98.668602 -0.11415726 -20.455753 -0.11208594 -20.444893 -30.603039 -103.09885
101908000 -29.188059 -98.986023 -0.1147906 -20.653219 -0.11388275 -20.64786 -30.483868 -102.9399
102907000 -29.053364 -99.114273 -0.11561889 -20.853392 -0.1142827 -20.854874 -30.397236 -102.95013
103906000 -28.954378 -99.275711 -0.11595413 -21.060675 -0.11325512 -21.053694 -30.23464 -103.02646
104905000 -28.810194 -99.277542 -0.11678929 -21.257038 -0.11363561 -21.255898 -30.098886 -102.78361
105904000 -28.67075 -99.510338 -0.11695097 -21.460707 -0.11366777 -21.456385 -29.970015 -102.70946
106903000 -28.557463 -99.734573 -0.11652976 -21.671602 -0.11410517 -21.659399 -29.836714 -102.732
107902000 -28.398573 -100.13489 -0.11793952 -21.866362 -0.11523663 -21.85673 -29.692383 -102.72577
108901000 -28.293619 -100.46848 -0.11883174 -22.069647 -0.11626547 -22.060482 -29.546728 -102.85487
109900000 -28.169121 -101.07781 -0.11906027 -22.267685 -0.11716638 -22.255884 -29.386129 -103.09131
110899000 -28.062735 -101.77555 -0.12095845 -22.461653 -0.11805496 -22.456051 -29.266815 -103.44157
111898000 -27.980423 -102.49568 -0.12249133 -22.665342 -0.11976537 -22.660841 -29.144709 -103.70682
112897000 -27.86861 -103.11073 -0.1242818 -22.866018 -0.12086875 -22.857117 -29.004536 -104.03117
113896000 -27.770803 -103.77058 -0.12460466 -23.068029 -0.12215159 -23.056267 -28.896183 -104.27418
114895000 -27.673014 -104.48254 -0.12561227 -23.266024 -0.12371925 -23.250113 -28.769394 -104.47861
115894000 -27.548376 -104.93963 -0.12771939 -23.467037 -0.12495898 -23.449152 -28.702242 -104.67496
116893000 -27.467751 -105.53478 -0.12766954 -23.664255 -0.12573032 -23.642242 -28.57802 -104.9858
117892000 -27.392056 -106.07155 -0.12785135 -23.858677 -0.12605809 -23.843777 -28.508404 -105.22828
118891000 -27.340431 -106.53754 -0.12868561 -24.060684 -0.12613909 -24.044025 -28.404388 -105.49693
119890000 -27.252439 -107.01234 -0.12904985 -24.261663 -0.12763035 -24.244486 -28.388845 -105.62775
120889000 -27.200298 -107.52084 -0.13055545 -24.458937 -0.12813981 -24.446331 -28.311728 -105.6881
121888000 -27.160004 -107.90114 -0.13109834 -24.659138 -0.12850483 -24.64209 -28.25568 -106.06346
122887000 -27.118673 -108.11774 -0.13148254 -24.858355 -0.12834992 -24.845463 -28.204847 -106.13302
123886000 -27.062029 -108.58677 -0.13244292 -25.062771 -0.12940213 -25.04595 -28.193878 -106.3022
124885000 -27.027252 -109.10358 -0.13242957 -25.263105 -0.12961683 -25.242378 -28.154785 -106.42058
125884000 -26.9811 -109.30994 -0.13343821 -25.458036 -0.13010839 -25.444628 -28.122498 -106.64114
126883000 -26.952188 -109.74469 -0.13397479 -25.661182 -0.13113436 -25.649044 -28.079214 -106.67659
127882000 -26.902777 -110.0265 -0.13433388 -25.863071 -0.13158287 -25.841496 -28.034584 -106.87465
128881000 -26.872641 -110.3758 -0.13430424 -26.061914 -0.13092813 -26.044924 -27.997868 -107.04876
129880000 -26.81233 -110.74206 -0.13569921 -26.264223 -0.13146146 -26.246344 -27.9461 -107.0298
130879000 -26.75238 -110.90868 -0.13518192 -26.462749 -0.13308854 -26.445354 -27.868412 -107.11605
131878000 -26.686262 -111.20993 -0.13570642 -26.667725 -0.13278399 -26.648226 -27.793295 -107.06632
132877000 -26.615662 -111.33354 -0.13523987 -26.865969 -0.13298284 -26.848476 -27.704723 -107.11015
133876000 -26.523926 -111.48847 -0.13555233 -27.065947 -0.13318543 -27.048801 -27.60165 -107.05024
134875000 -26.429611 -111.68825 -0.13625343 -27.26713 -0.13353591 -27.246599 -27.493055 -106.96518
135874000 -26.346329 -111.76513 -0.13624409 -27.466944 -0.13390538 -27.450169 -27.384487 -106.99249
136873000 -26.23192 -111.80309 -0.13672918 -27.670763 -0.13392165 -27.654549 -27.296623 -107.03004
137872000 -26.151239 -111.96036 -0.13662687 -27.871634 -0.13399827 -27.856844 -27.185799 -107.07363
138871000 -26.075029 -112.16559 -0.13750796 -28.072424 -0.13463078 -28.059511 -27.079571 -107.30544
139870000 -25.977703 -112.50156 -0.13804878 -28.271908 -0.13540998 -28.253437 -27.003082 -107.48862
140869000 -25.897869 -113.01206 -0.14023814 -28.465837 -0.13641024 -28.449127 -26.89156 -107.65101
141868000 -25.80773 -113.59464 -0.13977778 -28.660242 -0.13778505 -28.643221 -26.818516 -108.06063
142867000 -25.731768 -113.82329 -0.13902238 -28.85828 -0.13688573 -28.840805 -26.743336 -108.29852
143866000 -25.669218 -114.37199 -0.14046165 -29.054586 -0.1383104 -29.038273 -26.680902 -108.87191
144865000 -25.611715 -114.93742 -0.1419985 -29.253662 -0.13984247 -29.238731 -26.624619 -109.22534
145864000 -25.56341 -115.30761 -0.14269637 -29.455549 -0.14097075 -29.439943 -26.59906 -109.50755
146863000 -25.518692 -115.67805 -0.14320572 -29.6541 -0.14154463 -29.643982 -26.545252 -109.89041
147862000 -25.480284 -116.11699 -0.1444173 -29.851793 -0.14098947 -29.835274 -26.51824 -110.23697
148861000 -25.453135 -116.62351 -0.1442827 -30.049561 -0.14254789 -30.035442 -26.502579 -110.49883
149860000 -25.44293 -116.83052 -0.14554864 -30.247776 -0.143004 -30.233747 -26.465803 -110.73121
150859000 -25.423616 -117.21935 -0.14582518 -30.446207 -0.14289458 -30.433332 -26.46797 -110.96874
151858000 -25.411266 -117.54885 -0.14557059 -30.646786 -0.14356691 -30.635984 -26.462381 -111.24181
152857000 -25.393436 -117.89104 -0.14615954 -30.843843 -0.14324692 -30.831608 -26.446873 -111.41174
153856000 -25.383295 -118.09576 -0.14666234 -31.04319 -0.14260434 -31.027637 -26.47011 -111.71774
154855000 -25.375151 -118.30944 -0.1466013 -31.243509 -0.14385054 -31.229059 -26.465265 -111.96864
155854000 -25.39336 -118.52917 -0.14704016 -31.441769 -0.14406675 -31.426233 -26.460356 -112.18747
156853000 -25.383383 -119.23983 -0.1447802 -31.627979 -0.14299652 -31.617844 -26.461796 -112.54078
157852000 -25.38686 -119.47494 -0.14586693 -31.829472 -0.14557408 -31.820879 -26.457733 -112.86617
158851000 -25.379921 -119.73653 -0.1469277 -32.027111 -0.14489233 -32.018665 -26.445286 -113.12385
159850000 -25.365234 -119.8494 -0.1471719 -32.226181 -0.14540142 -32.219711 -26.443581 -113.31006
160849000 -25.343622 -119.98819 -0.14793301 -32.428391 -0.1466005 -32.423096 -26.418331 -113.65298
161848000 -25.321115 -120.09801 -0.14817567 -32.625473 -0.14638737 -32.618374 -26.381758 -113.74899
162847000 -25.284451 -120.32183 -0.14819013 -32.825451 -0.14710684 -32.819302 -26.345734 -114.00534
163846000 -25.23774 -120.57486 -0.1484912 -33.025391 -0.14705195 -33.015171 -26.264221 -114.04562
164845000 -25.1768 -120.61375 -0.14859834 -33.221821 -0.14770724 -33.216923 -26.197805 -114.18279
165844000 -25.118755 -120.75195 -0.14887239 -33.424026 -0.14804496 -33.414349 -26.113995 -114.3791
166843000 -25.056953 -120.84776 -0.14911376 -33.623852 -0.14793837 -33.616161 -26.040848 -114.56699
167842000 -24.997253 -121.01691 -0.1501646 -33.821014 -0.14866211 -33.81498 -25.955393 -114.52322
168841000 -24.919565 -121.24235 -0.15067698 -34.015892 -0.14847459 -34.014919 -25.873404 -114.61525
169840000 -24.853827 -121.54317 -0.15021338 -34.213844 -0.14901732 -34.212208 -25.781338 -114.92012
170839000 -24.793785 -121.8478 -0.15139823 -34.413616 -0.15008743 -34.407951 -25.69525 -115.13377
171838000 -24.737997 -122.312 -0.15035781 -34.61409 -0.1511728 -34.605904 -25.636122 -115.4429
172837000 -24.674126 -122.73297 -0.15251853 -34.809105 -0.1522145 -34.799522 -25.564884 -115.68465
173836000 -24.608517 -123.16724 -0.15375952 -35.005806 -0.15254292 -35.003628 -25.516989 -115.98579
174835000 -24.561335 -123.60509 -0.15439679 -35.203728 -0.1538094 -35.204021 -25.47632 -116.33881
175834000 -24.508013 -124.05062 -0.15511569 -35.404617 -0.15422191 -35.39809 -25.414013 -116.68596
176833000 -24.453747 -124.4306 -0.15623775 -35.598064 -0.15518706 -35.596954 -25.362572 -116.91303
177832000 -24.411119 -124.90421 -0.15642077 -35.793755 -0.15507223 -35.793663 -25.34256 -117.05724
178831000 -24.375704 -125.33371 -0.15754907 -35.993141 -0.15554737 -35.99033 -25.30257 -117.37637
179830000 -24.343248 -125.75665 -0.15789858 -36.190308 -0.1565426 -36.195992 -25.275946 -117.5354
180829000 -24.302422 -125.98666 -0.15883179 -36.385883 -0.15686142 -36.386009 -25.244835 -117.72727
181828000 -24.274477 -126.37479 -0.15801427 -36.587162 -0.157333 -36.584618 -25.228251 -117.86688
182827000 -24.251038 -126.7371 -0.15772676 -36.78083 -0.15788944 -36.779377 -25.215824 -117.96172
183826000 -24.211048 -127.09671 -0.15975848 -36.977032 -0.15765698 -36.979057 -25.207893 -118.09811
184825000 -24.216093 -127.40343 -0.15939622 -37.171368 -0.15772891 -37.170296 -25.190287 -118.21162
185824000 -24.184851 -127.75499 -0.15892871 -37.371067 -0.15880547 -37.372837 -25.184504 -118.23948
186823000 -24.174809 -128.1277 -0.15991721 -37.56831 -0.15839495 -37.564751 -25.17878 -118.26795
187822000 -24.150806 -128.44429 -0.16055429 -37.765434 -0.15900873 -37.766514 -25.141249 -118.35377
188821000 -24.12953 -128.72511 -0.16009447 -37.959515 -0.16007781 -37.96489 -25.120991 -118.44334
189820000 -24.115015 -128.99678 -0.16081943 -38.162876 -0.1602395 -38.159103 -25.116283 -118.62245
190819000 -24.083916 -129.25645 -0.16207112 -38.36153 -0.16059458 -38.356663 -25.079517 -118.60631
191818000 -24.049906 -129.45158 -0.16333637 -38.555496 -0.16256638 -38.556873 -25.044662 -118.49992
192817000 -23.97654 -129.74039 -0.16419359 -38.742023 -0.16300362 -38.742878 -24.968044 -118.57453
193816000 -23.943583 -130.12952 -0.16320144 -38.932514 -0.16209047 -38.937347 -24.907137 -118.89428
194815000 -23.881548 -130.60919 -0.16332293 -39.132683 -0.16257362 -39.129475 -24.84029 -119.03163
195814000 -23.823576 -130.81128 -0.16413417 -39.326599 -0.1625903 -39.333805 -24.783926 -119.18289
196813000 -23.776426 -131.20387 -0.16317187 -39.524662 -0.16207166 -39.527184 -24.702145 -119.36691
197812000 -23.718391 -131.4744 -0.16360246 -39.720631 -0.16260158 -39.722858 -24.631645 -119.5106
198811000 -23.663332 -131.66602 -0.16328368 -39.918667 -0.16291493 -39.924744 -24.551622 -119.72193
199810000 -23.591372 -132.047 -0.16399519 -40.114735 -0.16281711 -40.115631 -24.472847 -119.87022
200809000 -23.539742 -132.36414 -0.16426697 -40.311966 -0.16293105 -40.31041 -24.39002 -120.08723
201808000 -23.481274 -132.60942 -0.16492891 -40.511753 -0.16404089 -40.51545 -24.32453 -120.18882
202807000 -23.418982 -133.02547 -0.16522254 -40.709034 -0.16517602 -40.714962 -24.265554 -120.43524
203806000 -23.370132 -133.47827 -0.16715096 -40.912365 -0.16553581 -40.913559 -24.196964 -120.62437
204805000 -23.320297 -133.86063 -0.16790211 -41.114807 -0.16674906 -41.11253 -24.137024 -120.85017
