!Keysight Technologies,E5080B,MY59205177,A.15.75.32
!Date: Friday, February 23, 2024 03:26:33
!Correction: S11(Cdelta 2-Port  ) 
!S21(Cdelta 2-Port  ) 
!S12(Cdelta 2-Port  ) 
!S22(Cdelta 2-Port  ) 
!S2P File: Measurements: S11, S21, S12, S22:
# Hz S  dB   R 50
10000000 -45.933086 -0.78374702 -0.016862975 -2.0574586 -0.019822046 -2.1148431 -46.197834 -159.29283
10999000 -45.177414 -2.7248821 -0.017590664 -2.2777526 -0.019412497 -2.3301494 -46.227283 -152.79028
11998000 -44.254669 -5.6578093 -0.018896129 -2.5034127 -0.01886753 -2.5458953 -46.450321 -148.56703
12997000 -43.473698 -11.383874 -0.017440958 -2.6827643 -0.019179005 -2.7147768 -46.037491 -142.7135
13996000 -43.224525 -14.951474 -0.016772544 -2.8625612 -0.018633809 -2.886102 -45.884743 -137.38133
14995000 -42.829147 -19.14311 -0.018957747 -3.0761569 -0.019133504 -3.0985792 -45.606426 -133.73253
15994000 -42.674568 -23.708086 -0.020437093 -3.2952554 -0.021360999 -3.3167021 -45.481747 -129.88144
16993000 -42.712513 -27.92347 -0.019427057 -3.4918334 -0.020633459 -3.5014153 -44.64534 -130.25981
17992000 -42.759071 -33.472466 -0.020195747 -3.6948307 -0.02105795 -3.6957228 -44.077015 -129.68755
18991000 -43.053867 -38.391293 -0.020594966 -3.9057186 -0.022255959 -3.9029131 -43.410046 -128.8562
19990000 -42.860847 -44.069271 -0.02366147 -4.1167908 -0.023903793 -4.1080136 -42.75935 -129.37625
20989000 -42.710701 -47.238762 -0.025472574 -4.3206129 -0.026266553 -4.3103399 -42.151688 -128.72803
21988000 -42.554111 -52.784134 -0.026597312 -4.5180488 -0.027060416 -4.5059566 -41.926315 -127.94466
22987000 -42.287399 -57.575581 -0.027899494 -4.721642 -0.028374463 -4.708828 -41.714001 -127.41167
23986000 -42.215771 -61.427006 -0.027132047 -4.9135861 -0.027183885 -4.9159265 -41.558548 -127.61121
24985000 -41.865677 -64.547592 -0.02816941 -5.1254454 -0.027427183 -5.1208591 -41.389896 -124.9036
25984000 -41.511444 -66.37748 -0.028966228 -5.328218 -0.027703322 -5.3308611 -41.080097 -122.90842
26983000 -41.214214 -68.520393 -0.029503081 -5.5286713 -0.029475454 -5.5472584 -41.006618 -122.36143
27982000 -41.09148 -69.479546 -0.03116253 -5.7287068 -0.030641114 -5.7648787 -40.669796 -120.7327
28981000 -41.057072 -71.060936 -0.029835129 -5.9242373 -0.030176325 -5.9484258 -40.44622 -120.09637
29980000 -40.650414 -72.484322 -0.028961016 -6.1219945 -0.03096569 -6.1328588 -40.199085 -119.02303
30979000 -40.228237 -71.402878 -0.026711389 -6.4795322 -0.025050515 -6.4667168 -39.658161 -119.50255
31978000 -40.011234 -72.393555 -0.026094671 -6.6765256 -0.027426142 -6.6644454 -39.418179 -118.8074
32977000 -39.839184 -73.956787 -0.026350413 -6.887084 -0.027421191 -6.883604 -39.159389 -118.77158
33976000 -39.67709 -75.076935 -0.026892932 -7.0872226 -0.028079525 -7.0849581 -38.875031 -118.11269
34975000 -39.363564 -76.161148 -0.027238065 -7.287766 -0.029607331 -7.286756 -38.639957 -117.83385
35974000 -39.164875 -76.602966 -0.026356922 -7.4857907 -0.02913275 -7.4889216 -38.356052 -116.88138
36973000 -38.921307 -77.359451 -0.027377168 -7.6861272 -0.030278247 -7.6877809 -38.081657 -115.80464
37972000 -38.748554 -77.092041 -0.026592623 -7.8968506 -0.028981343 -7.9063549 -37.863029 -114.90723
38971000 -38.418945 -76.574699 -0.028541222 -8.096735 -0.029567717 -8.106101 -37.70018 -113.35131
39970000 -38.0928 -76.950951 -0.02636057 -8.297739 -0.028896129 -8.3118992 -37.423622 -112.86654
40969000 -37.798229 -76.528831 -0.026791872 -8.4893112 -0.029252889 -8.5091953 -37.192135 -111.18802
41968000 -37.428379 -76.631142 -0.027120326 -8.6963425 -0.029412124 -8.7105789 -36.998905 -109.87923
42967000 -37.152569 -76.801666 -0.026724152 -8.9080715 -0.029074635 -8.9266043 -36.800835 -107.96949
43966000 -36.850883 -77.47464 -0.027296675 -9.1062002 -0.030934924 -9.1293192 -36.498619 -107.32288
44965000 -36.614338 -78.175674 -0.029101478 -9.3104925 -0.030962821 -9.3311195 -36.279434 -107.04327
45964000 -36.393936 -79.364044 -0.029978486 -9.5143013 -0.032456957 -9.5310106 -36.044113 -106.61858
46963000 -36.194817 -81.34671 -0.030376259 -9.7063904 -0.032912601 -9.7307825 -35.872875 -106.87221
47962000 -36.037304 -82.785812 -0.031645156 -9.9108582 -0.034085967 -9.9314127 -35.662197 -106.86694
48961000 -35.819904 -84.07061 -0.0341358 -10.10824 -0.03567905 -10.128937 -35.426109 -107.06049
49960000 -35.584583 -85.431091 -0.035471827 -10.306566 -0.036960725 -10.333114 -35.284985 -107.07973
50959000 -35.373981 -86.844788 -0.036443572 -10.524384 -0.038262889 -10.535437 -35.107151 -107.36887
51958000 -35.162952 -88.038345 -0.037841674 -10.722985 -0.039746996 -10.73165 -34.928501 -107.78708
52957000 -34.94936 -88.995132 -0.039445538 -10.924202 -0.040528696 -10.931233 -34.76947 -107.5634
53956000 -34.777439 -89.705574 -0.040523469 -11.129374 -0.041634865 -11.129321 -34.635582 -107.48255
54955000 -34.611336 -90.142403 -0.04145192 -11.328909 -0.04292614 -11.323078 -34.482441 -107.39025
55954000 -34.455952 -91.014664 -0.043380011 -11.530268 -0.042841438 -11.526154 -34.379135 -107.07977
56953000 -34.325012 -91.065498 -0.042760659 -11.727376 -0.041572403 -11.71958 -34.310081 -107.26857
57952000 -34.166302 -91.61438 -0.043889098 -11.925184 -0.04400311 -11.915473 -34.204449 -107.39838
58951000 -34.022076 -92.044472 -0.044396155 -12.134493 -0.044617407 -12.115018 -34.050228 -107.40771
59950000 -33.909512 -92.373451 -0.045804664 -12.33185 -0.045038756 -12.312193 -33.977558 -107.70374
60949000 -33.801399 -93.013748 -0.04638939 -12.538497 -0.045446545 -12.513051 -33.889759 -107.91647
61948000 -33.737457 -93.264267 -0.046653654 -12.733589 -0.046137962 -12.718023 -33.807899 -108.05318
62947000 -33.633984 -93.429054 -0.046823997 -12.948664 -0.046286043 -12.926601 -33.658546 -108.25847
63946000 -33.574131 -94.149246 -0.047509614 -13.145939 -0.047060285 -13.12954 -33.556854 -108.38165
64945000 -33.46608 -94.281525 -0.048218373 -13.350174 -0.048299517 -13.32968 -33.436962 -108.88911
65944000 -33.356647 -94.634995 -0.049463958 -13.550482 -0.048520707 -13.53257 -33.341064 -109.32269
66943000 -33.213261 -95.026527 -0.046961896 -13.749217 -0.046645805 -13.732481 -33.234989 -109.59087
67942000 -33.152088 -95.023834 -0.049189836 -13.946654 -0.049116008 -13.93645 -33.119362 -109.88445
68941000 -33.034107 -95.023674 -0.049269427 -14.138553 -0.048311036 -14.134565 -33.006084 -109.82013
69940000 -32.940899 -95.035286 -0.048991129 -14.337402 -0.048779864 -14.330056 -32.857616 -110.16179
70939000 -32.833717 -95.003494 -0.049120456 -14.538041 -0.048246644 -14.52909 -32.725822 -110.06022
71938000 -32.683586 -94.557503 -0.048979871 -14.733975 -0.047939096 -14.725746 -32.592293 -109.90472
72937000 -32.527752 -94.351555 -0.048585102 -14.935561 -0.048335902 -14.928405 -32.454712 -109.57827
73936000 -32.382137 -94.019318 -0.048642952 -15.131181 -0.048016045 -15.130433 -32.330944 -109.40596
74935000 -32.250839 -94.182762 -0.047820535 -15.330956 -0.046902496 -15.33002 -32.178764 -109.005
75934000 -32.125511 -94.455429 -0.048063945 -15.538863 -0.046515241 -15.536031 -32.069077 -108.98339
76933000 -31.99165 -94.834702 -0.049280684 -15.733879 -0.048581436 -15.728391 -31.904692 -109.25757
77932000 -31.887465 -95.599869 -0.050627403 -15.932308 -0.050641805 -15.92523 -31.793112 -109.23447
78931000 -31.813843 -96.375938 -0.049161561 -16.13195 -0.049004219 -16.124281 -31.688242 -109.10451
79930000 -31.702499 -97.213104 -0.051903803 -16.325108 -0.052228659 -16.327961 -31.606564 -109.36324
80929000 -31.594093 -98.076782 -0.053550348 -16.525427 -0.053742975 -16.519041 -31.496376 -109.67101
81928000 -31.486347 -98.764137 -0.054383028 -16.715208 -0.054305442 -16.712442 -31.365519 -109.66235
82927000 -31.383385 -99.485619 -0.055744439 -16.912394 -0.055451568 -16.912148 -31.249353 -109.96233
83926000 -31.26292 -100.24562 -0.057638485 -17.112858 -0.056135926 -17.113123 -31.131691 -110.07697
84925000 -31.148935 -100.63792 -0.058598153 -17.315973 -0.056485228 -17.313728 -31.023123 -110.16037
85924000 -31.063702 -101.1008 -0.059037916 -17.517727 -0.058113046 -17.512077 -30.94957 -110.12063
86923000 -30.959669 -101.58084 -0.059712868 -17.712322 -0.058566667 -17.704472 -30.839035 -109.97224
87922000 -30.846468 -101.9222 -0.058711499 -17.91573 -0.058236875 -17.907444 -30.757086 -109.99861
88921000 -30.763678 -102.1781 -0.060617607 -18.119253 -0.059321847 -18.111446 -30.662102 -109.92314
89920000 -30.666609 -102.70772 -0.06103421 -18.317982 -0.059936475 -18.311998 -30.60199 -110.09399
90919000 -30.564835 -103.03143 -0.061996728 -18.515285 -0.060802408 -18.513597 -30.516523 -110.27137
91918000 -30.470222 -103.36487 -0.062447079 -18.716141 -0.061683215 -18.712029 -30.446791 -110.2352
92917000 -30.363178 -103.67059 -0.063366041 -18.916773 -0.062669516 -18.915613 -30.380716 -110.36862
93916000 -30.289221 -104.0238 -0.063997798 -19.109457 -0.062533215 -19.104998 -30.293642 -110.94698
94915000 -30.206703 -104.64954 -0.065290749 -19.309832 -0.06345088 -19.30275 -30.227444 -110.77767
95914000 -30.139231 -104.854 -0.066537559 -19.504368 -0.064830646 -19.500446 -30.131752 -111.08797
96913000 -30.052887 -105.05075 -0.067442931 -19.708372 -0.065832369 -19.705261 -30.070166 -111.43616
97912000 -29.977518 -105.56524 -0.068649068 -19.902014 -0.066294946 -19.904331 -29.996607 -111.63697
98911000 -29.86912 -105.71387 -0.068944938 -20.107449 -0.067769475 -20.105425 -29.956993 -111.92164
99910000 -29.79665 -105.81416 -0.069676146 -20.306948 -0.067727931 -20.302032 -29.852131 -112.2018
100909000 -29.708567 -106.13232 -0.069214523 -20.51487 -0.067540996 -20.507929 -29.759474 -112.35137
101908000 -29.617525 -106.34698 -0.070700303 -20.713484 -0.068883397 -20.709795 -29.650137 -112.16077
102907000 -29.482872 -106.39274 -0.070883691 -20.914129 -0.068190709 -20.91201 -29.571632 -112.15557
103906000 -29.391222 -106.40423 -0.071135506 -21.122963 -0.068402395 -21.116093 -29.425173 -112.11732
104905000 -29.238066 -106.26964 -0.071736023 -21.322187 -0.068588056 -21.319956 -29.299252 -111.76604
105904000 -29.096041 -106.34846 -0.072163165 -21.522398 -0.069059342 -21.513643 -29.18651 -111.6487
106903000 -28.979416 -106.4583 -0.07217633 -21.730978 -0.069162443 -21.726095 -29.051815 -111.54926
107902000 -28.816923 -106.84021 -0.072272398 -21.929388 -0.069877379 -21.923193 -28.920231 -111.52016
108901000 -28.707146 -107.03413 -0.074034378 -22.130396 -0.071349703 -22.122915 -28.79003 -111.47308
109900000 -28.571539 -107.50341 -0.074762225 -22.33198 -0.073092878 -22.32152 -28.633303 -111.50497
110899000 -28.455769 -108.10873 -0.076307334 -22.528803 -0.0728807 -22.523258 -28.507179 -111.79877
111898000 -28.368818 -108.75553 -0.078225926 -22.731987 -0.074385643 -22.724926 -28.389893 -111.94382
112897000 -28.246389 -109.34305 -0.079384975 -22.930655 -0.075706452 -22.920364 -28.251463 -112.14925
113896000 -28.131653 -109.91608 -0.080275625 -23.130074 -0.076987877 -23.121164 -28.141861 -112.20362
114895000 -28.045118 -110.59173 -0.081115291 -23.331535 -0.078410164 -23.319456 -28.022366 -112.36857
115894000 -27.912691 -110.93542 -0.082631007 -23.533325 -0.079827115 -23.518925 -27.957064 -112.52011
116893000 -27.845726 -111.43134 -0.083854303 -23.726906 -0.080827296 -23.712511 -27.841146 -112.58131
117892000 -27.752581 -111.92262 -0.083160549 -23.929075 -0.081439175 -23.915344 -27.755085 -112.78461
118891000 -27.701132 -112.34361 -0.084085494 -24.12648 -0.08168079 -24.114727 -27.66539 -112.90253
119890000 -27.60586 -112.69367 -0.084968925 -24.331156 -0.082148217 -24.314472 -27.653013 -113.04101
120889000 -27.552942 -113.25878 -0.086361349 -24.526562 -0.081927687 -24.51642 -27.572969 -112.96534
121888000 -27.513229 -113.52613 -0.086067192 -24.72785 -0.08342389 -24.711834 -27.510944 -113.22613
122887000 -27.482203 -113.75253 -0.087325528 -24.932278 -0.083407007 -24.915651 -27.46117 -113.24024
123886000 -27.427162 -114.18819 -0.088150978 -25.133743 -0.084536821 -25.113382 -27.449152 -113.34462
124885000 -27.387056 -114.67598 -0.087901607 -25.333735 -0.084776491 -25.317097 -27.41535 -113.42923
125884000 -27.331427 -114.87837 -0.08893536 -25.533003 -0.085142091 -25.518137 -27.389437 -113.579
126883000 -27.311756 -115.22245 -0.089011982 -25.735126 -0.085805275 -25.720758 -27.347656 -113.59004
127882000 -27.263163 -115.52679 -0.089390628 -25.933458 -0.086768806 -25.919226 -27.305168 -113.7264
128881000 -27.234737 -115.907 -0.089922056 -26.136372 -0.086840108 -26.120649 -27.26906 -113.82885
129880000 -27.176437 -116.21133 -0.09064649 -26.339092 -0.086877346 -26.321228 -27.22271 -113.76469
130879000 -27.111927 -116.32388 -0.090299189 -26.541527 -0.08780916 -26.523857 -27.14838 -113.80663
131878000 -27.04682 -116.59346 -0.090374783 -26.743616 -0.088265628 -26.723783 -27.088942 -113.69277
132877000 -26.971476 -116.65147 -0.090408608 -26.944519 -0.088209361 -26.928421 -27.000944 -113.68222
133876000 -26.888777 -116.84111 -0.090938047 -27.142756 -0.088007532 -27.125803 -26.911901 -113.55415
134875000 -26.791756 -116.97315 -0.091810182 -27.34519 -0.089879766 -27.326382 -26.80949 -113.40134
135874000 -26.704617 -117.01483 -0.091761269 -27.544191 -0.089713812 -27.527802 -26.713675 -113.33562
136873000 -26.589792 -116.91829 -0.092231907 -27.750517 -0.088983975 -27.73016 -26.627224 -113.30389
137872000 -26.511772 -117.097 -0.091513015 -27.949057 -0.08903259 -27.938976 -26.516468 -113.25887
138871000 -26.435736 -117.28362 -0.092386588 -28.149652 -0.089146212 -28.137865 -26.419071 -113.41385
139870000 -26.335539 -117.6031 -0.093179144 -28.351271 -0.090629838 -28.333244 -26.33779 -113.56405
140869000 -26.24991 -118.17222 -0.093955182 -28.550844 -0.091541834 -28.528084 -26.235123 -113.79984
141868000 -26.16888 -118.52065 -0.095091179 -28.748667 -0.092891142 -28.730515 -26.186045 -114.04556
142867000 -26.087475 -118.73929 -0.093671091 -28.94652 -0.091602907 -28.928345 -26.100679 -114.19313
143866000 -26.015245 -119.2256 -0.095722012 -29.141102 -0.093428284 -29.125689 -26.025753 -114.66856
144865000 -25.958628 -119.76581 -0.097133771 -29.340324 -0.09499646 -29.328047 -25.969099 -114.95518
145864000 -25.906513 -120.05961 -0.09788774 -29.543146 -0.096460916 -29.53314 -25.933908 -115.17809
146863000 -25.858427 -120.43863 -0.098602921 -29.743931 -0.096659161 -29.732008 -25.883144 -115.45498
147862000 -25.81596 -120.76699 -0.099712059 -29.944117 -0.097738683 -29.930944 -25.858946 -115.79075
148861000 -25.792345 -121.21938 -0.10103768 -30.140738 -0.099104486 -30.129562 -25.829287 -115.9469
149860000 -25.752773 -121.3766 -0.10254154 -30.332952 -0.099952571 -30.322567 -25.784634 -116.03501
150859000 -25.732334 -121.82114 -0.10154721 -30.532463 -0.099375948 -30.515179 -25.762499 -116.36787
151858000 -25.721115 -122.19945 -0.10061033 -30.732874 -0.099292256 -30.716726 -25.753983 -116.70808
152857000 -25.707169 -122.53268 -0.1011956 -30.931625 -0.09999045 -30.917063 -25.743134 -116.8746
153856000 -25.706711 -122.72853 -0.10158802 -31.131565 -0.098613247 -31.119961 -25.75988 -117.17606
154855000 -25.705563 -122.86887 -0.10148812 -31.331457 -0.098457545 -31.318483 -25.751465 -117.44827
155854000 -25.720198 -123.12695 -0.10220283 -31.529949 -0.099484272 -31.515787 -25.743134 -117.69191
156853000 -25.706806 -123.84315 -0.099979587 -31.719492 -0.098847866 -31.712023 -25.738979 -117.97522
157852000 -25.719265 -124.04706 -0.10104987 -31.92174 -0.10080532 -31.909521 -25.730558 -118.34713
158851000 -25.721523 -124.26546 -0.10207244 -32.118469 -0.1006347 -32.111416 -25.717691 -118.60455
159850000 -25.709085 -124.3946 -0.102501 -32.319256 -0.10116804 -32.310226 -25.718115 -118.79894
160849000 -25.694685 -124.4961 -0.10308757 -32.519882 -0.10239074 -32.513504 -25.691254 -119.07207
161848000 -25.679632 -124.58033 -0.10352338 -32.718842 -0.10209205 -32.713787 -25.654383 -119.1591
162847000 -25.634655 -124.75677 -0.10321746 -32.919308 -0.10254022 -32.912941 -25.624353 -119.42191
163846000 -25.600834 -124.94931 -0.10278592 -33.123638 -0.10200089 -33.111935 -25.552864 -119.45838
164845000 -25.536041 -124.92155 -0.10399131 -33.317093 -0.10277002 -33.311298 -25.486635 -119.55259
165844000 -25.486269 -124.97594 -0.10455184 -33.517166 -0.10296564 -33.512489 -25.405722 -119.69228
166843000 -25.425123 -125.01847 -0.10482232 -33.715855 -0.10318406 -33.709751 -25.343254 -119.87248
167842000 -25.369915 -125.15559 -0.10444604 -33.919037 -0.10321269 -33.912407 -25.264355 -119.79398
168841000 -25.28916 -125.30635 -0.10497534 -34.115658 -0.10332455 -34.112587 -25.189341 -119.8707
169840000 -25.224712 -125.55196 -0.10554899 -34.313831 -0.10478944 -34.30965 -25.099834 -120.04093
170839000 -25.163729 -125.79295 -0.10621874 -34.510002 -0.10443384 -34.510197 -25.017679 -120.23137
171838000 -25.103437 -126.16961 -0.10620176 -34.715672 -0.10579618 -34.708637 -24.960209 -120.46442
172837000 -25.032059 -126.54144 -0.10737705 -34.911507 -0.10708466 -34.902229 -24.890736 -120.66767
173836000 -24.966984 -126.94602 -0.1088104 -35.109715 -0.10776924 -35.106819 -24.848728 -120.92184
174835000 -24.912483 -127.34333 -0.1098125 -35.302723 -0.10860124 -35.308823 -24.799463 -121.22469
175834000 -24.85671 -127.7322 -0.11074287 -35.507469 -0.10984754 -35.502846 -24.739569 -121.47684
176833000 -24.813473 -128.08534 -0.11176241 -35.707348 -0.11058939 -35.703186 -24.68576 -121.62962
177832000 -24.766121 -128.51044 -0.1125702 -35.906269 -0.11159535 -35.905041 -24.666365 -121.78809
178831000 -24.72401 -128.80655 -0.11351392 -36.10173 -0.11329976 -36.099342 -24.63151 -121.90038
179830000 -24.662508 -129.10448 -0.11546231 -36.292606 -0.11409321 -36.290043 -24.577776 -121.86637
180829000 -24.598486 -129.4425 -0.11548145 -36.480175 -0.11341561 -36.481266 -24.517462 -122.17847
181828000 -24.57299 -129.92393 -0.11443605 -36.682755 -0.11267806 -36.674671 -24.499527 -122.4087
182827000 -24.548098 -130.28441 -0.11449611 -36.878643 -0.11360745 -36.876686 -24.481415 -122.55066
183826000 -24.507607 -130.61314 -0.11421599 -37.07579 -0.11305479 -37.071667 -24.474428 -122.68871
184825000 -24.507755 -130.96536 -0.11452375 -37.272842 -0.11398904 -37.276768 -24.453142 -122.81551
185824000 -24.474789 -131.35139 -0.11478688 -37.473118 -0.11462315 -37.470509 -24.448322 -122.87917
186823000 -24.460476 -131.69873 -0.11480974 -37.671936 -0.11409959 -37.668381 -24.437235 -122.88744
187822000 -24.435545 -132.0179 -0.11551867 -37.865105 -0.11464601 -37.867504 -24.394888 -122.9756
188821000 -24.41456 -132.28482 -0.11515529 -38.059608 -0.11466169 -38.063732 -24.379456 -123.11013
189820000 -24.389418 -132.58162 -0.11547055 -38.261181 -0.11449479 -38.260517 -24.360451 -123.30283
190819000 -24.355949 -132.87543 -0.11625643 -38.459721 -0.11577707 -38.461067 -24.317209 -123.3316
191818000 -24.323156 -133.17851 -0.11638805 -38.659245 -0.11624633 -38.65691 -24.28945 -123.38197
192817000 -24.276764 -133.45322 -0.11700868 -38.856155 -0.1165194 -38.854359 -24.245937 -123.48796
193816000 -24.247377 -133.70914 -0.11687173 -39.052322 -0.1162317 -39.049202 -24.190998 -123.63469
194815000 -24.183622 -134.12189 -0.11722967 -39.243454 -0.11716318 -39.249012 -24.124697 -123.68932
195814000 -24.124828 -134.31581 -0.11821616 -39.44553 -0.11698235 -39.447433 -24.070726 -123.82324
196813000 -24.069719 -134.63004 -0.1185556 -39.634327 -0.11732727 -39.638309 -23.989771 -123.97246
197812000 -24.010578 -134.87039 -0.11794777 -39.836262 -0.1182808 -39.836586 -23.915977 -124.0611
198811000 -23.954966 -135.00069 -0.11892352 -40.031551 -0.11763844 -40.038067 -23.842398 -124.23701
199810000 -23.885876 -135.3765 -0.11853192 -40.229107 -0.11850851 -40.226414 -23.761951 -124.34517
200809000 -23.824215 -135.63933 -0.11897779 -40.428246 -0.11860534 -40.425571 -23.686415 -124.52692
201808000 -23.769106 -135.84259 -0.12010093 -40.628548 -0.11931729 -40.628456 -23.61916 -124.60285
202807000 -23.708771 -136.18825 -0.12012861 -40.830357 -0.11983935 -40.830212 -23.561569 -124.79684
203806000 -23.655066 -136.60944 -0.12227966 -41.026855 -0.12079955 -41.031239 -23.500483 -124.95386
