!Keysight Technologies,E5080B,MY59205177,A.15.75.32
!Date: Friday, February 23, 2024 03:38:56
!Correction: S11(Cdelta 2-Port  ) 
!S21(Cdelta 2-Port  ) 
!S12(Cdelta 2-Port  ) 
!S22(Cdelta 2-Port  ) 
!S2P File: Measurements: S11, S21, S12, S22:
# Hz S  dB   R 50
10000000 -46.08218 -2.7944288 -0.014555712 -2.0429957 -0.018072044 -2.0952721 -45.931248 -157.49538
10999000 -45.344856 -4.9489598 -0.015449011 -2.2596314 -0.017429523 -2.3160944 -45.81702 -151.16277
11998000 -44.382095 -7.7572422 -0.016026804 -2.4865787 -0.017370785 -2.528758 -46.029526 -146.72194
12997000 -43.61895 -13.633531 -0.01584026 -2.6664345 -0.016985895 -2.6988719 -45.567406 -141.01663
13996000 -43.321812 -17.128534 -0.014697786 -2.8491802 -0.017868776 -2.8670466 -45.401062 -136.28038
14995000 -42.940453 -21.707788 -0.016588045 -3.0562348 -0.017130908 -3.0815458 -45.102795 -132.51599
15994000 -42.754131 -26.164722 -0.018425835 -3.2768807 -0.019666804 -3.2954104 -44.947697 -129.67836
16993000 -42.702404 -30.982428 -0.017091924 -3.4707952 -0.018573755 -3.4789805 -44.103397 -128.91113
17992000 -42.726593 -36.371193 -0.017901268 -3.6702483 -0.018787455 -3.6725867 -43.553719 -129.33028
18991000 -42.965572 -41.456593 -0.01823191 -3.8822026 -0.020069877 -3.8800423 -42.923645 -127.9192
19990000 -42.711285 -47.229698 -0.021536333 -4.0881 -0.02217296 -4.0841093 -42.256496 -128.69673
20989000 -42.534283 -50.615803 -0.023261709 -4.2928281 -0.024067517 -4.2863984 -41.714115 -128.1974
21988000 -42.358269 -56.109909 -0.023645855 -4.4904094 -0.024720915 -4.4821014 -41.453136 -127.54859
22987000 -42.014713 -60.930267 -0.025289789 -4.6923184 -0.025878528 -4.6835003 -41.199043 -127.10442
23986000 -41.959019 -64.999626 -0.024675356 -4.8861961 -0.024341621 -4.8812389 -41.060299 -126.64513
24985000 -41.541504 -67.474052 -0.025747025 -5.0974202 -0.025250994 -5.0889521 -40.897808 -124.2761
25984000 -41.172935 -69.696457 -0.026357444 -5.2979727 -0.025676198 -5.3022499 -40.537586 -122.97128
26983000 -40.826778 -71.411911 -0.027410772 -5.5008969 -0.026554598 -5.5166125 -40.361233 -122.21412
27982000 -40.725174 -72.178566 -0.028423188 -5.6965923 -0.028447941 -5.7330246 -40.156368 -120.66254
28981000 -40.648376 -73.858521 -0.026439222 -5.8963962 -0.028351273 -5.9184361 -39.891541 -120.14165
29980000 -40.26511 -75.093857 -0.026498342 -6.0933437 -0.028709553 -6.1017919 -39.610592 -119.05865
30979000 -39.881626 -74.103676 -0.024441062 -6.4475083 -0.022955926 -6.4359431 -39.143093 -119.43952
31978000 -39.66177 -75.223656 -0.023089167 -6.6388006 -0.024012074 -6.6302657 -38.896366 -118.8604
32977000 -39.480095 -76.6717 -0.024009991 -6.8488154 -0.025074989 -6.8478966 -38.659821 -118.84579
33976000 -39.302582 -77.72879 -0.024711542 -7.051898 -0.025326241 -7.0457635 -38.36441 -118.29562
34975000 -39.025532 -78.539268 -0.024507703 -7.2468486 -0.02614337 -7.251605 -38.139034 -117.80156
35974000 -38.80101 -79.068321 -0.023643512 -7.4466162 -0.025774628 -7.447722 -37.867016 -117.0524
36973000 -38.564354 -79.670395 -0.023662252 -7.6452699 -0.026434273 -7.6475868 -37.60001 -116.03197
37972000 -38.409954 -79.565376 -0.023422547 -7.8590164 -0.026645755 -7.8651123 -37.37785 -115.33054
38971000 -38.091694 -79.072006 -0.024333289 -8.0595083 -0.026091026 -8.0713005 -37.229504 -113.63512
39970000 -37.762745 -79.29216 -0.023033476 -8.250309 -0.025517099 -8.2662954 -36.974319 -113.0827
40969000 -37.482281 -79.059929 -0.023011615 -8.4490261 -0.024841452 -8.469944 -36.741119 -111.75476
41968000 -37.122051 -78.822273 -0.023552937 -8.6582279 -0.02651553 -8.6703701 -36.54641 -110.49076
42967000 -36.892956 -78.965256 -0.023459243 -8.8613892 -0.026534284 -8.8795185 -36.338112 -108.60633
43966000 -36.583073 -79.646194 -0.023439983 -9.0641947 -0.028397132 -9.0836735 -36.077644 -107.78674
44965000 -36.339142 -80.286522 -0.025386129 -9.2661591 -0.028328085 -9.2882385 -35.868305 -107.58971
45964000 -36.117062 -81.415268 -0.026138943 -9.4674063 -0.028718412 -9.4852695 -35.641304 -107.35659
46963000 -35.934467 -83.380302 -0.026230874 -9.6620178 -0.028996978 -9.6827984 -35.473919 -107.56843
47962000 -35.749184 -84.743095 -0.02760537 -9.8643684 -0.030618696 -9.8803988 -35.260834 -107.64528
48961000 -35.550774 -86.166183 -0.029927919 -10.060981 -0.031668626 -10.084972 -35.037975 -107.75331
49960000 -35.308739 -87.461334 -0.031022524 -10.258809 -0.033160396 -10.280858 -34.899471 -107.90784
50959000 -35.070335 -88.708305 -0.031982586 -10.47473 -0.034309041 -10.482466 -34.728783 -108.18039
51958000 -34.875206 -89.74678 -0.033548549 -10.673231 -0.035278704 -10.683243 -34.553444 -108.54831
52957000 -34.650917 -90.647781 -0.035177186 -10.869836 -0.036079437 -10.879267 -34.389652 -108.3016
53956000 -34.499477 -91.478439 -0.036192197 -11.076222 -0.037151311 -11.074643 -34.249439 -108.25728
54955000 -34.320015 -91.850456 -0.037191782 -11.275068 -0.03807617 -11.271389 -34.106327 -108.27229
55954000 -34.155205 -92.781837 -0.038646273 -11.476295 -0.038830664 -11.468801 -33.992947 -108.06453
56953000 -34.033485 -92.741898 -0.037286818 -11.675378 -0.037430942 -11.664959 -33.923611 -108.18169
57952000 -33.8587 -93.372963 -0.038641572 -11.873133 -0.039292201 -11.865836 -33.811634 -108.29334
58951000 -33.742981 -93.668045 -0.039701279 -12.076777 -0.039190855 -12.056882 -33.674442 -108.3287
59950000 -33.621136 -94.122742 -0.040345278 -12.277446 -0.040413734 -12.257964 -33.595131 -108.61922
60949000 -33.496449 -94.6782 -0.040886674 -12.477053 -0.040421572 -12.456614 -33.491528 -108.95686
61948000 -33.437466 -94.974525 -0.041510724 -12.67816 -0.040682074 -12.662801 -33.404072 -109.02835
62947000 -33.354607 -95.154602 -0.041263759 -12.889462 -0.041775998 -12.86712 -33.266785 -109.27068
63946000 -33.264797 -95.832741 -0.042368807 -13.088042 -0.04212153 -13.068102 -33.151047 -109.39938
64945000 -33.157795 -96.018806 -0.042843528 -13.291249 -0.042790201 -13.269497 -33.041515 -109.92287
65944000 -33.050335 -96.386948 -0.043752864 -13.488557 -0.043262355 -13.471858 -32.959076 -110.32563
66943000 -32.9184 -96.76844 -0.041405663 -13.691171 -0.042097747 -13.673697 -32.846592 -110.54447
67942000 -32.866898 -96.72007 -0.043380272 -13.885301 -0.043763585 -13.877469 -32.717888 -110.83989
68941000 -32.748165 -96.794708 -0.042869411 -14.083401 -0.042867582 -14.071122 -32.617859 -110.81043
69940000 -32.660515 -96.844536 -0.043615852 -14.277124 -0.044388309 -14.269901 -32.480003 -111.05375
70939000 -32.54607 -96.763016 -0.043911062 -14.474843 -0.043503158 -14.471873 -32.342449 -110.95797
71938000 -32.403912 -96.313583 -0.043328501 -14.673977 -0.042728242 -14.667285 -32.214283 -110.80776
72937000 -32.258045 -96.10141 -0.043154377 -14.870584 -0.043347064 -14.869373 -32.082577 -110.46797
73936000 -32.122463 -95.780922 -0.042802487 -15.071048 -0.042018026 -15.06366 -31.966263 -110.32072
74935000 -31.996893 -95.993622 -0.041754305 -15.267502 -0.041695759 -15.262186 -31.812002 -109.90365
75934000 -31.866219 -96.191292 -0.042396516 -15.475734 -0.041457411 -15.474304 -31.725193 -109.86752
76933000 -31.737152 -96.603287 -0.042828891 -15.672565 -0.043395173 -15.664573 -31.549809 -110.19832
77932000 -31.636082 -97.326195 -0.044157133 -15.867571 -0.044270888 -15.859969 -31.460522 -110.24162
78931000 -31.559093 -98.062149 -0.043527737 -16.066919 -0.043357525 -16.061356 -31.364241 -110.05212
79930000 -31.445578 -98.89621 -0.045323078 -16.261395 -0.045847047 -16.254641 -31.256817 -110.34866
80929000 -31.337893 -99.656769 -0.047951136 -16.456354 -0.047961868 -16.453119 -31.157265 -110.56136
81928000 -31.229534 -100.41779 -0.047327209 -16.647877 -0.048279624 -16.642479 -31.035128 -110.58372
82927000 -31.138443 -101.19299 -0.049033277 -16.845163 -0.049270213 -16.843401 -30.927515 -110.87284
83926000 -31.01663 -101.8241 -0.050655685 -17.044443 -0.049883682 -17.045067 -30.805876 -111.08359
84925000 -30.908592 -102.22109 -0.050943781 -17.243696 -0.049787585 -17.240026 -30.712837 -111.10104
85924000 -30.815153 -102.64023 -0.052197222 -17.446831 -0.051209111 -17.444695 -30.626009 -111.04996
86923000 -30.709368 -103.18891 -0.052012 -17.643089 -0.051740337 -17.637114 -30.534254 -110.97613
87922000 -30.606237 -103.47495 -0.051723834 -17.850435 -0.051235825 -17.83864 -30.440447 -111.00742
88921000 -30.531122 -103.7932 -0.053601451 -18.048033 -0.052810844 -18.046473 -30.356033 -110.99906
89920000 -30.426296 -104.25462 -0.053722795 -18.247179 -0.053230107 -18.238314 -30.294794 -111.21602
90919000 -30.328392 -104.49495 -0.054409765 -18.444582 -0.054424182 -18.435499 -30.208918 -111.35008
91918000 -30.229273 -104.89821 -0.055638511 -18.643921 -0.05421501 -18.638517 -30.142788 -111.32478
92917000 -30.136677 -105.19104 -0.056217216 -18.844553 -0.055686228 -18.838949 -30.079817 -111.45055
93916000 -30.050091 -105.51604 -0.055255454 -19.035837 -0.05494374 -19.031847 -29.985785 -112.02452
94915000 -29.972784 -106.14649 -0.057144046 -19.234919 -0.056658577 -19.23208 -29.930153 -111.92353
95914000 -29.906601 -106.36268 -0.058209065 -19.431967 -0.057340767 -19.425768 -29.842878 -112.19851
96913000 -29.81917 -106.55199 -0.059448335 -19.635147 -0.058621503 -19.631157 -29.770407 -112.54941
97912000 -29.745661 -107.00813 -0.060574818 -19.828829 -0.058826424 -19.827271 -29.689304 -112.76964
98911000 -29.632732 -107.20355 -0.060765132 -20.029995 -0.059425764 -20.028667 -29.644339 -112.97477
99910000 -29.570023 -107.31185 -0.061803997 -20.229761 -0.059513155 -20.227005 -29.541784 -113.23091
100909000 -29.485569 -107.59689 -0.060954403 -20.438133 -0.059246793 -20.431374 -29.453636 -113.46793
101908000 -29.391251 -107.80437 -0.062259842 -20.640505 -0.061183061 -20.635063 -29.343636 -113.21735
102907000 -29.253553 -107.77687 -0.062092833 -20.835794 -0.061143421 -20.835802 -29.276096 -113.20768
103906000 -29.163429 -107.79988 -0.062547132 -21.045628 -0.060492922 -21.041475 -29.130547 -113.16463
104905000 -29.016884 -107.71655 -0.063278049 -21.243181 -0.061983861 -21.239634 -29.004484 -112.85962
105904000 -28.870829 -107.77197 -0.063287772 -21.444159 -0.061174136 -21.440086 -28.894886 -112.72539
106903000 -28.767666 -107.86245 -0.063485816 -21.651506 -0.061693192 -21.643435 -28.768688 -112.63227
107902000 -28.597248 -108.18415 -0.0642718 -21.85178 -0.062249862 -21.842611 -28.63567 -112.53769
108901000 -28.490181 -108.40387 -0.064999335 -22.053818 -0.063867234 -22.044788 -28.504112 -112.50469
109900000 -28.367001 -108.876 -0.065778762 -22.255114 -0.064737104 -22.244179 -28.364531 -112.57809
110899000 -28.242481 -109.48489 -0.067580171 -22.45146 -0.064831696 -22.442888 -28.23353 -112.83772
111898000 -28.159531 -110.09792 -0.068708502 -22.651564 -0.066725768 -22.647774 -28.127361 -112.95828
112897000 -28.027464 -110.67249 -0.070105985 -22.851328 -0.067872807 -22.840197 -27.985958 -113.15009
113896000 -27.922453 -111.248 -0.071083665 -23.052982 -0.068655379 -23.040997 -27.875525 -113.29548
114895000 -27.828463 -111.91611 -0.071918927 -23.251217 -0.070075467 -23.238752 -27.766159 -113.35901
115894000 -27.696354 -112.24254 -0.073539376 -23.450392 -0.070670307 -23.437262 -27.698046 -113.60313
116893000 -27.621178 -112.73217 -0.073956959 -23.64732 -0.071835235 -23.63184 -27.572849 -113.58893
117892000 -27.536036 -113.22729 -0.07395222 -23.845213 -0.072155535 -23.830732 -27.495735 -113.81678
118891000 -27.482992 -113.59718 -0.074210793 -24.045023 -0.07230898 -24.034647 -27.398342 -113.94891
119890000 -27.393511 -113.9753 -0.075643495 -24.243662 -0.073058918 -24.231812 -27.387501 -114.13357
120889000 -27.339952 -114.46558 -0.076281786 -24.448126 -0.073200285 -24.435038 -27.317129 -114.01795
121888000 -27.302237 -114.83149 -0.07709828 -24.644724 -0.074549176 -24.632093 -27.251249 -114.2798
122887000 -27.268129 -114.9832 -0.077469826 -24.849192 -0.074851766 -24.834311 -27.207594 -114.32787
123886000 -27.213854 -115.44271 -0.078110747 -25.050861 -0.074630283 -25.027903 -27.191822 -114.45129
124885000 -27.176847 -115.91057 -0.077895954 -25.247847 -0.075487301 -25.23181 -27.16329 -114.52616
125884000 -27.124268 -116.13241 -0.079233915 -25.445513 -0.075697236 -25.43247 -27.13595 -114.6597
126883000 -27.106791 -116.52411 -0.078955799 -25.648695 -0.076451972 -25.635527 -27.09383 -114.65698
127882000 -27.05632 -116.76276 -0.079370476 -25.849926 -0.076616108 -25.83124 -27.054497 -114.84315
128881000 -27.028528 -117.12341 -0.079668656 -26.051447 -0.076834001 -26.035872 -27.015003 -114.88577
129880000 -26.971441 -117.41702 -0.081007689 -26.25119 -0.077152558 -26.234339 -26.976955 -114.83536
130879000 -26.914883 -117.61564 -0.080761105 -26.453802 -0.078140795 -26.438505 -26.906265 -114.83765
131878000 -26.846153 -117.80799 -0.080752134 -26.655453 -0.078384861 -26.634493 -26.844242 -114.74281
132877000 -26.780796 -117.90955 -0.080336273 -26.85783 -0.078302622 -26.83604 -26.764273 -114.73277
133876000 -26.700541 -118.05445 -0.080646649 -27.057932 -0.078587554 -27.036938 -26.681395 -114.5724
134875000 -26.608902 -118.19249 -0.080575451 -27.256624 -0.079251051 -27.237867 -26.585121 -114.41726
135874000 -26.520321 -118.21509 -0.08096391 -27.45895 -0.07892891 -27.441351 -26.487955 -114.33485
136873000 -26.415678 -118.18357 -0.080588371 -27.660488 -0.078350596 -27.642921 -26.409266 -114.31644
137872000 -26.337748 -118.26448 -0.081331566 -27.86503 -0.078225136 -27.844423 -26.303604 -114.30788
138871000 -26.263336 -118.4695 -0.082619399 -28.065647 -0.079127148 -28.048958 -26.212366 -114.43694
139870000 -26.160864 -118.75378 -0.08258035 -28.262053 -0.08022289 -28.24802 -26.131504 -114.54569
140869000 -26.086622 -119.31923 -0.083157122 -28.463104 -0.081021138 -28.439833 -26.036484 -114.74719
141868000 -26.004034 -119.71671 -0.084373966 -28.657757 -0.081938237 -28.645418 -25.984848 -115.0107
142867000 -25.918375 -119.90607 -0.082749203 -28.855795 -0.081572376 -28.837046 -25.904356 -115.11629
143866000 -25.848907 -120.39678 -0.085024625 -29.050541 -0.083023079 -29.03483 -25.829569 -115.5703
144865000 -25.79537 -120.89607 -0.086546719 -29.25065 -0.084257834 -29.234859 -25.772787 -115.89884
145864000 -25.739397 -121.18549 -0.086793631 -29.453423 -0.085063688 -29.437853 -25.744202 -116.16503
146863000 -25.68948 -121.55333 -0.087379679 -29.654848 -0.086164095 -29.642727 -25.697182 -116.47418
147862000 -25.655151 -121.90076 -0.088921092 -29.848532 -0.086732894 -29.837908 -25.663496 -116.76668
148861000 -25.622192 -122.33212 -0.090061329 -30.046925 -0.087369636 -30.035572 -25.640629 -116.91978
149860000 -25.58972 -122.50144 -0.090465434 -30.240154 -0.087685801 -30.226685 -25.590111 -117.0043
150859000 -25.574011 -122.98708 -0.089622639 -30.438957 -0.087389447 -30.422455 -25.571007 -117.39172
151858000 -25.556602 -123.32054 -0.090029612 -30.640396 -0.087412693 -30.622173 -25.559309 -117.74455
152857000 -25.545851 -123.64822 -0.08977142 -30.831945 -0.087398693 -30.825542 -25.54446 -117.90729
153856000 -25.539021 -123.86098 -0.089356542 -31.034079 -0.087308101 -31.02527 -25.556946 -118.22238
154855000 -25.539541 -124.02862 -0.090120792 -31.23484 -0.087567471 -31.224026 -25.548208 -118.48089
155854000 -25.553537 -124.2536 -0.090859801 -31.432722 -0.087680519 -31.424358 -25.54353 -118.74926
156853000 -25.539961 -124.97689 -0.087984815 -31.624319 -0.086420231 -31.614435 -25.532749 -119.05069
157852000 -25.549793 -125.18214 -0.089480475 -31.827257 -0.088802196 -31.819757 -25.525452 -119.44623
158851000 -25.547157 -125.40715 -0.090296812 -32.022762 -0.088462442 -32.014484 -25.512537 -119.66647
159850000 -25.537033 -125.51634 -0.09044297 -32.222107 -0.089073285 -32.216713 -25.507002 -119.85903
160849000 -25.519993 -125.60225 -0.090700679 -32.422028 -0.089675754 -32.416969 -25.481148 -120.14009
161848000 -25.501637 -125.67447 -0.090933815 -32.623585 -0.089529358 -32.617287 -25.441961 -120.22834
162847000 -25.460537 -125.87151 -0.090958662 -32.823521 -0.090656802 -32.81863 -25.414349 -120.46652
163846000 -25.422863 -126.03591 -0.090852663 -33.024002 -0.08955393 -33.017754 -25.334572 -120.46255
164845000 -25.361818 -126.03059 -0.091657102 -33.223957 -0.09006688 -33.215336 -25.273256 -120.58804
165844000 -25.315722 -126.07431 -0.091602378 -33.421974 -0.090905271 -33.416988 -25.192362 -120.71914
166843000 -25.254446 -126.11934 -0.091245219 -33.623547 -0.090882003 -33.617348 -25.130259 -120.86572
167842000 -25.198214 -126.25739 -0.091486841 -33.822777 -0.091375284 -33.81324 -25.055929 -120.79759
168841000 -25.116529 -126.37297 -0.092518009 -34.019917 -0.091380566 -34.015018 -24.980112 -120.88154
169840000 -25.053661 -126.64085 -0.092862844 -34.219254 -0.091244161 -34.211437 -24.893108 -121.0334
170839000 -24.994436 -126.87052 -0.093547836 -34.417278 -0.092477821 -34.410923 -24.813128 -121.23526
171838000 -24.93413 -127.25182 -0.09347219 -34.615688 -0.093284935 -34.610008 -24.75354 -121.46128
172837000 -24.865875 -127.58227 -0.095008098 -34.813217 -0.09401761 -34.806602 -24.685904 -121.63529
173836000 -24.796768 -127.97045 -0.096517026 -35.013538 -0.094713099 -35.005123 -24.642689 -121.86114
174835000 -24.743303 -128.38383 -0.096750744 -35.20578 -0.095518783 -35.209904 -24.601904 -122.16084
175834000 -24.690205 -128.72803 -0.096910886 -35.407764 -0.096916176 -35.402538 -24.544397 -122.42014
176833000 -24.643106 -129.05412 -0.098064072 -35.610104 -0.097397432 -35.605392 -24.495605 -122.56456
177832000 -24.601917 -129.50726 -0.098643966 -35.807308 -0.098335475 -35.806007 -24.475986 -122.68884
178831000 -24.554642 -129.71408 -0.10084427 -36.001778 -0.099729806 -36.002117 -24.435289 -122.77502
179830000 -24.476448 -130.14539 -0.10116565 -36.186039 -0.10041986 -36.189617 -24.373455 -122.84743
180829000 -24.436897 -130.46497 -0.10031018 -36.375431 -0.099913098 -36.382015 -24.328531 -123.18693
181828000 -24.412268 -130.93745 -0.10061192 -36.58226 -0.099109516 -36.579762 -24.310568 -123.39484
182827000 -24.388094 -131.25772 -0.09991999 -36.774834 -0.099550754 -36.776558 -24.293943 -123.52711
183826000 -24.347368 -131.60052 -0.10115823 -36.975296 -0.09926524 -36.973091 -24.285957 -123.67271
184825000 -24.353649 -131.95581 -0.10042674 -37.168621 -0.1000527 -37.172657 -24.268211 -123.79733
185824000 -24.322453 -132.34494 -0.10047548 -37.372128 -0.099931113 -37.366894 -24.264713 -123.85544
186823000 -24.310778 -132.66296 -0.10066411 -37.568962 -0.10037296 -37.56805 -24.258131 -123.86917
187822000 -24.28499 -133.03337 -0.10144228 -37.762451 -0.10100562 -37.764694 -24.218155 -123.95195
188821000 -24.256584 -133.2598 -0.10073724 -37.958145 -0.10069882 -37.9627 -24.202391 -124.06011
189820000 -24.239927 -133.56784 -0.10136888 -38.158886 -0.10072531 -38.160957 -24.178989 -124.27353
190819000 -24.204725 -133.867 -0.10189303 -38.357967 -0.10143009 -38.355309 -24.144815 -124.29744
191818000 -24.174606 -134.1602 -0.10175762 -38.55323 -0.10172529 -38.554394 -24.112751 -124.35312
192817000 -24.128933 -134.41937 -0.10260092 -38.748745 -0.10231573 -38.75267 -24.070021 -124.42432
193816000 -24.096254 -134.70358 -0.10276419 -38.946251 -0.10166275 -38.946144 -24.016853 -124.57677
194815000 -24.04071 -135.09135 -0.10317399 -39.142899 -0.10287525 -39.144062 -23.951569 -124.64996
195814000 -23.979658 -135.2666 -0.10409233 -39.340866 -0.10317399 -39.340889 -23.896574 -124.70933
196813000 -23.93074 -135.62251 -0.10371161 -39.530193 -0.10298313 -39.536999 -23.821545 -124.8622
197812000 -23.874292 -135.8284 -0.10373918 -39.729679 -0.10296617 -39.730888 -23.752075 -124.95432
198811000 -23.817461 -135.99937 -0.10301388 -39.928444 -0.10232925 -39.928307 -23.677288 -125.1159
199810000 -23.746016 -136.325 -0.10395207 -40.123196 -0.10242493 -40.119637 -23.602839 -125.20835
200809000 -23.692879 -136.58583 -0.10442138 -40.322929 -0.10348998 -40.325821 -23.525337 -125.37817
201808000 -23.631689 -136.77655 -0.10507187 -40.523476 -0.10430498 -40.52388 -23.459806 -125.45215
202807000 -23.570797 -137.1201 -0.105484 -40.721516 -0.10490161 -40.727177 -23.405539 -125.63513
