!Keysight Technologies,E5080B,MY59205177,A.15.75.32
!Date: Friday, February 23, 2024 03:00:39
!Correction: S11(Cdelta 2-Port  ) 
!S21(Cdelta 2-Port  ) 
!S12(Cdelta 2-Port  ) 
!S22(Cdelta 2-Port  ) 
!S2P File: Measurements: S11, S21, S12, S22:
# Hz S  dB   R 50
10000000 -44.11866 -3.6402972 -0.027547536 -2.0405185 -0.030113505 -2.0934408 -47.988647 -150.0177
10999000 -43.50758 -5.531806 -0.028999845 -2.2561848 -0.030105164 -2.3119128 -47.817383 -142.66585
11998000 -42.743397 -8.0632544 -0.029497087 -2.4794464 -0.029834347 -2.5237606 -47.927635 -137.39571
12997000 -42.104729 -12.770233 -0.028184522 -2.6594193 -0.029098611 -2.6900985 -47.198872 -131.08144
13996000 -41.83604 -16.07983 -0.027287038 -2.8374298 -0.029620623 -2.8569434 -46.818573 -125.3311
14995000 -41.512554 -19.783323 -0.030264691 -3.045835 -0.028955022 -3.0694532 -46.383312 -121.83219
15994000 -41.379257 -23.55736 -0.031266823 -3.2656126 -0.031754937 -3.2867818 -46.121159 -118.04926
16993000 -41.412888 -27.688671 -0.030243577 -3.4630814 -0.030759992 -3.4687834 -45.246189 -118.9315
17992000 -41.467094 -32.135967 -0.030994628 -3.6588957 -0.031313755 -3.6629734 -44.613918 -119.71849
18991000 -41.724419 -36.765343 -0.031744245 -3.8662176 -0.032050647 -3.8680663 -43.923248 -119.32461
19990000 -41.607948 -41.538345 -0.034485683 -4.076129 -0.034733046 -4.075417 -43.248245 -120.98343
20989000 -41.495731 -44.601673 -0.036380924 -4.2821622 -0.036093529 -4.2702794 -42.607319 -120.57184
21988000 -41.429321 -49.282242 -0.036631785 -4.4757648 -0.036802258 -4.4652109 -42.339005 -120.12651
22987000 -41.229263 -53.666592 -0.037589695 -4.676949 -0.03771764 -4.6673923 -42.072014 -119.64539
23986000 -41.189648 -57.548183 -0.037483945 -4.8700905 -0.036409374 -4.87292 -41.922455 -119.66898
24985000 -40.870049 -60.074295 -0.038219016 -5.0805264 -0.0372064 -5.076345 -41.687202 -117.29245
25984000 -40.635761 -62.170357 -0.0390357 -5.2832451 -0.037759941 -5.282064 -41.368736 -115.85446
26983000 -40.350967 -64.249771 -0.039628658 -5.483274 -0.038597696 -5.5022173 -41.22171 -114.94984
27982000 -40.220936 -64.90184 -0.041242067 -5.6794901 -0.040251218 -5.7155113 -40.962219 -113.3679
28981000 -40.175701 -66.565018 -0.039466698 -5.8812208 -0.039166301 -5.9001312 -40.667992 -112.6663
29980000 -39.787823 -68.341637 -0.039380495 -6.0704875 -0.040756546 -6.0784054 -40.356228 -112.33327
30979000 -39.434357 -67.169418 -0.036803823 -6.4281483 -0.034807414 -6.4155059 -39.847164 -113.00918
31978000 -39.277008 -68.336662 -0.036290083 -6.6192813 -0.035799369 -6.610672 -39.620129 -112.5413
32977000 -39.107964 -69.930573 -0.035997476 -6.8306875 -0.035858359 -6.8232613 -39.362572 -112.55034
33976000 -38.95998 -71.147148 -0.036853425 -7.0298605 -0.037192043 -7.0245819 -39.04287 -112.14526
34975000 -38.665897 -72.005592 -0.037282377 -7.2306356 -0.037736177 -7.2266383 -38.80444 -112.04041
35974000 -38.50465 -72.826027 -0.036399458 -7.4235516 -0.037207969 -7.4246607 -38.506233 -111.14228
36973000 -38.274227 -73.587036 -0.036073171 -7.6260428 -0.038270723 -7.6277504 -38.211292 -110.43903
37972000 -38.121506 -73.561447 -0.036211513 -7.8309851 -0.037603531 -7.8416686 -37.980606 -109.89944
38971000 -37.788578 -73.403336 -0.036882665 -8.0343552 -0.038468156 -8.0458641 -37.767677 -108.25265
39970000 -37.484985 -73.853325 -0.035121862 -8.2305479 -0.037526507 -8.2444944 -37.506046 -107.78799
40969000 -37.176357 -73.882767 -0.035918649 -8.4224663 -0.036314622 -8.4392958 -37.231682 -106.5796
41968000 -36.835461 -73.904297 -0.035955191 -8.6262197 -0.037534863 -8.6436472 -37.017265 -105.48263
42967000 -36.590229 -74.276154 -0.035862796 -8.8381109 -0.037715811 -8.8581104 -36.78434 -103.7172
43966000 -36.319649 -75.186363 -0.036609337 -9.0366583 -0.038808204 -9.0561714 -36.489372 -103.21039
44965000 -36.091431 -75.953041 -0.037391517 -9.2352467 -0.039387025 -9.2596493 -36.283997 -103.07874
45964000 -35.880833 -77.211082 -0.038008533 -9.4402094 -0.040364612 -9.4561033 -36.030888 -102.88259
46963000 -35.688751 -79.12738 -0.038771898 -9.6323919 -0.040556915 -9.6537533 -35.851391 -103.26682
47962000 -35.54488 -80.653938 -0.040023658 -9.8352528 -0.042132508 -9.8517542 -35.650524 -103.41356
48961000 -35.359188 -82.092239 -0.042570349 -10.033166 -0.044265918 -10.049923 -35.420502 -103.69041
49960000 -35.133308 -83.476692 -0.044026121 -10.230883 -0.044661868 -10.252651 -35.285988 -104.01821
50959000 -34.94062 -84.918503 -0.044050701 -10.445988 -0.046034362 -10.454418 -35.101875 -104.36864
51958000 -34.740673 -85.964127 -0.046469193 -10.641625 -0.047093257 -10.651375 -34.917465 -104.86871
52957000 -34.545048 -87.144981 -0.047566928 -10.840056 -0.04840422 -10.848002 -34.754539 -104.70582
53956000 -34.385117 -87.854912 -0.04890395 -11.042335 -0.049241938 -11.042356 -34.612904 -104.74206
54955000 -34.223248 -88.429596 -0.049363419 -11.241671 -0.050109666 -11.24096 -34.458012 -104.81111
55954000 -34.049026 -89.276733 -0.050619282 -11.440289 -0.049683113 -11.442183 -34.35569 -104.5285
56953000 -33.936199 -89.395073 -0.050134543 -11.640921 -0.049566593 -11.628047 -34.293861 -104.71413
57952000 -33.786694 -89.920517 -0.051728286 -11.836403 -0.050481789 -11.83254 -34.194813 -104.8269
58951000 -33.678967 -90.354851 -0.052392669 -12.040981 -0.052265864 -12.023262 -34.032818 -104.95422
59950000 -33.554836 -90.745407 -0.053077597 -12.241991 -0.052395552 -12.222014 -33.958771 -105.18221
60949000 -33.446518 -91.288025 -0.053470939 -12.445784 -0.053031739 -12.424182 -33.875595 -105.43055
61948000 -33.386295 -91.555275 -0.053522568 -12.642361 -0.05204894 -12.622339 -33.791744 -105.60123
62947000 -33.30069 -91.801552 -0.053434253 -12.853761 -0.053484567 -12.833185 -33.657944 -105.85816
63946000 -33.23481 -92.57341 -0.054544237 -13.050106 -0.05425721 -13.032022 -33.545303 -105.98367
64945000 -33.126804 -92.671631 -0.055277217 -13.251092 -0.054942694 -13.235355 -33.434078 -106.53003
65944000 -33.035976 -93.062019 -0.056144055 -13.449471 -0.054951608 -13.431273 -33.353722 -107.06567
66943000 -32.898548 -93.448715 -0.0541812 -13.651525 -0.053587299 -13.63576 -33.246265 -107.29704
67942000 -32.836075 -93.431267 -0.056323159 -13.846825 -0.055497974 -13.836243 -33.130733 -107.60405
68941000 -32.727329 -93.609138 -0.055562209 -14.043187 -0.054487091 -14.030206 -33.024548 -107.57326
69940000 -32.624153 -93.624237 -0.055825986 -14.240711 -0.055133808 -14.229223 -32.89222 -107.88256
70939000 -32.524834 -93.559647 -0.055846173 -14.432912 -0.054795101 -14.426517 -32.751427 -107.81104
71938000 -32.384033 -93.206039 -0.055466775 -14.633367 -0.054722749 -14.621251 -32.623634 -107.71724
72937000 -32.210861 -93.006691 -0.054817386 -14.830792 -0.054631788 -14.82371 -32.478527 -107.47147
73936000 -32.085293 -92.660255 -0.055020291 -15.028107 -0.054713313 -15.014023 -32.367779 -107.26373
74935000 -31.967169 -93.018173 -0.054814238 -15.225056 -0.052779142 -15.21982 -32.203335 -107.00421
75934000 -31.847202 -93.306877 -0.054517761 -15.434422 -0.053615343 -15.430019 -32.124573 -106.87394
76933000 -31.704409 -93.710213 -0.055716645 -15.627604 -0.054770198 -15.615966 -31.944475 -107.34007
77932000 -31.616283 -94.495682 -0.056773711 -15.823636 -0.055824149 -15.814356 -31.850975 -107.30731
78931000 -31.54603 -95.21524 -0.055715859 -16.0224 -0.055352986 -16.014742 -31.751013 -107.20045
79930000 -31.432924 -96.0569 -0.058495302 -16.212122 -0.057031002 -16.21059 -31.646429 -107.49459
80929000 -31.308733 -97.013145 -0.059804201 -16.408228 -0.058634359 -16.405121 -31.545507 -107.87173
81928000 -31.235149 -97.953079 -0.059239183 -16.601873 -0.059753284 -16.597528 -31.423349 -107.96096
82927000 -31.133326 -98.580704 -0.061540909 -16.797316 -0.06017033 -16.797215 -31.318724 -108.33273
83926000 -31.020147 -99.317352 -0.062360942 -16.996191 -0.061839182 -16.995632 -31.206669 -108.49894
84925000 -30.919935 -99.745804 -0.063511826 -17.194241 -0.061900362 -17.189579 -31.115635 -108.61662
85924000 -30.831644 -100.24775 -0.064416304 -17.393148 -0.063739829 -17.398447 -31.032021 -108.58072
86923000 -30.726105 -100.75974 -0.064650923 -17.595634 -0.063333213 -17.591574 -30.931759 -108.49496
87922000 -30.62532 -101.1423 -0.063938685 -17.800825 -0.062630646 -17.790916 -30.853165 -108.5528
88921000 -30.556105 -101.42325 -0.065827645 -17.997154 -0.064324349 -17.992489 -30.752695 -108.58905
89920000 -30.454533 -102.03482 -0.066283382 -18.198463 -0.064758651 -18.189062 -30.699793 -108.76348
90919000 -30.357456 -102.30582 -0.067020185 -18.39304 -0.064846672 -18.384686 -30.61249 -108.94619
91918000 -30.269579 -102.66315 -0.067982979 -18.588923 -0.065909378 -18.589878 -30.548449 -108.97114
92917000 -30.175367 -103.0126 -0.069013052 -18.792456 -0.067033067 -18.785803 -30.4904 -109.08397
93916000 -30.094231 -103.35583 -0.067510232 -18.983091 -0.066554904 -18.979712 -30.396868 -109.66676
94915000 -30.02121 -104.02953 -0.06898623 -19.185907 -0.068067126 -19.178045 -30.342836 -109.53933
95914000 -29.956924 -104.24959 -0.070382744 -19.37837 -0.068961509 -19.376938 -30.252903 -109.83988
96913000 -29.874662 -104.51337 -0.07160233 -19.577171 -0.069997601 -19.574877 -30.187254 -110.1949
97912000 -29.799885 -104.97932 -0.072422422 -19.772415 -0.069944195 -19.773476 -30.11017 -110.44859
98911000 -29.696796 -105.14204 -0.073186859 -19.976276 -0.071162343 -19.970217 -30.066797 -110.66442
99910000 -29.642433 -105.346 -0.074148126 -20.173426 -0.071400754 -20.172005 -29.964128 -110.94197
100909000 -29.550711 -105.63194 -0.072870962 -20.377918 -0.070546649 -20.373587 -29.876049 -111.16467
101908000 -29.463438 -105.80783 -0.074577354 -20.579887 -0.072052628 -20.57663 -29.76502 -110.96001
102907000 -29.32444 -105.83659 -0.075122245 -20.779758 -0.071528643 -20.777449 -29.693558 -110.89508
103906000 -29.231647 -105.94611 -0.074509412 -20.986423 -0.071914718 -20.980879 -29.542679 -110.86332
104905000 -29.08827 -105.85967 -0.075778894 -21.18437 -0.07180734 -21.179768 -29.409773 -110.55791
105904000 -28.944387 -105.96921 -0.075498365 -21.37925 -0.07251323 -21.381428 -29.299681 -110.44516
106903000 -28.84141 -106.10294 -0.076005436 -21.586668 -0.072590098 -21.585215 -29.175465 -110.32876
107902000 -28.678789 -106.42986 -0.076460138 -21.784794 -0.073006533 -21.782669 -29.033239 -110.32053
108901000 -28.565639 -106.72317 -0.077260599 -21.991663 -0.074477546 -21.979818 -28.905964 -110.25002
109900000 -28.442339 -107.21197 -0.078129992 -22.190903 -0.075320832 -22.182524 -28.751143 -110.33369
110899000 -28.321787 -107.86086 -0.079912543 -22.387314 -0.076108173 -22.381512 -28.625742 -110.60841
111898000 -28.239105 -108.52054 -0.080282748 -22.587931 -0.076562628 -22.582607 -28.509979 -110.74686
112897000 -28.113728 -109.05989 -0.082117885 -22.787462 -0.078375109 -22.777781 -28.371607 -110.94417
113896000 -28.011541 -109.65889 -0.083182447 -22.98625 -0.079898037 -22.976372 -28.26239 -111.09254
114895000 -27.91543 -110.31825 -0.084240153 -23.185568 -0.080858417 -23.173422 -28.156441 -111.21053
115894000 -27.782887 -110.71301 -0.086104952 -23.386358 -0.081570528 -23.372419 -28.082312 -111.34444
116893000 -27.701288 -111.19318 -0.085637093 -23.581049 -0.082952365 -23.566717 -27.956329 -111.51945
117892000 -27.62361 -111.73643 -0.085757747 -23.77858 -0.083256595 -23.762114 -27.882425 -111.71685
118891000 -27.567295 -112.15096 -0.086956047 -23.97731 -0.083524436 -23.962385 -27.793781 -111.84275
119890000 -27.471428 -112.55558 -0.086984567 -24.181625 -0.084417254 -24.161785 -27.777557 -112.01492
120889000 -27.421528 -113.04852 -0.088963367 -24.37837 -0.084740326 -24.366163 -27.70146 -111.97234
121888000 -27.385935 -113.3447 -0.088895991 -24.575146 -0.085015908 -24.559908 -27.651424 -112.25359
122887000 -27.336409 -113.55815 -0.089159951 -24.777285 -0.085929103 -24.765387 -27.602747 -112.28929
123886000 -27.282351 -113.99036 -0.089834578 -24.978106 -0.086246215 -24.963232 -27.589725 -112.46961
124885000 -27.249889 -114.45904 -0.090425529 -25.177416 -0.086597681 -25.161287 -27.559093 -112.53405
125884000 -27.199835 -114.68233 -0.09124469 -25.377226 -0.087071456 -25.362947 -27.526867 -112.69554
126883000 -27.174833 -115.08858 -0.091813087 -25.578075 -0.087578565 -25.568398 -27.484224 -112.7255
127882000 -27.128441 -115.35493 -0.091840588 -25.778996 -0.087770328 -25.758066 -27.453239 -112.92924
128881000 -27.099892 -115.66418 -0.091986269 -25.979134 -0.087721199 -25.961369 -27.408691 -113.01225
129880000 -27.04528 -116.03442 -0.092903569 -26.179487 -0.088094182 -26.161879 -27.363129 -113.00289
130879000 -26.979164 -116.16145 -0.092244864 -26.381947 -0.088777892 -26.36491 -27.290272 -113.07896
131878000 -26.917782 -116.40079 -0.093071505 -26.582054 -0.088784233 -26.563377 -27.217335 -112.9954
132877000 -26.841753 -116.44441 -0.091893993 -26.781731 -0.088818312 -26.764442 -27.142948 -112.98586
133876000 -26.763647 -116.62715 -0.093198717 -26.984615 -0.089735739 -26.963295 -27.055054 -112.87062
134875000 -26.669224 -116.74534 -0.093537256 -27.182617 -0.089831404 -27.163591 -26.947563 -112.74552
135874000 -26.584032 -116.77374 -0.092987143 -27.382603 -0.089538075 -27.366863 -26.848007 -112.78967
136873000 -26.477371 -116.72372 -0.093977399 -27.58614 -0.08950346 -27.568222 -26.762823 -112.74062
137872000 -26.396847 -116.8409 -0.093495466 -27.785305 -0.090086967 -27.770237 -26.655714 -112.69802
138871000 -26.321325 -117.03082 -0.093796998 -27.986242 -0.089853607 -27.971846 -26.561321 -112.86989
139870000 -26.22147 -117.28191 -0.094484784 -28.185862 -0.091283016 -28.169083 -26.47892 -113.05125
140869000 -26.140961 -117.73847 -0.096990295 -28.381897 -0.093157724 -28.36187 -26.379555 -113.19218
141868000 -26.040304 -118.2047 -0.096757889 -28.573013 -0.093180202 -28.560005 -26.302994 -113.48212
142867000 -25.970083 -118.48201 -0.095041968 -28.771189 -0.091979392 -28.751781 -26.216055 -113.70606
143866000 -25.898472 -118.97868 -0.096612044 -28.965927 -0.093490973 -28.952755 -26.148521 -114.20264
144865000 -25.838512 -119.4847 -0.098304756 -29.164547 -0.094789296 -29.150667 -26.091391 -114.50937
145864000 -25.781532 -119.78955 -0.098820329 -29.366743 -0.095705867 -29.352018 -26.056774 -114.78868
146863000 -25.73871 -120.19167 -0.098964654 -29.565123 -0.095807754 -29.55592 -26.006304 -115.09411
147862000 -25.688963 -120.57757 -0.10019919 -29.761679 -0.096859001 -29.748999 -25.970602 -115.47013
148861000 -25.663912 -121.10767 -0.10014886 -29.960539 -0.097162887 -29.945486 -25.947069 -115.67573
149860000 -25.646721 -121.27647 -0.10055073 -30.16128 -0.097427085 -30.14769 -25.914263 -115.82138
150859000 -25.628464 -121.64803 -0.1015133 -30.355976 -0.098471314 -30.343884 -25.90715 -116.11293
151858000 -25.608845 -121.978 -0.10091713 -30.560135 -0.098430537 -30.539818 -25.900389 -116.36964
152857000 -25.593491 -122.27555 -0.10163546 -30.753958 -0.099568233 -30.744267 -25.884983 -116.48761
153856000 -25.583141 -122.4763 -0.10155993 -30.956915 -0.098218173 -30.939281 -25.897001 -116.7987
154855000 -25.578463 -122.64778 -0.10137179 -31.154268 -0.098254979 -31.141497 -25.886322 -117.0463
155854000 -25.591105 -122.8774 -0.10200009 -31.351782 -0.09832488 -31.335871 -25.880625 -117.28648
156853000 -25.577299 -123.60043 -0.099879727 -31.539305 -0.098419413 -31.531507 -25.874247 -117.58672
157852000 -25.582584 -123.80613 -0.10138637 -31.73851 -0.099499375 -31.728306 -25.866072 -117.89505
158851000 -25.573858 -124.07043 -0.10179684 -31.934448 -0.099749409 -31.92638 -25.848299 -118.17905
159850000 -25.562502 -124.16888 -0.1018599 -32.136597 -0.099763177 -32.129082 -25.846958 -118.327
160849000 -25.546364 -124.32846 -0.10260224 -32.334354 -0.10097224 -32.328869 -25.817675 -118.65504
161848000 -25.526073 -124.40861 -0.10277956 -32.532772 -0.10079896 -32.526958 -25.778475 -118.77427
162847000 -25.483335 -124.66095 -0.1023971 -32.730644 -0.10145261 -32.728249 -25.751787 -119.01506
163846000 -25.436569 -124.83004 -0.10327446 -32.932274 -0.10106974 -32.925583 -25.67378 -119.00306
164845000 -25.378244 -124.85786 -0.10412203 -33.131935 -0.10118023 -33.125885 -25.606384 -119.11555
165844000 -25.329073 -124.93015 -0.10335928 -33.331421 -0.10163095 -33.322453 -25.525192 -119.24583
166843000 -25.265072 -125.00378 -0.10326836 -33.526989 -0.1007481 -33.525738 -25.456514 -119.42938
167842000 -25.209661 -125.15699 -0.10419866 -33.727039 -0.10192934 -33.720997 -25.370083 -119.32336
168841000 -25.130264 -125.36018 -0.10434369 -33.929646 -0.10228287 -33.925076 -25.295723 -119.41169
169840000 -25.06702 -125.63227 -0.10432778 -34.121613 -0.10243235 -34.115906 -25.211668 -119.6283
170839000 -25.001213 -125.85994 -0.10538269 -34.31266 -0.10331237 -34.317806 -25.121738 -119.83501
171838000 -24.943441 -126.3035 -0.1052103 -34.518528 -0.10359549 -34.511719 -25.059292 -120.05286
172837000 -24.87656 -126.67034 -0.10633837 -34.717335 -0.10513657 -34.70953 -24.990873 -120.28022
173836000 -24.80443 -127.07952 -0.10778623 -34.912544 -0.10595401 -34.910114 -24.946949 -120.5022
174835000 -24.757057 -127.4925 -0.10799985 -35.106762 -0.10574287 -35.107506 -24.899462 -120.83495
175834000 -24.704025 -127.88691 -0.1085893 -35.307209 -0.10754237 -35.302647 -24.838703 -121.10487
176833000 -24.652843 -128.2717 -0.10980851 -35.501637 -0.10783453 -35.500507 -24.787067 -121.27394
177832000 -24.601812 -128.76408 -0.11041626 -35.697792 -0.10790405 -35.699795 -24.765039 -121.46254
178831000 -24.564598 -129.11456 -0.11012048 -35.896973 -0.10853621 -35.89344 -24.722872 -121.70955
179830000 -24.532543 -129.54166 -0.11155232 -36.09589 -0.10879447 -36.096188 -24.698065 -121.80938
180829000 -24.49229 -129.74681 -0.11197145 -36.292717 -0.10974878 -36.289585 -24.673733 -121.9483
181828000 -24.463881 -130.12306 -0.11139828 -36.487202 -0.10884091 -36.485725 -24.64966 -122.07547
182827000 -24.445694 -130.47736 -0.11173718 -36.681786 -0.10953242 -36.681362 -24.640949 -122.15958
183826000 -24.401279 -130.7744 -0.11270649 -36.879402 -0.11014915 -36.877819 -24.629139 -122.2802
184825000 -24.404573 -131.10439 -0.11282683 -37.077763 -0.11051609 -37.073517 -24.614882 -122.38926
185824000 -24.379086 -131.43959 -0.11232208 -37.270916 -0.11049724 -37.269554 -24.612123 -122.43208
186823000 -24.363058 -131.78984 -0.11257365 -37.471634 -0.11045609 -37.467091 -24.609892 -122.44714
187822000 -24.345367 -132.11696 -0.11303672 -37.66407 -0.11121822 -37.669006 -24.573481 -122.46555
188821000 -24.325424 -132.35146 -0.11280505 -37.862167 -0.11156401 -37.864544 -24.562366 -122.58037
189820000 -24.306681 -132.62567 -0.11332819 -38.0644 -0.11134092 -38.06192 -24.550543 -122.73265
190819000 -24.280663 -132.87474 -0.11457691 -38.263977 -0.11286562 -38.260147 -24.519278 -122.70316
191818000 -24.246826 -133.01874 -0.11573533 -38.453922 -0.1143805 -38.456928 -24.48938 -122.5828
192817000 -24.178902 -133.3429 -0.11660847 -38.639675 -0.11499367 -38.641129 -24.412594 -122.68536
193816000 -24.141989 -133.69498 -0.11552452 -38.836464 -0.11348416 -38.833923 -24.356966 -122.95294
194815000 -24.081604 -134.13098 -0.1152555 -39.030579 -0.11362606 -39.03344 -24.295671 -123.07501
195814000 -24.028248 -134.39279 -0.11559231 -39.230488 -0.11402093 -39.230743 -24.24579 -123.19344
196813000 -23.979317 -134.69862 -0.11536422 -39.424042 -0.11384634 -39.424141 -24.163639 -123.35051
197812000 -23.92308 -134.96005 -0.11542004 -39.624668 -0.11375413 -39.621044 -24.098751 -123.44724
198811000 -23.870716 -135.12955 -0.11561996 -39.817169 -0.11320756 -39.822475 -24.025782 -123.61436
199810000 -23.797024 -135.49489 -0.11586268 -40.014168 -0.11396831 -40.013149 -23.950287 -123.73106
200809000 -23.737213 -135.77818 -0.11599056 -40.210201 -0.11359736 -40.211571 -23.866096 -123.90093
201808000 -23.68388 -135.99503 -0.11664145 -40.409374 -0.11532009 -40.415146 -23.802475 -123.99855
202807000 -23.625763 -136.36343 -0.11681562 -40.606915 -0.11492243 -40.613091 -23.747746 -124.21123
203806000 -23.573973 -136.83331 -0.118172 -40.812965 -0.11594243 -40.813736 -23.679298 -124.40184
