!Keysight Technologies,E5080B,MY59205177,A.15.75.32
!Date: Friday, February 23, 2024 03:39:03
!Correction: S11(Cdelta 2-Port  ) 
!S21(Cdelta 2-Port  ) 
!S12(Cdelta 2-Port  ) 
!S22(Cdelta 2-Port  ) 
!S2P File: Measurements: S11, S21, S12, S22:
# Hz S  dB   R 50
10000000 -46.103745 -3.156199 -0.014514935 -2.0451717 -0.017791839 -2.0985587 -45.875629 -157.66554
10999000 -45.262974 -4.6795502 -0.016169967 -2.2610452 -0.017869296 -2.3151312 -45.801544 -151.36513
11998000 -44.4137 -7.5483522 -0.016473712 -2.4865611 -0.017384039 -2.5281985 -45.980766 -146.81241
12997000 -43.609756 -13.383753 -0.015357829 -2.6668053 -0.017796777 -2.6944194 -45.579998 -141.05528
13996000 -43.35302 -17.474791 -0.014238855 -2.8452039 -0.017501775 -2.8669443 -45.388763 -135.91504
14995000 -42.89315 -21.954092 -0.01763303 -3.0555627 -0.017397815 -3.0786042 -45.071598 -132.68774
15994000 -42.721329 -26.140265 -0.018430255 -3.274277 -0.019977296 -3.2985234 -44.988937 -129.44418
16993000 -42.679691 -30.889448 -0.017559994 -3.4734678 -0.018969188 -3.4811561 -44.144642 -128.86983
17992000 -42.680103 -36.575336 -0.017447975 -3.6697686 -0.019700348 -3.6729817 -43.566395 -128.91772
18991000 -42.91048 -41.469269 -0.018792655 -3.8812921 -0.020656088 -3.8772526 -42.926193 -128.22003
19990000 -42.707569 -47.478775 -0.02149185 -4.0898533 -0.022395164 -4.083797 -42.255219 -128.71036
20989000 -42.538982 -50.798138 -0.022686074 -4.2947698 -0.02484718 -4.2835879 -41.708786 -128.38765
21988000 -42.394379 -55.851913 -0.023446491 -4.4884391 -0.024998704 -4.4754601 -41.472393 -127.47091
22987000 -42.044537 -60.750149 -0.024604807 -4.688798 -0.02676791 -4.684732 -41.195736 -127.12737
23986000 -41.942295 -64.731247 -0.024904456 -4.8849592 -0.025365038 -4.8841648 -41.073063 -126.78339
24985000 -41.536472 -67.583054 -0.025784003 -5.0965934 -0.025565792 -5.0914025 -40.824543 -124.64498
25984000 -41.173717 -69.789757 -0.026519438 -5.3016944 -0.026085036 -5.2991376 -40.525524 -122.83276
26983000 -40.881069 -71.230408 -0.027157836 -5.4998951 -0.026232697 -5.5152612 -40.411732 -122.19096
27982000 -40.707027 -72.257126 -0.0293514 -5.6958671 -0.028902123 -5.7300415 -40.138615 -120.736
28981000 -40.660919 -73.941254 -0.026516572 -5.895535 -0.028551385 -5.9215155 -39.890167 -119.95274
29980000 -40.243435 -75.07061 -0.027207589 -6.0914869 -0.029220052 -6.0968461 -39.630512 -119.21358
30979000 -39.880997 -74.203621 -0.024261704 -6.4437404 -0.023871778 -6.4370589 -39.11216 -119.5089
31978000 -39.661716 -75.355064 -0.024340579 -6.6378288 -0.02463969 -6.6337414 -38.881184 -118.72495
32977000 -39.459122 -76.689178 -0.024006868 -6.8495188 -0.024612617 -6.8468318 -38.641464 -118.80341
33976000 -39.291744 -77.59301 -0.024251292 -7.0504498 -0.02538066 -7.0436964 -38.361191 -118.07049
34975000 -39.023952 -78.644455 -0.024480369 -7.2515421 -0.026412917 -7.2508554 -38.126472 -117.96764
35974000 -38.80864 -79.129814 -0.023959495 -7.4427123 -0.026456671 -7.4488292 -37.862511 -117.00811
36973000 -38.568596 -79.816734 -0.024784178 -7.6465421 -0.026453806 -7.6528764 -37.617241 -116.21507
37972000 -38.428638 -79.599297 -0.023628937 -7.8542643 -0.02707891 -7.8659387 -37.381466 -115.31724
38971000 -38.099083 -79.134315 -0.024498852 -8.0573788 -0.027039057 -8.0681362 -37.22501 -113.75455
39970000 -37.760441 -79.330788 -0.022877077 -8.2526197 -0.02572385 -8.2704411 -36.962902 -113.21312
40969000 -37.493446 -78.971115 -0.023467051 -8.4503574 -0.025780877 -8.4644461 -36.7355 -111.69572
41968000 -37.131245 -78.916473 -0.023540445 -8.6503029 -0.025709789 -8.6665068 -36.549152 -110.45016
42967000 -36.87545 -78.962883 -0.023353837 -8.8648348 -0.026803853 -8.8843412 -36.358391 -108.64043
43966000 -36.588528 -79.693817 -0.023990469 -9.0623016 -0.027502209 -9.0833225 -36.094826 -107.9185
44965000 -36.357159 -80.452393 -0.025152056 -9.2638969 -0.027182581 -9.2897997 -35.875542 -107.67918
45964000 -36.120155 -81.504791 -0.026652267 -9.4666729 -0.028827073 -9.4860468 -35.647522 -107.35536
46963000 -35.920395 -83.394783 -0.026263949 -9.6577549 -0.029656591 -9.6872244 -35.473499 -107.5932
47962000 -35.761715 -84.663475 -0.027708793 -9.8633518 -0.030618435 -9.8796368 -35.270699 -107.58256
48961000 -35.531799 -86.16906 -0.029789776 -10.057482 -0.032377936 -10.081033 -35.034481 -107.89371
49960000 -35.290268 -87.368752 -0.030880176 -10.258647 -0.03365133 -10.281652 -34.913975 -107.76495
50959000 -35.087151 -88.672691 -0.032093935 -10.470271 -0.034385752 -10.482423 -34.731499 -108.13876
51958000 -34.875786 -89.770348 -0.032989547 -10.67205 -0.035425894 -10.681068 -34.547424 -108.57947
52957000 -34.649303 -90.809158 -0.035027396 -10.870522 -0.037222065 -10.882429 -34.396976 -108.2868
53956000 -34.490017 -91.487007 -0.036249883 -11.073405 -0.0377414 -11.075055 -34.257809 -108.33112
54955000 -34.307037 -91.987053 -0.036679819 -11.274429 -0.038127352 -11.272429 -34.104713 -108.28899
55954000 -34.153721 -92.747292 -0.037382115 -11.475692 -0.039498828 -11.477638 -34.000946 -107.99805
56953000 -34.027454 -92.866234 -0.037772212 -11.670401 -0.037753414 -11.665112 -33.923203 -108.25034
57952000 -33.860954 -93.359451 -0.03897693 -11.870267 -0.039535921 -11.861405 -33.825146 -108.34062
58951000 -33.735146 -93.672813 -0.039737072 -12.077129 -0.040273428 -12.055757 -33.660168 -108.37693
59950000 -33.619244 -94.015686 -0.039922554 -12.27471 -0.040752888 -12.257428 -33.588326 -108.66566
60949000 -33.506428 -94.594498 -0.041031964 -12.478565 -0.041271076 -12.457568 -33.493744 -108.96404
61948000 -33.434574 -94.963005 -0.041018639 -12.677127 -0.040939458 -12.660847 -33.409863 -108.94383
62947000 -33.348118 -95.204475 -0.04158181 -12.892695 -0.042504996 -12.871522 -33.267014 -109.28112
63946000 -33.265755 -95.969521 -0.042848498 -13.092005 -0.042847712 -13.069424 -33.15313 -109.36266
64945000 -33.166119 -96.084534 -0.043245621 -13.290233 -0.043519631 -13.269245 -33.045753 -109.87315
65944000 -33.060947 -96.360863 -0.04306601 -13.486452 -0.043887008 -13.470167 -32.946098 -110.31212
66943000 -32.924549 -96.765831 -0.041303482 -13.690431 -0.042328812 -13.676782 -32.836269 -110.57196
67942000 -32.862953 -96.778152 -0.043442499 -13.885238 -0.044407662 -13.877617 -32.716637 -110.82315
68941000 -32.745121 -96.838577 -0.042678051 -14.080296 -0.043276213 -14.073505 -32.615887 -110.73873
69940000 -32.649811 -96.79155 -0.042913593 -14.278543 -0.044200543 -14.271728 -32.466702 -111.11205
70939000 -32.53896 -96.742516 -0.043764632 -14.47429 -0.043405369 -14.466285 -32.335686 -110.99548
71938000 -32.404133 -96.321754 -0.042963266 -14.671161 -0.043467075 -14.665108 -32.210819 -110.85849
72937000 -32.243332 -96.051498 -0.042652432 -14.87251 -0.043343667 -14.862239 -32.073254 -110.53019
73936000 -32.117104 -95.752548 -0.042778697 -15.072594 -0.04325974 -15.067027 -31.957949 -110.30429
74935000 -31.986744 -95.953102 -0.041780703 -15.266267 -0.04151595 -15.260371 -31.808825 -110.0413
75934000 -31.867983 -96.194847 -0.041798737 -15.472014 -0.042199686 -15.47252 -31.722738 -109.87923
76933000 -31.730574 -96.566299 -0.043178428 -15.667383 -0.043685928 -15.660507 -31.551022 -110.20789
77932000 -31.628819 -97.311264 -0.044185899 -15.867496 -0.045255069 -15.861011 -31.447336 -110.21679
78931000 -31.555851 -98.068642 -0.043011893 -16.067368 -0.044053838 -16.059732 -31.34897 -110.05827
79930000 -31.436745 -98.944649 -0.045200665 -16.256746 -0.046592951 -16.257397 -31.255201 -110.39854
80929000 -31.322433 -99.646149 -0.047045894 -16.457609 -0.048211046 -16.455053 -31.164225 -110.59509
81928000 -31.235273 -100.44471 -0.04745204 -16.647213 -0.047993276 -16.645065 -31.02758 -110.54008
82927000 -31.12775 -101.15562 -0.048656303 -16.844946 -0.049279112 -16.844954 -30.925915 -110.95489
83926000 -31.017466 -101.82671 -0.050408725 -17.043385 -0.050035823 -17.043314 -30.810883 -111.0534
84925000 -30.909348 -102.21068 -0.051514532 -17.244087 -0.050384633 -17.24217 -30.715096 -111.1274
85924000 -30.822561 -102.69588 -0.051977158 -17.441034 -0.051800586 -17.443119 -30.624134 -111.15441
86923000 -30.709949 -103.18251 -0.052229185 -17.645691 -0.052696865 -17.636251 -30.521284 -110.95695
87922000 -30.59618 -103.44656 -0.05145926 -17.84803 -0.051403988 -17.842468 -30.443951 -110.99735
88921000 -30.530676 -103.76785 -0.053484045 -18.044523 -0.052571621 -18.040998 -30.35099 -111.01276
89920000 -30.426609 -104.27198 -0.054118816 -18.245344 -0.053480111 -18.241234 -30.286032 -111.12002
90919000 -30.32419 -104.52774 -0.054438334 -18.442116 -0.053859603 -18.435114 -30.209177 -111.30108
91918000 -30.228786 -104.89321 -0.055693045 -18.644194 -0.054734021 -18.638048 -30.140228 -111.341
92917000 -30.139833 -105.19866 -0.055628806 -18.841146 -0.056622647 -18.836567 -30.078377 -111.4446
93916000 -30.048765 -105.58614 -0.055467036 -19.035858 -0.056213547 -19.028204 -29.98473 -112.05271
94915000 -29.972303 -106.19433 -0.057223517 -19.237503 -0.056489948 -19.23436 -29.924059 -111.95394
95914000 -29.910736 -106.32248 -0.0584995 -19.431185 -0.057647407 -19.429138 -29.83939 -112.20883
96913000 -29.811789 -106.60102 -0.059528638 -19.633753 -0.05842289 -19.630901 -29.773018 -112.51215
97912000 -29.739674 -107.04542 -0.06118254 -19.827377 -0.058844004 -19.828802 -29.693375 -112.76525
98911000 -29.631464 -107.17931 -0.061003756 -20.0303 -0.059594769 -20.028152 -29.648499 -112.98351
99910000 -29.568224 -107.31714 -0.061583444 -20.231131 -0.060952567 -20.230116 -29.538355 -113.25061
100909000 -29.478874 -107.60761 -0.06131617 -20.437042 -0.059349138 -20.43144 -29.450905 -113.44357
101908000 -29.387587 -107.79814 -0.06256184 -20.635729 -0.061690304 -20.635159 -29.348473 -113.24059
102907000 -29.257406 -107.7599 -0.062711798 -20.83674 -0.06093445 -20.834105 -29.273972 -113.19887
103906000 -29.150377 -107.82201 -0.063104965 -21.042276 -0.061079625 -21.036579 -29.13134 -113.16068
104905000 -29.013811 -107.6889 -0.063824676 -21.241755 -0.06138023 -21.242617 -29.010212 -112.83068
105904000 -28.873285 -107.78584 -0.064020649 -21.445574 -0.061188839 -21.439857 -28.899643 -112.7233
106903000 -28.772545 -107.85418 -0.063944995 -21.652376 -0.061728377 -21.64558 -28.773401 -112.60048
107902000 -28.603376 -108.1774 -0.064299129 -21.849499 -0.062334418 -21.840641 -28.632265 -112.56585
108901000 -28.489077 -108.39641 -0.065974034 -22.049517 -0.064197719 -22.045382 -28.503357 -112.51055
109900000 -28.363953 -108.87848 -0.066522315 -22.250952 -0.064862959 -22.243517 -28.357965 -112.53772
110899000 -28.240582 -109.48305 -0.068178356 -22.449909 -0.065060295 -22.44326 -28.238243 -112.84631
111898000 -28.152111 -110.11419 -0.06950096 -22.649984 -0.066001102 -22.644333 -28.119074 -113.00005
112897000 -28.027929 -110.66405 -0.07089711 -22.850813 -0.067214727 -22.840244 -27.988491 -113.15631
113896000 -27.923811 -111.21146 -0.071594961 -23.049278 -0.068423696 -23.040953 -27.87327 -113.28488
114895000 -27.8269 -111.88885 -0.072539553 -23.248117 -0.069814511 -23.237259 -27.7619 -113.38814
115894000 -27.700571 -112.22298 -0.072947301 -23.4512 -0.071015254 -23.438646 -27.696907 -113.54181
116893000 -27.620588 -112.74281 -0.074835435 -23.646317 -0.072256342 -23.63204 -27.568052 -113.62451
117892000 -27.54121 -113.24008 -0.073937215 -23.842129 -0.072246335 -23.831499 -27.497707 -113.79682
118891000 -27.484035 -113.62399 -0.074725091 -24.044865 -0.072172381 -24.031338 -27.398832 -113.93063
119890000 -27.392788 -113.9903 -0.075045079 -24.245026 -0.073508576 -24.233929 -27.388578 -114.0878
120889000 -27.343252 -114.46219 -0.076328941 -24.445372 -0.073820047 -24.433237 -27.316288 -114.03499
121888000 -27.305853 -114.82127 -0.077126741 -24.643969 -0.074096516 -24.629988 -27.255898 -114.2776
122887000 -27.271769 -114.99918 -0.077984512 -24.843821 -0.074235812 -24.836102 -27.208447 -114.31181
123886000 -27.207762 -115.43861 -0.078121029 -25.049837 -0.074626602 -25.033783 -27.194571 -114.44091
124885000 -27.176676 -115.93021 -0.078534573 -25.250065 -0.075578697 -25.234846 -27.168135 -114.52705
125884000 -27.121799 -116.10904 -0.079346485 -25.444719 -0.075781003 -25.432501 -27.139303 -114.67544
126883000 -27.10133 -116.49359 -0.07966233 -25.647596 -0.076705165 -25.634285 -27.096008 -114.6672
127882000 -27.062269 -116.83089 -0.080053337 -25.846884 -0.077184975 -25.83107 -27.054832 -114.80778
128881000 -27.026009 -117.13639 -0.079888016 -26.051332 -0.077202886 -26.033937 -27.021935 -114.88101
129880000 -26.967592 -117.42503 -0.080969974 -26.25375 -0.076928064 -26.236549 -26.975786 -114.78968
130879000 -26.915176 -117.58026 -0.080926985 -26.452927 -0.078054614 -26.435989 -26.903593 -114.8623
131878000 -26.847118 -117.84373 -0.080411687 -26.656527 -0.078094408 -26.635443 -26.840015 -114.71493
132877000 -26.780416 -117.90434 -0.080128752 -26.855173 -0.078493983 -26.838972 -26.760241 -114.68064
133876000 -26.698931 -118.06456 -0.080803297 -27.058887 -0.078670055 -27.04076 -26.680334 -114.57742
134875000 -26.604759 -118.19069 -0.081238195 -27.258615 -0.078832962 -27.239342 -26.581842 -114.41917
135874000 -26.51943 -118.20229 -0.081197843 -27.457134 -0.078403048 -27.441713 -26.485874 -114.37624
136873000 -26.414742 -118.14865 -0.081726156 -27.662317 -0.078044072 -27.645267 -26.408491 -114.32259
137872000 -26.341911 -118.28095 -0.081693977 -27.86075 -0.078336887 -27.847612 -26.306252 -114.24818
138871000 -26.267969 -118.48813 -0.082201242 -28.058128 -0.078759149 -28.047443 -26.209358 -114.4264
139870000 -26.164646 -118.77164 -0.082541041 -28.263506 -0.080085509 -28.240057 -26.129196 -114.56107
140869000 -26.088938 -119.28732 -0.083893888 -28.457767 -0.081227645 -28.441494 -26.037918 -114.77838
141868000 -26.006868 -119.67027 -0.084772795 -28.656284 -0.082457148 -28.64175 -25.985168 -115.00621
142867000 -25.929064 -119.87273 -0.083384573 -28.857023 -0.08173196 -28.836683 -25.903164 -115.13948
143866000 -25.853682 -120.35757 -0.084987402 -29.051735 -0.082367972 -29.033957 -25.826006 -115.59903
144865000 -25.799314 -120.8992 -0.086306952 -29.250938 -0.084359452 -29.236082 -25.773197 -115.89297
145864000 -25.741327 -121.19224 -0.087115824 -29.44986 -0.085449643 -29.439396 -25.742832 -116.16599
146863000 -25.696974 -121.54512 -0.087688178 -29.652433 -0.085632078 -29.639275 -25.692919 -116.44467
147862000 -25.659185 -121.91964 -0.088707879 -29.851431 -0.086439773 -29.838406 -25.661505 -116.77867
148861000 -25.625658 -122.34822 -0.089293651 -30.04744 -0.087819196 -30.034012 -25.64006 -116.94904
149860000 -25.591303 -122.52447 -0.090189241 -30.241205 -0.088232078 -30.229259 -25.591749 -117.03242
150859000 -25.572235 -122.97518 -0.089985482 -30.434446 -0.087704822 -30.423473 -25.571581 -117.3792
151858000 -25.557112 -123.33139 -0.089687385 -30.641693 -0.08740028 -30.623241 -25.552046 -117.72321
152857000 -25.542654 -123.67513 -0.0896229 -30.838572 -0.087641425 -30.825254 -25.54274 -117.90266
153856000 -25.53845 -123.87683 -0.089769572 -31.039021 -0.087029204 -31.021254 -25.560938 -118.21844
154855000 -25.535561 -124.05087 -0.089600444 -31.238852 -0.087284066 -31.224566 -25.550037 -118.44285
155854000 -25.550995 -124.27652 -0.090437688 -31.439436 -0.087896325 -31.422709 -25.544022 -118.75593
156853000 -25.538723 -124.95871 -0.088202491 -31.624958 -0.086523481 -31.616737 -25.531069 -119.0423
157852000 -25.551155 -125.17448 -0.088871948 -31.826851 -0.088174485 -31.81723 -25.525196 -119.40118
158851000 -25.546806 -125.42569 -0.089381643 -32.025841 -0.088508412 -32.015594 -25.507523 -119.65652
159850000 -25.529665 -125.51402 -0.090514861 -32.224342 -0.089118727 -32.215263 -25.511841 -119.83814
160849000 -25.517776 -125.60258 -0.090600766 -32.421307 -0.089625016 -32.418892 -25.47883 -120.12459
161848000 -25.502869 -125.69686 -0.091082908 -32.624142 -0.089609429 -32.617489 -25.441132 -120.26473
162847000 -25.46105 -125.85879 -0.090945974 -32.823441 -0.09012872 -32.819492 -25.411137 -120.48719
163846000 -25.418943 -126.07513 -0.09116327 -33.022221 -0.090320073 -33.01384 -25.334856 -120.51344
164845000 -25.367378 -126.04305 -0.091410704 -33.222454 -0.090601295 -33.217281 -25.271925 -120.60923
165844000 -25.313282 -126.11198 -0.090855576 -33.421993 -0.090906851 -33.414078 -25.195486 -120.72921
166843000 -25.251312 -126.10662 -0.091476269 -33.623592 -0.090759359 -33.619022 -25.126308 -120.88956
167842000 -25.192476 -126.21328 -0.092083305 -33.824318 -0.09095417 -33.818604 -25.050083 -120.83147
168841000 -25.115326 -126.37286 -0.092863642 -34.019958 -0.091468342 -34.01622 -24.978449 -120.87502
169840000 -25.051338 -126.64819 -0.092179023 -34.219276 -0.091362067 -34.211605 -24.890568 -121.0873
170839000 -24.991465 -126.85089 -0.09368062 -34.412739 -0.092949852 -34.410763 -24.80538 -121.20424
171838000 -24.929178 -127.23595 -0.09307944 -34.614639 -0.09331879 -34.605961 -24.746384 -121.42727
172837000 -24.864998 -127.57168 -0.094777122 -34.813248 -0.093916029 -34.80743 -24.684107 -121.66594
173836000 -24.797468 -127.96603 -0.095885821 -35.012886 -0.094744056 -35.011433 -24.642773 -121.88682
174835000 -24.742825 -128.37289 -0.096422277 -35.207546 -0.09617243 -35.207085 -24.601946 -122.21194
175834000 -24.691322 -128.7524 -0.097362749 -35.409687 -0.09659908 -35.403763 -24.537123 -122.44204
176833000 -24.643414 -129.07205 -0.097929306 -35.603806 -0.097792424 -35.603848 -24.494637 -122.60551
177832000 -24.59697 -129.50764 -0.099134944 -35.803253 -0.098332293 -35.808403 -24.469137 -122.69144
178831000 -24.554251 -129.72308 -0.10076982 -36.002834 -0.10064742 -35.998421 -24.42857 -122.76794
179830000 -24.481215 -130.1347 -0.10159942 -36.186195 -0.10049721 -36.189072 -24.368118 -122.84826
180829000 -24.431076 -130.49837 -0.10095713 -36.380444 -0.099375948 -36.378635 -24.32506 -123.17348
181828000 -24.411203 -130.91713 -0.099997602 -36.581059 -0.099220216 -36.579807 -24.305098 -123.38113
182827000 -24.387476 -131.30101 -0.10026223 -36.778347 -0.09932483 -36.776276 -24.296492 -123.50256
183826000 -24.343828 -131.61908 -0.10023706 -36.974773 -0.098733999 -36.972366 -24.282743 -123.64809
184825000 -24.348965 -131.94798 -0.10034011 -37.171539 -0.09964399 -37.17382 -24.267027 -123.77531
185824000 -24.320129 -132.31036 -0.10087235 -37.366299 -0.10014886 -37.369598 -24.260103 -123.8223
186823000 -24.30246 -132.71887 -0.10057695 -37.570583 -0.10010356 -37.565945 -24.251074 -123.86855
187822000 -24.281387 -133.02603 -0.10157 -37.766212 -0.10059761 -37.762909 -24.21912 -123.95644
188821000 -24.257679 -133.29988 -0.10119692 -37.957024 -0.10093382 -37.962238 -24.195791 -124.07957
189820000 -24.23984 -133.58348 -0.10092878 -38.158886 -0.10062411 -38.157532 -24.181068 -124.26376
190819000 -24.204184 -133.88168 -0.10150773 -38.35857 -0.10133364 -38.355759 -24.143515 -124.30241
191818000 -24.176266 -134.17421 -0.10194895 -38.556408 -0.10193887 -38.554062 -24.110369 -124.34759
192817000 -24.131742 -134.43108 -0.10302236 -38.748577 -0.10221343 -38.75161 -24.074844 -124.43072
193816000 -24.095692 -134.69736 -0.10244162 -38.94799 -0.10164579 -38.94529 -24.018801 -124.57007
194815000 -24.036575 -135.11395 -0.10311832 -39.141571 -0.10251769 -39.144142 -23.950987 -124.62388
195814000 -23.983822 -135.29646 -0.10395579 -39.3396 -0.10328268 -39.340603 -23.89979 -124.70342
196813000 -23.9289 -135.62582 -0.10401279 -39.53326 -0.10315622 -39.534752 -23.818668 -124.87746
197812000 -23.868759 -135.83356 -0.10396136 -39.731724 -0.10352921 -39.728149 -23.748152 -124.93848
198811000 -23.819302 -135.98364 -0.1039534 -39.932388 -0.10261152 -39.930359 -23.678606 -125.11494
199810000 -23.748417 -136.32614 -0.10435907 -40.127125 -0.10270614 -40.119244 -23.604269 -125.20748
200809000 -23.688677 -136.58327 -0.10446248 -40.32127 -0.10289354 -40.322701 -23.528788 -125.37916
201808000 -23.631762 -136.76349 -0.10544767 -40.522076 -0.10412309 -40.523849 -23.460541 -125.4351
202807000 -23.574877 -137.11734 -0.10610308 -40.72118 -0.10488994 -40.723831 -23.404535 -125.61903
