!Keysight Technologies,E5080B,MY59205177,A.15.75.32
!Date: Friday, February 23, 2024 03:00:46
!Correction: S11(Cdelta 2-Port  ) 
!S21(Cdelta 2-Port  ) 
!S12(Cdelta 2-Port  ) 
!S22(Cdelta 2-Port  ) 
!S2P File: Measurements: S11, S21, S12, S22:
# Hz S  dB   R 50
10000000 -44.147385 -3.8894832 -0.02735164 -2.0400596 -0.030779544 -2.0930099 -48.049816 -150.45592
10999000 -43.506035 -5.464994 -0.028519597 -2.2570784 -0.030664837 -2.3095956 -47.780991 -142.93631
11998000 -42.69635 -8.0980902 -0.029400134 -2.4826772 -0.029976921 -2.5197988 -47.875591 -137.39328
12997000 -42.084888 -12.903101 -0.028253047 -2.6568122 -0.028700432 -2.6904531 -47.243134 -130.67793
13996000 -41.858837 -16.106533 -0.027026813 -2.8392844 -0.029396746 -2.8567152 -46.780811 -125.3875
14995000 -41.518719 -19.881136 -0.02954478 -3.0455787 -0.029763712 -3.0732586 -46.344425 -121.99263
15994000 -41.412025 -23.648138 -0.030164856 -3.2646167 -0.032436352 -3.2873232 -46.177593 -118.09022
16993000 -41.395943 -27.623013 -0.029336285 -3.4629874 -0.031220673 -3.4673262 -45.26413 -119.2009
17992000 -41.467102 -32.081631 -0.030355144 -3.6555629 -0.031228494 -3.6601276 -44.59866 -119.72049
18991000 -41.739559 -36.628426 -0.031151582 -3.8698695 -0.032819748 -3.8707561 -43.918663 -119.24959
19990000 -41.63483 -41.436871 -0.03364455 -4.0796795 -0.034600753 -4.0742221 -43.191467 -120.89944
20989000 -41.522579 -44.884457 -0.035331421 -4.282836 -0.037024166 -4.2687116 -42.665577 -120.58662
21988000 -41.423515 -49.553635 -0.036366045 -4.475975 -0.037077427 -4.462348 -42.353577 -120.21336
22987000 -41.185635 -53.540737 -0.037893899 -4.6750617 -0.038469464 -4.6656322 -42.042576 -119.7042
23986000 -41.187119 -57.493378 -0.036554255 -4.8702321 -0.037009545 -4.8659654 -41.971333 -119.64503
24985000 -40.884899 -60.14888 -0.037928365 -5.0796952 -0.037393343 -5.0735302 -41.715954 -117.18222
25984000 -40.613197 -62.387325 -0.038311202 -5.2841949 -0.037530161 -5.285305 -41.359596 -115.86262
26983000 -40.368519 -64.042305 -0.03915089 -5.4819942 -0.039223764 -5.4967613 -41.261055 -115.11947
27982000 -40.223049 -64.965378 -0.040912282 -5.6824222 -0.040598985 -5.7136259 -40.931122 -113.59126
28981000 -40.237579 -66.638229 -0.039072528 -5.8793254 -0.041048426 -5.9018855 -40.684696 -112.87038
29980000 -39.841038 -68.046272 -0.038728282 -6.0700965 -0.041058358 -6.0792589 -40.351448 -112.13132
30979000 -39.446281 -67.417694 -0.03679521 -6.4252377 -0.036075782 -6.4166713 -39.845726 -113.05547
31978000 -39.264404 -68.41555 -0.035930656 -6.6202455 -0.036651626 -6.6119967 -39.596687 -112.37144
32977000 -39.128963 -70.080444 -0.035712719 -6.8297033 -0.037427809 -6.8256245 -39.340149 -112.63087
33976000 -38.951736 -71.256866 -0.035987034 -7.0296826 -0.037463579 -7.0256414 -39.026779 -112.25133
34975000 -38.67297 -72.148346 -0.036341246 -7.2277122 -0.039177272 -7.2282329 -38.79694 -111.917
35974000 -38.489494 -72.850822 -0.035911083 -7.4257636 -0.037914526 -7.4256291 -38.498413 -111.18324
36973000 -38.269119 -73.563812 -0.036709841 -7.6245213 -0.038826488 -7.6290689 -38.190052 -110.52268
37972000 -38.100403 -73.587021 -0.035593446 -7.8353548 -0.038353767 -7.8406491 -37.972061 -109.96635
38971000 -37.782051 -73.511368 -0.037213974 -8.0323248 -0.039284628 -8.0430079 -37.771358 -108.27288
39970000 -37.449211 -73.934616 -0.035694711 -8.2285671 -0.03798686 -8.2450933 -37.485275 -108.04723
40969000 -37.182362 -73.695557 -0.035963282 -8.4238605 -0.038881857 -8.4442244 -37.231609 -106.63642
41968000 -36.854263 -73.931732 -0.035405274 -8.6279831 -0.038136493 -8.6463261 -37.008934 -105.47834
42967000 -36.599316 -74.35598 -0.036169227 -8.8417463 -0.038656197 -8.8547535 -36.776981 -103.67174
43966000 -36.317139 -75.075127 -0.036579836 -9.032505 -0.039735503 -9.0558023 -36.485161 -103.12909
44965000 -36.081696 -76.011307 -0.037568543 -9.2419786 -0.039787229 -9.2574415 -36.272293 -103.08889
45964000 -35.877468 -77.198647 -0.03874813 -9.4421368 -0.041161839 -9.4631395 -36.032654 -102.90943
46963000 -35.686497 -79.096184 -0.039277576 -9.633543 -0.041265588 -9.6553259 -35.860027 -103.26508
47962000 -35.542 -80.580284 -0.040471736 -9.8317518 -0.042745497 -9.8516769 -35.630089 -103.47761
48961000 -35.356613 -82.0774 -0.042471014 -10.03199 -0.044825591 -10.05383 -35.418159 -103.73607
49960000 -35.139496 -83.487411 -0.043387592 -10.230794 -0.045538884 -10.253122 -35.29538 -103.85751
50959000 -34.921024 -84.902031 -0.044099342 -10.444471 -0.046654701 -10.453234 -35.1007 -104.35729
51958000 -34.748623 -86.034126 -0.045995116 -10.639359 -0.047679726 -10.652298 -34.915176 -104.91795
52957000 -34.53389 -87.102959 -0.048005577 -10.841955 -0.048742954 -10.846119 -34.766624 -104.77227
53956000 -34.391441 -87.867264 -0.048864421 -11.038514 -0.050248981 -11.041105 -34.618443 -104.80059
54955000 -34.223721 -88.398445 -0.049575496 -11.240742 -0.05045272 -11.240662 -34.477325 -104.80607
55954000 -34.059002 -89.323669 -0.050303712 -11.442764 -0.051008213 -11.438779 -34.357498 -104.59914
56953000 -33.945839 -89.402809 -0.050109405 -11.642712 -0.05012276 -11.632677 -34.281906 -104.72163
57952000 -33.797398 -90.011703 -0.050895851 -11.835461 -0.0507759 -11.824553 -34.197109 -104.8483
58951000 -33.67696 -90.36013 -0.052373808 -12.04171 -0.052043699 -12.021523 -34.040131 -104.94262
59950000 -33.555134 -90.835884 -0.052870851 -12.240494 -0.052612759 -12.22247 -33.963615 -105.15504
60949000 -33.445091 -91.421188 -0.053190015 -12.441823 -0.052745078 -12.423597 -33.874435 -105.47988
61948000 -33.375774 -91.670609 -0.054149222 -12.646964 -0.05253756 -12.620443 -33.783192 -105.64999
62947000 -33.291958 -91.814018 -0.053835753 -12.852623 -0.053600926 -12.832088 -33.651897 -105.9665
63946000 -33.230892 -92.542206 -0.054303866 -13.04862 -0.054698635 -13.029243 -33.533653 -106.12087
64945000 -33.123547 -92.791183 -0.05557768 -13.253365 -0.054897077 -13.233673 -33.443329 -106.63397
65944000 -33.021992 -93.080353 -0.05611416 -13.452221 -0.055141412 -13.43372 -33.356667 -107.06292
66943000 -32.890053 -93.44458 -0.053905729 -13.649658 -0.053469632 -13.636216 -33.245811 -107.30873
67942000 -32.823036 -93.458221 -0.056006387 -13.847415 -0.055349052 -13.835237 -33.129295 -107.55386
68941000 -32.719242 -93.573357 -0.055754665 -14.042126 -0.054609243 -14.033152 -33.022537 -107.67771
69940000 -32.621418 -93.570015 -0.055738669 -14.240702 -0.055186242 -14.228387 -32.881645 -107.90363
70939000 -32.509117 -93.549835 -0.055945292 -14.43395 -0.055834375 -14.429155 -32.746155 -107.7694
71938000 -32.380344 -93.15477 -0.055289276 -14.629673 -0.055609666 -14.622889 -32.616131 -107.73785
72937000 -32.216122 -93.014946 -0.054703616 -14.831377 -0.054447774 -14.822163 -32.471542 -107.49942
73936000 -32.07494 -92.675117 -0.054840453 -15.029427 -0.053899702 -15.021296 -32.360363 -107.31589
74935000 -31.955057 -93.002754 -0.054606885 -15.225363 -0.053266007 -15.217016 -32.199589 -107.00291
75934000 -31.836386 -93.256058 -0.053619012 -15.433945 -0.053337552 -15.42692 -32.118267 -106.97411
76933000 -31.707106 -93.707458 -0.055192273 -15.623747 -0.054852512 -15.616715 -31.939636 -107.35594
77932000 -31.613758 -94.472565 -0.056394491 -15.82324 -0.056065388 -15.813657 -31.856409 -107.35219
78931000 -31.546835 -95.2192 -0.055355869 -16.021845 -0.055416171 -16.016096 -31.750177 -107.25101
79930000 -31.437069 -96.030701 -0.057602812 -16.212915 -0.058273342 -16.212286 -31.654102 -107.49386
80929000 -31.309776 -96.992607 -0.059264902 -16.40794 -0.05954491 -16.405851 -31.550686 -107.85339
81928000 -31.228838 -97.897255 -0.059502393 -16.601799 -0.059764832 -16.595247 -31.429283 -107.9214
82927000 -31.136665 -98.51857 -0.061536182 -16.797831 -0.060795583 -16.797918 -31.324759 -108.28235
83926000 -31.028774 -99.302376 -0.062965497 -16.998886 -0.062020097 -16.995729 -31.211433 -108.51677
84925000 -30.923809 -99.814941 -0.063501582 -17.195623 -0.062066048 -17.192013 -31.112629 -108.59833
85924000 -30.840534 -100.19382 -0.06481304 -17.398046 -0.063144095 -17.396355 -31.024725 -108.60649
86923000 -30.737701 -100.74279 -0.064568684 -17.593319 -0.063736938 -17.587128 -30.930908 -108.49672
87922000 -30.625948 -101.18225 -0.064578667 -17.800552 -0.06327831 -17.791302 -30.842272 -108.5833
88921000 -30.561495 -101.42044 -0.065356709 -17.996395 -0.063597985 -17.989948 -30.758213 -108.51333
89920000 -30.454489 -102.03365 -0.066370122 -18.194099 -0.065042689 -18.185146 -30.695179 -108.67266
90919000 -30.35745 -102.32597 -0.0667326 -18.392704 -0.066046834 -18.38624 -30.612743 -108.92915
91918000 -30.26697 -102.7132 -0.067823112 -18.590836 -0.065790847 -18.585619 -30.54178 -108.95931
92917000 -30.175852 -103.04214 -0.068386622 -18.794333 -0.068040833 -18.786032 -30.487421 -109.04198
93916000 -30.092173 -103.44374 -0.067237601 -18.982342 -0.066981286 -18.978216 -30.39625 -109.67912
94915000 -30.019632 -104.07181 -0.068685099 -19.186668 -0.068197809 -19.178209 -30.341722 -109.58863
95914000 -29.960676 -104.29721 -0.070264354 -19.379734 -0.069004901 -19.37343 -30.248678 -109.79892
96913000 -29.875185 -104.53948 -0.071730234 -19.575838 -0.070237786 -19.575487 -30.186012 -110.23693
97912000 -29.795258 -104.99477 -0.07217212 -19.771521 -0.07032907 -19.772264 -30.108219 -110.41447
98911000 -29.694277 -105.16323 -0.072958358 -19.972702 -0.071482591 -19.970734 -30.065908 -110.64876
99910000 -29.629234 -105.3307 -0.073486194 -20.172945 -0.071752071 -20.169947 -29.961098 -110.96187
100909000 -29.537292 -105.60284 -0.072648004 -20.382095 -0.071145505 -20.375067 -29.870113 -111.15202
101908000 -29.456547 -105.84166 -0.074601315 -20.581882 -0.072687753 -20.577291 -29.755884 -110.98515
102907000 -29.325716 -105.93041 -0.074510992 -20.778669 -0.07254798 -20.775671 -29.689278 -110.8995
103906000 -29.228453 -105.93703 -0.074608162 -20.985443 -0.071741022 -20.978979 -29.541063 -110.86819
104905000 -29.083191 -105.87489 -0.075592399 -21.184645 -0.07255245 -21.181313 -29.40995 -110.55979
105904000 -28.94289 -106.00659 -0.075432248 -21.38855 -0.072239496 -21.373751 -29.293003 -110.39155
106903000 -28.838991 -106.10279 -0.075017951 -21.58931 -0.072669588 -21.588778 -29.172909 -110.34744
107902000 -28.668871 -106.44592 -0.076067604 -21.786091 -0.073424324 -21.781553 -29.034336 -110.27604
108901000 -28.566904 -106.73834 -0.076978125 -21.992306 -0.074645564 -21.982218 -28.904062 -110.24384
109900000 -28.447786 -107.23578 -0.077875398 -22.189766 -0.076223828 -22.18298 -28.75168 -110.35099
110899000 -28.326584 -107.82136 -0.079721384 -22.388521 -0.076656424 -22.380831 -28.629217 -110.61289
111898000 -28.233795 -108.53053 -0.080548555 -22.588076 -0.077544667 -22.582483 -28.511103 -110.80669
112897000 -28.117132 -109.07794 -0.082404114 -22.786991 -0.078686662 -22.776979 -28.377993 -110.97034
113896000 -28.004492 -109.63894 -0.082971096 -22.9869 -0.080111347 -22.976446 -28.270998 -111.11572
114895000 -27.907497 -110.32089 -0.083790436 -23.185774 -0.081482962 -23.171303 -28.152042 -111.21438
115894000 -27.779148 -110.67738 -0.084895276 -23.384897 -0.082766354 -23.371614 -28.083305 -111.37296
116893000 -27.704151 -111.23875 -0.085454665 -23.580124 -0.083514407 -23.564152 -27.959505 -111.55927
117892000 -27.621109 -111.74661 -0.085675903 -23.774971 -0.083840318 -23.767876 -27.885891 -111.75805
118891000 -27.565996 -112.15018 -0.086563885 -23.977505 -0.083776712 -23.966265 -27.793247 -111.84168
119890000 -27.473274 -112.56084 -0.086785711 -24.181633 -0.084873892 -24.160128 -27.775631 -111.98179
120889000 -27.424593 -113.0301 -0.087210111 -24.378798 -0.084612571 -24.363729 -27.705416 -111.96499
121888000 -27.384182 -113.40318 -0.08822336 -24.577633 -0.085906923 -24.559748 -27.649443 -112.2355
122887000 -27.340675 -113.59001 -0.088828616 -24.775509 -0.086247541 -24.76527 -27.597752 -112.28506
123886000 -27.286098 -113.9912 -0.089486547 -24.979946 -0.086384848 -24.959551 -27.586248 -112.47602
124885000 -27.249718 -114.49125 -0.089722797 -25.179728 -0.087023392 -25.163673 -27.559286 -112.53184
125884000 -27.201733 -114.68855 -0.090858743 -25.377249 -0.086556226 -25.365849 -27.521236 -112.6675
126883000 -27.172089 -115.06809 -0.091252089 -25.577425 -0.087576978 -25.564051 -27.491152 -112.7422
127882000 -27.121655 -115.35883 -0.091192342 -25.776909 -0.088185847 -25.758562 -27.451555 -112.95436
128881000 -27.096666 -115.70715 -0.091852747 -25.977882 -0.087959461 -25.963226 -27.406345 -113.02467
129880000 -27.040623 -116.03143 -0.0926423 -26.181009 -0.088573404 -26.16198 -27.365211 -113.03162
130879000 -26.977818 -116.19045 -0.091692001 -26.380192 -0.089298934 -26.363285 -27.286425 -113.05138
131878000 -26.913364 -116.39502 -0.092057392 -26.582542 -0.089507692 -26.563744 -27.22637 -112.96159
132877000 -26.848137 -116.46326 -0.092092559 -26.784662 -0.089635588 -26.767345 -27.139788 -112.99958
133876000 -26.762201 -116.61839 -0.09216924 -26.983782 -0.089310825 -26.96361 -27.052975 -112.8765
134875000 -26.665659 -116.75004 -0.092865229 -27.182631 -0.089692935 -27.165108 -26.949141 -112.78352
135874000 -26.584618 -116.77103 -0.092340313 -27.382601 -0.089104198 -27.364653 -26.846933 -112.76187
136873000 -26.474346 -116.73169 -0.093354233 -27.5853 -0.089610748 -27.566166 -26.759991 -112.72729
137872000 -26.393232 -116.78716 -0.092997722 -27.787611 -0.089915976 -27.769962 -26.657505 -112.71961
138871000 -26.326778 -117.0407 -0.093190521 -27.986391 -0.08990144 -27.970882 -26.564466 -112.88185
139870000 -26.225609 -117.24793 -0.094735585 -28.184881 -0.091892935 -28.16897 -26.474373 -113.02148
140869000 -26.13583 -117.73871 -0.095816746 -28.381895 -0.092831112 -28.363764 -26.37615 -113.15588
141868000 -26.039803 -118.19463 -0.095822573 -28.570091 -0.093872651 -28.557201 -26.306849 -113.5358
142867000 -25.964956 -118.46226 -0.094727919 -28.76791 -0.092288755 -28.75386 -26.22394 -113.71204
143866000 -25.893726 -118.95731 -0.096336253 -28.967918 -0.093864717 -28.952049 -26.1481 -114.208
144865000 -25.840185 -119.50968 -0.097872123 -29.166782 -0.094944865 -29.150667 -26.091908 -114.5119
145864000 -25.78393 -119.83023 -0.098097168 -29.369339 -0.096256331 -29.35531 -26.054174 -114.75452
146863000 -25.738115 -120.22523 -0.098727904 -29.563654 -0.096782506 -29.553167 -26.007076 -115.10332
147862000 -25.696589 -120.56802 -0.099597901 -29.762714 -0.09757825 -29.751581 -25.9753 -115.46513
148861000 -25.661606 -121.08008 -0.099783577 -29.964827 -0.097305834 -29.943748 -25.945841 -115.66985
149860000 -25.647137 -121.25348 -0.100307 -30.158485 -0.097968228 -30.146677 -25.919598 -115.84074
150859000 -25.628151 -121.65268 -0.10076055 -30.356926 -0.098405905 -30.343006 -25.909483 -116.09592
151858000 -25.612736 -121.94807 -0.10074703 -30.559229 -0.098376252 -30.544836 -25.898829 -116.37221
152857000 -25.600929 -122.26275 -0.10114074 -30.753286 -0.098182164 -30.742043 -25.883446 -116.48556
153856000 -25.584169 -122.48743 -0.10065934 -30.953424 -0.097655021 -30.938175 -25.897795 -116.78631
154855000 -25.579391 -122.64282 -0.10173297 -31.153778 -0.098347917 -31.137043 -25.888033 -117.05397
155854000 -25.598257 -122.91161 -0.10157583 -31.351925 -0.099086739 -31.338524 -25.875999 -117.28253
156853000 -25.576715 -123.62965 -0.099721856 -31.538986 -0.098305553 -31.529408 -25.869102 -117.59164
157852000 -25.579407 -123.85429 -0.10030939 -31.739183 -0.10004819 -31.730255 -25.86165 -117.94302
158851000 -25.5725 -124.07326 -0.10130052 -31.937893 -0.10043018 -31.927013 -25.847622 -118.20355
159850000 -25.556776 -124.21529 -0.10233217 -32.136318 -0.10054834 -32.125645 -25.850296 -118.37601
160849000 -25.540964 -124.32378 -0.10200778 -32.335575 -0.10121705 -32.329948 -25.817003 -118.67555
161848000 -25.519075 -124.44312 -0.10269103 -32.53447 -0.10106603 -32.527016 -25.778164 -118.77323
162847000 -25.475451 -124.62135 -0.10283364 -32.731995 -0.10196219 -32.727646 -25.752169 -119.00296
163846000 -25.434902 -124.85258 -0.10287843 -32.933235 -0.10145553 -32.92358 -25.666708 -118.98388
164845000 -25.376518 -124.84495 -0.10359761 -33.130486 -0.10178199 -33.123405 -25.602291 -119.11319
165844000 -25.32556 -124.96297 -0.10343271 -33.33033 -0.10196988 -33.321491 -25.520609 -119.27928
166843000 -25.262478 -125.01429 -0.10318486 -33.527195 -0.10269421 -33.520264 -25.45331 -119.41329
167842000 -25.203323 -125.15276 -0.10310189 -33.728802 -0.10224179 -33.721287 -25.374903 -119.37823
168841000 -25.123499 -125.33647 -0.10333145 -33.925465 -0.10273185 -33.923267 -25.292336 -119.41892
169840000 -25.05945 -125.61569 -0.10339693 -34.119038 -0.10353293 -34.118053 -25.20583 -119.63794
170839000 -25.000551 -125.87727 -0.10442589 -34.317608 -0.10364851 -34.316448 -25.124008 -119.81827
171838000 -24.941061 -126.3017 -0.10431717 -34.51889 -0.10495942 -34.511917 -25.057159 -120.04415
172837000 -24.877628 -126.68381 -0.10613359 -34.712837 -0.1054055 -34.711914 -24.988712 -120.2723
173836000 -24.811205 -127.06334 -0.10737547 -34.915974 -0.10674984 -34.909973 -24.945549 -120.5022
174835000 -24.753527 -127.48991 -0.10774271 -35.106831 -0.10700347 -35.108021 -24.901707 -120.8571
175834000 -24.704081 -127.889 -0.10851206 -35.307693 -0.10765036 -35.301846 -24.838324 -121.10834
176833000 -24.650854 -128.25819 -0.10882472 -35.502384 -0.10856117 -35.502167 -24.786358 -121.2942
177832000 -24.608995 -128.75964 -0.10944348 -35.700771 -0.10865777 -35.699432 -24.761997 -121.444
178831000 -24.569395 -129.11583 -0.10956401 -35.896969 -0.10881703 -35.894226 -24.724112 -121.69443
179830000 -24.531395 -129.55528 -0.11063027 -36.095985 -0.10992268 -36.094574 -24.696251 -121.80375
180829000 -24.492941 -129.78539 -0.11098345 -36.286263 -0.11040298 -36.290478 -24.666561 -121.98206
181828000 -24.470659 -130.14053 -0.1113781 -36.487514 -0.10970949 -36.481747 -24.654499 -122.11788
182827000 -24.443516 -130.48178 -0.11084059 -36.685062 -0.11005675 -36.683594 -24.640177 -122.17715
183826000 -24.403488 -130.79512 -0.11192577 -36.883488 -0.11035465 -36.88028 -24.628061 -122.31216
184825000 -24.405947 -131.1236 -0.11253195 -37.077957 -0.11105251 -37.075947 -24.614243 -122.40636
185824000 -24.383532 -131.47307 -0.11208089 -37.271404 -0.11154701 -37.272163 -24.609306 -122.43576
186823000 -24.366068 -131.81352 -0.11177012 -37.472889 -0.11097177 -37.468525 -24.604809 -122.4227
187822000 -24.344404 -132.13037 -0.1120862 -37.666302 -0.11139244 -37.665482 -24.572603 -122.48394
188821000 -24.325029 -132.39838 -0.1123529 -37.864025 -0.11221822 -37.866749 -24.560345 -122.58366
189820000 -24.311815 -132.66283 -0.11323227 -38.064548 -0.11231837 -38.064373 -24.550049 -122.74407
190819000 -24.276707 -132.894 -0.11397894 -38.260242 -0.11323732 -38.259293 -24.515442 -122.70934
191818000 -24.243345 -133.06801 -0.11493759 -38.45536 -0.11497772 -38.457546 -24.482521 -122.60699
192817000 -24.175251 -133.34029 -0.11529936 -38.639778 -0.11463246 -38.641895 -24.411987 -122.67326
193816000 -24.136351 -133.70901 -0.11505454 -38.834915 -0.11383093 -38.833355 -24.359818 -122.92718
194815000 -24.080574 -134.16002 -0.11416577 -39.032322 -0.11402518 -39.033413 -24.294149 -123.03646
195814000 -24.027081 -134.38177 -0.11578186 -39.227917 -0.11388248 -39.232765 -24.241268 -123.18347
196813000 -23.976915 -134.70436 -0.11464974 -39.423676 -0.1136125 -39.427826 -24.16456 -123.35345
197812000 -23.918108 -134.9341 -0.11503673 -39.623562 -0.1144124 -39.621517 -24.100187 -123.44299
198811000 -23.86829 -135.14772 -0.11451259 -39.821323 -0.11450488 -39.818321 -24.02924 -123.63375
199810000 -23.798563 -135.5219 -0.11457 -40.013596 -0.1137823 -40.010033 -23.950466 -123.725
200809000 -23.737568 -135.76349 -0.11522971 -40.207405 -0.11420749 -40.211185 -23.86898 -123.91946
201808000 -23.681913 -135.99402 -0.11598471 -40.41283 -0.11565185 -40.410339 -23.801607 -124.01677
202807000 -23.628159 -136.35941 -0.11726504 -40.61058 -0.11626786 -40.611446 -23.743021 -124.20856
203806000 -23.573196 -136.79825 -0.11821749 -40.809597 -0.11590202 -40.810505 -23.682789 -124.40602
