!Keysight Technologies,E5080B,MY59205177,A.15.75.32
!Date: Friday, February 23, 2024 03:39:09
!Correction: S11(Cdelta 2-Port  ) 
!S21(Cdelta 2-Port  ) 
!S12(Cdelta 2-Port  ) 
!S22(Cdelta 2-Port  ) 
!S2P File: Measurements: S11, S21, S12, S22:
# Hz S  dB   R 50
10000000 -46.082241 -2.7797742 -0.014840904 -2.0438228 -0.017859159 -2.0943234 -45.918907 -157.69923
10999000 -45.27372 -4.5836263 -0.015311848 -2.260998 -0.017752592 -2.3133209 -45.78125 -151.22517
11998000 -44.357922 -7.9038558 -0.016357824 -2.4846289 -0.017479165 -2.5328016 -46.031216 -147.25848
12997000 -43.591064 -13.381671 -0.016166849 -2.6671891 -0.017699048 -2.6983228 -45.586952 -141.15752
13996000 -43.300987 -17.307272 -0.015377832 -2.8414841 -0.01738612 -2.8658319 -45.411617 -136.01176
14995000 -42.863911 -21.803673 -0.016912611 -3.0569024 -0.017010583 -3.0773857 -45.05022 -132.45792
15994000 -42.732128 -26.091305 -0.018742219 -3.2773652 -0.019959092 -3.2959142 -44.950375 -129.50595
16993000 -42.662727 -30.624035 -0.017710485 -3.4722559 -0.019190187 -3.483402 -44.143711 -129.31703
17992000 -42.700977 -36.446732 -0.018368125 -3.6703169 -0.019522486 -3.6729782 -43.514378 -128.7191
18991000 -42.9776 -41.77869 -0.018688923 -3.882359 -0.020159597 -3.8801374 -42.922726 -127.99136
19990000 -42.740673 -47.346573 -0.021313915 -4.0895634 -0.022609312 -4.0857105 -42.269932 -128.59334
20989000 -42.516346 -50.510712 -0.023877503 -4.2920074 -0.024753457 -4.2859159 -41.743488 -128.20016
21988000 -42.319656 -55.911549 -0.023873599 -4.4851327 -0.023973029 -4.4777746 -41.454441 -127.56799
22987000 -42.010113 -60.75079 -0.024734713 -4.6901188 -0.025488978 -4.682446 -41.177593 -126.94212
23986000 -41.908012 -64.766197 -0.024597516 -4.8856983 -0.024591789 -4.8832326 -41.09845 -126.79719
24985000 -41.535587 -67.767647 -0.025791034 -5.0947642 -0.024784697 -5.0912852 -40.87582 -124.36757
25984000 -41.186142 -69.65094 -0.027154189 -5.2965302 -0.025575425 -5.3021488 -40.539574 -122.59476
26983000 -40.883652 -71.524208 -0.027422756 -5.5005469 -0.026194936 -5.5178804 -40.378349 -122.15597
27982000 -40.762943 -72.30162 -0.028851569 -5.700974 -0.027971402 -5.7296052 -40.159607 -120.76035
28981000 -40.669941 -73.993164 -0.02710053 -5.8969526 -0.028051386 -5.9204125 -39.884106 -119.97144
29980000 -40.290237 -75.356361 -0.026623096 -6.0929046 -0.028605584 -6.0977316 -39.620583 -119.01225
30979000 -39.881687 -74.312347 -0.024780793 -6.4462161 -0.02357428 -6.4385972 -39.123405 -119.5853
31978000 -39.670109 -75.303215 -0.023802802 -6.6398654 -0.023659909 -6.6300874 -38.891384 -118.78259
32977000 -39.46357 -76.718231 -0.023567254 -6.8498473 -0.024881026 -6.8483486 -38.652493 -118.80807
33976000 -39.301632 -77.747467 -0.02471675 -7.0529642 -0.025267137 -7.0468616 -38.359013 -118.2032
34975000 -39.003208 -78.627731 -0.024840672 -7.2496228 -0.026374372 -7.2478247 -38.129032 -117.99234
35974000 -38.793499 -79.133232 -0.023659909 -7.4435086 -0.026226968 -7.4467249 -37.846497 -116.92233
36973000 -38.562923 -79.798546 -0.024502236 -7.6483135 -0.026982533 -7.6486754 -37.629189 -116.00845
37972000 -38.41037 -79.535965 -0.023562048 -7.8552828 -0.026654089 -7.8663664 -37.393909 -115.29157
38971000 -38.09441 -78.995087 -0.024355417 -8.0548506 -0.027015613 -8.0664186 -37.20496 -113.7166
39970000 -37.751369 -79.434273 -0.023359824 -8.2553291 -0.025597038 -8.2672129 -36.958908 -113.11344
40969000 -37.469852 -79.074547 -0.023392096 -8.448658 -0.025511893 -8.4636869 -36.736099 -111.6919
41968000 -37.119804 -78.877335 -0.023895724 -8.6474581 -0.026086338 -8.6701422 -36.537647 -110.49936
42967000 -36.876205 -78.993919 -0.024387175 -8.8651571 -0.026014725 -8.8853769 -36.360332 -108.61721
43966000 -36.568325 -79.611931 -0.024544669 -9.0628586 -0.027020562 -9.079833 -36.077015 -107.92126
44965000 -36.343651 -80.372559 -0.026123319 -9.2672377 -0.028115477 -9.2885427 -35.879635 -107.72212
45964000 -36.113045 -81.448753 -0.025974881 -9.4677114 -0.02891437 -9.485343 -35.638817 -107.33589
46963000 -35.918186 -83.228264 -0.026500424 -9.6624737 -0.029260967 -9.6839542 -35.472477 -107.59019
47962000 -35.750614 -84.707123 -0.027797109 -9.8613644 -0.031364337 -9.8818674 -35.263134 -107.61578
48961000 -35.516644 -86.071922 -0.030149998 -10.056868 -0.03224102 -10.083529 -35.037998 -107.77905
49960000 -35.307156 -87.38472 -0.031347126 -10.258445 -0.033275429 -10.283578 -34.905643 -107.9468
50959000 -35.07534 -88.662422 -0.032369588 -10.47113 -0.034121972 -10.481955 -34.726341 -108.19735
51958000 -34.8713 -89.773911 -0.033712376 -10.670235 -0.035504188 -10.682974 -34.549793 -108.59883
52957000 -34.655712 -90.744354 -0.034717914 -10.872266 -0.036135033 -10.877498 -34.395329 -108.30418
53956000 -34.486305 -91.421471 -0.036378313 -11.073864 -0.037093874 -11.074005 -34.259033 -108.2854
54955000 -34.317883 -91.892982 -0.036722373 -11.276408 -0.037839323 -11.273033 -34.113575 -108.28506
55954000 -34.154823 -92.70816 -0.038570534 -11.475732 -0.038026292 -11.476482 -34.004501 -108.00483
56953000 -34.033226 -92.86866 -0.03815164 -11.67299 -0.037381332 -11.659999 -33.92577 -108.21426
57952000 -33.87117 -93.382957 -0.038681533 -11.869014 -0.038859397 -11.861374 -33.81427 -108.29523
58951000 -33.745209 -93.733887 -0.039684299 -12.075314 -0.039481588 -12.055129 -33.674747 -108.36338
59950000 -33.612911 -94.110107 -0.040648628 -12.27221 -0.040129729 -12.256363 -33.594315 -108.64516
60949000 -33.494019 -94.68766 -0.041361496 -12.479094 -0.040132865 -12.456024 -33.497551 -108.90907
61948000 -33.428127 -94.976593 -0.04208703 -12.680588 -0.040763862 -12.658679 -33.396114 -109.0267
62947000 -33.334808 -95.161797 -0.041561946 -12.886984 -0.041399654 -12.869496 -33.261845 -109.33563
63946000 -33.269745 -95.969879 -0.043213725 -13.085745 -0.042105585 -13.068493 -33.154034 -109.40926
64945000 -33.157276 -96.108948 -0.042852156 -13.28731 -0.042946272 -13.272197 -33.048626 -109.84035
65944000 -33.054939 -96.422806 -0.044570331 -13.490387 -0.043336086 -13.473729 -32.953972 -110.2918
66943000 -32.913307 -96.776428 -0.041882113 -13.691493 -0.041780964 -13.672815 -32.843712 -110.59531
67942000 -32.850063 -96.725616 -0.043911848 -13.885832 -0.043162744 -13.875355 -32.727207 -110.82974
68941000 -32.737461 -96.836403 -0.043357 -14.083531 -0.042733211 -14.072169 -32.615803 -110.85757
69940000 -32.649288 -96.815826 -0.043330595 -14.277118 -0.04326497 -14.27624 -32.471603 -111.0874
70939000 -32.537651 -96.694328 -0.04350917 -14.475556 -0.043613236 -14.472139 -32.33881 -111.0078
71938000 -32.393032 -96.301422 -0.043083265 -14.668076 -0.043242745 -14.665667 -32.218441 -110.86465
72937000 -32.256741 -96.159676 -0.043246668 -14.872114 -0.042627074 -14.86819 -32.076435 -110.53363
73936000 -32.104641 -95.755432 -0.042477548 -15.072283 -0.042514406 -15.062984 -31.961596 -110.2912
74935000 -31.99061 -95.966141 -0.042279407 -15.270092 -0.041053914 -15.261182 -31.820004 -110.00993
75934000 -31.857767 -96.179176 -0.042300843 -15.476268 -0.041185882 -15.468927 -31.728676 -109.9398
76933000 -31.728609 -96.540092 -0.042886142 -15.667377 -0.042688508 -15.66402 -31.554073 -110.34717
77932000 -31.633303 -97.287643 -0.044509657 -15.867515 -0.043972254 -15.858612 -31.457125 -110.2322
78931000 -31.553339 -98.002747 -0.043553099 -16.064407 -0.043189149 -16.059641 -31.357885 -110.05312
79930000 -31.438593 -98.943703 -0.045265794 -16.256794 -0.045491014 -16.259281 -31.254951 -110.38143
80929000 -31.329435 -99.731346 -0.047443926 -16.455498 -0.046575159 -16.452776 -31.158634 -110.61614
81928000 -31.233986 -100.3451 -0.047695428 -16.645678 -0.04753631 -16.644323 -31.023342 -110.64603
82927000 -31.130892 -101.13816 -0.049374677 -16.84506 -0.04890788 -16.843235 -30.921467 -110.9368
83926000 -31.024298 -101.79561 -0.050960284 -17.043104 -0.049483858 -17.043951 -30.810163 -111.13543
84925000 -30.918814 -102.22723 -0.051970083 -17.242542 -0.049600635 -17.237047 -30.705233 -111.17072
85924000 -30.827894 -102.68887 -0.052542012 -17.440664 -0.051805042 -17.440201 -30.629913 -111.14909
86923000 -30.709978 -103.19427 -0.052476775 -17.639332 -0.051258877 -17.634342 -30.526907 -110.97908
87922000 -30.60343 -103.50362 -0.052739576 -17.854025 -0.050559834 -17.841988 -30.430693 -110.98192
88921000 -30.536463 -103.75511 -0.053996678 -18.045202 -0.051817615 -18.044645 -30.350412 -110.99249
89920000 -30.428413 -104.28696 -0.053610623 -18.241697 -0.052585244 -18.238377 -30.295216 -111.1293
90919000 -30.324577 -104.56115 -0.055270139 -18.443825 -0.053885549 -18.43808 -30.209263 -111.31031
91918000 -30.225992 -104.87212 -0.055900715 -18.642183 -0.053237706 -18.638817 -30.140383 -111.33199
92917000 -30.139513 -105.2308 -0.056404717 -18.841524 -0.054801133 -18.838104 -30.069582 -111.39456
93916000 -30.05295 -105.57681 -0.056075353 -19.034979 -0.055163432 -19.034159 -29.983423 -112.02869
94915000 -29.975224 -106.2046 -0.057097096 -19.236973 -0.055895209 -19.230223 -29.932657 -111.91557
95914000 -29.900421 -106.35928 -0.058586869 -19.432579 -0.056969628 -19.428886 -29.827118 -112.20899
96913000 -29.81333 -106.61613 -0.059684001 -19.631222 -0.057717446 -19.629242 -29.77096 -112.49933
97912000 -29.739351 -107.03985 -0.060470346 -19.827707 -0.057771485 -19.82863 -29.686981 -112.74168
98911000 -29.633524 -107.22504 -0.061317746 -20.029278 -0.059190374 -20.028904 -29.650957 -112.99636
99910000 -29.561653 -107.32348 -0.06178404 -20.227583 -0.059587684 -20.2281 -29.546806 -113.26465
100909000 -29.474909 -107.61285 -0.061262872 -20.436384 -0.058400586 -20.433739 -29.457098 -113.47704
101908000 -29.384039 -107.81203 -0.061841283 -20.637255 -0.060280833 -20.631037 -29.347933 -113.23466
102907000 -29.254009 -107.78004 -0.062907979 -20.836048 -0.060194742 -20.838402 -29.273046 -113.22136
103906000 -29.155649 -107.85673 -0.062848628 -21.042549 -0.059732027 -21.034401 -29.137581 -113.20423
104905000 -29.0075 -107.70483 -0.064502217 -21.237961 -0.060293693 -21.242044 -29.006397 -112.85146
105904000 -28.873789 -107.81451 -0.063851476 -21.445065 -0.060455911 -21.438662 -28.891687 -112.77245
106903000 -28.758516 -107.84874 -0.064295977 -21.649025 -0.060878538 -21.642271 -28.771343 -112.60461
107902000 -28.603321 -108.16427 -0.064785972 -21.850014 -0.060920015 -21.844097 -28.633673 -112.5607
108901000 -28.489578 -108.44175 -0.065549329 -22.054319 -0.062199183 -22.043015 -28.50423 -112.52648
109900000 -28.362434 -108.92125 -0.066165633 -22.252121 -0.063786328 -22.242931 -28.356485 -112.62184
110899000 -28.240095 -109.47224 -0.067830212 -22.447611 -0.064775199 -22.445244 -28.233908 -112.8656
111898000 -28.156775 -110.15305 -0.06895493 -22.65167 -0.065615557 -22.645836 -28.112431 -112.99061
112897000 -28.022589 -110.68919 -0.070390634 -22.848833 -0.067171611 -22.840256 -27.980873 -113.15903
113896000 -27.926918 -111.22715 -0.071386807 -23.052616 -0.06835743 -23.041679 -27.873766 -113.30338
114895000 -27.822899 -111.85979 -0.072311088 -23.248621 -0.069658779 -23.237701 -27.761749 -113.39281
115894000 -27.700184 -112.24178 -0.073831633 -23.448833 -0.070632949 -23.434465 -27.696936 -113.58017
116893000 -27.623713 -112.75379 -0.074265301 -23.649782 -0.071729444 -23.630302 -27.5721 -113.5953
117892000 -27.541687 -113.20454 -0.074721143 -23.844069 -0.071940243 -23.831501 -27.496923 -113.82915
118891000 -27.481823 -113.64648 -0.075062983 -24.04553 -0.072386101 -24.02734 -27.39922 -113.95304
119890000 -27.398142 -113.99025 -0.076126881 -24.247345 -0.072749607 -24.23118 -27.383535 -114.08574
120889000 -27.344154 -114.51945 -0.07698366 -24.446636 -0.073031016 -24.428764 -27.310768 -114.02938
121888000 -27.300909 -114.81786 -0.077167057 -24.641645 -0.073605202 -24.629063 -27.256111 -114.26733
122887000 -27.26199 -115.02638 -0.078151338 -24.846817 -0.074625812 -24.83153 -27.20937 -114.31881
123886000 -27.212275 -115.46357 -0.079039626 -25.04817 -0.074874945 -25.029581 -27.191011 -114.49089
124885000 -27.17651 -115.95436 -0.078601524 -25.249029 -0.074893638 -25.236959 -27.160091 -114.48143
125884000 -27.123741 -116.12408 -0.079306148 -25.445112 -0.075649291 -25.434248 -27.131985 -114.66414
126883000 -27.107531 -116.53609 -0.079803385 -25.647289 -0.076209068 -25.633547 -27.096569 -114.69046
127882000 -27.052279 -116.84405 -0.080126382 -25.850399 -0.07659477 -25.832306 -27.052372 -114.81485
128881000 -27.024174 -117.17081 -0.080484472 -26.04969 -0.076573953 -26.033493 -27.015127 -114.89897
129880000 -26.965441 -117.44624 -0.081424937 -26.25296 -0.076782621 -26.233318 -26.97407 -114.84402
130879000 -26.907089 -117.61154 -0.080925934 -26.450697 -0.0781487 -26.4359 -26.902346 -114.84777
131878000 -26.846848 -117.81044 -0.080739476 -26.655649 -0.077849574 -26.636267 -26.842495 -114.71121
132877000 -26.776573 -117.89771 -0.08092171 -26.855375 -0.077912822 -26.8379 -26.767374 -114.65791
133876000 -26.700811 -118.08273 -0.081426516 -27.05694 -0.077716485 -27.041567 -26.675541 -114.58105
134875000 -26.600719 -118.1907 -0.08107204 -27.256435 -0.078932077 -27.239918 -26.580336 -114.4021
135874000 -26.517748 -118.19752 -0.081003204 -27.458422 -0.078265198 -27.438641 -26.48464 -114.36897
136873000 -26.409918 -118.14839 -0.082442373 -27.661547 -0.078765742 -27.641594 -26.409595 -114.30489
137872000 -26.336416 -118.28382 -0.080985531 -27.859503 -0.077860378 -27.848906 -26.303053 -114.26263
138871000 -26.263033 -118.41906 -0.082715169 -28.060381 -0.07833188 -28.044279 -26.209991 -114.39421
139870000 -26.15815 -118.71677 -0.083018854 -28.258085 -0.080135345 -28.242517 -26.128576 -114.5668
140869000 -26.08148 -119.31386 -0.084140122 -28.459757 -0.080615535 -28.440538 -26.031357 -114.7683
141868000 -26.002434 -119.69952 -0.084864125 -28.656858 -0.08206328 -28.641592 -25.980963 -115.03267
142867000 -25.925764 -119.88008 -0.082872681 -28.853765 -0.081352137 -28.835016 -25.898743 -115.1432
143866000 -25.854454 -120.4076 -0.085138664 -29.053604 -0.082704619 -29.037754 -25.832987 -115.58476
144865000 -25.792406 -120.87132 -0.086844862 -29.250158 -0.084290296 -29.233641 -25.779749 -115.89771
145864000 -25.743231 -121.17895 -0.087120056 -29.449661 -0.08504653 -29.439045 -25.743254 -116.15461
146863000 -25.696253 -121.55483 -0.087861724 -29.652918 -0.085405298 -29.640232 -25.690609 -116.44284
147862000 -25.660639 -121.90683 -0.089157574 -29.84893 -0.085670359 -29.842686 -25.657387 -116.74158
148861000 -25.625751 -122.34429 -0.089374773 -30.046743 -0.086971097 -30.031399 -25.638239 -116.93654
149860000 -25.593262 -122.51604 -0.090790018 -30.241165 -0.088069089 -30.227863 -25.588285 -117.03101
150859000 -25.571335 -122.9713 -0.089755565 -30.437069 -0.087936476 -30.421898 -25.569902 -117.36216
151858000 -25.554062 -123.36189 -0.089992352 -30.634068 -0.087560073 -30.622761 -25.558805 -117.72205
152857000 -25.539904 -123.69592 -0.090840243 -30.838711 -0.087246299 -30.825901 -25.537785 -117.87884
153856000 -25.540377 -123.91731 -0.089580357 -31.036968 -0.087103941 -31.022627 -25.558498 -118.2188
154855000 -25.538412 -124.0724 -0.090450637 -31.237345 -0.086710185 -31.225092 -25.55072 -118.40585
155854000 -25.555122 -124.3244 -0.090857163 -31.43655 -0.087043464 -31.42219 -25.540133 -118.73714
156853000 -25.539606 -124.99841 -0.088663228 -31.624746 -0.086660005 -31.614254 -25.537918 -119.07831
157852000 -25.543463 -125.2342 -0.089677341 -31.825106 -0.088576041 -31.81636 -25.520668 -119.45226
158851000 -25.543343 -125.44083 -0.090380594 -32.023155 -0.088414356 -32.016109 -25.505085 -119.65956
159850000 -25.531664 -125.55012 -0.090948619 -32.2244 -0.088757284 -32.211674 -25.506065 -119.8392
160849000 -25.513643 -125.61395 -0.090980865 -32.421257 -0.089940287 -32.417843 -25.481516 -120.14243
161848000 -25.499699 -125.70415 -0.091534957 -32.626549 -0.089334875 -32.618904 -25.435989 -120.23373
162847000 -25.460121 -125.86394 -0.091368407 -32.821453 -0.090154089 -32.817822 -25.411865 -120.53167
163846000 -25.419395 -126.0601 -0.0913544 -33.022114 -0.089995518 -33.012115 -25.333019 -120.50812
164845000 -25.362808 -126.03486 -0.091613218 -33.223053 -0.090549752 -33.214912 -25.273911 -120.61165
165844000 -25.309891 -126.08485 -0.09161295 -33.42363 -0.090801917 -33.415367 -25.196032 -120.74326
166843000 -25.24699 -126.14378 -0.091253415 -33.618446 -0.090715744 -33.614262 -25.128195 -120.87371
167842000 -25.191048 -126.23834 -0.092256762 -33.823765 -0.09112943 -33.814762 -25.05517 -120.78046
168841000 -25.108334 -126.35886 -0.09251114 -34.021954 -0.091339067 -34.014534 -24.975271 -120.87857
169840000 -25.049681 -126.62396 -0.092842221 -34.217022 -0.091354661 -34.21273 -24.895624 -121.0589
170839000 -24.992264 -126.84837 -0.09347219 -34.415184 -0.091791146 -34.413944 -24.810472 -121.23624
171838000 -24.931002 -127.24077 -0.093226753 -34.616249 -0.093167245 -34.609097 -24.745678 -121.46754
172837000 -24.864185 -127.5668 -0.094824485 -34.809406 -0.093989566 -34.805225 -24.683731 -121.66064
173836000 -24.795444 -127.97425 -0.09614782 -35.008987 -0.094778448 -35.006958 -24.638248 -121.88977
174835000 -24.744068 -128.35915 -0.09619572 -35.207104 -0.095672257 -35.208218 -24.598732 -122.17367
175834000 -24.693905 -128.75163 -0.097303987 -35.404739 -0.096981823 -35.403484 -24.536924 -122.44177
176833000 -24.642063 -129.09177 -0.098457277 -35.605412 -0.097085059 -35.605427 -24.489922 -122.58482
177832000 -24.597788 -129.50594 -0.099678159 -35.804108 -0.09778025 -35.805115 -24.471067 -122.70068
178831000 -24.555468 -129.7372 -0.10085354 -36.00098 -0.099931113 -35.995087 -24.432079 -122.78227
179830000 -24.483446 -130.11673 -0.10176106 -36.187672 -0.10080215 -36.18758 -24.365871 -122.8558
180829000 -24.433805 -130.49466 -0.10070332 -36.37851 -0.099903829 -36.377487 -24.322256 -123.18335
181828000 -24.409494 -130.92377 -0.10047071 -36.578865 -0.09959022 -36.575958 -24.310343 -123.40789
182827000 -24.388697 -131.31483 -0.10062755 -36.777233 -0.099237703 -36.775436 -24.295094 -123.49959
183826000 -24.346451 -131.62825 -0.10135431 -36.974789 -0.099319272 -36.969601 -24.286764 -123.68311
184825000 -24.352167 -131.96349 -0.10108086 -37.171551 -0.099610612 -37.173233 -24.267643 -123.7843
185824000 -24.323019 -132.35086 -0.10076956 -37.36541 -0.099983558 -37.367966 -24.25975 -123.87074
186823000 -24.303493 -132.70364 -0.10107663 -37.568062 -0.099252529 -37.566349 -24.257427 -123.84719
187822000 -24.281399 -133.04962 -0.1018244 -37.760899 -0.10064477 -37.763542 -24.215332 -123.96352
188821000 -24.258799 -133.28539 -0.10180055 -37.957111 -0.10108855 -37.961006 -24.197033 -124.077
189820000 -24.238026 -133.60434 -0.10128674 -38.156559 -0.10014196 -38.158287 -24.178251 -124.28409
190819000 -24.202665 -133.91148 -0.10231494 -38.354553 -0.10122236 -38.355518 -24.142929 -124.30189
191818000 -24.17038 -134.18979 -0.10244083 -38.556416 -0.1016495 -38.552784 -24.113905 -124.34909
192817000 -24.130117 -134.46777 -0.10263166 -38.750916 -0.10200062 -38.751431 -24.066971 -124.4278
193816000 -24.095987 -134.70576 -0.10309181 -38.946369 -0.10152019 -38.945744 -24.018404 -124.58434
194815000 -24.033934 -135.08017 -0.10297253 -39.142841 -0.10250524 -39.14333 -23.954926 -124.62078
195814000 -23.980444 -135.27248 -0.10385557 -39.339783 -0.10309738 -39.336853 -23.895094 -124.72018
196813000 -23.924841 -135.61623 -0.10340223 -39.529907 -0.10262663 -39.538399 -23.818266 -124.85586
197812000 -23.865662 -135.82268 -0.10421854 -39.733189 -0.10302608 -39.727856 -23.751493 -124.96262
198811000 -23.814182 -135.99545 -0.1040218 -39.92556 -0.10273927 -39.928001 -23.676865 -125.11997
199810000 -23.740292 -136.34103 -0.10385636 -40.12104 -0.10253121 -40.119743 -23.603201 -125.19364
200809000 -23.688387 -136.56688 -0.10415809 -40.32262 -0.10267884 -40.3218 -23.527029 -125.38692
201808000 -23.629099 -136.76758 -0.10552034 -40.522057 -0.10416074 -40.526367 -23.463047 -125.45263
202807000 -23.572216 -137.12477 -0.10522833 -40.720856 -0.10461893 -40.723774 -23.404242 -125.65888
