!Keysight Technologies,E5080B,MY59205177,A.15.75.32
!Date: Friday, February 23, 2024 03:00:52
!Correction: S11(Cdelta 2-Port  ) 
!S21(Cdelta 2-Port  ) 
!S12(Cdelta 2-Port  ) 
!S22(Cdelta 2-Port  ) 
!S2P File: Measurements: S11, S21, S12, S22:
# Hz S  dB   R 50
10000000 -44.178116 -3.9422214 -0.027699936 -2.0414011 -0.030151822 -2.0942678 -48.061134 -150.24196
10999000 -43.463142 -5.4877839 -0.029097307 -2.2576468 -0.030608788 -2.3094966 -47.783535 -142.46083
11998000 -42.728058 -8.0270815 -0.029011311 -2.4779906 -0.030021232 -2.5243688 -47.971035 -137.06961
12997000 -42.125374 -12.736617 -0.02813554 -2.6562445 -0.030140875 -2.6929126 -47.28186 -130.19093
13996000 -41.830368 -16.068846 -0.028258257 -2.8382533 -0.02927921 -2.8576679 -46.826748 -125.28223
14995000 -41.520809 -19.824461 -0.030458374 -3.0460367 -0.029869273 -3.0749073 -46.396057 -121.83752
15994000 -41.403858 -23.814371 -0.031647764 -3.2636807 -0.031923912 -3.2872097 -46.105675 -118.01077
16993000 -41.358315 -27.693512 -0.030223245 -3.4595633 -0.031382587 -3.4736953 -45.207615 -119.05316
17992000 -41.495411 -32.251415 -0.030773548 -3.6586821 -0.032021701 -3.6661074 -44.634884 -120.22107
18991000 -41.741165 -36.821785 -0.032355767 -3.86834 -0.032739677 -3.8690457 -43.891327 -119.21289
19990000 -41.593407 -41.866901 -0.033947434 -4.078012 -0.035155788 -4.0731902 -43.230915 -120.94501
20989000 -41.466038 -44.747398 -0.035325676 -4.2836061 -0.036457147 -4.2711487 -42.63599 -120.85825
21988000 -41.407413 -49.388557 -0.036756571 -4.4781222 -0.037428852 -4.4677873 -42.334198 -119.99335
22987000 -41.209988 -53.708191 -0.037874311 -4.6762114 -0.038127873 -4.6678061 -42.068104 -119.99561
23986000 -41.205891 -57.540306 -0.03795239 -4.8701253 -0.037898596 -4.8679671 -41.99807 -119.94457
24985000 -40.894295 -60.179287 -0.037898857 -5.0802116 -0.036945585 -5.0725808 -41.703503 -117.06037
25984000 -40.635822 -62.297188 -0.03988833 -5.2855897 -0.037993651 -5.2878509 -41.343544 -115.70479
26983000 -40.336082 -63.8643 -0.039722178 -5.4802928 -0.039612722 -5.4992499 -41.233143 -115.10394
27982000 -40.276794 -65.108299 -0.041303743 -5.6787138 -0.04056998 -5.7171874 -40.879215 -113.49084
28981000 -40.22353 -66.518478 -0.039599922 -5.8759069 -0.041057311 -5.901 -40.684155 -112.92436
29980000 -39.836517 -68.143776 -0.039770771 -6.0680795 -0.041744113 -6.0762019 -40.367432 -112.34408
30979000 -39.455471 -67.385193 -0.037148703 -6.4258847 -0.035263043 -6.4163318 -39.843113 -113.09065
31978000 -39.261047 -68.357971 -0.036379617 -6.620893 -0.036673818 -6.6099906 -39.592892 -112.43174
32977000 -39.102863 -70.024353 -0.036093529 -6.8305659 -0.037510838 -6.827158 -39.344219 -112.59212
33976000 -38.948593 -71.214478 -0.036977693 -7.0314231 -0.037687872 -7.0262194 -39.036304 -112.26506
34975000 -38.70269 -72.023087 -0.037123375 -7.2295084 -0.038860179 -7.2289391 -38.812195 -112.02971
35974000 -38.480705 -72.879524 -0.035834868 -7.4243884 -0.038035691 -7.4274254 -38.487438 -111.08586
36973000 -38.259811 -73.803955 -0.036858909 -7.6236739 -0.039417587 -7.6291857 -38.21133 -110.52802
37972000 -38.113712 -73.590294 -0.036661547 -7.8362198 -0.038907193 -7.8424053 -37.972923 -109.81837
38971000 -37.799652 -73.332771 -0.036647189 -8.037962 -0.039010365 -8.0460424 -37.781628 -108.36279
39970000 -37.454292 -73.954643 -0.035466868 -8.2287674 -0.038393464 -8.2398901 -37.480198 -108.00243
40969000 -37.192467 -73.774818 -0.036224041 -8.4217043 -0.037742708 -8.4453602 -37.22718 -106.52617
41968000 -36.834702 -73.916283 -0.035586659 -8.6263466 -0.038446479 -8.6410637 -37.011101 -105.51225
42967000 -36.589115 -74.24556 -0.035999041 -8.8348579 -0.038084526 -8.8537378 -36.773785 -103.76013
43966000 -36.309311 -75.072273 -0.036862303 -9.0380487 -0.039730277 -9.0559826 -36.503494 -103.22292
44965000 -36.088619 -75.990059 -0.037974849 -9.2393761 -0.039453372 -9.2559195 -36.266277 -103.08459
45964000 -35.850784 -77.235703 -0.038737684 -9.4414873 -0.04086969 -9.4581566 -36.042522 -103.01358
46963000 -35.699955 -79.252716 -0.03908376 -9.6311464 -0.041942488 -9.6579275 -35.854858 -103.31064
47962000 -35.543262 -80.637794 -0.040357817 -9.8347712 -0.042750463 -9.8511944 -35.64957 -103.43037
48961000 -35.363457 -82.168747 -0.042662628 -10.032605 -0.044326592 -10.050543 -35.395149 -103.76672
49960000 -35.132477 -83.530861 -0.043863732 -10.228992 -0.045381412 -10.251691 -35.270004 -103.88945
50959000 -34.922176 -84.870979 -0.044281609 -10.443627 -0.047011614 -10.452459 -35.098995 -104.3428
51958000 -34.735741 -86.066185 -0.046905112 -10.639226 -0.048344277 -10.65008 -34.933529 -104.86639
52957000 -34.526073 -87.151543 -0.047639947 -10.838172 -0.049761925 -10.847195 -34.758808 -104.80373
53956000 -34.380615 -87.94606 -0.048773319 -11.042962 -0.050106525 -11.043728 -34.614368 -104.78632
54955000 -34.224556 -88.38678 -0.04961713 -11.244775 -0.049995758 -11.237917 -34.459572 -104.68797
55954000 -34.064571 -89.331871 -0.051427826 -11.440256 -0.051063478 -11.443472 -34.351978 -104.54085
56953000 -33.949066 -89.435982 -0.050210483 -11.642737 -0.04941421 -11.628974 -34.278324 -104.79645
57952000 -33.78904 -90.040985 -0.051819187 -11.836517 -0.050770659 -11.82566 -34.182262 -104.82771
58951000 -33.671818 -90.304497 -0.0525483 -12.042329 -0.051511388 -12.024723 -34.0359 -105.00166
59950000 -33.556908 -90.749657 -0.052889977 -12.247752 -0.052595727 -12.216908 -33.957966 -105.26298
60949000 -33.442101 -91.347427 -0.053485092 -12.442152 -0.053784907 -12.425028 -33.870632 -105.51336
61948000 -33.393276 -91.665779 -0.0538617 -12.640259 -0.053026237 -12.622012 -33.785854 -105.62756
62947000 -33.300697 -91.824188 -0.054069016 -12.852102 -0.054119341 -12.83126 -33.65229 -105.91534
63946000 -33.241451 -92.628876 -0.05488738 -13.050643 -0.054825775 -13.030099 -33.550377 -106.05715
64945000 -33.1245 -92.772987 -0.056021858 -13.252226 -0.05511336 -13.233459 -33.434448 -106.56599
65944000 -33.029598 -93.101402 -0.056366693 -13.451591 -0.055675216 -13.433047 -33.347153 -106.96565
66943000 -32.883774 -93.458549 -0.053856719 -13.652441 -0.05438067 -13.633365 -33.250652 -107.28072
67942000 -32.836582 -93.456062 -0.055954993 -13.848016 -0.055577155 -13.835313 -33.135666 -107.58138
68941000 -32.724281 -93.55204 -0.055878427 -14.039361 -0.055071674 -14.03031 -33.016453 -107.53652
69940000 -32.620735 -93.579674 -0.0561257 -14.238923 -0.05592379 -14.230604 -32.88578 -107.92274
70939000 -32.519997 -93.469887 -0.055304743 -14.434855 -0.055281673 -14.429285 -32.746929 -107.85249
71938000 -32.378311 -93.16832 -0.05577302 -14.628476 -0.055077706 -14.626806 -32.619495 -107.72687
72937000 -32.217152 -93.047432 -0.055493254 -14.833259 -0.054147124 -14.825966 -32.467297 -107.4711
73936000 -32.074108 -92.743347 -0.055038907 -15.027014 -0.05380797 -15.021391 -32.358459 -107.33192
74935000 -31.950167 -93.000259 -0.054148175 -15.223004 -0.053457577 -15.21499 -32.201355 -106.99157
75934000 -31.833189 -93.35421 -0.053753193 -15.432078 -0.053182416 -15.421729 -32.125843 -106.93645
76933000 -31.710333 -93.714783 -0.055349052 -15.624297 -0.054732975 -15.619051 -31.946903 -107.37183
77932000 -31.61042 -94.502533 -0.056651756 -15.82206 -0.056173425 -15.81225 -31.841537 -107.34924
78931000 -31.541409 -95.278358 -0.056127273 -16.021624 -0.055599965 -16.015169 -31.750538 -107.29774
79930000 -31.442493 -96.084076 -0.058110684 -16.214619 -0.057379324 -16.211231 -31.648796 -107.5109
80929000 -31.309956 -97.015144 -0.059841994 -16.407076 -0.059383776 -16.405066 -31.53174 -107.92315
81928000 -31.22854 -97.819992 -0.059729666 -16.601286 -0.05982887 -16.595734 -31.425217 -107.98061
82927000 -31.135784 -98.548172 -0.061701857 -16.79887 -0.061062299 -16.800869 -31.314594 -108.33139
83926000 -31.023918 -99.310661 -0.06289196 -16.996042 -0.061953139 -16.996965 -31.201965 -108.51527
84925000 -30.920408 -99.778969 -0.063910052 -17.197107 -0.063193209 -17.192709 -31.1063 -108.61075
85924000 -30.835211 -100.21488 -0.064764164 -17.393337 -0.063698329 -17.39035 -31.030386 -108.66231
86923000 -30.722485 -100.76773 -0.064321719 -17.591311 -0.064214796 -17.588047 -30.936588 -108.52394
87922000 -30.621225 -101.16811 -0.064439155 -17.795372 -0.06381496 -17.790962 -30.839569 -108.62074
88921000 -30.556753 -101.44844 -0.065561943 -17.993479 -0.064166717 -17.991848 -30.755636 -108.56278
89920000 -30.458214 -102.05621 -0.066690542 -18.195431 -0.065586388 -18.189091 -30.69556 -108.72773
90919000 -30.359921 -102.36268 -0.067249693 -18.392679 -0.065615557 -18.386486 -30.610556 -108.91624
91918000 -30.270071 -102.72401 -0.067938283 -18.588943 -0.065445267 -18.583351 -30.549173 -108.97456
92917000 -30.183081 -103.03949 -0.068443157 -18.784952 -0.067794189 -18.783819 -30.481857 -109.08126
93916000 -30.097857 -103.41234 -0.068135493 -18.980333 -0.067181863 -18.975731 -30.401134 -109.64664
94915000 -30.023438 -104.08331 -0.069448881 -19.181036 -0.068420015 -19.177317 -30.34042 -109.55907
95914000 -29.957479 -104.36099 -0.070630841 -19.376398 -0.069484651 -19.37392 -30.247847 -109.85729
96913000 -29.873581 -104.52062 -0.072170272 -19.574692 -0.070092566 -19.572714 -30.180031 -110.20541
97912000 -29.797787 -104.96446 -0.072595619 -19.770084 -0.070065998 -19.77239 -30.107571 -110.45296
98911000 -29.698938 -105.17606 -0.073164485 -19.973337 -0.071821816 -19.970469 -30.069504 -110.65891
99910000 -29.630987 -105.32413 -0.074014366 -20.173954 -0.071973406 -20.171049 -29.955259 -110.98557
100909000 -29.542847 -105.61607 -0.072855696 -20.378033 -0.071211025 -20.373909 -29.868345 -111.16245
101908000 -29.452829 -105.87025 -0.073740005 -20.577366 -0.073099196 -20.574097 -29.755642 -110.95755
102907000 -29.326057 -105.86195 -0.075004518 -20.778421 -0.072176851 -20.77659 -29.683992 -110.95708
103906000 -29.225918 -105.92957 -0.075602144 -20.983335 -0.072223701 -20.975893 -29.533892 -110.9136
104905000 -29.08449 -105.87337 -0.075812347 -21.179138 -0.073197395 -21.181665 -29.416662 -110.55505
105904000 -28.950346 -106.01997 -0.075737536 -21.381899 -0.072891228 -21.373291 -29.293022 -110.46222
106903000 -28.83215 -106.09029 -0.076119237 -21.59137 -0.073205814 -21.580732 -29.175095 -110.3605
107902000 -28.680305 -106.43188 -0.076745212 -21.789957 -0.073356405 -21.782377 -29.035746 -110.32341
108901000 -28.567734 -106.73196 -0.077882513 -21.987234 -0.07523787 -21.980515 -28.899435 -110.22495
109900000 -28.435522 -107.19672 -0.078395136 -22.187197 -0.076248065 -22.175371 -28.751163 -110.33888
110899000 -28.320774 -107.82255 -0.079477772 -22.386919 -0.076151639 -22.377928 -28.625942 -110.65526
111898000 -28.233664 -108.50696 -0.081354246 -22.590214 -0.077708051 -22.583036 -28.507963 -110.76916
112897000 -28.113401 -109.07896 -0.082848676 -22.787491 -0.078576215 -22.776915 -28.377258 -110.95965
113896000 -28.005718 -109.68406 -0.083765104 -22.98609 -0.080194406 -22.976397 -28.264908 -111.10248
114895000 -27.909525 -110.31669 -0.084369481 -23.184917 -0.081388004 -23.171211 -28.150507 -111.21096
115894000 -27.776375 -110.69384 -0.086114988 -23.385546 -0.083227307 -23.372606 -28.082291 -111.39579
116893000 -27.695534 -111.22263 -0.086561769 -23.581284 -0.083230212 -23.562464 -27.953909 -111.50516
117892000 -27.618866 -111.73268 -0.086408615 -23.776566 -0.082973473 -23.766136 -27.883213 -111.66254
118891000 -27.558638 -112.12299 -0.087003849 -23.976398 -0.08458776 -23.964432 -27.785246 -111.85467
119890000 -27.469418 -112.53783 -0.088220187 -24.181086 -0.084332265 -24.160904 -27.77722 -112.02938
120889000 -27.414993 -113.02796 -0.088798501 -24.380768 -0.085172452 -24.364641 -27.703005 -111.97124
121888000 -27.378897 -113.38392 -0.088768378 -24.573278 -0.085797615 -24.563042 -27.650892 -112.24476
122887000 -27.335178 -113.61131 -0.089677341 -24.776531 -0.087193474 -24.762112 -27.597433 -112.27577
123886000 -27.288498 -113.99411 -0.090225451 -24.975512 -0.086895831 -24.961178 -27.59115 -112.4557
124885000 -27.247013 -114.48552 -0.090615831 -25.177462 -0.087582521 -25.163057 -27.556597 -112.52747
125884000 -27.197596 -114.701 -0.091652341 -25.377523 -0.087749988 -25.360126 -27.530514 -112.73132
126883000 -27.178497 -115.06271 -0.091858037 -25.577148 -0.088628881 -25.56328 -27.487906 -112.75241
127882000 -27.129007 -115.36172 -0.091796696 -25.77677 -0.088938005 -25.761627 -27.443737 -112.91465
128881000 -27.099237 -115.68364 -0.092190392 -25.98015 -0.088651337 -25.958139 -27.405039 -113.04978
129880000 -27.039248 -116.01303 -0.093015969 -26.178419 -0.088717654 -26.161345 -27.366249 -113.02135
130879000 -26.980206 -116.18452 -0.092425726 -26.379086 -0.089630827 -26.361963 -27.290882 -113.09538
131878000 -26.918076 -116.35467 -0.093208767 -26.582533 -0.090137705 -26.563622 -27.224726 -112.97512
132877000 -26.849188 -116.46916 -0.09250585 -26.779827 -0.090338044 -26.765232 -27.147266 -113.01305
133876000 -26.763603 -116.62193 -0.092965454 -26.982931 -0.089651443 -26.963528 -27.052347 -112.88729
134875000 -26.663836 -116.7394 -0.093657076 -27.181406 -0.090282276 -27.166306 -26.95286 -112.76074
135874000 -26.584324 -116.7921 -0.093183376 -27.380373 -0.090453282 -27.36614 -26.844818 -112.75844
136873000 -26.474779 -116.66777 -0.093804404 -27.58639 -0.089675225 -27.567219 -26.762739 -112.75557
137872000 -26.396154 -116.82449 -0.093441509 -27.790127 -0.090676099 -27.77033 -26.658218 -112.68246
138871000 -26.320732 -117.03689 -0.09426415 -27.985723 -0.090821475 -27.968533 -26.55883 -112.8979
139870000 -26.217937 -117.28428 -0.094734527 -28.186567 -0.092229262 -28.168316 -26.480045 -113.04382
140869000 -26.1416 -117.79115 -0.096781716 -28.381628 -0.093058281 -28.362522 -26.37167 -113.16743
141868000 -26.035814 -118.22131 -0.097395577 -28.573055 -0.093815252 -28.554064 -26.300007 -113.49662
142867000 -25.96311 -118.4935 -0.095649764 -28.770803 -0.093120433 -28.754423 -26.22504 -113.67797
143866000 -25.891378 -118.95033 -0.097455941 -28.96616 -0.094463088 -28.952789 -26.152653 -114.1883
144865000 -25.833927 -119.5007 -0.098606363 -29.166199 -0.096084036 -29.150694 -26.089462 -114.52613
145864000 -25.780273 -119.82732 -0.098945588 -29.366125 -0.09689977 -29.355429 -26.063423 -114.80453
146863000 -25.737774 -120.22917 -0.099945679 -29.568834 -0.09689606 -29.552357 -26.004148 -115.09144
147862000 -25.692675 -120.55953 -0.10039416 -29.763575 -0.09754277 -29.746382 -25.973618 -115.38589
148861000 -25.660151 -121.09633 -0.10063656 -29.961994 -0.098102465 -29.94372 -25.948261 -115.66541
149860000 -25.643944 -121.27061 -0.10192881 -30.158468 -0.098410673 -30.148134 -25.912548 -115.84662
150859000 -25.627762 -121.63815 -0.10184586 -30.353775 -0.098847337 -30.342047 -25.90811 -116.11893
151858000 -25.611898 -121.97419 -0.10109571 -30.558659 -0.099151894 -30.538408 -25.899744 -116.38731
152857000 -25.588818 -122.27036 -0.10151859 -30.750444 -0.099141032 -30.742249 -25.885668 -116.49754
153856000 -25.588072 -122.47829 -0.10228764 -30.952314 -0.099310003 -30.943304 -25.894438 -116.8371
154855000 -25.577131 -122.65473 -0.10212306 -31.156004 -0.09876895 -31.140707 -25.884045 -117.03271
155854000 -25.588064 -122.9095 -0.10207032 -31.348421 -0.099398196 -31.335983 -25.875708 -117.29072
156853000 -25.574366 -123.6391 -0.10004237 -31.542158 -0.0987859 -31.530264 -25.869322 -117.60496
157852000 -25.579962 -123.82039 -0.10146136 -31.742424 -0.10058225 -31.728376 -25.862293 -117.93972
158851000 -25.578238 -124.08869 -0.10223676 -31.937418 -0.10071577 -31.927921 -25.848082 -118.19774
159850000 -25.558399 -124.22353 -0.10320924 -32.134094 -0.10078148 -32.127232 -25.839949 -118.35265
160849000 -25.542887 -124.33446 -0.10299904 -32.335403 -0.1017608 -32.329578 -25.814264 -118.65902
161848000 -25.522814 -124.40939 -0.10288585 -32.53664 -0.10172316 -32.528385 -25.774342 -118.75761
162847000 -25.479097 -124.62485 -0.1034746 -32.733868 -0.1022076 -32.726753 -25.748667 -118.98571
163846000 -25.439796 -124.86375 -0.1032498 -32.930653 -0.10164181 -32.926579 -25.666977 -119.02039
164845000 -25.378319 -124.82781 -0.10337015 -33.130527 -0.1022084 -33.124176 -25.605333 -119.11694
165844000 -25.321095 -124.92311 -0.10396454 -33.329983 -0.10237457 -33.319263 -25.519812 -119.24031
166843000 -25.262522 -125.00533 -0.10443358 -33.530106 -0.10189992 -33.524437 -25.451214 -119.40279
167842000 -25.203039 -125.18623 -0.10398866 -33.728207 -0.10337042 -33.717781 -25.370108 -119.34499
168841000 -25.129841 -125.35728 -0.10363632 -33.927578 -0.10300301 -33.922787 -25.294016 -119.44698
169840000 -25.059204 -125.60569 -0.10473455 -34.121414 -0.10372354 -34.114155 -25.206736 -119.63084
170839000 -25.001978 -125.85714 -0.10538799 -34.31892 -0.10418301 -34.317551 -25.121189 -119.82616
171838000 -24.939999 -126.29923 -0.10508539 -34.517513 -0.10510793 -34.513054 -25.058504 -120.0441
172837000 -24.870419 -126.66195 -0.10655458 -34.713432 -0.10563996 -34.709576 -24.986948 -120.27078
173836000 -24.805618 -127.06316 -0.10740969 -34.911694 -0.10661162 -34.908676 -24.945261 -120.5275
174835000 -24.753891 -127.49844 -0.10830584 -35.105335 -0.10723643 -35.10593 -24.8967 -120.84752
175834000 -24.702414 -127.88793 -0.10924996 -35.307209 -0.10846216 -35.301556 -24.839914 -121.1386
176833000 -24.656498 -128.27055 -0.10994843 -35.499352 -0.10860469 -35.501732 -24.78167 -121.31702
177832000 -24.609886 -128.76105 -0.1102288 -35.696007 -0.1088948 -35.69836 -24.75848 -121.45318
178831000 -24.570295 -129.12456 -0.11036581 -35.893661 -0.10920776 -35.891323 -24.725225 -121.7224
179830000 -24.531395 -129.54825 -0.11080076 -36.092098 -0.10930969 -36.096226 -24.699633 -121.79875
180829000 -24.494883 -129.76418 -0.11146308 -36.292767 -0.11000312 -36.287888 -24.66992 -121.96247
181828000 -24.469995 -130.11652 -0.11196083 -36.487297 -0.1099994 -36.484241 -24.650597 -122.08
182827000 -24.44169 -130.476 -0.11180677 -36.682388 -0.11070091 -36.681068 -24.637054 -122.17139
183826000 -24.400229 -130.78979 -0.11316451 -36.879635 -0.11025137 -36.876259 -24.631119 -122.3078
184825000 -24.40447 -131.12575 -0.11222858 -37.075062 -0.11106312 -37.076305 -24.613327 -122.38736
185824000 -24.377861 -131.44415 -0.11207956 -37.270641 -0.1109824 -37.272396 -24.610411 -122.43266
186823000 -24.365368 -131.82541 -0.11246235 -37.476521 -0.11143918 -37.466331 -24.608473 -122.41911
187822000 -24.348347 -132.13736 -0.11349691 -37.667137 -0.11161023 -37.665367 -24.573608 -122.47803
188821000 -24.32254 -132.39961 -0.11299315 -37.860699 -0.11263184 -37.864925 -24.556002 -122.59051
189820000 -24.30892 -132.64841 -0.11341401 -38.064762 -0.11213853 -38.063198 -24.549566 -122.74483
190819000 -24.279774 -132.90976 -0.11510929 -38.260918 -0.11336724 -38.260654 -24.520575 -122.71999
191818000 -24.243595 -133.07515 -0.11629153 -38.455097 -0.11480017 -38.455093 -24.483513 -122.61822
192817000 -24.175194 -133.32895 -0.11662868 -38.640926 -0.11537113 -38.642334 -24.413328 -122.69148
193816000 -24.138294 -133.72881 -0.11540622 -38.834961 -0.11393191 -38.832653 -24.357882 -122.95963
194815000 -24.078436 -134.15536 -0.11535704 -39.031895 -0.1144326 -39.033936 -24.295753 -123.08426
195814000 -24.027693 -134.38208 -0.11579701 -39.228283 -0.11413573 -39.229568 -24.242044 -123.16899
196813000 -23.979225 -134.70975 -0.11548278 -39.424782 -0.11449505 -39.425369 -24.162485 -123.34954
197812000 -23.918011 -134.97221 -0.11492403 -39.619297 -0.1145195 -39.621105 -24.098129 -123.45709
198811000 -23.861719 -135.1078 -0.11581934 -39.81731 -0.11330454 -39.819366 -24.026987 -123.64633
199810000 -23.798931 -135.49779 -0.11609159 -40.013615 -0.1135179 -40.011345 -23.950922 -123.75208
200809000 -23.741123 -135.77031 -0.11540622 -40.209408 -0.11457691 -40.210026 -23.871548 -123.9379
201808000 -23.683613 -135.99287 -0.11661964 -40.414177 -0.11588953 -40.409874 -23.798925 -124.01646
202807000 -23.625124 -136.36882 -0.11692305 -40.608883 -0.11629897 -40.610302 -23.74375 -124.23444
203806000 -23.57163 -136.80232 -0.1187756 -40.808941 -0.11659784 -40.809864 -23.679262 -124.37209
