!Keysight Technologies,E5080B,MY59205177,A.15.75.32
!Date: Friday, February 23, 2024 03:00:58
!Correction: S11(Cdelta 2-Port  ) 
!S21(Cdelta 2-Port  ) 
!S12(Cdelta 2-Port  ) 
!S22(Cdelta 2-Port  ) 
!S2P File: Measurements: S11, S21, S12, S22:
# Hz S  dB   R 50
10000000 -44.1003 -3.8994503 -0.027701238 -2.0388064 -0.03075921 -2.0972507 -48.099869 -150.55228
10999000 -43.520226 -5.4699655 -0.028268158 -2.258081 -0.030425007 -2.3090997 -47.747963 -142.50696
11998000 -42.718918 -8.2126627 -0.028836194 -2.4803405 -0.030320996 -2.5227706 -47.90337 -136.79514
12997000 -42.108234 -12.639665 -0.027978696 -2.6558638 -0.02945669 -2.6912465 -47.261459 -130.79266
13996000 -41.83136 -16.010107 -0.026911946 -2.8380995 -0.029979527 -2.8598855 -46.862228 -125.20006
14995000 -41.541222 -19.762651 -0.0289803 -3.0480316 -0.029830959 -3.0699227 -46.380611 -121.85219
15994000 -41.407726 -23.697283 -0.030034525 -3.2622278 -0.032618396 -3.2900901 -46.15942 -118.07265
16993000 -41.419811 -27.418982 -0.029424895 -3.4590471 -0.031684011 -3.4712732 -45.2281 -119.0149
17992000 -41.477654 -32.214909 -0.02958622 -3.6575327 -0.032477301 -3.6650774 -44.638504 -120.11023
18991000 -41.733696 -36.47118 -0.031524431 -3.8707657 -0.033090491 -3.8715267 -43.874306 -119.47157
19990000 -41.595314 -41.530811 -0.033597853 -4.0775914 -0.035002865 -4.0725937 -43.180874 -121.02623
20989000 -41.515835 -44.638279 -0.034735657 -4.2820978 -0.037175592 -4.2695332 -42.60479 -120.84286
21988000 -41.396637 -49.243462 -0.035468172 -4.4766607 -0.037080299 -4.4662971 -42.354031 -120.05354
22987000 -41.206291 -53.712082 -0.037772212 -4.6739244 -0.038767982 -4.6645145 -42.077454 -119.78875
23986000 -41.210701 -57.296341 -0.036897808 -4.8664994 -0.037707195 -4.8681126 -41.983044 -119.80173
24985000 -40.911057 -59.944759 -0.037933066 -5.0749955 -0.03747559 -5.0767622 -41.74202 -117.20741
25984000 -40.645061 -62.208195 -0.038911372 -5.2839603 -0.037793104 -5.2876182 -41.396908 -115.91077
26983000 -40.361923 -64.26532 -0.039195817 -5.4813542 -0.039192159 -5.4974284 -41.248882 -115.15032
27982000 -40.186394 -65.075829 -0.041163933 -5.6821237 -0.041196335 -5.7158165 -40.925549 -113.58341
28981000 -40.206802 -66.576988 -0.038890999 -5.8778772 -0.040592711 -5.9028158 -40.666786 -113.03149
29980000 -39.789951 -68.03933 -0.038553298 -6.0691109 -0.041249648 -6.0776415 -40.332584 -112.34953
30979000 -39.437672 -67.409752 -0.036462627 -6.4260483 -0.035685055 -6.4213104 -39.832165 -112.96482
31978000 -39.271809 -68.421265 -0.03585862 -6.6225982 -0.036185149 -6.6099086 -39.582901 -112.38173
32977000 -39.118515 -70.00399 -0.035702802 -6.8276882 -0.037622593 -6.8277645 -39.347561 -112.52946
33976000 -38.949966 -71.197502 -0.036253016 -7.0317721 -0.038207002 -7.0241823 -39.033356 -112.40198
34975000 -38.680153 -72.183228 -0.036401022 -7.2295613 -0.038538411 -7.2295017 -38.797916 -112.04554
35974000 -38.486183 -72.857513 -0.03526748 -7.4253807 -0.038940888 -7.4263597 -38.480194 -111.36414
36973000 -38.272678 -73.653252 -0.035999041 -7.628027 -0.038884729 -7.6275897 -38.199871 -110.61375
37972000 -38.0797 -73.594124 -0.03565269 -7.8316412 -0.039087418 -7.8416667 -37.963978 -109.72701
38971000 -37.794514 -73.429344 -0.03626398 -8.0356464 -0.039109882 -8.0456648 -37.799072 -108.41694
39970000 -37.466793 -74.017616 -0.035699148 -8.2265673 -0.036999363 -8.2425241 -37.483902 -107.80155
40969000 -37.17952 -73.871025 -0.035109859 -8.4227457 -0.037411358 -8.4424505 -37.208405 -106.62247
41968000 -36.857162 -73.977005 -0.035338204 -8.6300201 -0.038396597 -8.646286 -37.002365 -105.51903
42967000 -36.589237 -74.29557 -0.035898551 -8.8366995 -0.038333658 -8.8563595 -36.781689 -103.81861
43966000 -36.304993 -75.018471 -0.035958324 -9.0375051 -0.039461732 -9.058486 -36.520447 -103.2225
44965000 -36.087215 -76.047958 -0.036091704 -9.2352629 -0.039640937 -9.2574568 -36.257046 -103.13239
45964000 -35.881474 -77.233116 -0.038109593 -9.441514 -0.040705852 -9.4563665 -36.039066 -103.01744
46963000 -35.702694 -79.206833 -0.037917923 -9.6305857 -0.041410368 -9.6547413 -35.842621 -103.28494
47962000 -35.551811 -80.714378 -0.039620038 -9.8337555 -0.042547084 -9.8512011 -35.642326 -103.5676
48961000 -35.351601 -82.14505 -0.041792985 -10.03199 -0.044029783 -10.049923 -35.411213 -103.83933
49960000 -35.147236 -83.673851 -0.043168232 -10.231263 -0.045033786 -10.254575 -35.267368 -103.972
50959000 -34.9333 -84.985443 -0.043304712 -10.444806 -0.046221685 -10.454524 -35.095146 -104.39394
51958000 -34.737419 -86.017624 -0.045663141 -10.64326 -0.047369342 -10.651897 -34.921829 -104.86607
52957000 -34.542747 -87.228874 -0.046766691 -10.838663 -0.048825677 -10.844825 -34.755665 -104.71639
53956000 -34.381371 -87.868614 -0.048227273 -11.04189 -0.049884208 -11.048759 -34.613518 -104.75324
54955000 -34.225876 -88.404037 -0.048707351 -11.241173 -0.050414488 -11.238688 -34.469803 -104.74983
55954000 -34.054302 -89.303268 -0.049900442 -11.442019 -0.050360538 -11.438733 -34.354614 -104.54807
56953000 -33.945103 -89.39212 -0.04965169 -11.64102 -0.0495014 -11.630579 -34.284981 -104.72638
57952000 -33.784412 -89.975838 -0.051400848 -11.839693 -0.050242957 -11.829577 -34.197704 -104.83566
58951000 -33.673981 -90.318031 -0.051466331 -12.041158 -0.051587876 -12.020939 -34.033279 -104.9193
59950000 -33.541885 -90.73764 -0.052234162 -12.239804 -0.052726999 -12.214112 -33.967922 -105.26901
60949000 -33.446724 -91.321396 -0.052852768 -12.443133 -0.052612759 -12.421286 -33.856571 -105.48925
61948000 -33.377399 -91.6185 -0.053266007 -12.640735 -0.05221425 -12.623309 -33.788731 -105.58439
62947000 -33.305138 -91.812004 -0.053072616 -12.852581 -0.053226437 -12.830512 -33.650524 -105.86953
63946000 -33.22633 -92.569435 -0.054362584 -13.04913 -0.054034419 -13.030822 -33.536755 -106.01798
64945000 -33.130985 -92.707176 -0.054801133 -13.249866 -0.055423252 -13.229616 -33.441826 -106.57393
65944000 -33.029045 -93.065552 -0.055744439 -13.449586 -0.055253357 -13.433036 -33.337685 -106.97906
66943000 -32.900002 -93.496521 -0.053009991 -13.65155 -0.053967848 -13.633368 -33.235065 -107.33356
67942000 -32.834305 -93.46386 -0.055586595 -13.847764 -0.05586243 -13.838125 -33.125526 -107.6165
68941000 -32.724312 -93.535614 -0.054984901 -14.039241 -0.054668486 -14.032457 -33.022877 -107.52599
69940000 -32.632526 -93.577492 -0.054999582 -14.23842 -0.05578744 -14.228023 -32.875813 -107.96074
70939000 -32.519341 -93.557663 -0.055404637 -14.433231 -0.055718217 -14.425671 -32.744423 -107.84127
71938000 -32.376156 -93.203743 -0.055344597 -14.631356 -0.054928537 -14.624916 -32.616375 -107.75883
72937000 -32.22237 -93.042747 -0.055291113 -14.831541 -0.054520905 -14.82197 -32.473225 -107.44676
73936000 -32.082966 -92.822784 -0.0545348 -15.021543 -0.054050408 -15.018917 -32.358208 -107.33408
74935000 -31.9573 -93.053299 -0.054078192 -15.224916 -0.053403065 -15.217025 -32.194942 -106.97695
75934000 -31.832506 -93.334068 -0.054044642 -15.428994 -0.053012088 -15.425892 -32.111435 -106.96262
76933000 -31.715826 -93.689728 -0.054994602 -15.626353 -0.055049129 -15.617474 -31.946552 -107.39007
77932000 -31.613911 -94.498062 -0.056242917 -15.823629 -0.056291692 -15.813516 -31.852211 -107.36571
78931000 -31.540039 -95.27977 -0.05519909 -16.020454 -0.055379204 -16.014359 -31.74124 -107.23573
79930000 -31.430202 -96.130165 -0.058167614 -16.214495 -0.058249205 -16.214037 -31.659094 -107.51977
80929000 -31.306461 -97.031502 -0.059150487 -16.406687 -0.059469592 -16.404179 -31.54603 -107.92887
81928000 -31.233337 -97.897705 -0.059012201 -16.599758 -0.059840944 -16.596741 -31.423527 -107.99875
82927000 -31.134697 -98.634911 -0.060928676 -16.80154 -0.060842834 -16.796301 -31.320065 -108.2861
83926000 -31.022766 -99.300453 -0.062012218 -16.99571 -0.062061585 -16.995811 -31.210201 -108.52914
84925000 -30.91617 -99.840309 -0.062887229 -17.19338 -0.062482003 -17.189751 -31.11466 -108.63401
85924000 -30.83954 -100.21732 -0.063026428 -17.394009 -0.063352644 -17.3939 -31.02635 -108.63559
86923000 -30.729221 -100.76254 -0.064083435 -17.593079 -0.064108923 -17.584652 -30.921919 -108.52065
87922000 -30.622934 -101.16512 -0.063816272 -17.796419 -0.064396068 -17.791714 -30.836504 -108.62928
88921000 -30.553209 -101.38857 -0.064935483 -17.993477 -0.064302802 -17.990454 -30.755203 -108.58687
89920000 -30.454773 -102.02106 -0.065208495 -18.194008 -0.06587889 -18.184118 -30.702866 -108.73132
90919000 -30.354155 -102.31283 -0.066556223 -18.391613 -0.065452099 -18.382309 -30.61408 -108.96736
91918000 -30.263809 -102.6479 -0.067120351 -18.592815 -0.066090986 -18.586794 -30.55283 -108.97736
92917000 -30.171703 -103.03658 -0.068292476 -18.787415 -0.066977866 -18.784681 -30.482428 -109.02905
93916000 -30.090242 -103.43433 -0.067857295 -18.982239 -0.066955253 -18.976231 -30.395914 -109.71277
94915000 -30.027538 -104.0161 -0.068959929 -19.18395 -0.068187296 -19.175821 -30.341244 -109.57458
95914000 -29.958872 -104.25624 -0.069781892 -19.377451 -0.068873666 -19.375393 -30.243454 -109.83849
96913000 -29.86904 -104.49329 -0.071193919 -19.576851 -0.070199899 -19.576958 -30.179873 -110.17614
97912000 -29.803562 -104.96686 -0.072487436 -19.771658 -0.069956556 -19.773443 -30.101002 -110.45396
98911000 -29.697924 -105.16283 -0.07312315 -19.972937 -0.07142812 -19.970392 -30.068693 -110.69297
99910000 -29.631447 -105.35312 -0.073574133 -20.174807 -0.071943931 -20.169596 -29.955275 -110.93581
100909000 -29.5436 -105.6118 -0.072656691 -20.382399 -0.070781864 -20.371756 -29.872736 -111.15444
101908000 -29.457556 -105.86681 -0.073788449 -20.580799 -0.072859906 -20.577892 -29.757925 -110.9939
102907000 -29.323614 -105.89337 -0.074468859 -20.776859 -0.072446115 -20.777502 -29.687483 -110.90344
103906000 -29.225338 -105.99331 -0.074700072 -20.984987 -0.072097369 -20.978315 -29.537811 -110.86253
104905000 -29.084473 -105.93045 -0.075273164 -21.182081 -0.072016045 -21.17808 -29.407557 -110.58939
105904000 -28.955622 -105.986 -0.075243667 -21.389503 -0.07269565 -21.378908 -29.296974 -110.45544
106903000 -28.842028 -106.1125 -0.075129882 -21.591808 -0.073030755 -21.583683 -29.170397 -110.38474
107902000 -28.67712 -106.4622 -0.07594274 -21.786112 -0.07367418 -21.783037 -29.031973 -110.30669
108901000 -28.566105 -106.71426 -0.07661479 -21.987377 -0.074472018 -21.983267 -28.8993 -110.27643
109900000 -28.440422 -107.21465 -0.07772176 -22.189547 -0.076084994 -22.181004 -28.750427 -110.34492
110899000 -28.323643 -107.87669 -0.079035938 -22.387232 -0.076598719 -22.374575 -28.619675 -110.61835
111898000 -28.23057 -108.5483 -0.080734469 -22.587467 -0.077724919 -22.582735 -28.506361 -110.77539
112897000 -28.109417 -109.10669 -0.081782602 -22.788605 -0.079221264 -22.774349 -28.375893 -110.95203
113896000 -28.006983 -109.71478 -0.08258906 -22.988008 -0.080203898 -22.975063 -28.263031 -111.11056
114895000 -27.908484 -110.3503 -0.083717339 -23.183506 -0.081745408 -23.170471 -28.15629 -111.20361
115894000 -27.774855 -110.65362 -0.084730558 -23.38571 -0.082547635 -23.37254 -28.08674 -111.40403
116893000 -27.698692 -111.2517 -0.085660063 -23.57995 -0.083826326 -23.562479 -27.955301 -111.53279
117892000 -27.611576 -111.72289 -0.085391037 -23.779684 -0.084016345 -23.76594 -27.887417 -111.72711
118891000 -27.560036 -112.20453 -0.085812137 -23.977127 -0.084344141 -23.966127 -27.797546 -111.84853
119890000 -27.471527 -112.53889 -0.086831659 -24.179462 -0.084792592 -24.166622 -27.777 -111.9979
120889000 -27.419415 -113.02917 -0.088202491 -24.378389 -0.08515767 -24.361515 -27.707714 -111.97754
121888000 -27.376661 -113.41512 -0.08831767 -24.573009 -0.085243203 -24.560003 -27.649324 -112.26136
122887000 -27.345699 -113.5858 -0.088920563 -24.780642 -0.08615195 -24.766195 -27.597647 -112.29627
123886000 -27.286922 -114.03794 -0.089738123 -24.980215 -0.086707011 -24.958641 -27.58415 -112.47704
124885000 -27.245466 -114.48334 -0.08996354 -25.179443 -0.087759763 -25.163321 -27.550877 -112.51266
125884000 -27.189926 -114.74256 -0.090811692 -25.377111 -0.087519929 -25.359325 -27.525448 -112.7219
126883000 -27.176552 -115.04343 -0.091039285 -25.578684 -0.08807569 -25.56254 -27.486109 -112.76297
127882000 -27.123682 -115.3453 -0.090915844 -25.779152 -0.088412777 -25.759706 -27.450264 -112.95379
128881000 -27.097839 -115.71208 -0.091490544 -25.976576 -0.088427566 -25.961864 -27.402664 -113.0393
129880000 -27.040787 -116.02032 -0.092223972 -26.179878 -0.088465609 -26.159956 -27.366516 -113.02163
130879000 -26.982899 -116.17777 -0.092477821 -26.377089 -0.090094365 -26.362858 -27.289646 -113.05805
131878000 -26.913534 -116.4057 -0.092369929 -26.581352 -0.089820571 -26.56155 -27.223196 -112.96838
132877000 -26.847687 -116.47692 -0.092089653 -26.783413 -0.08955314 -26.765484 -27.141781 -112.99861
133876000 -26.763882 -116.60873 -0.092513256 -26.982002 -0.0887734 -26.962822 -27.050423 -112.90902
134875000 -26.665615 -116.74603 -0.091982834 -27.187815 -0.090493456 -27.164063 -26.944548 -112.789
135874000 -26.587818 -116.78716 -0.092397429 -27.383654 -0.08998125 -27.363987 -26.8482 -112.78733
136873000 -26.470394 -116.70741 -0.092770025 -27.583784 -0.089666508 -27.562687 -26.760986 -112.75176
137872000 -26.393261 -116.83488 -0.092308849 -27.784449 -0.090407819 -27.769569 -26.654976 -112.70532
138871000 -26.323202 -117.01447 -0.093247384 -27.982731 -0.090523586 -27.969416 -26.557434 -112.88782
139870000 -26.222046 -117.2849 -0.093825035 -28.187035 -0.091876805 -28.168562 -26.479496 -113.05439
140869000 -26.139973 -117.7477 -0.095725715 -28.381191 -0.093018614 -28.362471 -26.373405 -113.19514
141868000 -26.039215 -118.22861 -0.095820718 -28.572315 -0.094020516 -28.554817 -26.299147 -113.52617
142867000 -25.964981 -118.49181 -0.094254896 -28.769936 -0.092981853 -28.751001 -26.218224 -113.72541
143866000 -25.89439 -119.00333 -0.096490823 -28.967731 -0.094091676 -28.953066 -26.148457 -114.19852
144865000 -25.837971 -119.51144 -0.097863384 -29.165291 -0.095273226 -29.150179 -26.092606 -114.52254
145864000 -25.782078 -119.8369 -0.097833201 -29.366838 -0.096459329 -29.350737 -26.060766 -114.78505
146863000 -25.732782 -120.21095 -0.098809473 -29.562824 -0.096909299 -29.550844 -26.005453 -115.1039
147862000 -25.694441 -120.57467 -0.099557638 -29.760197 -0.096936561 -29.747622 -25.969065 -115.43051
148861000 -25.65938 -121.11127 -0.099731922 -29.957371 -0.09807837 -29.942297 -25.94935 -115.6638
149860000 -25.646254 -121.2766 -0.10037694 -30.158913 -0.098379955 -30.146 -25.912462 -115.85506
150859000 -25.628525 -121.6617 -0.10104642 -30.356541 -0.099412501 -30.343195 -25.911186 -116.09553
151858000 -25.607599 -121.97098 -0.10070359 -30.55921 -0.098857403 -30.542093 -25.898697 -116.36005
152857000 -25.590271 -122.29242 -0.10066014 -30.749296 -0.0991413 -30.744621 -25.8771 -116.49968
153856000 -25.581999 -122.47942 -0.10087182 -30.952156 -0.097751126 -30.938658 -25.894665 -116.7992
154855000 -25.573877 -122.6596 -0.10068663 -31.152172 -0.098466016 -31.140707 -25.885021 -117.01998
155854000 -25.59321 -122.85889 -0.10095475 -31.350788 -0.098994054 -31.334747 -25.878254 -117.2952
156853000 -25.576349 -123.61888 -0.099267624 -31.536995 -0.098431066 -31.526699 -25.872532 -117.57959
157852000 -25.579823 -123.84648 -0.10038356 -31.738913 -0.099683985 -31.728401 -25.863522 -117.91264
158851000 -25.575829 -124.05902 -0.10108405 -31.93552 -0.1002368 -31.927778 -25.84601 -118.1628
159850000 -25.559793 -124.22811 -0.10156682 -32.134468 -0.10076452 -32.126472 -25.842882 -118.37599
160849000 -25.540575 -124.30634 -0.10165771 -32.333755 -0.10158696 -32.327324 -25.809559 -118.66319
161848000 -25.521744 -124.43674 -0.10195795 -32.534145 -0.10111955 -32.523491 -25.776112 -118.75105
162847000 -25.482391 -124.62602 -0.10180584 -32.733433 -0.10189197 -32.728558 -25.74506 -119.00658
163846000 -25.439594 -124.86555 -0.10200354 -32.931828 -0.10134927 -32.923161 -25.666798 -119.00802
164845000 -25.373161 -124.86975 -0.10308757 -33.132 -0.1018448 -33.12096 -25.59738 -119.12714
165844000 -25.321918 -124.9343 -0.10309393 -33.332603 -0.10252193 -33.323193 -25.520128 -119.2521
166843000 -25.258133 -125.01772 -0.10272602 -33.530766 -0.10260303 -33.523895 -25.451382 -119.44687
167842000 -25.200079 -125.14342 -0.10355678 -33.725391 -0.10247105 -33.720745 -25.372036 -119.35703
168841000 -25.126762 -125.33588 -0.10355572 -33.924007 -0.10302554 -33.92289 -25.291401 -119.46393
169840000 -25.063379 -125.63152 -0.10353823 -34.123882 -0.10319042 -34.116882 -25.205378 -119.6517
170839000 -24.999739 -125.89882 -0.10469848 -34.315979 -0.10395712 -34.312 -25.121355 -119.82182
171838000 -24.943371 -126.30509 -0.10395844 -34.520988 -0.10493582 -34.511292 -25.056339 -120.05462
172837000 -24.870543 -126.67478 -0.10524981 -34.713867 -0.1056755 -34.707947 -24.988905 -120.29504
173836000 -24.806616 -127.0898 -0.10696633 -34.914074 -0.10658748 -34.907234 -24.945768 -120.5369
174835000 -24.753099 -127.52338 -0.10744604 -35.105942 -0.10723404 -35.108124 -24.895634 -120.84057
175834000 -24.703867 -127.92901 -0.10802507 -35.306225 -0.10789583 -35.302567 -24.835052 -121.12593
176833000 -24.645596 -128.28088 -0.10880216 -35.504562 -0.10871617 -35.501358 -24.785435 -121.28882
177832000 -24.60836 -128.76729 -0.10956454 -35.700138 -0.10867476 -35.698269 -24.760447 -121.43884
178831000 -24.568979 -129.14256 -0.11002914 -35.896217 -0.10913184 -35.892609 -24.727488 -121.69319
179830000 -24.529554 -129.58681 -0.11116404 -36.093925 -0.1093519 -36.092407 -24.69529 -121.83391
180829000 -24.492971 -129.77716 -0.11118741 -36.291321 -0.11024553 -36.290951 -24.670902 -121.98651
181828000 -24.467012 -130.14175 -0.1104922 -36.487221 -0.11049008 -36.485104 -24.651417 -122.09426
182827000 -24.441904 -130.49437 -0.11055645 -36.679752 -0.11050866 -36.684624 -24.635357 -122.19186
183826000 -24.404949 -130.77945 -0.11193214 -36.882168 -0.11075933 -36.877644 -24.632313 -122.29858
184825000 -24.406996 -131.13266 -0.11202724 -37.070103 -0.11133295 -37.079273 -24.614077 -122.39391
185824000 -24.38032 -131.49774 -0.11143759 -37.268852 -0.11180146 -37.27383 -24.611563 -122.44411
186823000 -24.363214 -131.81691 -0.11178924 -37.471794 -0.11152762 -37.469791 -24.610262 -122.4231
187822000 -24.344404 -132.12611 -0.11252424 -37.665329 -0.11194223 -37.665676 -24.570776 -122.49756
188821000 -24.326317 -132.37794 -0.11256675 -37.859241 -0.11257658 -37.865864 -24.55941 -122.63457
189820000 -24.310404 -132.65852 -0.11306117 -38.060909 -0.11262386 -38.063736 -24.546974 -122.74125
190819000 -24.279474 -132.89622 -0.11458807 -38.262421 -0.11345121 -38.257915 -24.518314 -122.703
191818000 -24.248003 -133.08333 -0.11562527 -38.455502 -0.11470927 -38.454998 -24.485142 -122.61265
192817000 -24.175816 -133.3548 -0.11563936 -38.639919 -0.11534933 -38.641605 -24.409719 -122.69722
193816000 -24.134668 -133.72581 -0.11552585 -38.836494 -0.11405016 -38.833199 -24.354151 -122.96323
194815000 -24.085081 -134.16118 -0.11498649 -39.030846 -0.11486502 -39.032661 -24.296316 -123.08474
195814000 -24.029076 -134.38588 -0.11495513 -39.227692 -0.11407541 -39.231594 -24.241137 -123.16954
196813000 -23.97794 -134.71405 -0.1144791 -39.422947 -0.11451126 -39.425571 -24.161541 -123.3598
197812000 -23.921467 -134.93987 -0.1151707 -39.626148 -0.11479166 -39.621162 -24.092611 -123.4559
198811000 -23.86692 -135.15343 -0.11495646 -39.821404 -0.1144015 -39.822174 -24.025021 -123.64582
199810000 -23.796724 -135.51364 -0.11478103 -40.013439 -0.11429041 -40.00843 -23.947245 -123.74795
200809000 -23.739635 -135.77641 -0.11610276 -40.20731 -0.11483844 -40.210854 -23.871502 -123.92934
201808000 -23.682386 -136.01567 -0.11601395 -40.410545 -0.11549527 -40.41198 -23.805023 -123.98862
202807000 -23.625793 -136.3698 -0.11708447 -40.608173 -0.11576936 -40.611015 -23.747561 -124.21541
203806000 -23.575735 -136.81587 -0.11864897 -40.813114 -0.11659465 -40.810543 -23.683836 -124.41478
