!Keysight Technologies,E5080B,MY59205177,A.15.75.32
!Date: Friday, February 23, 2024 03:39:16
!Correction: S11(Cdelta 2-Port  ) 
!S21(Cdelta 2-Port  ) 
!S12(Cdelta 2-Port  ) 
!S22(Cdelta 2-Port  ) 
!S2P File: Measurements: S11, S21, S12, S22:
# Hz S  dB   R 50
10000000 -46.060642 -3.1009445 -0.015006365 -2.0439112 -0.018749239 -2.0987251 -45.838242 -157.70738
10999000 -45.297306 -4.6492996 -0.015648529 -2.2616506 -0.017629649 -2.317023 -45.850914 -151.17601
11998000 -44.36412 -7.9916167 -0.015783364 -2.4830911 -0.017753111 -2.5290492 -45.973808 -147.28462
12997000 -43.619259 -13.467797 -0.015578125 -2.6623974 -0.017306851 -2.6986008 -45.610397 -141.31755
13996000 -43.309597 -17.538591 -0.014339883 -2.8472166 -0.017873455 -2.8687682 -45.390282 -136.12575
14995000 -42.94952 -21.633284 -0.016746817 -3.0582573 -0.017654082 -3.0802612 -45.056641 -133.01471
15994000 -42.740658 -26.212009 -0.018419856 -3.2779384 -0.019551869 -3.2977951 -44.98159 -129.32942
16993000 -42.654503 -30.999426 -0.017002007 -3.4711146 -0.018862851 -3.4785337 -44.105358 -129.21687
17992000 -42.707943 -36.120392 -0.017759869 -3.6733022 -0.01999186 -3.6717489 -43.56245 -128.86609
18991000 -42.982857 -41.488319 -0.018510584 -3.8803911 -0.020296132 -3.8819277 -42.92585 -127.85273
19990000 -42.717522 -47.263313 -0.021293364 -4.0900688 -0.022127688 -4.0861492 -42.209637 -128.65634
20989000 -42.515163 -50.681938 -0.022978567 -4.2928305 -0.024948716 -4.2864647 -41.719505 -128.24196
21988000 -42.375668 -55.984127 -0.023974331 -4.4913678 -0.024876859 -4.4779549 -41.429634 -127.54347
22987000 -42.046989 -60.765934 -0.025110658 -4.6918535 -0.026090505 -4.6803341 -41.173908 -126.88915
23986000 -41.928112 -64.806702 -0.024769859 -4.8835664 -0.025458513 -4.8809314 -41.022282 -126.92303
24985000 -41.548084 -67.534805 -0.025816813 -5.0962195 -0.025455389 -5.092257 -40.837627 -124.41817
25984000 -41.184441 -69.951508 -0.027082296 -5.2965307 -0.026157172 -5.3035593 -40.538204 -122.78604
26983000 -40.911446 -71.710922 -0.027711919 -5.5016599 -0.026414219 -5.5172334 -40.389374 -122.18652
27982000 -40.704838 -72.606743 -0.029023819 -5.7010908 -0.027490485 -5.7342916 -40.153805 -120.77742
28981000 -40.67704 -73.995781 -0.026759835 -5.8924689 -0.02756525 -5.9198337 -39.922688 -119.70921
29980000 -40.253632 -75.286201 -0.027053643 -6.0907545 -0.028808052 -6.0969348 -39.636284 -119.24316
30979000 -39.895275 -74.128456 -0.024090424 -6.4426394 -0.023702074 -6.4358058 -39.129025 -119.42728
31978000 -39.668396 -75.335396 -0.023363989 -6.6402769 -0.024727944 -6.6289701 -38.897327 -118.85324
32977000 -39.454628 -76.774139 -0.02361254 -6.8500977 -0.0250539 -6.8466325 -38.644806 -118.899
33976000 -39.307438 -77.847733 -0.024217712 -7.0522957 -0.025678802 -7.0460582 -38.366817 -118.18394
34975000 -39.013733 -78.622986 -0.024109947 -7.2498174 -0.026170716 -7.2486782 -38.133053 -117.92826
35974000 -38.812042 -79.319237 -0.02296113 -7.4442773 -0.026234519 -7.4481649 -37.86895 -116.78752
36973000 -38.564266 -79.821846 -0.023738774 -7.6460624 -0.026399896 -7.6521163 -37.596466 -115.88306
37972000 -38.41264 -79.636505 -0.023318183 -7.8548961 -0.026392862 -7.8633909 -37.390289 -115.27118
38971000 -38.066311 -79.061081 -0.024234893 -8.0549459 -0.026957007 -8.0660763 -37.223373 -113.74859
39970000 -37.758427 -79.462654 -0.02293927 -8.2533693 -0.025081757 -8.267334 -36.959766 -113.10551
40969000 -37.482498 -79.116821 -0.023063142 -8.4480858 -0.024842493 -8.4658279 -36.743839 -111.62214
41968000 -37.124191 -78.867462 -0.022805775 -8.6513071 -0.025703019 -8.668973 -36.536919 -110.4458
42967000 -36.864891 -78.957214 -0.024097191 -8.8650799 -0.025849624 -8.8824635 -36.347794 -108.70429
43966000 -36.592369 -79.744751 -0.023866571 -9.0640697 -0.027208891 -9.0850315 -36.092285 -107.96426
44965000 -36.368153 -80.321632 -0.024545452 -9.2652445 -0.027428746 -9.2874718 -35.874107 -107.67897
45964000 -36.101185 -81.385628 -0.025663959 -9.4691238 -0.028579006 -9.4871483 -35.642292 -107.43375
46963000 -35.920429 -83.343933 -0.025601465 -9.6640406 -0.029377462 -9.682044 -35.460918 -107.5866
47962000 -35.745224 -84.70002 -0.026886942 -9.8621311 -0.03043413 -9.8798752 -35.258499 -107.64762
48961000 -35.557858 -86.159851 -0.029084278 -10.060454 -0.032009967 -10.084238 -35.04446 -107.80036
49960000 -35.293983 -87.462234 -0.030458894 -10.259968 -0.033376381 -10.282826 -34.900837 -107.79909
50959000 -35.067326 -88.703163 -0.031280119 -10.473324 -0.034166325 -10.483382 -34.720779 -108.12622
51958000 -34.873585 -89.695671 -0.033170309 -10.670727 -0.035547249 -10.682877 -34.535618 -108.54718
52957000 -34.661686 -90.77092 -0.034948848 -10.874312 -0.036819749 -10.880232 -34.391102 -108.36092
53956000 -34.492928 -91.333214 -0.035953626 -11.071834 -0.037587084 -11.073456 -34.256264 -108.33577
54955000 -34.328869 -91.841644 -0.036607508 -11.277178 -0.037223373 -11.27322 -34.099884 -108.25227
55954000 -34.153263 -92.774979 -0.038097322 -11.475972 -0.038234945 -11.471277 -33.997643 -107.97551
56953000 -34.035381 -92.906906 -0.03719883 -11.673615 -0.037702233 -11.66152 -33.916496 -108.20232
57952000 -33.857685 -93.373123 -0.038600307 -11.873114 -0.038628515 -11.865445 -33.812946 -108.30076
58951000 -33.747116 -93.693184 -0.039384149 -12.073516 -0.039254852 -12.054922 -33.662319 -108.32392
59950000 -33.614643 -94.150642 -0.039355416 -12.274868 -0.039651908 -12.255676 -33.592434 -108.6673
60949000 -33.502975 -94.666473 -0.040523469 -12.481256 -0.041177258 -12.456987 -33.488251 -108.87502
61948000 -33.429405 -94.973343 -0.041457672 -12.677873 -0.04042523 -12.664102 -33.397778 -108.95763
62947000 -33.342133 -95.184753 -0.041601151 -12.88662 -0.041542608 -12.870806 -33.259544 -109.1977
63946000 -33.26622 -95.999847 -0.042477287 -13.089861 -0.041882895 -13.067824 -33.153503 -109.35912
64945000 -33.166531 -96.029831 -0.043049537 -13.290455 -0.042696871 -13.269838 -33.042702 -109.88189
65944000 -33.056854 -96.374306 -0.043644875 -13.488465 -0.043018688 -13.472258 -32.944286 -110.3482
66943000 -32.917065 -96.744118 -0.041418731 -13.691132 -0.041519869 -13.674655 -32.844414 -110.51665
67942000 -32.859615 -96.733299 -0.043684356 -13.886649 -0.043588918 -13.877353 -32.720921 -110.8089
68941000 -32.74535 -96.765327 -0.043133985 -14.081153 -0.042279672 -14.070335 -32.614994 -110.85575
69940000 -32.650627 -96.809013 -0.043456879 -14.281381 -0.043794177 -14.269671 -32.474888 -111.07498
70939000 -32.543053 -96.761024 -0.043993697 -14.474298 -0.043341313 -14.468847 -32.348232 -110.94273
71938000 -32.400509 -96.347435 -0.043267585 -14.675135 -0.04291673 -14.666484 -32.215919 -110.84931
72937000 -32.251659 -96.136864 -0.042537149 -14.871764 -0.04253532 -14.863166 -32.088985 -110.52599
73936000 -32.121052 -95.718834 -0.042898431 -15.071052 -0.041892566 -15.066813 -31.968771 -110.35876
74935000 -31.989672 -95.992767 -0.042066902 -15.268256 -0.041667271 -15.264187 -31.808514 -110.02006
75934000 -31.85857 -96.22625 -0.04208912 -15.47668 -0.041680079 -15.470901 -31.732824 -109.91785
76933000 -31.73667 -96.536873 -0.04295307 -15.670628 -0.042532705 -15.661472 -31.553097 -110.29055
77932000 -31.646212 -97.380211 -0.044073712 -15.866516 -0.043676775 -15.860476 -31.455994 -110.22263
78931000 -31.569815 -98.069275 -0.043355431 -16.066839 -0.042968232 -16.062799 -31.359983 -110.07632
79930000 -31.446672 -98.977829 -0.045704473 -16.258698 -0.045514293 -16.255239 -31.260862 -110.34841
80929000 -31.336006 -99.708076 -0.047064211 -16.454704 -0.047021035 -16.452503 -31.159477 -110.61838
81928000 -31.235891 -100.45245 -0.047522698 -16.646805 -0.047882561 -16.642702 -31.044056 -110.5956
82927000 -31.133089 -101.18949 -0.048853688 -16.847723 -0.048647925 -16.844706 -30.925961 -110.87198
83926000 -31.012577 -101.86399 -0.049740717 -17.041424 -0.049781039 -17.046394 -30.80678 -111.07507
84925000 -30.905636 -102.21165 -0.051100146 -17.247105 -0.050200012 -17.24 -30.711962 -111.13079
85924000 -30.827623 -102.68328 -0.051996544 -17.444702 -0.051777795 -17.440155 -30.61783 -111.07365
86923000 -30.718596 -103.20095 -0.051686898 -17.640333 -0.051711258 -17.634398 -30.528683 -110.95262
87922000 -30.601791 -103.51351 -0.052093998 -17.847822 -0.051303405 -17.841658 -30.441294 -110.98349
88921000 -30.534739 -103.73505 -0.052597821 -18.044661 -0.052174166 -18.042624 -30.348003 -110.94958
89920000 -30.427835 -104.35292 -0.054131135 -18.24395 -0.052511621 -18.241346 -30.292339 -111.15203
90919000 -30.324516 -104.5519 -0.054908089 -18.442152 -0.053470418 -18.436787 -30.208138 -111.33092
91918000 -30.233669 -104.87988 -0.055491418 -18.641659 -0.054259568 -18.636816 -30.138741 -111.31243
92917000 -30.131907 -105.20036 -0.056091346 -18.840918 -0.055168416 -18.838591 -30.072193 -111.42738
93916000 -30.049536 -105.5901 -0.056583572 -19.033627 -0.05544816 -19.031437 -29.983002 -112.06391
94915000 -29.967945 -106.16817 -0.057326339 -19.238184 -0.056274123 -19.231268 -29.921429 -111.88731
95914000 -29.901943 -106.3503 -0.058589756 -19.42977 -0.056704998 -19.42605 -29.840378 -112.18419
96913000 -29.81715 -106.60607 -0.059456468 -19.633904 -0.058321618 -19.629272 -29.767412 -112.49668
97912000 -29.744631 -107.08926 -0.06070213 -19.824705 -0.058161054 -19.830563 -29.688635 -112.73084
98911000 -29.634893 -107.22449 -0.061025809 -20.030113 -0.059709456 -20.025976 -29.642025 -112.97781
99910000 -29.571684 -107.35303 -0.061087765 -20.228954 -0.05944125 -20.230246 -29.540861 -113.23251
100909000 -29.469797 -107.57602 -0.061043397 -20.436552 -0.059247583 -20.427879 -29.455915 -113.43909
101908000 -29.387142 -107.83229 -0.062081277 -20.638731 -0.060293958 -20.633055 -29.343699 -113.23772
102907000 -29.249035 -107.77576 -0.063150398 -20.83699 -0.060914502 -20.836473 -29.273827 -113.22036
103906000 -29.154423 -107.84878 -0.062992811 -21.045511 -0.061059676 -21.03697 -29.123882 -113.16012
104905000 -29.00869 -107.68684 -0.063500002 -21.239929 -0.06034619 -21.240587 -29.005524 -112.87129
105904000 -28.865528 -107.81842 -0.062917434 -21.442024 -0.061079364 -21.436464 -28.895638 -112.73229
106903000 -28.757145 -107.89077 -0.064129673 -21.651419 -0.061572678 -21.646988 -28.767509 -112.60348
107902000 -28.598463 -108.18797 -0.064459391 -21.849813 -0.061936334 -21.839987 -28.632275 -112.61433
108901000 -28.487465 -108.39822 -0.064986192 -22.051895 -0.063689917 -22.045633 -28.503756 -112.52944
109900000 -28.358555 -108.84976 -0.065773763 -22.250721 -0.064929701 -22.240856 -28.356512 -112.567
110899000 -28.241537 -109.48737 -0.067452922 -22.448305 -0.064694799 -22.442484 -28.229546 -112.87078
111898000 -28.155247 -110.1673 -0.068422645 -22.649965 -0.066198222 -22.644709 -28.109625 -113.01317
112897000 -28.030088 -110.69299 -0.069877639 -22.849987 -0.067555718 -22.838591 -27.9816 -113.15501
113896000 -27.917259 -111.27856 -0.07062979 -23.048876 -0.068716921 -23.040318 -27.870756 -113.28403
114895000 -27.817417 -111.90014 -0.071967088 -23.246433 -0.06956698 -23.236776 -27.763397 -113.40854
115894000 -27.699041 -112.25265 -0.07334508 -23.449192 -0.071142875 -23.437935 -27.694006 -113.58948
116893000 -27.619593 -112.74384 -0.073894821 -23.646677 -0.071788654 -23.630568 -27.568384 -113.62006
117892000 -27.541342 -113.20235 -0.073799506 -23.842445 -0.072265819 -23.830109 -27.494801 -113.84703
118891000 -27.48448 -113.66431 -0.075094327 -24.040329 -0.072731972 -24.028801 -27.396772 -113.91425
119890000 -27.389727 -114.00249 -0.075744651 -24.245386 -0.07334666 -24.23065 -27.381311 -114.08504
120889000 -27.336241 -114.50562 -0.076160334 -24.44775 -0.073233984 -24.42959 -27.312836 -114.00204
121888000 -27.301949 -114.84718 -0.076879583 -24.6425 -0.074149705 -24.627737 -27.254101 -114.29301
122887000 -27.263548 -115.03827 -0.077042155 -24.845612 -0.074985556 -24.835058 -27.203457 -114.28946
123886000 -27.208456 -115.42365 -0.078462087 -25.048082 -0.075010836 -25.028309 -27.194469 -114.45354
124885000 -27.175503 -115.92794 -0.078503467 -25.246307 -0.075716726 -25.234692 -27.161068 -114.47405
125884000 -27.11833 -116.14207 -0.078933127 -25.444828 -0.075526021 -25.432028 -27.134737 -114.64407
126883000 -27.102053 -116.52724 -0.079323813 -25.649803 -0.076575272 -25.63521 -27.089281 -114.65366
127882000 -27.054586 -116.79514 -0.079620935 -25.848248 -0.07657817 -25.831553 -27.056036 -114.79917
128881000 -27.022982 -117.14027 -0.07997714 -26.05061 -0.07655973 -26.03414 -27.015478 -114.87242
129880000 -26.967129 -117.43109 -0.080709681 -26.252228 -0.076988138 -26.232698 -26.976906 -114.82534
130879000 -26.913979 -117.58204 -0.080392964 -26.450853 -0.077669576 -26.432079 -26.901628 -114.86963
131878000 -26.846783 -117.83657 -0.081193358 -26.651869 -0.07835903 -26.635342 -26.84416 -114.73401
132877000 -26.778805 -117.91489 -0.080580987 -26.854994 -0.078501888 -26.839897 -26.762045 -114.67966
133876000 -26.69565 -118.10975 -0.080953889 -27.056198 -0.078287072 -27.038645 -26.681509 -114.62111
134875000 -26.602247 -118.19106 -0.080789849 -27.256287 -0.078312643 -27.238327 -26.580418 -114.41633
135874000 -26.522339 -118.22836 -0.081107378 -27.459862 -0.078557238 -27.437803 -26.484947 -114.35934
136873000 -26.409594 -118.12274 -0.082066439 -27.657427 -0.07778237 -27.64274 -26.406488 -114.37054
137872000 -26.334383 -118.26799 -0.08197464 -27.857882 -0.078994811 -27.847055 -26.300882 -114.25868
138871000 -26.262243 -118.48473 -0.081181228 -28.058405 -0.078711703 -28.04789 -26.211079 -114.42873
139870000 -26.161655 -118.77553 -0.081936389 -28.263039 -0.079547904 -28.243328 -26.12956 -114.56454
140869000 -26.077185 -119.29224 -0.08394298 -28.45537 -0.079782553 -28.434418 -26.02949 -114.79999
141868000 -26.002323 -119.69408 -0.083929785 -28.65613 -0.081682898 -28.638439 -25.977257 -115.02828
142867000 -25.923044 -119.91502 -0.083039962 -28.853998 -0.08078853 -28.836023 -25.900076 -115.14553
143866000 -25.855499 -120.37209 -0.085546009 -29.053104 -0.082362436 -29.0366 -25.8325 -115.60162
144865000 -25.79999 -120.89277 -0.0865013 -29.250662 -0.084233291 -29.234051 -25.772366 -115.89854
145864000 -25.736778 -121.2057 -0.08642076 -29.450943 -0.085379682 -29.439482 -25.739594 -116.16982
146863000 -25.692696 -121.57648 -0.087850362 -29.647568 -0.085494794 -29.638992 -25.69228 -116.46392
147862000 -25.655891 -121.91571 -0.088530071 -29.846718 -0.085568979 -29.835445 -25.66441 -116.75949
148861000 -25.621136 -122.34082 -0.089605995 -30.046061 -0.086992495 -30.031397 -25.637148 -116.92857
149860000 -25.594036 -122.53259 -0.090732135 -30.238911 -0.087486647 -30.226576 -25.58629 -117.03782
150859000 -25.567564 -122.98877 -0.089947954 -30.433701 -0.087529965 -30.422903 -25.564632 -117.37148
151858000 -25.557783 -123.34323 -0.089241333 -30.640612 -0.087237313 -30.622337 -25.559237 -117.73638
152857000 -25.540094 -123.68553 -0.089829296 -30.834784 -0.087721989 -30.824017 -25.539051 -117.88921
153856000 -25.54174 -123.88778 -0.089699008 -31.032887 -0.086779371 -31.022215 -25.556448 -118.21392
154855000 -25.535091 -124.02584 -0.089716978 -31.232796 -0.086756133 -31.22197 -25.550211 -118.46288
155854000 -25.559772 -124.28812 -0.090695918 -31.435902 -0.087607615 -31.421497 -25.537796 -118.74068
156853000 -25.541895 -125.00645 -0.08846429 -31.622259 -0.086051881 -31.613941 -25.537527 -119.04445
157852000 -25.543854 -125.21998 -0.089127183 -31.823839 -0.088026024 -31.813807 -25.524099 -119.39989
158851000 -25.542984 -125.41558 -0.089865498 -32.024574 -0.088695988 -32.014664 -25.508945 -119.68987
159850000 -25.537426 -125.50928 -0.090343855 -32.221218 -0.088500485 -32.213898 -25.510096 -119.82836
160849000 -25.520594 -125.61519 -0.090885706 -32.41888 -0.089478619 -32.4179 -25.479832 -120.12839
161848000 -25.501392 -125.6965 -0.090827815 -32.62196 -0.089152552 -32.616806 -25.441015 -120.2294
162847000 -25.463287 -125.89034 -0.091304697 -32.820705 -0.089766659 -32.818569 -25.40929 -120.50475
163846000 -25.418373 -126.0518 -0.090825178 -33.021152 -0.089830086 -33.012772 -25.337967 -120.52011
164845000 -25.362234 -126.0637 -0.091589421 -33.218842 -0.089664921 -33.215881 -25.272526 -120.59591
165844000 -25.309032 -126.10358 -0.09170866 -33.419823 -0.089805774 -33.4174 -25.198721 -120.72829
166843000 -25.251324 -126.14447 -0.091486312 -33.620255 -0.089928396 -33.61779 -25.132458 -120.8827
167842000 -25.19482 -126.24203 -0.091388501 -33.820332 -0.091037706 -33.814846 -25.05039 -120.79951
168841000 -25.11784 -126.43372 -0.092283465 -34.023056 -0.091022633 -34.016438 -24.976393 -120.88593
169840000 -25.053026 -126.62824 -0.092608452 -34.21455 -0.091676138 -34.213032 -24.894783 -121.06788
170839000 -24.98955 -126.86803 -0.093559213 -34.414871 -0.092220269 -34.40844 -24.811918 -121.24754
171838000 -24.932455 -127.24545 -0.093125723 -34.611843 -0.093214847 -34.608494 -24.748323 -121.46619
172837000 -24.866032 -127.58635 -0.095045671 -34.81152 -0.093704954 -34.805763 -24.685308 -121.66553
173836000 -24.800976 -127.97311 -0.096334405 -35.008907 -0.094673946 -35.00481 -24.642427 -121.89224
174835000 -24.743324 -128.41136 -0.096364573 -35.208458 -0.095326677 -35.207363 -24.599407 -122.20779
175834000 -24.693499 -128.73842 -0.097502798 -35.406654 -0.096541643 -35.404968 -24.539499 -122.46167
176833000 -24.644661 -129.05672 -0.099026099 -35.607021 -0.097355075 -35.603439 -24.487921 -122.56976
177832000 -24.603262 -129.49188 -0.099727154 -35.805496 -0.098160453 -35.805229 -24.468136 -122.70999
178831000 -24.555426 -129.74098 -0.10036237 -36.002747 -0.099689811 -35.9977 -24.429392 -122.77958
179830000 -24.481203 -130.1521 -0.10220098 -36.185276 -0.10062835 -36.189564 -24.365011 -122.86419
180829000 -24.428917 -130.49654 -0.10017614 -36.379852 -0.099442162 -36.381073 -24.32369 -123.17402
181828000 -24.409687 -130.90744 -0.099851646 -36.577076 -0.098818205 -36.575886 -24.306057 -123.39149
182827000 -24.386417 -131.2795 -0.09932033 -36.774124 -0.099111639 -36.773277 -24.29353 -123.49734
183826000 -24.347315 -131.60817 -0.10051178 -36.975018 -0.099540159 -36.96946 -24.285528 -123.665
184825000 -24.34794 -131.97275 -0.10077035 -37.171173 -0.099539101 -37.170513 -24.267565 -123.7668
185824000 -24.321728 -132.33496 -0.10081327 -37.363495 -0.1005751 -37.369843 -24.263628 -123.86864
186823000 -24.302326 -132.71738 -0.10100562 -37.568241 -0.10051496 -37.56271 -24.256577 -123.901
187822000 -24.28084 -133.02744 -0.10113916 -37.764423 -0.10075472 -37.762241 -24.218981 -123.92435
188821000 -24.257061 -133.2757 -0.10070942 -37.95752 -0.100835 -37.960819 -24.199789 -124.07613
189820000 -24.238333 -133.57791 -0.10104165 -38.159885 -0.10082864 -38.157841 -24.17988 -124.2846
190819000 -24.20368 -133.85374 -0.1019508 -38.355301 -0.10160392 -38.354939 -24.141735 -124.31966
191818000 -24.175385 -134.1573 -0.10248483 -38.551117 -0.10125468 -38.554565 -24.115034 -124.3566
192817000 -24.12735 -134.43063 -0.10234648 -38.747887 -0.10169693 -38.750992 -24.066414 -124.43546
193816000 -24.098581 -134.71275 -0.10246945 -38.945656 -0.1015541 -38.94297 -24.01503 -124.57835
194815000 -24.032822 -135.09213 -0.10286968 -39.140602 -0.10270905 -39.141155 -23.952211 -124.65669
195814000 -23.980993 -135.29976 -0.10399211 -39.339443 -0.10307485 -39.343674 -23.897707 -124.72316
196813000 -23.923622 -135.58202 -0.10343166 -39.53392 -0.10220549 -39.536873 -23.815676 -124.89272
197812000 -23.866468 -135.81464 -0.10374475 -39.732197 -0.10310321 -39.728439 -23.748636 -124.95695
198811000 -23.812468 -135.98129 -0.10405441 -39.925209 -0.10280951 -39.929901 -23.67746 -125.10942
199810000 -23.742298 -136.31995 -0.10379724 -40.125408 -0.10360821 -40.11797 -23.600447 -125.19774
200809000 -23.689228 -136.57956 -0.10445718 -40.324524 -0.10336008 -40.323162 -23.524418 -125.39613
201808000 -23.630243 -136.79092 -0.10472235 -40.518364 -0.10359125 -40.522736 -23.458452 -125.48203
202807000 -23.569038 -137.10881 -0.10586276 -40.7201 -0.10464386 -40.724091 -23.402567 -125.64223
