!Keysight Technologies,E5080B,MY59205177,A.15.75.32
!Date: Friday, February 23, 2024 03:39:23
!Correction: S11(Cdelta 2-Port  ) 
!S21(Cdelta 2-Port  ) 
!S12(Cdelta 2-Port  ) 
!S22(Cdelta 2-Port  ) 
!S2P File: Measurements: S11, S21, S12, S22:
# Hz S  dB   R 50
10000000 -46.098377 -2.514015 -0.014606879 -2.039263 -0.018558418 -2.0975897 -45.861187 -157.68527
10999000 -45.318237 -4.6931176 -0.015532142 -2.2620242 -0.017651742 -2.3113778 -45.838734 -151.25343
11998000 -44.372414 -8.0241947 -0.016185036 -2.4860957 -0.017182624 -2.5322859 -45.971416 -147.50606
12997000 -43.628994 -13.411787 -0.01590859 -2.6654334 -0.017457591 -2.6990716 -45.617702 -141.08386
13996000 -43.314297 -17.591755 -0.0141625 -2.8460951 -0.017320106 -2.8654418 -45.393421 -136.20427
14995000 -42.92627 -21.695032 -0.016407194 -3.0542026 -0.0168557 -3.0797398 -45.071449 -132.94713
15994000 -42.762745 -26.230194 -0.017624453 -3.2780743 -0.019197986 -3.2972035 -44.961399 -129.1049
16993000 -42.699718 -30.636446 -0.017155856 -3.4731755 -0.018806955 -3.4815276 -44.11483 -128.89713
17992000 -42.709286 -36.351124 -0.017397555 -3.6737471 -0.019732073 -3.6748886 -43.565208 -129.28496
18991000 -42.978222 -41.603783 -0.018421156 -3.8841548 -0.019817887 -3.8773751 -42.906807 -127.81969
19990000 -42.719631 -47.402515 -0.020969773 -4.0925088 -0.022662655 -4.082727 -42.275208 -128.81445
20989000 -42.54092 -50.402206 -0.023237245 -4.2926669 -0.024265608 -4.2819948 -41.706444 -128.2715
21988000 -42.355675 -55.896255 -0.024210162 -4.4931626 -0.02540097 -4.4803143 -41.448181 -127.36463
22987000 -42.029236 -60.631268 -0.025345249 -4.6918483 -0.02694164 -4.6845064 -41.16993 -127.05316
23986000 -41.933331 -64.838753 -0.024379626 -4.8843813 -0.025513975 -4.8825302 -41.061802 -126.86463
24985000 -41.550068 -67.516731 -0.02596212 -5.0951867 -0.026241552 -5.0891166 -40.813053 -124.5119
25984000 -41.228718 -69.600182 -0.026357183 -5.2978096 -0.026160819 -5.3006735 -40.551903 -122.78442
26983000 -40.880054 -71.54631 -0.028037317 -5.4984264 -0.026333222 -5.5128875 -40.414696 -122.18756
27982000 -40.705063 -72.437126 -0.028560504 -5.6987076 -0.028296037 -5.7303123 -40.148129 -120.7448
28981000 -40.665047 -73.81723 -0.026437659 -5.8992076 -0.027657732 -5.9186511 -39.897381 -119.81367
29980000 -40.252598 -75.561874 -0.026809843 -6.0877881 -0.029025383 -6.0969644 -39.64465 -119.01189
30979000 -39.872486 -74.382996 -0.024978137 -6.4439206 -0.023757253 -6.4343772 -39.146362 -119.45822
31978000 -39.674698 -75.308701 -0.023539664 -6.6378808 -0.024594132 -6.6264734 -38.896305 -118.77866
32977000 -39.457294 -76.791054 -0.023115451 -6.8508039 -0.024888575 -6.8463488 -38.637432 -118.7662
33976000 -39.290131 -77.790901 -0.024656873 -7.0502982 -0.025252035 -7.0445638 -38.359879 -118.16068
34975000 -39.00565 -78.662086 -0.024428306 -7.2511559 -0.026038682 -7.2458978 -38.126976 -117.96841
35974000 -38.794758 -79.290443 -0.023962619 -7.449585 -0.025559282 -7.4482479 -37.847553 -116.95636
36973000 -38.563896 -79.949051 -0.023983963 -7.6403656 -0.026502248 -7.6496949 -37.597984 -115.96622
37972000 -38.398663 -79.558754 -0.024075847 -7.85357 -0.026920542 -7.8650098 -37.391605 -115.27844
38971000 -38.081669 -79.1847 -0.025115345 -8.0571718 -0.026459536 -8.0700321 -37.216934 -113.77293
39970000 -37.730297 -79.33152 -0.022721983 -8.2536831 -0.025086965 -8.2674322 -36.950405 -113.17722
40969000 -37.468102 -79.008598 -0.023476942 -8.4478655 -0.025155179 -8.4646492 -36.727158 -111.76681
41968000 -37.134155 -79.018913 -0.023288514 -8.6508427 -0.02574911 -8.6674004 -36.533234 -110.57272
42967000 -36.845863 -79.009079 -0.023476159 -8.8638802 -0.026203528 -8.878706 -36.343864 -108.61415
43966000 -36.584641 -79.648331 -0.023934767 -9.066268 -0.027324548 -9.0826092 -36.066517 -107.89517
44965000 -36.353935 -80.40255 -0.024617823 -9.2649813 -0.026906217 -9.2873373 -35.880394 -107.73584
45964000 -36.107388 -81.566536 -0.025863945 -9.4646845 -0.02866786 -9.4865942 -35.621479 -107.33134
46963000 -35.912804 -83.364464 -0.026105089 -9.6616125 -0.029179137 -9.6795397 -35.455044 -107.53293
47962000 -35.755993 -84.848 -0.027779393 -9.8627872 -0.030596277 -9.8813677 -35.246723 -107.59652
48961000 -35.525467 -86.222496 -0.02983591 -10.057809 -0.031746332 -10.081833 -35.03175 -107.75209
49960000 -35.300884 -87.375298 -0.031116383 -10.260658 -0.032990329 -10.283198 -34.883247 -107.81067
50959000 -35.06675 -88.738411 -0.031072062 -10.474217 -0.034043442 -10.483796 -34.711395 -108.20042
51958000 -34.862328 -89.681305 -0.034013439 -10.666959 -0.035171445 -10.682585 -34.534012 -108.57288
52957000 -34.647358 -90.842644 -0.035553254 -10.871936 -0.036400501 -10.880093 -34.389114 -108.29607
53956000 -34.486088 -91.472649 -0.036257975 -11.072963 -0.037179247 -11.079182 -34.238091 -108.26022
54955000 -34.318562 -91.954353 -0.036746129 -11.279943 -0.038488787 -11.27203 -34.10146 -108.28948
55954000 -34.125427 -92.759819 -0.037755761 -11.472559 -0.038660116 -11.475392 -33.984406 -107.99637
56953000 -34.020554 -92.806992 -0.03732311 -11.671167 -0.037184469 -11.663261 -33.917828 -108.26588
57952000 -33.855785 -93.406479 -0.038761713 -11.872005 -0.039090291 -11.862573 -33.814255 -108.30711
58951000 -33.733494 -93.78653 -0.039703108 -12.074371 -0.039064955 -12.058849 -33.667805 -108.31731
59950000 -33.613121 -94.051353 -0.040069379 -12.280034 -0.040354423 -12.254169 -33.569374 -108.65258
60949000 -33.489746 -94.649033 -0.041214105 -12.477853 -0.040668227 -12.458514 -33.487373 -108.94076
61948000 -33.437092 -94.996025 -0.041425001 -12.676984 -0.040781368 -12.661281 -33.406464 -109.04343
62947000 -33.331512 -95.170952 -0.041122381 -12.889347 -0.041490339 -12.866108 -33.270844 -109.30294
63946000 -33.263569 -95.879433 -0.042166229 -13.088532 -0.042671252 -13.070188 -33.156231 -109.41966
64945000 -33.159012 -96.077827 -0.042869411 -13.289274 -0.043474395 -13.269713 -33.04594 -109.88437
65944000 -33.060825 -96.382278 -0.044072144 -13.488281 -0.043467075 -13.471171 -32.952847 -110.27294
66943000 -32.912315 -96.803673 -0.041619968 -13.691704 -0.042482253 -13.674127 -32.843296 -110.56201
67942000 -32.861271 -96.733536 -0.043746851 -13.887398 -0.043506294 -13.875364 -32.720345 -110.88221
68941000 -32.747921 -96.850052 -0.043112546 -14.082907 -0.042780787 -14.072895 -32.61232 -110.88316
69940000 -32.650085 -96.788467 -0.04329399 -14.281346 -0.043534271 -14.270093 -32.476826 -111.12281
70939000 -32.552162 -96.789452 -0.043605652 -14.47636 -0.043307848 -14.4711 -32.356743 -110.98727
71938000 -32.411919 -96.387825 -0.043238562 -14.669522 -0.043553621 -14.667328 -32.214661 -110.85564
72937000 -32.24968 -96.099884 -0.042197332 -14.871626 -0.042906534 -14.868659 -32.076633 -110.52099
73936000 -32.116467 -95.76062 -0.042642761 -15.069235 -0.042598058 -15.062454 -31.960585 -110.31701
74935000 -31.991543 -95.994881 -0.041862771 -15.265512 -0.041777305 -15.263558 -31.809938 -109.96075
75934000 -31.866615 -96.233971 -0.042322539 -15.476607 -0.041245203 -15.47342 -31.727814 -109.90202
76933000 -31.73344 -96.582558 -0.043012153 -15.666921 -0.042902876 -15.661563 -31.554834 -110.2359
77932000 -31.632547 -97.322121 -0.044081297 -15.865274 -0.044356927 -15.858364 -31.449635 -110.18018
78931000 -31.559696 -98.081741 -0.043165095 -16.063618 -0.0440154 -16.061941 -31.363205 -110.05789
79930000 -31.45388 -98.875092 -0.045423262 -16.258932 -0.045850709 -16.257168 -31.262272 -110.38371
80929000 -31.335384 -99.676003 -0.047230903 -16.455076 -0.04733349 -16.455669 -31.167717 -110.65773
81928000 -31.23247 -100.39067 -0.048049811 -16.645817 -0.04780928 -16.64481 -31.036678 -110.58784
82927000 -31.139849 -101.1596 -0.049517632 -16.846827 -0.048603948 -16.846043 -30.930826 -110.90939
83926000 -31.023207 -101.84401 -0.050724566 -17.042608 -0.049776066 -17.048105 -30.80978 -111.07355
84925000 -30.917358 -102.22736 -0.05161617 -17.243322 -0.050277784 -17.242525 -30.715921 -111.13389
85924000 -30.826006 -102.67504 -0.051709685 -17.440899 -0.051547013 -17.441162 -30.636486 -111.08757
86923000 -30.718363 -103.18703 -0.052107099 -17.64115 -0.051217228 -17.637047 -30.530491 -111.00092
87922000 -30.610424 -103.52226 -0.052612234 -17.846432 -0.051858746 -17.841114 -30.442984 -111.0189
88921000 -30.533655 -103.77863 -0.052893646 -18.046284 -0.052186482 -18.043652 -30.350689 -110.9945
89920000 -30.431593 -104.2495 -0.053571314 -18.246767 -0.053562403 -18.238249 -30.29542 -111.18424
90919000 -30.328295 -104.54604 -0.054816335 -18.443838 -0.053682957 -18.432915 -30.213652 -111.33151
91918000 -30.230879 -104.91817 -0.056257337 -18.642002 -0.054200593 -18.634602 -30.132809 -111.38772
92917000 -30.143648 -105.18463 -0.056759808 -18.843399 -0.055083737 -18.839369 -30.066141 -111.39957
93916000 -30.05097 -105.57215 -0.055877116 -19.036263 -0.055122796 -19.031036 -29.983322 -112.05202
94915000 -29.967094 -106.186 -0.057197813 -19.237358 -0.056422811 -19.231497 -29.920969 -111.91817
95914000 -29.9081 -106.3571 -0.05833552 -19.431175 -0.05735283 -19.428257 -29.828777 -112.21389
96913000 -29.822422 -106.5594 -0.059008002 -19.629688 -0.058254715 -19.627798 -29.76816 -112.53168
97912000 -29.737339 -107.03841 -0.060349077 -19.826687 -0.058177322 -19.829802 -29.689507 -112.76812
98911000 -29.637821 -107.21239 -0.06131722 -20.029789 -0.059567217 -20.028158 -29.644163 -112.94109
99910000 -29.562618 -107.30975 -0.061998304 -20.228634 -0.060082406 -20.226843 -29.5345 -113.24627
100909000 -29.47633 -107.56516 -0.061449803 -20.435728 -0.059202708 -20.434061 -29.44916 -113.43263
101908000 -29.383755 -107.80923 -0.062539518 -20.636484 -0.060559593 -20.6325 -29.342953 -113.2346
102907000 -29.243999 -107.78979 -0.062900625 -20.836945 -0.060939964 -20.835905 -29.265074 -113.20112
103906000 -29.148359 -107.84818 -0.063383639 -21.042891 -0.059908394 -21.037861 -29.121901 -113.18851
104905000 -29.009333 -107.68274 -0.063966535 -21.241079 -0.061189625 -21.238159 -28.99041 -112.82448
105904000 -28.867304 -107.82755 -0.063506834 -21.44548 -0.061255261 -21.436237 -28.88298 -112.70398
106903000 -28.756247 -107.86143 -0.06319873 -21.647364 -0.061452165 -21.647907 -28.757391 -112.64132
107902000 -28.59734 -108.22458 -0.064452559 -21.847839 -0.061503891 -21.841341 -28.630438 -112.60557
108901000 -28.487473 -108.44073 -0.065487839 -22.05225 -0.063274637 -22.046053 -28.50238 -112.5145
109900000 -28.360575 -108.94931 -0.06573014 -22.250055 -0.064162515 -22.241489 -28.354086 -112.60174
110899000 -28.236019 -109.46247 -0.067626968 -22.444849 -0.065100498 -22.444077 -28.227592 -112.90072
111898000 -28.149881 -110.13728 -0.068897597 -22.652122 -0.065985858 -22.643497 -28.106541 -112.96766
112897000 -28.028114 -110.6887 -0.070488505 -22.850348 -0.066302307 -22.837978 -27.977831 -113.17613
113896000 -27.915577 -111.25766 -0.070978418 -23.048571 -0.067975618 -23.04001 -27.872122 -113.31248
114895000 -27.814878 -111.90931 -0.072638787 -23.248175 -0.069070652 -23.235842 -27.758041 -113.35709
115894000 -27.691574 -112.27426 -0.07330849 -23.449797 -0.070911057 -23.438938 -27.692686 -113.57385
116893000 -27.617863 -112.73412 -0.073851906 -23.648186 -0.071941823 -23.630802 -27.564148 -113.63232
117892000 -27.533907 -113.22697 -0.073648907 -23.847223 -0.071874976 -23.831053 -27.493685 -113.81337
118891000 -27.478071 -113.65847 -0.074851766 -24.04318 -0.072340563 -24.030313 -27.397474 -113.95075
119890000 -27.391743 -114.04052 -0.07592272 -24.243345 -0.072974153 -24.227949 -27.384336 -114.10036
120889000 -27.337643 -114.49192 -0.076493859 -24.444963 -0.07269486 -24.431591 -27.311344 -114.01433
121888000 -27.297853 -114.83653 -0.076542072 -24.644106 -0.074181303 -24.631245 -27.248297 -114.32239
122887000 -27.261463 -115.04005 -0.077671424 -24.846193 -0.073835053 -24.832495 -27.204813 -114.30406
123886000 -27.205254 -115.43117 -0.078124717 -25.048239 -0.074841231 -25.027512 -27.190687 -114.41924
124885000 -27.175365 -115.92626 -0.078391977 -25.247057 -0.074845448 -25.23064 -27.160156 -114.51584
125884000 -27.115639 -116.13754 -0.078813188 -25.445896 -0.075086161 -25.431078 -27.132532 -114.66139
126883000 -27.097368 -116.51568 -0.078890689 -25.649605 -0.076783679 -25.633791 -27.091663 -114.67831
127882000 -27.050785 -116.81663 -0.079639129 -25.84791 -0.077227131 -25.828638 -27.050144 -114.82738
128881000 -27.018761 -117.12676 -0.080118999 -26.04932 -0.077085368 -26.034445 -27.010546 -114.91832
129880000 -26.966387 -117.45254 -0.081038013 -26.25305 -0.076944664 -26.231741 -26.973528 -114.81371
130879000 -26.902599 -117.58056 -0.080726027 -26.450335 -0.077856421 -26.433292 -26.899685 -114.88081
131878000 -26.840672 -117.81769 -0.0808447 -26.65313 -0.078012705 -26.634645 -26.843166 -114.72865
132877000 -26.779373 -117.90382 -0.080030926 -26.85321 -0.078488179 -26.836281 -26.761221 -114.72346
133876000 -26.696688 -118.06333 -0.081767045 -27.055946 -0.077982664 -27.035601 -26.674526 -114.59429
134875000 -26.60051 -118.19505 -0.081357941 -27.255291 -0.078834802 -27.238914 -26.57258 -114.4295
135874000 -26.519928 -118.22645 -0.081464231 -27.456762 -0.078167677 -27.439882 -26.476358 -114.36084
136873000 -26.408535 -118.11826 -0.082127646 -27.658232 -0.078211434 -27.639959 -26.401182 -114.35759
137872000 -26.333605 -118.27547 -0.080782466 -27.86265 -0.078745708 -27.841019 -26.301929 -114.24824
138871000 -26.250969 -118.52519 -0.081483223 -28.060926 -0.078976884 -28.046032 -26.209591 -114.4064
139870000 -26.153315 -118.77045 -0.082187794 -28.260679 -0.079903841 -28.24181 -26.128111 -114.55331
140869000 -26.078238 -119.30399 -0.083066083 -28.457792 -0.08053194 -28.436165 -26.029993 -114.77868
141868000 -26.000429 -119.69728 -0.083928727 -28.658863 -0.081326552 -28.640249 -25.982643 -115.01978
142867000 -25.921736 -119.89706 -0.082450546 -28.852219 -0.080750816 -28.838291 -25.90436 -115.15288
143866000 -25.851791 -120.37936 -0.085026205 -29.051682 -0.08243604 -29.033291 -25.826719 -115.57933
144865000 -25.79604 -120.86747 -0.086187333 -29.248592 -0.083631046 -29.23612 -25.770864 -115.924
145864000 -25.735781 -121.23125 -0.086371645 -29.448999 -0.084961265 -29.439482 -25.741343 -116.16664
146863000 -25.694164 -121.56741 -0.087393142 -29.648188 -0.085290723 -29.639788 -25.688004 -116.46448
147862000 -25.656513 -121.89728 -0.088762037 -29.848848 -0.085481592 -29.834574 -25.66099 -116.7348
148861000 -25.623455 -122.33108 -0.088984504 -30.048618 -0.087389976 -30.032707 -25.639984 -116.89861
149860000 -25.59185 -122.51453 -0.090400949 -30.237381 -0.087964214 -30.226213 -25.584326 -117.03259
150859000 -25.570858 -123.01157 -0.08947783 -30.437546 -0.0877764 -30.424732 -25.56476 -117.38117
151858000 -25.558096 -123.33971 -0.088644736 -30.639727 -0.087594941 -30.619024 -25.555889 -117.71838
152857000 -25.547939 -123.65614 -0.08974684 -30.837294 -0.087228335 -30.823278 -25.544889 -117.92256
153856000 -25.542418 -123.89456 -0.089568995 -31.035223 -0.086912736 -31.026579 -25.560335 -118.25239
154855000 -25.538033 -124.02136 -0.089340419 -31.231153 -0.087272182 -31.223957 -25.548567 -118.44579
155854000 -25.550943 -124.28104 -0.089912012 -31.434866 -0.087925911 -31.425459 -25.540556 -118.74257
156853000 -25.539684 -125.00032 -0.088198788 -31.62126 -0.086971097 -31.615173 -25.536232 -119.0439
157852000 -25.550863 -125.22331 -0.088995866 -31.822491 -0.088708669 -31.812174 -25.522585 -119.39709
158851000 -25.544241 -125.45239 -0.089524604 -32.023388 -0.08895465 -32.013313 -25.506926 -119.709
159850000 -25.53307 -125.54135 -0.090264834 -32.222534 -0.088657677 -32.213863 -25.506266 -119.84695
160849000 -25.522963 -125.62195 -0.090308972 -32.42329 -0.089302108 -32.415207 -25.474804 -120.12977
161848000 -25.503502 -125.67588 -0.090962894 -32.622246 -0.08927463 -32.615738 -25.441389 -120.25997
162847000 -25.460947 -125.8835 -0.090483941 -32.818501 -0.08978992 -32.817738 -25.413471 -120.49798
163846000 -25.419996 -126.06384 -0.090684816 -33.020615 -0.090191096 -33.014263 -25.335224 -120.50005
164845000 -25.370247 -126.04348 -0.09195216 -33.222584 -0.090332225 -33.215458 -25.275949 -120.57527
165844000 -25.316406 -126.07307 -0.091769993 -33.421329 -0.090357602 -33.414551 -25.194695 -120.71093
166843000 -25.249554 -126.10858 -0.092037827 -33.619785 -0.090992503 -33.616722 -25.129129 -120.85223
167842000 -25.195335 -126.22581 -0.09169279 -33.819706 -0.090779975 -33.812214 -25.054707 -120.79631
168841000 -25.114645 -126.40399 -0.093036331 -34.019451 -0.091166966 -34.016121 -24.981167 -120.88657
169840000 -25.050741 -126.62674 -0.092424668 -34.212708 -0.091699407 -34.208298 -24.899517 -121.07871
170839000 -24.994522 -126.87022 -0.09370257 -34.410801 -0.092635952 -34.407688 -24.811131 -121.22829
171838000 -24.934858 -127.23164 -0.093496263 -34.615391 -0.092642829 -34.611271 -24.753826 -121.46246
172837000 -24.865562 -127.5878 -0.094989583 -34.809982 -0.094089292 -34.805904 -24.682539 -121.63503
173836000 -24.798771 -127.97558 -0.096421212 -35.011604 -0.094840623 -35.004517 -24.641533 -121.88283
174835000 -24.746195 -128.40918 -0.09687674 -35.205616 -0.095959388 -35.205898 -24.59774 -122.20393
175834000 -24.690145 -128.76463 -0.097244419 -35.408047 -0.096726656 -35.402985 -24.542189 -122.45875
176833000 -24.637529 -129.09541 -0.098383933 -35.602554 -0.097271949 -35.603523 -24.49011 -122.6001
177832000 -24.600855 -129.50014 -0.098850518 -35.805851 -0.098908246 -35.802551 -24.475594 -122.70431
178831000 -24.558193 -129.75664 -0.10117943 -35.999203 -0.10016528 -35.999718 -24.433743 -122.77757
179830000 -24.486549 -130.15822 -0.10188323 -36.183628 -0.10052343 -36.185005 -24.370852 -122.83356
180829000 -24.431402 -130.49864 -0.10133762 -36.379181 -0.099793375 -36.380646 -24.32304 -123.20908
181828000 -24.410261 -130.91269 -0.10046171 -36.578217 -0.098967567 -36.579063 -24.306046 -123.40026
182827000 -24.387745 -131.29445 -0.1003764 -36.773331 -0.099948063 -36.776493 -24.295059 -123.53907
183826000 -24.346359 -131.65602 -0.10096641 -36.972755 -0.10005958 -36.972885 -24.284679 -123.68422
184825000 -24.349548 -131.95673 -0.10034064 -37.169636 -0.10064371 -37.17091 -24.270735 -123.7927
185824000 -24.317263 -132.34726 -0.10038409 -37.366837 -0.10041959 -37.366283 -24.264177 -123.8511
186823000 -24.303122 -132.6869 -0.10072796 -37.566418 -0.10029481 -37.564137 -24.252071 -123.89667
187822000 -24.277388 -133.02486 -0.10141207 -37.76376 -0.10066888 -37.76178 -24.219538 -123.97951
188821000 -24.253723 -133.29936 -0.10121229 -37.958748 -0.10092534 -37.962627 -24.197115 -124.09868
189820000 -24.237755 -133.57841 -0.10176318 -38.157593 -0.10035522 -38.156929 -24.180063 -124.27121
190819000 -24.199415 -133.89059 -0.10235152 -38.356014 -0.10119745 -38.35519 -24.139957 -124.34327
191818000 -24.170101 -134.16896 -0.10225372 -38.553757 -0.10169984 -38.553696 -24.113525 -124.34004
192817000 -24.126568 -134.46333 -0.10258077 -38.747093 -0.10196485 -38.753044 -24.065432 -124.45878
193816000 -24.095903 -134.69363 -0.10290891 -38.948139 -0.10156894 -38.947124 -24.016851 -124.58469
194815000 -24.032328 -135.10251 -0.10330706 -39.142315 -0.1021371 -39.144348 -23.949121 -124.64108
195814000 -23.977476 -135.29001 -0.10466374 -39.336372 -0.10318884 -39.343273 -23.896271 -124.73241
196813000 -23.923269 -135.59824 -0.10353478 -39.531033 -0.10282356 -39.533558 -23.813513 -124.8721
197812000 -23.865156 -135.81139 -0.10423286 -39.730953 -0.10338368 -39.727039 -23.741795 -124.97173
198811000 -23.813282 -135.98529 -0.10355042 -39.926193 -0.10277347 -39.931969 -23.678377 -125.12983
199810000 -23.741055 -136.31369 -0.10433441 -40.122265 -0.10279123 -40.122623 -23.598475 -125.22413
200809000 -23.684376 -136.57851 -0.10445718 -40.319901 -0.10339931 -40.320683 -23.518465 -125.40478
201808000 -23.624609 -136.7471 -0.10538534 -40.521435 -0.10485043 -40.519268 -23.454695 -125.4691
202807000 -23.570599 -137.12982 -0.10601024 -40.721867 -0.10520235 -40.721607 -23.399258 -125.66185
