!Keysight Technologies,E5080B,MY59205177,A.15.75.32
!Date: Friday, February 23, 2024 03:01:04
!Correction: S11(Cdelta 2-Port  ) 
!S21(Cdelta 2-Port  ) 
!S12(Cdelta 2-Port  ) 
!S22(Cdelta 2-Port  ) 
!S2P File: Measurements: S11, S21, S12, S22:
# Hz S  dB   R 50
10000000 -44.118679 -4.235045 -0.027646009 -2.036536 -0.03077407 -2.0919061 -48.05051 -150.23029
10999000 -43.482746 -5.6355252 -0.028074574 -2.2532389 -0.03037261 -2.3093686 -47.759415 -143.05495
11998000 -42.747391 -7.6775298 -0.028275974 -2.479552 -0.030654671 -2.5224936 -47.969883 -137.52388
12997000 -42.096584 -12.890094 -0.028039923 -2.656903 -0.029788995 -2.691889 -47.235291 -130.84805
13996000 -41.838333 -15.995289 -0.026981231 -2.8386931 -0.03022168 -2.8567362 -46.783169 -125.11098
14995000 -41.559696 -19.910395 -0.029147604 -3.0461876 -0.029786387 -3.0736613 -46.405312 -121.84374
15994000 -41.371246 -23.596054 -0.031012096 -3.2661707 -0.032689337 -3.2869768 -46.117722 -118.47766
16993000 -41.392548 -27.547401 -0.029043103 -3.4623795 -0.031406574 -3.4716699 -45.257412 -119.28117
17992000 -41.493149 -32.320049 -0.029498128 -3.6565218 -0.032184169 -3.6621661 -44.644135 -119.87365
18991000 -41.743679 -36.686813 -0.030307181 -3.8663085 -0.033303078 -3.8699498 -43.896152 -119.53159
19990000 -41.585552 -41.823738 -0.033908561 -4.0797606 -0.034695733 -4.0726147 -43.243202 -120.94389
20989000 -41.52182 -44.864307 -0.034965288 -4.2808762 -0.037015289 -4.2734623 -42.65432 -120.69347
21988000 -41.424831 -49.499805 -0.036249362 -4.4766598 -0.037863083 -4.4676018 -42.393101 -120.14655
22987000 -41.22963 -53.527962 -0.037237734 -4.6774869 -0.039331645 -4.6672702 -42.065796 -119.71706
23986000 -41.20681 -57.492996 -0.036558431 -4.8674893 -0.037664112 -4.8697114 -41.938103 -119.85926
24985000 -40.899456 -60.022598 -0.037392039 -5.0785842 -0.038260277 -5.0767641 -41.681362 -117.01243
25984000 -40.626953 -62.342667 -0.038468938 -5.2868285 -0.038601875 -5.2882328 -41.36974 -116.1079
26983000 -40.356133 -64.351501 -0.039928563 -5.4837356 -0.039236043 -5.4985437 -41.203125 -115.04349
27982000 -40.206509 -65.193062 -0.040780585 -5.6835165 -0.041406449 -5.7151895 -40.904392 -113.61504
28981000 -40.177273 -66.559044 -0.038838763 -5.8796387 -0.040961411 -5.9052978 -40.69825 -113.09981
29980000 -39.802776 -68.120384 -0.038884994 -6.0708847 -0.041285187 -6.0800381 -40.334053 -112.15394
30979000 -39.4431 -67.417221 -0.036909815 -6.4216523 -0.035705149 -6.4140029 -39.877083 -113.04552
31978000 -39.265541 -68.684509 -0.035418324 -6.6209974 -0.036933836 -6.6110144 -39.595921 -112.55031
32977000 -39.086475 -70.122093 -0.035611454 -6.8340139 -0.037927061 -6.827755 -39.326351 -112.69702
33976000 -38.963531 -71.258888 -0.036194548 -7.0309706 -0.038392682 -7.0235782 -39.03162 -112.15346
34975000 -38.677746 -72.278252 -0.036103189 -7.2302537 -0.038643662 -7.2288847 -38.791451 -112.01945
35974000 -38.49543 -72.959648 -0.03569445 -7.4273815 -0.037988167 -7.4233766 -38.487434 -111.3255
36973000 -38.284 -73.763451 -0.035769355 -7.6202917 -0.039210182 -7.6252265 -38.181221 -110.42156
37972000 -38.112278 -73.753685 -0.036056206 -7.8339477 -0.038737424 -7.8419838 -37.954906 -109.8914
38971000 -37.801918 -73.423248 -0.037154969 -8.0369511 -0.03914671 -8.0414248 -37.788273 -108.45006
39970000 -37.477383 -73.902664 -0.035744037 -8.229249 -0.03752755 -8.2424383 -37.483299 -108.02316
40969000 -37.181049 -73.914215 -0.034991905 -8.4208784 -0.037985031 -8.4413462 -37.217804 -106.58366
41968000 -36.835945 -74.040558 -0.035130735 -8.6283903 -0.03863661 -8.6434031 -36.991905 -105.59561
42967000 -36.579819 -74.269119 -0.035539683 -8.8425598 -0.038023159 -8.8594704 -36.770893 -103.73412
43966000 -36.309692 -75.121399 -0.037241649 -9.0373545 -0.039700497 -9.0552349 -36.48856 -103.19582
44965000 -36.097511 -76.068604 -0.03773905 -9.2440004 -0.039051112 -9.2643805 -36.282757 -103.03748
45964000 -35.860413 -77.258324 -0.037991822 -9.4367542 -0.040841728 -9.4586754 -36.027977 -102.97278
46963000 -35.697376 -79.138565 -0.038193163 -9.6334515 -0.041511245 -9.655406 -35.846066 -103.2923
47962000 -35.54966 -80.683723 -0.039865341 -9.8347464 -0.042764317 -9.8520737 -35.635464 -103.47089
48961000 -35.36013 -82.101753 -0.041965488 -10.030664 -0.04469613 -10.052575 -35.418026 -103.76926
49960000 -35.142654 -83.551094 -0.043115683 -10.230022 -0.045460407 -10.252864 -35.280151 -104.02651
50959000 -34.945534 -84.92894 -0.043441713 -10.44167 -0.046281073 -10.454305 -35.102848 -104.3058
51958000 -34.738064 -86.033951 -0.045601666 -10.639911 -0.047007427 -10.652475 -34.915741 -104.91858
52957000 -34.529099 -87.175301 -0.047163129 -10.838327 -0.048112627 -10.845354 -34.742016 -104.74228
53956000 -34.381485 -87.946243 -0.04853458 -11.044016 -0.049562927 -11.042794 -34.611614 -104.72552
54955000 -34.217255 -88.420723 -0.049128052 -11.241394 -0.05021834 -11.23939 -34.463726 -104.78651
55954000 -34.054211 -89.393227 -0.050274383 -11.445972 -0.050746564 -11.441908 -34.352097 -104.50774
56953000 -33.957241 -89.426613 -0.050054938 -11.64336 -0.048955522 -11.629295 -34.287956 -104.71049
57952000 -33.779057 -89.954559 -0.050878827 -11.839166 -0.050728757 -11.828187 -34.18895 -104.87183
58951000 -33.676266 -90.329491 -0.051972963 -12.037291 -0.051807921 -12.01873 -34.030415 -105.01334
59950000 -33.55402 -90.823311 -0.052442189 -12.243252 -0.052129366 -12.219848 -33.964611 -105.19978
60949000 -33.446739 -91.390701 -0.052970685 -12.441297 -0.052767087 -12.42379 -33.876354 -105.54052
61948000 -33.387283 -91.686745 -0.053600665 -12.640463 -0.053107731 -12.624121 -33.785675 -105.6709
62947000 -33.302048 -91.83239 -0.053280946 -12.85341 -0.053567119 -12.831809 -33.6506 -105.8502
63946000 -33.235851 -92.622314 -0.054238338 -13.052224 -0.054876894 -13.029731 -33.551849 -106.07037
64945000 -33.123932 -92.792511 -0.055469133 -13.250524 -0.055027895 -13.233974 -33.440662 -106.63691
65944000 -33.03067 -93.036415 -0.055994589 -13.452728 -0.055183358 -13.431112 -33.344749 -107.05932
66943000 -32.887897 -93.497147 -0.05358468 -13.652335 -0.053456526 -13.634449 -33.24855 -107.3167
67942000 -32.837254 -93.459015 -0.055694357 -13.848604 -0.055170774 -13.837066 -33.117271 -107.59135
68941000 -32.729565 -93.634903 -0.055213507 -14.041618 -0.054534536 -14.026833 -33.020203 -107.64236
69940000 -32.640678 -93.607841 -0.055071939 -14.240563 -0.055690687 -14.228822 -32.875729 -107.96173
70939000 -32.528088 -93.529686 -0.055075869 -14.434566 -0.055337254 -14.424241 -32.73476 -107.83987
71938000 -32.387615 -93.1465 -0.054892097 -14.632912 -0.054738481 -14.624284 -32.609398 -107.76188
72937000 -32.22427 -93.050255 -0.05441789 -14.828723 -0.054319859 -14.826428 -32.468487 -107.57607
73936000 -32.081036 -92.736435 -0.054632049 -15.030108 -0.054406095 -15.019646 -32.354694 -107.29774
74935000 -31.96829 -93.042709 -0.053891841 -15.219835 -0.052787788 -15.219963 -32.212627 -107.01588
75934000 -31.831656 -93.347511 -0.054018695 -15.433265 -0.052980117 -15.426486 -32.105865 -106.99699
76933000 -31.713213 -93.731438 -0.055505838 -15.625455 -0.054907564 -15.61872 -31.949541 -107.33383
77932000 -31.616596 -94.532379 -0.056350958 -15.821068 -0.056382425 -15.815922 -31.850706 -107.29459
78931000 -31.538839 -95.230728 -0.05511729 -16.02088 -0.055396769 -16.013815 -31.747709 -107.18185
79930000 -31.434561 -96.094795 -0.057435982 -16.213905 -0.057758104 -16.211952 -31.647898 -107.59268
80929000 -31.307671 -96.990921 -0.059382729 -16.406725 -0.059452008 -16.403212 -31.552385 -107.91178
81928000 -31.228786 -97.903671 -0.058882054 -16.602688 -0.059152063 -16.594902 -31.416759 -108.01005
82927000 -31.14115 -98.569923 -0.060728643 -16.800816 -0.061055213 -16.799122 -31.327827 -108.34464
83926000 -31.021112 -99.324745 -0.062075503 -16.995625 -0.062306583 -16.994173 -31.21685 -108.59008
84925000 -30.929274 -99.782204 -0.063573554 -17.197687 -0.062254589 -17.19453 -31.113832 -108.6466
85924000 -30.831472 -100.21554 -0.063710675 -17.395473 -0.063547812 -17.394703 -31.036041 -108.65508
86923000 -30.726341 -100.78465 -0.064489603 -17.591478 -0.063599296 -17.584709 -30.923594 -108.53695
87922000 -30.616755 -101.21768 -0.064095519 -17.797638 -0.063821524 -17.78945 -30.839895 -108.64548
88921000 -30.561663 -101.46294 -0.064528227 -17.99774 -0.063655771 -17.993542 -30.746208 -108.5563
89920000 -30.456154 -102.02779 -0.065749846 -18.192488 -0.064328022 -18.186514 -30.698275 -108.76222
90919000 -30.360565 -102.35373 -0.066282071 -18.387733 -0.064976998 -18.380808 -30.613289 -108.96194
91918000 -30.263039 -102.67484 -0.066674508 -18.589489 -0.065411888 -18.583273 -30.544716 -108.966
92917000 -30.179831 -102.98808 -0.068373211 -18.789867 -0.066171415 -18.78545 -30.4799 -109.05939
93916000 -30.096024 -103.41695 -0.067407966 -18.978355 -0.066946059 -18.977425 -30.397079 -109.69552
94915000 -30.019724 -104.07533 -0.069186904 -19.183247 -0.067250222 -19.17565 -30.340866 -109.59715
95914000 -29.958353 -104.23772 -0.069881588 -19.374517 -0.068837635 -19.370722 -30.248245 -109.85655
96913000 -29.876972 -104.47288 -0.071123399 -19.579515 -0.069296844 -19.574858 -30.177879 -110.17996
97912000 -29.809696 -105.00495 -0.072410055 -19.772171 -0.069671936 -19.770174 -30.103258 -110.41725
98911000 -29.703249 -105.20869 -0.07298179 -19.973728 -0.07165049 -19.96913 -30.068136 -110.68214
99910000 -29.636652 -105.36433 -0.072900705 -20.172527 -0.072021306 -20.170929 -29.958872 -111.0138
100909000 -29.540924 -105.64079 -0.07287807 -20.380632 -0.071099982 -20.372658 -29.873402 -111.18211
101908000 -29.456623 -105.91071 -0.074193679 -20.579498 -0.072287396 -20.573757 -29.758352 -110.98795
102907000 -29.32877 -105.90398 -0.074169189 -20.775797 -0.072308719 -20.776226 -29.68321 -110.95545
103906000 -29.229879 -106.00944 -0.074975811 -20.984585 -0.07226108 -20.977167 -29.531837 -110.86963
104905000 -29.088381 -105.89343 -0.075560264 -21.180922 -0.072393738 -21.180538 -29.406937 -110.58124
105904000 -28.949116 -106.04458 -0.075579226 -21.384268 -0.072258972 -21.377901 -29.295368 -110.49191
106903000 -28.844772 -106.13255 -0.07525973 -21.591684 -0.072761193 -21.580139 -29.170639 -110.31639
107902000 -28.677303 -106.48875 -0.076193005 -21.788486 -0.073601514 -21.780359 -29.034721 -110.30929
108901000 -28.568384 -106.72994 -0.076744944 -21.987587 -0.074665576 -21.979347 -28.895235 -110.24828
109900000 -28.433155 -107.23735 -0.077813998 -22.189043 -0.075459115 -22.180399 -28.747156 -110.38777
110899000 -28.326267 -107.82639 -0.079907268 -22.386175 -0.076529428 -22.379778 -28.626986 -110.67003
111898000 -28.242348 -108.52184 -0.08128541 -22.589066 -0.077520683 -22.581686 -28.511196 -110.78349
112897000 -28.116854 -109.1081 -0.082228415 -22.787342 -0.079109482 -22.775774 -28.368818 -110.94176
113896000 -28.01013 -109.72485 -0.08316794 -22.988897 -0.080296718 -22.975279 -28.269051 -111.15297
114895000 -27.90991 -110.32951 -0.084122971 -23.185423 -0.081297278 -23.172419 -28.154839 -111.21164
115894000 -27.778873 -110.69684 -0.084712081 -23.382196 -0.082950257 -23.369223 -28.088768 -111.43024
116893000 -27.695154 -111.24905 -0.085684612 -23.582296 -0.08333233 -23.559237 -27.956968 -111.51483
117892000 -27.625471 -111.76158 -0.08590164 -23.777487 -0.084270239 -23.762375 -27.882893 -111.74687
118891000 -27.557112 -112.19631 -0.086474627 -23.979504 -0.083920546 -23.95907 -27.79166 -111.84787
119890000 -27.475298 -112.56274 -0.087112658 -24.179127 -0.084953614 -24.164001 -27.778847 -112.04021
120889000 -27.417078 -113.02994 -0.088550948 -24.376717 -0.084443383 -24.35924 -27.703602 -112.00243
121888000 -27.380369 -113.3801 -0.088373408 -24.57486 -0.085673794 -24.561119 -27.647753 -112.28834
122887000 -27.339741 -113.61576 -0.089311883 -24.775873 -0.086338371 -24.764006 -27.598757 -112.31502
123886000 -27.282906 -114.01498 -0.089621849 -24.978298 -0.086618021 -24.961086 -27.583523 -112.52063
124885000 -27.251648 -114.52041 -0.089818455 -25.177221 -0.087304138 -25.162088 -27.557463 -112.57358
125884000 -27.194269 -114.69056 -0.090440594 -25.371563 -0.087295689 -25.361681 -27.524475 -112.72498
126883000 -27.175589 -115.07275 -0.091059908 -25.578327 -0.087662295 -25.562157 -27.482658 -112.78095
127882000 -27.121164 -115.37272 -0.091492929 -25.777594 -0.088317141 -25.759563 -27.442011 -112.9494
128881000 -27.093544 -115.68266 -0.091456704 -25.979849 -0.088408016 -25.96142 -27.404114 -113.078
129880000 -27.041498 -116.02534 -0.092428632 -26.178932 -0.089062713 -26.160286 -27.353148 -113.04342
130879000 -26.97854 -116.17869 -0.091349371 -26.377773 -0.089358129 -26.360512 -27.285416 -113.11441
131878000 -26.915609 -116.39955 -0.091863327 -26.581429 -0.089562126 -26.56245 -27.221527 -112.99276
132877000 -26.84617 -116.45989 -0.091828428 -26.781923 -0.089933418 -26.764654 -27.139835 -113.02884
133876000 -26.761101 -116.64275 -0.092932135 -26.984272 -0.089793354 -26.965555 -27.046598 -112.91862
134875000 -26.667482 -116.7645 -0.092175059 -27.179007 -0.090214618 -27.164177 -26.937389 -112.82185
135874000 -26.58441 -116.79606 -0.09237919 -27.382788 -0.090525702 -27.363581 -26.842169 -112.76991
136873000 -26.469465 -116.73594 -0.092665836 -27.581701 -0.089968033 -27.563105 -26.757133 -112.7631
137872000 -26.40024 -116.82084 -0.093301862 -27.785641 -0.090326943 -27.76618 -26.649904 -112.68217
138871000 -26.325983 -117.0274 -0.093669504 -27.985832 -0.090497151 -27.96978 -26.555567 -112.88326
139870000 -26.216993 -117.31604 -0.094242461 -28.186684 -0.091656573 -28.166792 -26.482056 -113.04852
140869000 -26.141901 -117.75027 -0.096155494 -28.381411 -0.092643358 -28.361055 -26.373505 -113.20206
141868000 -26.039925 -118.22325 -0.096413009 -28.56897 -0.093795151 -28.556744 -26.301676 -113.52734
142867000 -25.962278 -118.53642 -0.094259128 -28.770342 -0.092627227 -28.751972 -26.224323 -113.72507
143866000 -25.893229 -119.00766 -0.096270353 -28.968967 -0.094129771 -28.949917 -26.149374 -114.19116
144865000 -25.837173 -119.53163 -0.097349517 -29.1668 -0.09579055 -29.147673 -26.094656 -114.50948
145864000 -25.777628 -119.83171 -0.098146684 -29.365463 -0.096242301 -29.354559 -26.061125 -114.76843
146863000 -25.73562 -120.22836 -0.098692685 -29.565998 -0.096497439 -29.551868 -26.000086 -115.07254
147862000 -25.69162 -120.54209 -0.099662796 -29.760302 -0.096989237 -29.747936 -25.966942 -115.42142
148861000 -25.661415 -121.09835 -0.10003918 -29.960417 -0.097653702 -29.944311 -25.94504 -115.65322
149860000 -25.648569 -121.29751 -0.10076028 -30.161802 -0.097678848 -30.144514 -25.914431 -115.81589
150859000 -25.625273 -121.65042 -0.10083129 -30.357685 -0.098443508 -30.343307 -25.907841 -116.10226
151858000 -25.612133 -121.96997 -0.1003833 -30.554506 -0.098762065 -30.54208 -25.89513 -116.37514
152857000 -25.596886 -122.30349 -0.10116645 -30.753614 -0.099183142 -30.737221 -25.886271 -116.5079
153856000 -25.583916 -122.49388 -0.10068398 -30.955139 -0.098151185 -30.937695 -25.894989 -116.80052
154855000 -25.579309 -122.69985 -0.10110524 -31.15262 -0.098752268 -31.137245 -25.885122 -117.05883
155854000 -25.59199 -122.92371 -0.10159173 -31.34919 -0.098857403 -31.33753 -25.876492 -117.29717
156853000 -25.574205 -123.64483 -0.099350527 -31.538935 -0.09821447 -31.530916 -25.867987 -117.60017
157852000 -25.579302 -123.83994 -0.10106232 -31.735197 -0.099951774 -31.728207 -25.861959 -117.95329
158851000 -25.571735 -124.08653 -0.10088427 -31.935041 -0.10063974 -31.92786 -25.845119 -118.22717
159850000 -25.55938 -124.19543 -0.10219912 -32.135574 -0.099912837 -32.125755 -25.844112 -118.355
160849000 -25.543175 -124.32659 -0.10214029 -32.332451 -0.10121494 -32.327183 -25.814018 -118.67939
161848000 -25.522934 -124.44494 -0.10229056 -32.534657 -0.10104112 -32.526642 -25.774641 -118.76676
162847000 -25.477043 -124.64251 -0.10216467 -32.732956 -0.10153264 -32.728764 -25.74641 -119.01251
163846000 -25.437153 -124.87305 -0.10257255 -32.931488 -0.10101251 -32.924057 -25.663679 -119.0225
164845000 -25.378269 -124.88117 -0.10265446 -33.129509 -0.10138372 -33.124168 -25.597858 -119.16757
165844000 -25.325937 -124.942 -0.10305205 -33.33041 -0.1021387 -33.327461 -25.519882 -119.25549
166843000 -25.259712 -125.02465 -0.10279812 -33.530064 -0.10223146 -33.520065 -25.447727 -119.43464
167842000 -25.201302 -125.15994 -0.10294655 -33.727982 -0.10200513 -33.717793 -25.37322 -119.37399
168841000 -25.126169 -125.33423 -0.10361034 -33.923981 -0.10268945 -33.922009 -25.294462 -119.44302
169840000 -25.056446 -125.61721 -0.10431399 -34.118172 -0.10304172 -34.116543 -25.203388 -119.64648
170839000 -24.996464 -125.89276 -0.10481039 -34.315632 -0.10421748 -34.31118 -25.116796 -119.82663
171838000 -24.942114 -126.33437 -0.10432354 -34.520901 -0.10412415 -34.512924 -25.054651 -120.08106
172837000 -24.869682 -126.65797 -0.10646863 -34.714306 -0.10522515 -34.708511 -24.991438 -120.28391
173836000 -24.807428 -127.07865 -0.10729215 -34.912876 -0.10658085 -34.907757 -24.944139 -120.49855
174835000 -24.756126 -127.54375 -0.10772467 -35.107929 -0.1068029 -35.108803 -24.899239 -120.86272
175834000 -24.704544 -127.90741 -0.10858293 -35.308804 -0.10762914 -35.300877 -24.836763 -121.14497
176833000 -24.653639 -128.25012 -0.10926563 -35.499851 -0.10814236 -35.498554 -24.781029 -121.30352
177832000 -24.606115 -128.7877 -0.11003817 -35.698547 -0.10896063 -35.701073 -24.758228 -121.50769
178831000 -24.56776 -129.16389 -0.11023916 -35.89645 -0.10920829 -35.890999 -24.722271 -121.69888
179830000 -24.531267 -129.55917 -0.11093751 -36.092983 -0.10917165 -36.093102 -24.700996 -121.82726
180829000 -24.493849 -129.7879 -0.11123867 -36.28973 -0.10981462 -36.287834 -24.671322 -122.00868
181828000 -24.461863 -130.17102 -0.11123469 -36.489815 -0.11012685 -36.488224 -24.648756 -122.09322
182827000 -24.443291 -130.49509 -0.11098372 -36.680111 -0.11036713 -36.678673 -24.640574 -122.17959
183826000 -24.404968 -130.80478 -0.11247935 -36.879025 -0.11049857 -36.875805 -24.626362 -122.2938
184825000 -24.406574 -131.127 -0.11196268 -37.078434 -0.11091495 -37.076687 -24.611254 -122.39973
185824000 -24.377893 -131.4912 -0.11258508 -37.270535 -0.1113781 -37.272591 -24.605753 -122.48968
186823000 -24.365635 -131.83009 -0.11249103 -37.470119 -0.11164448 -37.469822 -24.609274 -122.41382
187822000 -24.345228 -132.17154 -0.11295649 -37.667366 -0.11224531 -37.662254 -24.570587 -122.5212
188821000 -24.326611 -132.38846 -0.11224505 -37.859154 -0.11260367 -37.865166 -24.557493 -122.57899
189820000 -24.308344 -132.64758 -0.11287359 -38.061359 -0.11245066 -38.058647 -24.548235 -122.76899
190819000 -24.277929 -132.87625 -0.11397628 -38.260468 -0.11336778 -38.256275 -24.514107 -122.71488
191818000 -24.245296 -133.08232 -0.11572895 -38.455803 -0.11427021 -38.455456 -24.483995 -122.61137
192817000 -24.174631 -133.34715 -0.11551734 -38.640244 -0.11483366 -38.640709 -24.412172 -122.7136
193816000 -24.140083 -133.72285 -0.11526453 -38.836956 -0.11377752 -38.83176 -24.353308 -122.95764
194815000 -24.078569 -134.15636 -0.11476561 -39.030117 -0.11426489 -39.032921 -24.293623 -123.08184
195814000 -24.029179 -134.38066 -0.11588474 -39.228531 -0.11460694 -39.229053 -24.24403 -123.19448
196813000 -23.979029 -134.74597 -0.11433585 -39.423294 -0.11380515 -39.42519 -24.162434 -123.3671
197812000 -23.919199 -134.9631 -0.11526799 -39.621426 -0.11406239 -39.618362 -24.09322 -123.46097
198811000 -23.866467 -135.13634 -0.11492243 -39.814262 -0.11376502 -39.819359 -24.024923 -123.64327
199810000 -23.798563 -135.51489 -0.11518691 -40.014145 -0.11348044 -40.010509 -23.949085 -123.75047
200809000 -23.738514 -135.77118 -0.1155168 -40.204475 -0.11392314 -40.20784 -23.867281 -123.94866
201808000 -23.683065 -136.03627 -0.1167518 -40.411423 -0.11573161 -40.411911 -23.80134 -123.99259
202807000 -23.624119 -136.38315 -0.11722223 -40.60812 -0.11642128 -40.610176 -23.748882 -124.22087
203806000 -23.570782 -136.80646 -0.11831432 -40.806419 -0.11636332 -40.811516 -23.676558 -124.40047
