!Keysight Technologies,E5080B,MY59205177,A.15.75.32
!Date: Friday, February 23, 2024 03:39:29
!Correction: S11(Cdelta 2-Port  ) 
!S21(Cdelta 2-Port  ) 
!S12(Cdelta 2-Port  ) 
!S22(Cdelta 2-Port  ) 
!S2P File: Measurements: S11, S21, S12, S22:
# Hz S  dB   R 50
10000000 -46.067738 -2.5815053 -0.014696487 -2.0430477 -0.017446415 -2.0972989 -45.916275 -157.36572
10999000 -45.328434 -4.7819705 -0.015656322 -2.2634397 -0.017498657 -2.3160582 -45.840412 -151.46138
11998000 -44.369949 -7.9072042 -0.015913786 -2.4862971 -0.018066585 -2.5286124 -45.989819 -146.84323
12997000 -43.61224 -13.59179 -0.015482004 -2.6685388 -0.0174329 -2.7001183 -45.609562 -141.19537
13996000 -43.304543 -17.303448 -0.014783501 -2.8466499 -0.017113494 -2.8680017 -45.398819 -136.22961
14995000 -42.883675 -21.876476 -0.016712256 -3.0563109 -0.017024616 -3.079428 -45.056679 -132.60004
15994000 -42.741898 -26.266623 -0.018163804 -3.277761 -0.019993419 -3.29831 -45.011314 -129.18095
16993000 -42.65868 -31.013874 -0.017558174 -3.4686067 -0.019342292 -3.4795234 -44.12289 -128.84521
17992000 -42.696945 -36.09679 -0.017911665 -3.6696527 -0.019629879 -3.6744335 -43.530064 -129.015
18991000 -42.969578 -41.646812 -0.01854438 -3.8816068 -0.020434754 -3.8763146 -42.907337 -128.38489
19990000 -42.723648 -47.490822 -0.02079602 -4.091857 -0.022571841 -4.0837326 -42.250217 -128.82147
20989000 -42.562492 -50.770287 -0.023259887 -4.296278 -0.024777148 -4.2806597 -41.734612 -128.05727
21988000 -42.362873 -56.034081 -0.024571223 -4.4914589 -0.025284322 -4.4814944 -41.473583 -127.64017
22987000 -42.062134 -60.708588 -0.025293695 -4.6931162 -0.026535064 -4.6804934 -41.205864 -126.96403
23986000 -41.967892 -65.014565 -0.024352552 -4.8862271 -0.025032289 -4.8830581 -41.041466 -126.81889
24985000 -41.534931 -67.489273 -0.02552413 -5.0956984 -0.025276249 -5.0925221 -40.848179 -124.43861
25984000 -41.195225 -69.508995 -0.025850926 -5.3003616 -0.026078526 -5.2996016 -40.50354 -122.93713
26983000 -40.826729 -71.608521 -0.027146636 -5.4987006 -0.026317077 -5.513278 -40.425629 -122.39091
27982000 -40.713875 -72.60878 -0.028432829 -5.7017884 -0.028144399 -5.7274828 -40.111309 -120.59616
28981000 -40.648926 -73.840759 -0.025878789 -5.8984876 -0.028438039 -5.9226408 -39.87632 -119.69701
29980000 -40.235786 -75.238747 -0.026146756 -6.0937939 -0.028582131 -6.0975075 -39.616638 -118.99378
30979000 -39.857418 -74.174995 -0.023848092 -6.4431152 -0.022745144 -6.4335084 -39.114273 -119.32658
31978000 -39.653912 -75.130775 -0.022788601 -6.6437354 -0.024624592 -6.6251965 -38.874306 -118.86416
32977000 -39.473866 -76.829849 -0.023847051 -6.8496213 -0.024977094 -6.8486366 -38.636292 -118.83926
33976000 -39.270893 -77.806885 -0.023479283 -7.0496349 -0.024853949 -7.0466762 -38.357384 -118.18749
34975000 -38.963291 -78.757515 -0.024129208 -7.249505 -0.027064323 -7.2532206 -38.111568 -117.92253
35974000 -38.796764 -79.306702 -0.022899456 -7.44558 -0.025938423 -7.4463243 -37.862282 -117.01041
36973000 -38.548119 -79.816338 -0.023633622 -7.6472011 -0.026409009 -7.646934 -37.589699 -115.99477
37972000 -38.390553 -79.612396 -0.023148501 -7.8535862 -0.026593665 -7.8685231 -37.365051 -115.27503
38971000 -38.054478 -79.11396 -0.024166431 -8.0558586 -0.026805416 -8.0666981 -37.206348 -113.70609
39970000 -37.7589 -79.332741 -0.022524484 -8.2517653 -0.026119672 -8.2727613 -36.945724 -113.12988
40969000 -37.460987 -79.050934 -0.022981169 -8.4480343 -0.025166115 -8.4674492 -36.72081 -111.75035
41968000 -37.110451 -78.852501 -0.023223713 -8.6535168 -0.026098058 -8.6653156 -36.523129 -110.43081
42967000 -36.857231 -79.075455 -0.023201851 -8.8628349 -0.025342645 -8.8807716 -36.350513 -108.66492
43966000 -36.558475 -79.813538 -0.023310116 -9.0633821 -0.027385244 -9.0816984 -36.049019 -107.94922
44965000 -36.321461 -80.472412 -0.02397277 -9.2658424 -0.027452713 -9.2828074 -35.861164 -107.74864
45964000 -36.113434 -81.482208 -0.025420498 -9.4665041 -0.028407034 -9.4878635 -35.641293 -107.37065
46963000 -35.902699 -83.455994 -0.02551684 -9.6579447 -0.029555727 -9.6858692 -35.447193 -107.58462
47962000 -35.735233 -84.74884 -0.027138039 -9.8626175 -0.03087757 -9.8803568 -35.259117 -107.58958
48961000 -35.524521 -86.190849 -0.029425675 -10.057857 -0.03203813 -10.081606 -35.03463 -107.78492
49960000 -35.289909 -87.465637 -0.030734705 -10.259056 -0.033222217 -10.281354 -34.892418 -107.92456
50959000 -35.075829 -88.760681 -0.030890604 -10.474309 -0.034207288 -10.483984 -34.71804 -108.11057
51958000 -34.86422 -89.777771 -0.032788448 -10.66896 -0.035242949 -10.680937 -34.537086 -108.64094
52957000 -34.644085 -90.801651 -0.03451021 -10.875039 -0.036180452 -10.877286 -34.374355 -108.3065
53956000 -34.479725 -91.493942 -0.036202118 -11.075993 -0.037056018 -11.077066 -34.243736 -108.30995
54955000 -34.316746 -91.900276 -0.03664954 -11.270441 -0.038107768 -11.273386 -34.103336 -108.28044
55954000 -34.135979 -92.762047 -0.038220059 -11.477398 -0.038095754 -11.472125 -34.00074 -107.93559
56953000 -34.032402 -92.830635 -0.037133038 -11.674414 -0.038014539 -11.660124 -33.914066 -108.23731
57952000 -33.860737 -93.33799 -0.038556952 -11.870221 -0.038526136 -11.86226 -33.809788 -108.32682
58951000 -33.730217 -93.653168 -0.039149843 -12.078674 -0.039533831 -12.059625 -33.648678 -108.3828
59950000 -33.608456 -94.083809 -0.040118758 -12.279836 -0.040727802 -12.255396 -33.589226 -108.616
60949000 -33.491543 -94.635994 -0.040666919 -12.476088 -0.040779017 -12.453744 -33.495148 -108.85419
61948000 -33.422546 -94.953026 -0.041150603 -12.677405 -0.040836241 -12.659795 -33.404224 -108.98503
62947000 -33.344273 -95.25412 -0.04093371 -12.8884 -0.041035622 -12.866982 -33.264107 -109.23351
63946000 -33.259739 -95.914871 -0.0414906 -13.088813 -0.042102713 -13.06649 -33.153328 -109.41451
64945000 -33.154861 -96.059349 -0.042743668 -13.289199 -0.042792812 -13.270951 -33.042053 -109.8887
65944000 -33.059917 -96.349472 -0.043233857 -13.488585 -0.043325625 -13.472883 -32.944767 -110.30093
66943000 -32.911175 -96.767159 -0.041478317 -13.690415 -0.041693147 -13.672747 -32.844101 -110.55038
67942000 -32.863792 -96.750557 -0.043426547 -13.887694 -0.042822354 -13.876612 -32.714294 -110.79646
68941000 -32.744751 -96.805801 -0.042465787 -14.081467 -0.042614788 -14.069297 -32.610413 -110.80514
69940000 -32.637417 -96.822899 -0.042899475 -14.279179 -0.043107316 -14.270528 -32.473351 -111.05997
70939000 -32.543377 -96.779457 -0.042860001 -14.470461 -0.043205358 -14.466278 -32.341274 -111.04581
71938000 -32.411491 -96.395134 -0.043329287 -14.675085 -0.042598318 -14.662017 -32.215382 -110.82379
72937000 -32.263081 -96.097458 -0.042691123 -14.871635 -0.042765103 -14.866423 -32.076931 -110.48908
73936000 -32.12405 -95.768898 -0.042203084 -15.06826 -0.042277057 -15.068187 -31.96022 -110.39462
74935000 -31.99308 -96.027527 -0.041659694 -15.266089 -0.04063426 -15.260078 -31.808348 -110.00482
75934000 -31.864771 -96.200615 -0.041512553 -15.474419 -0.040560052 -15.470567 -31.726395 -109.99064
76933000 -31.735537 -96.53434 -0.043049015 -15.665638 -0.042654522 -15.662827 -31.55719 -110.27459
77932000 -31.63961 -97.243019 -0.044600405 -15.867935 -0.043919168 -15.861945 -31.453829 -110.23213
78931000 -31.560858 -98.094193 -0.042829152 -16.063726 -0.043160651 -16.061081 -31.355686 -110.02345
79930000 -31.442932 -98.89904 -0.045075897 -16.258875 -0.045347404 -16.258667 -31.265566 -110.33087
80929000 -31.329554 -99.703377 -0.047114454 -16.456583 -0.047054529 -16.455679 -31.168341 -110.63428
81928000 -31.222609 -100.43486 -0.047165222 -16.647705 -0.048132785 -16.642107 -31.043045 -110.62183
82927000 -31.137711 -101.16521 -0.048784051 -16.84271 -0.048384327 -16.842625 -30.925974 -110.94144
83926000 -31.019312 -101.81849 -0.049957525 -17.043842 -0.049823198 -17.04501 -30.813723 -111.09703
84925000 -30.912233 -102.29355 -0.050985426 -17.243698 -0.049870592 -17.237888 -30.718781 -111.06274
85924000 -30.822468 -102.6697 -0.051288214 -17.44429 -0.051091243 -17.440371 -30.634201 -111.10504
86923000 -30.720055 -103.18504 -0.051929738 -17.639521 -0.051452711 -17.631256 -30.533102 -110.98569
87922000 -30.61038 -103.50436 -0.051600449 -17.847952 -0.05175972 -17.841455 -30.440706 -111.07095
88921000 -30.531172 -103.8183 -0.053113759 -18.043457 -0.052816872 -18.039204 -30.351849 -111.00481
89920000 -30.429049 -104.25824 -0.053668018 -18.244127 -0.051841192 -18.238737 -30.295399 -111.14011
90919000 -30.32762 -104.55223 -0.054280277 -18.44137 -0.053496361 -18.436926 -30.206722 -111.32213
91918000 -30.22624 -104.85542 -0.055258602 -18.638649 -0.05387795 -18.636177 -30.137402 -111.35569
92917000 -30.137976 -105.21076 -0.055556703 -18.840719 -0.054718819 -18.839808 -30.068262 -111.411
93916000 -30.049911 -105.51225 -0.055061974 -19.03513 -0.054761548 -19.028185 -29.992064 -112.01109
94915000 -29.976858 -106.20238 -0.056966215 -19.235109 -0.055891275 -19.22846 -29.93062 -111.89155
95914000 -29.904802 -106.37728 -0.058153447 -19.42906 -0.056895927 -19.428083 -29.835926 -112.17168
96913000 -29.812788 -106.59274 -0.059266474 -19.633507 -0.057891104 -19.627501 -29.773264 -112.50298
97912000 -29.735437 -107.02127 -0.060034376 -19.829119 -0.058490053 -19.831173 -29.679674 -112.74041
98911000 -29.636902 -107.17513 -0.060550932 -20.029417 -0.059435211 -20.026281 -29.649857 -112.97317
99910000 -29.561396 -107.31547 -0.061225858 -20.225677 -0.059733078 -20.227594 -29.534845 -113.26895
100909000 -29.473389 -107.61212 -0.060573507 -20.437124 -0.05949216 -20.426926 -29.452084 -113.45705
101908000 -29.386875 -107.83531 -0.061654858 -20.636412 -0.060307607 -20.634064 -29.3482 -113.24506
102907000 -29.250963 -107.78938 -0.062040314 -20.835827 -0.060482159 -20.839453 -29.271711 -113.25539
103906000 -29.149521 -107.84003 -0.062912181 -21.041595 -0.060366403 -21.039078 -29.127611 -113.14982
104905000 -29.010401 -107.74985 -0.063341878 -21.237989 -0.061112441 -21.239069 -28.997356 -112.87364
105904000 -28.865566 -107.80698 -0.063397035 -21.441141 -0.061409108 -21.435688 -28.887901 -112.72363
106903000 -28.75787 -107.84487 -0.063428029 -21.649988 -0.061349511 -21.643543 -28.763878 -112.63941
107902000 -28.591562 -108.17919 -0.063851476 -21.846169 -0.062139049 -21.844275 -28.630886 -112.6204
108901000 -28.484632 -108.46211 -0.065291539 -22.053404 -0.063404918 -22.040861 -28.501772 -112.54408
109900000 -28.362001 -108.93423 -0.065797158 -22.252052 -0.064704001 -22.240511 -28.355188 -112.61524
110899000 -28.23761 -109.52608 -0.067319363 -22.450001 -0.064946517 -22.440048 -28.226311 -112.84138
111898000 -28.148802 -110.1227 -0.068232782 -22.651781 -0.065664701 -22.645699 -28.11278 -112.95367
112897000 -28.021412 -110.69287 -0.06987948 -22.85018 -0.066627979 -22.839006 -27.976944 -113.20623
113896000 -27.921772 -111.25476 -0.071272604 -23.050354 -0.068436056 -23.040941 -27.86994 -113.31987
114895000 -27.816204 -111.90375 -0.072044469 -23.249258 -0.069293424 -23.237188 -27.756073 -113.35859
115894000 -27.690748 -112.24628 -0.0730168 -23.44965 -0.070566118 -23.436872 -27.689913 -113.57427
116893000 -27.618555 -112.74447 -0.074323498 -23.645533 -0.071375228 -23.631115 -27.568151 -113.61878
117892000 -27.530657 -113.2569 -0.073836632 -23.844927 -0.071678124 -23.828972 -27.488588 -113.83774
118891000 -27.471405 -113.66712 -0.074827276 -24.044636 -0.072296873 -24.029911 -27.396873 -113.98296
119890000 -27.384184 -113.9989 -0.075243667 -24.247173 -0.072097898 -24.228357 -27.382404 -114.11819
120889000 -27.333862 -114.51178 -0.077000789 -24.444258 -0.072955199 -24.434547 -27.309048 -114.07336
121888000 -27.299131 -114.84669 -0.076236732 -24.64043 -0.073630475 -24.628422 -27.246349 -114.27193
122887000 -27.259346 -115.02544 -0.077833496 -24.84503 -0.074591309 -24.834642 -27.200697 -114.32938
123886000 -27.205008 -115.46992 -0.078211434 -25.048122 -0.074991085 -25.027925 -27.187935 -114.4848
124885000 -27.166012 -115.95947 -0.078351125 -25.249651 -0.074459381 -25.233274 -27.153963 -114.52137
125884000 -27.118818 -116.12781 -0.079456158 -25.443287 -0.075176768 -25.434561 -27.125891 -114.68968
126883000 -27.091499 -116.5041 -0.079656787 -25.646683 -0.076278888 -25.635818 -27.088175 -114.7046
127882000 -27.043955 -116.84187 -0.079408966 -25.846483 -0.076728612 -25.831018 -27.044283 -114.81416
128881000 -27.020256 -117.13971 -0.079851635 -26.049238 -0.076434851 -26.030783 -27.01166 -114.90313
129880000 -26.959984 -117.45033 -0.080837846 -26.251423 -0.076821357 -26.232147 -26.967669 -114.85101
130879000 -26.900354 -117.60093 -0.080079444 -26.453051 -0.077177331 -26.431721 -26.901104 -114.87685
131878000 -26.835205 -117.8429 -0.079985842 -26.653749 -0.077031881 -26.633707 -26.839464 -114.72409
132877000 -26.77417 -117.90087 -0.07971137 -26.85811 -0.078280486 -26.837498 -26.758522 -114.69595
133876000 -26.69183 -118.07201 -0.080601029 -27.056702 -0.07703162 -27.037807 -26.671602 -114.59245
134875000 -26.596798 -118.19204 -0.080414325 -27.255131 -0.077972122 -27.238691 -26.572876 -114.44234
135874000 -26.518282 -118.25857 -0.079862446 -27.455309 -0.078643173 -27.443001 -26.482092 -114.39658
136873000 -26.406715 -118.20811 -0.081078365 -27.659592 -0.078055665 -27.643795 -26.399035 -114.36945
137872000 -26.325871 -118.28147 -0.081418075 -27.859245 -0.078329511 -27.844097 -26.299089 -114.26594
138871000 -26.25462 -118.47514 -0.082066439 -28.062508 -0.078626297 -28.044432 -26.200493 -114.41848
139870000 -26.154646 -118.76082 -0.082040064 -28.259706 -0.079479881 -28.244535 -26.11973 -114.61185
140869000 -26.0781 -119.27119 -0.082908303 -28.457876 -0.080019593 -28.438812 -26.028585 -114.81517
141868000 -25.996519 -119.70869 -0.083974116 -28.655624 -0.081406467 -28.641376 -25.977472 -115.05474
142867000 -25.918938 -119.91019 -0.082801178 -28.85326 -0.080501348 -28.837616 -25.896193 -115.14216
143866000 -25.85014 -120.35857 -0.084499076 -29.049458 -0.08181347 -29.03455 -25.825853 -115.63676
144865000 -25.789497 -120.89446 -0.086027063 -29.24938 -0.08346875 -29.234186 -25.766809 -115.89542
145864000 -25.733696 -121.18861 -0.086207405 -29.45083 -0.084909528 -29.438164 -25.739948 -116.16719
146863000 -25.692087 -121.56031 -0.08776927 -29.647812 -0.085459679 -29.637001 -25.688063 -116.46441
147862000 -25.658873 -121.93289 -0.088461913 -29.847172 -0.085692011 -29.835745 -25.659733 -116.76569
148861000 -25.617857 -122.37106 -0.089286782 -30.0481 -0.087101564 -30.032124 -25.636831 -116.92897
149860000 -25.592438 -122.53082 -0.090193205 -30.237225 -0.087949947 -30.227915 -25.579605 -117.04345
150859000 -25.565422 -123.02042 -0.089918353 -30.434664 -0.086838789 -30.41959 -25.564198 -117.38155
151858000 -25.55801 -123.32916 -0.089528568 -30.635731 -0.087729648 -30.619526 -25.556814 -117.72938
152857000 -25.539526 -123.69363 -0.08923129 -30.832693 -0.087187663 -30.821589 -25.539631 -117.88737
153856000 -25.535471 -123.89008 -0.089866556 -31.03557 -0.086496279 -31.02215 -25.555367 -118.22722
154855000 -25.53684 -124.0388 -0.089780137 -31.237629 -0.086205289 -31.220985 -25.54661 -118.45567
155854000 -25.554544 -124.30233 -0.090059482 -31.432463 -0.087360129 -31.423918 -25.537081 -118.72869
156853000 -25.532104 -125.01328 -0.08804293 -31.625032 -0.086184956 -31.615221 -25.532761 -119.02563
157852000 -25.544928 -125.22701 -0.089351252 -31.823782 -0.088205129 -31.816343 -25.518917 -119.38466
158851000 -25.546328 -125.45804 -0.089682624 -32.024235 -0.088166565 -32.016682 -25.504078 -119.64847
159850000 -25.538506 -125.5614 -0.090183161 -32.222252 -0.088354915 -32.213001 -25.513327 -119.86313
160849000 -25.522625 -125.61557 -0.090086967 -32.420567 -0.089582473 -32.415489 -25.48237 -120.12666
161848000 -25.502321 -125.71262 -0.090670548 -32.623428 -0.089138813 -32.612316 -25.446928 -120.2448
162847000 -25.462412 -125.88068 -0.091128372 -32.820797 -0.089479677 -32.813862 -25.413773 -120.5104
163846000 -25.421692 -126.06818 -0.091229357 -33.022606 -0.089509271 -33.01091 -25.336218 -120.48959
164845000 -25.367781 -126.06365 -0.09165287 -33.222408 -0.090133481 -33.215977 -25.279797 -120.58978
165844000 -25.316725 -126.08234 -0.091777399 -33.418556 -0.089946367 -33.41235 -25.201097 -120.73115
166843000 -25.249096 -126.1377 -0.091160625 -33.619473 -0.090474948 -33.611717 -25.131577 -120.88501
167842000 -25.196264 -126.25975 -0.091808863 -33.822086 -0.090649396 -33.809959 -25.053827 -120.7904
168841000 -25.116692 -126.37132 -0.092306204 -34.018459 -0.091061227 -34.013508 -24.978365 -120.88598
169840000 -25.051968 -126.64883 -0.092261516 -34.214733 -0.091776073 -34.207611 -24.893915 -121.05955
170839000 -24.991192 -126.86928 -0.093001954 -34.409988 -0.091381095 -34.41048 -24.814333 -121.23518
171838000 -24.935577 -127.28571 -0.093146883 -34.613831 -0.092512988 -34.607162 -24.752365 -121.4575
172837000 -24.867098 -127.57706 -0.09470807 -34.807957 -0.093638822 -34.805813 -24.685238 -121.66283
173836000 -24.796186 -127.9595 -0.095999353 -35.007809 -0.094750933 -35.007866 -24.642164 -121.87156
174835000 -24.744566 -128.36469 -0.096315086 -35.204052 -0.095328264 -35.208012 -24.596443 -122.2236
175834000 -24.689032 -128.76518 -0.096924916 -35.406654 -0.096254475 -35.402973 -24.540257 -122.47584
176833000 -24.644129 -129.12718 -0.097976968 -35.60701 -0.096967004 -35.60508 -24.490988 -122.61471
177832000 -24.602478 -129.51364 -0.099038541 -35.805405 -0.097840086 -35.803738 -24.471247 -122.69556
178831000 -24.55551 -129.73947 -0.10074916 -35.999332 -0.099726625 -35.99942 -24.431417 -122.81568
179830000 -24.480907 -130.15031 -0.10137127 -36.18462 -0.09995389 -36.185715 -24.366261 -122.86134
180829000 -24.433371 -130.5356 -0.10123242 -36.378311 -0.099338874 -36.376831 -24.326351 -123.22258
181828000 -24.413124 -130.92676 -0.099795759 -36.577106 -0.098737702 -36.576244 -24.310545 -123.37708
182827000 -24.388435 -131.30029 -0.099504672 -36.77462 -0.099699348 -36.774414 -24.295097 -123.49997
183826000 -24.346054 -131.65334 -0.10131668 -36.973083 -0.099493809 -36.969479 -24.284172 -123.66585
184825000 -24.353207 -131.97813 -0.10056794 -37.172665 -0.099767946 -37.174061 -24.26783 -123.79777
185824000 -24.320559 -132.30565 -0.10042436 -37.363602 -0.09993694 -37.367561 -24.259459 -123.85929
186823000 -24.298712 -132.70491 -0.10063232 -37.569248 -0.099355027 -37.564541 -24.255728 -123.87227
187822000 -24.279642 -133.0504 -0.10092243 -37.760868 -0.10014673 -37.761967 -24.21084 -123.94582
188821000 -24.257278 -133.31624 -0.1008191 -37.956955 -0.10097012 -37.962051 -24.195309 -124.06142
189820000 -24.235806 -133.58693 -0.10112803 -38.159119 -0.10070703 -38.155319 -24.178963 -124.30769
190819000 -24.199806 -133.91176 -0.10162936 -38.354191 -0.10117413 -38.354473 -24.141092 -124.35307
191818000 -24.171103 -134.19853 -0.10155278 -38.552906 -0.10159968 -38.556465 -24.107937 -124.37425
192817000 -24.123194 -134.44167 -0.10246177 -38.750427 -0.10162035 -38.750664 -24.066706 -124.45217
193816000 -24.091496 -134.70132 -0.10285935 -38.944286 -0.10133391 -38.945065 -24.018141 -124.58669
194815000 -24.02998 -135.09593 -0.10274643 -39.137596 -0.10261072 -39.142113 -23.952425 -124.63736
195814000 -23.974346 -135.27336 -0.10354327 -39.341297 -0.10259614 -39.340733 -23.891275 -124.75342
196813000 -23.921785 -135.60594 -0.10304993 -39.53352 -0.10235655 -39.53867 -23.815853 -124.9027
197812000 -23.867807 -135.81059 -0.10404646 -39.731697 -0.10327896 -39.72366 -23.743631 -124.96301
198811000 -23.80687 -135.97304 -0.10330176 -39.926971 -0.1026147 -39.929855 -23.673834 -125.15878
199810000 -23.739307 -136.31131 -0.10435615 -40.121788 -0.10278089 -40.122387 -23.598871 -125.22463
200809000 -23.685526 -136.57123 -0.10496897 -40.319786 -0.10291766 -40.31715 -23.519522 -125.40155
201808000 -23.622789 -136.76773 -0.10454044 -40.517178 -0.10483903 -40.52346 -23.452826 -125.4813
202807000 -23.56834 -137.11191 -0.10528748 -40.720173 -0.10436146 -40.722 -23.397087 -125.67823
