!Keysight Technologies,E5080B,MY59205177,A.15.75.32
!Date: Friday, February 23, 2024 03:01:11
!Correction: S11(Cdelta 2-Port  ) 
!S21(Cdelta 2-Port  ) 
!S12(Cdelta 2-Port  ) 
!S22(Cdelta 2-Port  ) 
!S2P File: Measurements: S11, S21, S12, S22:
# Hz S  dB   R 50
10000000 -44.121777 -3.5388346 -0.027138559 -2.0384824 -0.030749304 -2.0924318 -48.092113 -150.4514
10999000 -43.518387 -5.3537617 -0.028621478 -2.2550576 -0.030282678 -2.3088233 -47.84264 -142.53891
11998000 -42.711903 -8.091629 -0.029004013 -2.4816093 -0.030785019 -2.5228326 -47.932762 -136.95842
12997000 -42.11005 -12.815796 -0.027832279 -2.6578176 -0.030260781 -2.6900516 -47.243954 -130.74968
13996000 -41.828976 -16.151768 -0.027144551 -2.835526 -0.030218814 -2.8584528 -46.786972 -125.30045
14995000 -41.530212 -19.69664 -0.029203633 -3.043539 -0.030007679 -3.0731957 -46.376865 -121.80151
15994000 -41.408802 -23.750208 -0.030935446 -3.2653437 -0.032926425 -3.2853792 -46.120632 -118.21796
16993000 -41.386032 -27.550985 -0.030702639 -3.4615302 -0.03164985 -3.4734468 -45.290482 -119.10648
17992000 -41.456913 -32.321888 -0.030102557 -3.659682 -0.032390453 -3.6616004 -44.599396 -120.01392
18991000 -41.73645 -36.888382 -0.031339567 -3.8690102 -0.032646041 -3.8687477 -43.914715 -119.21885
19990000 -41.630436 -41.659771 -0.03381151 -4.0761781 -0.034815244 -4.0740304 -43.197544 -120.99229
20989000 -41.500168 -44.580059 -0.035491139 -4.2812567 -0.036704883 -4.2706194 -42.63958 -120.67398
21988000 -41.428375 -49.280075 -0.036383793 -4.4769425 -0.037501961 -4.4666381 -42.342136 -120.53414
22987000 -41.218864 -53.770428 -0.037067767 -4.6762266 -0.038588032 -4.6678767 -42.075066 -119.88798
23986000 -41.200142 -57.533916 -0.037159666 -4.8686004 -0.038090531 -4.8704352 -41.920849 -119.89654
24985000 -40.878716 -60.171097 -0.038143281 -5.077888 -0.038564786 -5.0747223 -41.691196 -117.37991
25984000 -40.627144 -62.608856 -0.03882283 -5.2827954 -0.038724627 -5.2839413 -41.343945 -116.03851
26983000 -40.363026 -64.134377 -0.040472783 -5.482388 -0.038559042 -5.4999008 -41.220993 -114.79681
27982000 -40.211784 -65.107651 -0.04102543 -5.6827121 -0.041093897 -5.7147813 -40.923073 -113.42464
28981000 -40.200882 -66.499313 -0.038672652 -5.8791203 -0.040512759 -5.9039164 -40.684994 -112.73104
29980000 -39.834599 -68.122299 -0.03893305 -6.0694933 -0.041725554 -6.0762582 -40.363487 -112.41936
30979000 -39.444439 -67.359489 -0.037036438 -6.426918 -0.035753436 -6.415307 -39.849533 -113.13287
31978000 -39.260895 -68.482399 -0.036122505 -6.6219649 -0.036834367 -6.6094055 -39.581116 -112.32841
32977000 -39.092602 -69.959869 -0.036324538 -6.8278685 -0.037310313 -6.8239708 -39.336182 -112.70078
33976000 -38.950336 -71.106285 -0.036182538 -7.0326457 -0.03767116 -7.0230212 -39.028831 -112.16482
34975000 -38.702316 -72.110603 -0.036207598 -7.2299228 -0.038671084 -7.2275229 -38.777874 -112.11676
35974000 -38.503132 -72.832191 -0.035552207 -7.4261384 -0.038537364 -7.4280777 -38.498795 -111.21431
36973000 -38.257328 -73.604454 -0.036021229 -7.6267285 -0.039062604 -7.6260405 -38.195896 -110.5068
37972000 -38.104931 -73.513603 -0.034908921 -7.8350134 -0.039080366 -7.8435936 -37.941448 -109.89519
38971000 -37.77475 -73.323982 -0.036781896 -8.0371456 -0.039000701 -8.0447807 -37.770363 -108.34696
39970000 -37.474827 -73.866287 -0.03526748 -8.2316236 -0.038590644 -8.244319 -37.501762 -107.9155
40969000 -37.186905 -73.857002 -0.035618499 -8.4198933 -0.037933327 -8.4467297 -37.225414 -106.59357
41968000 -36.831192 -73.999657 -0.035350472 -8.6248665 -0.038546506 -8.6414709 -36.999687 -105.57645
42967000 -36.585552 -74.338028 -0.035354644 -8.8377743 -0.038881596 -8.8555079 -36.766834 -103.64536
43966000 -36.303429 -75.211525 -0.036737777 -9.0308075 -0.040497605 -9.0580368 -36.492821 -103.01315
44965000 -36.085789 -76.114578 -0.037124421 -9.2350073 -0.039652951 -9.2614946 -36.275333 -103.0587
45964000 -35.870239 -77.206688 -0.038316164 -9.4366503 -0.040932927 -9.4590969 -36.025597 -102.93684
46963000 -35.700726 -79.232193 -0.037672207 -9.6312904 -0.041585207 -9.6512985 -35.837379 -103.35011
47962000 -35.550064 -80.747276 -0.039080888 -9.8355131 -0.043166403 -9.8541498 -35.645229 -103.46301
48961000 -35.345646 -82.163094 -0.041461851 -10.029684 -0.04418616 -10.052298 -35.411102 -103.81314
49960000 -35.126251 -83.573044 -0.042791508 -10.231714 -0.045629133 -10.252917 -35.279121 -103.8559
50959000 -34.93317 -84.902534 -0.043424979 -10.442031 -0.046638478 -10.452042 -35.091808 -104.22681
51958000 -34.732906 -86.053131 -0.045258731 -10.64013 -0.048045624 -10.65021 -34.919018 -104.81064
52957000 -34.52924 -87.22097 -0.046557628 -10.842342 -0.049411595 -10.847482 -34.764709 -104.69964
53956000 -34.381073 -87.898582 -0.048158173 -11.045012 -0.04937651 -11.044301 -34.614014 -104.8279
54955000 -34.216385 -88.469696 -0.048719391 -11.243061 -0.050482575 -11.239836 -34.463745 -104.75372
55954000 -34.058704 -89.293678 -0.050199486 -11.441758 -0.050855782 -11.441685 -34.347801 -104.56038
56953000 -33.939991 -89.423828 -0.04944694 -11.643396 -0.04949747 -11.628696 -34.281197 -104.68808
57952000 -33.788162 -90.035759 -0.05055093 -11.837485 -0.051084958 -11.833969 -34.183758 -104.82484
58951000 -33.664818 -90.29966 -0.051843811 -12.041402 -0.051788274 -12.021613 -34.032024 -104.88072
59950000 -33.557117 -90.788986 -0.052357562 -12.241585 -0.053274397 -12.217436 -33.96312 -105.25507
60949000 -33.442135 -91.382523 -0.052684814 -12.44506 -0.053272035 -12.422003 -33.860546 -105.55215
61948000 -33.385094 -91.610245 -0.052684814 -12.63835 -0.052595727 -12.622024 -33.781361 -105.59161
62947000 -33.294155 -91.850746 -0.053699732 -12.853163 -0.053959724 -12.831921 -33.655315 -105.96555
63946000 -33.241478 -92.587433 -0.05439692 -13.050829 -0.054942168 -13.027986 -33.543484 -106.12406
64945000 -33.127003 -92.737183 -0.05493876 -13.250243 -0.054964978 -13.23132 -33.433067 -106.56796
65944000 -33.031509 -93.028152 -0.055346429 -13.451241 -0.05543898 -13.432513 -33.345993 -107.06161
66943000 -32.876156 -93.49192 -0.053540912 -13.650304 -0.053979643 -13.634299 -33.247406 -107.32246
67942000 -32.841938 -93.443573 -0.055496663 -13.847934 -0.055812348 -13.834019 -33.115242 -107.59001
68941000 -32.726715 -93.57563 -0.055001941 -14.03943 -0.054924082 -14.031713 -33.021515 -107.51151
69940000 -32.62273 -93.608635 -0.055091862 -14.238731 -0.055819169 -14.232358 -32.876778 -107.94595
70939000 -32.516975 -93.565926 -0.055133548 -14.431493 -0.055638511 -14.42423 -32.736416 -107.86706
71938000 -32.383522 -93.174133 -0.055012167 -14.63095 -0.055609144 -14.625811 -32.614933 -107.73542
72937000 -32.215889 -93.052216 -0.054448295 -14.831347 -0.055128302 -14.824856 -32.477657 -107.47729
73936000 -32.081982 -92.759109 -0.0543078 -15.024183 -0.054297313 -15.020995 -32.352085 -107.3131
74935000 -31.957619 -93.042168 -0.053829726 -15.22049 -0.053482734 -15.220997 -32.189247 -107.00092
75934000 -31.834742 -93.316071 -0.053867467 -15.43531 -0.053541698 -15.424516 -32.118927 -106.9536
76933000 -31.710079 -93.728622 -0.055558801 -15.624049 -0.054863784 -15.619919 -31.943186 -107.30466
77932000 -31.604713 -94.519524 -0.055953156 -15.819886 -0.0566056 -15.814723 -31.839901 -107.42206
78931000 -31.546265 -95.303352 -0.054725897 -16.021391 -0.055468872 -16.015331 -31.754217 -107.27235
79930000 -31.43527 -96.16114 -0.057192042 -16.214905 -0.058423676 -16.211098 -31.657949 -107.53722
80929000 -31.315096 -97.135017 -0.058868669 -16.406816 -0.060078204 -16.404474 -31.541359 -107.93509
81928000 -31.227945 -97.914253 -0.058694709 -16.602625 -0.060643069 -16.597551 -31.428831 -107.98201
82927000 -31.135662 -98.649506 -0.060771432 -16.798168 -0.062132746 -16.795616 -31.318024 -108.25612
83926000 -31.025076 -99.388763 -0.061985698 -16.997261 -0.062404796 -16.992971 -31.202396 -108.51682
84925000 -30.921968 -99.82225 -0.063222103 -17.194391 -0.06281396 -17.190222 -31.118574 -108.63828
85924000 -30.831709 -100.24256 -0.063551486 -17.392832 -0.064057164 -17.39016 -31.027267 -108.60652
86923000 -30.731287 -100.75298 -0.06456133 -17.592972 -0.063874856 -17.58201 -30.933994 -108.54153
87922000 -30.622831 -101.14507 -0.063564099 -17.795185 -0.063604549 -17.789978 -30.843327 -108.60259
88921000 -30.553316 -101.52557 -0.065148845 -17.998255 -0.064743675 -17.994619 -30.744762 -108.62405
89920000 -30.463259 -101.97942 -0.065500453 -18.195461 -0.065029286 -18.188501 -30.698933 -108.79911
90919000 -30.354864 -102.34019 -0.066663206 -18.392029 -0.065735392 -18.383377 -30.615618 -108.97066
91918000 -30.263199 -102.67315 -0.067056201 -18.587835 -0.066413231 -18.583008 -30.540117 -109.0405
92917000 -30.17823 -103.04732 -0.06822674 -18.788774 -0.067671403 -18.784508 -30.486355 -109.09062
93916000 -30.094984 -103.40997 -0.067524694 -18.981661 -0.067598313 -18.976212 -30.398167 -109.69466
94915000 -30.017473 -104.03389 -0.069581971 -19.184357 -0.06870798 -19.175829 -30.334564 -109.5723
95914000 -29.957262 -104.27114 -0.070027322 -19.378445 -0.069413632 -19.372215 -30.25555 -109.8082
96913000 -29.869827 -104.55473 -0.070964731 -19.57794 -0.07002759 -19.573158 -30.182281 -110.20829
97912000 -29.797014 -104.97924 -0.071933143 -19.767969 -0.070721611 -19.772951 -30.101532 -110.48641
98911000 -29.698191 -105.2141 -0.072680645 -19.971493 -0.071698122 -19.969984 -30.060591 -110.67028
99910000 -29.629721 -105.39233 -0.073470399 -20.171532 -0.072030254 -20.171976 -29.953632 -110.96964
100909000 -29.539242 -105.61715 -0.072750397 -20.382721 -0.071023941 -20.369686 -29.871035 -111.20563
101908000 -29.454678 -105.9006 -0.073190808 -20.578697 -0.072327405 -20.577173 -29.756227 -110.95927
102907000 -29.322346 -105.8828 -0.073941953 -20.774366 -0.072695382 -20.775913 -29.687941 -110.92973
103906000 -29.226799 -106.0013 -0.074807525 -20.982891 -0.071777865 -20.976223 -29.537054 -110.8995
104905000 -29.085476 -105.88136 -0.075301871 -21.17728 -0.072787777 -21.183321 -29.40316 -110.56409
105904000 -28.942215 -106.0135 -0.075722784 -21.382412 -0.072581671 -21.375759 -29.293526 -110.4548
106903000 -28.838953 -106.05614 -0.075429089 -21.590649 -0.073196605 -21.583292 -29.167402 -110.35886
107902000 -28.67428 -106.43997 -0.076329991 -21.789455 -0.073896401 -21.778559 -29.02931 -110.31078
108901000 -28.56707 -106.71409 -0.077344127 -21.989616 -0.074870728 -21.981674 -28.899988 -110.23602
109900000 -28.440264 -107.20009 -0.077995844 -22.19108 -0.075955912 -22.178667 -28.747023 -110.35303
110899000 -28.322353 -107.8738 -0.079103157 -22.387308 -0.076754428 -22.377642 -28.62714 -110.63869
111898000 -28.243582 -108.51765 -0.08067777 -22.59186 -0.077597104 -22.581049 -28.504452 -110.79877
112897000 -28.107464 -109.08514 -0.082028717 -22.788925 -0.078872502 -22.777758 -28.370218 -110.97366
113896000 -28.005732 -109.68972 -0.082756326 -22.985971 -0.080299623 -22.972445 -28.26329 -111.15028
114895000 -27.911037 -110.34669 -0.083815776 -23.186701 -0.081821643 -23.169874 -28.155338 -111.21032
115894000 -27.784195 -110.71845 -0.085460208 -23.38043 -0.082555547 -23.369789 -28.083878 -111.40865
116893000 -27.699144 -111.28316 -0.085708909 -23.58025 -0.083712064 -23.562487 -27.954454 -111.51644
117892000 -27.620214 -111.78425 -0.08569359 -23.774786 -0.083681449 -23.761253 -27.883528 -111.74492
118891000 -27.559153 -112.19157 -0.086714938 -23.978952 -0.084576413 -23.964262 -27.787489 -111.87849
119890000 -27.469666 -112.52088 -0.086691961 -24.177385 -0.084749565 -24.160666 -27.775642 -112.02026
120889000 -27.419617 -113.05417 -0.088053502 -24.37723 -0.085026205 -24.362705 -27.702723 -112.00569
121888000 -27.375376 -113.36064 -0.087909266 -24.573006 -0.085834317 -24.561434 -27.631945 -112.25643
122887000 -27.339058 -113.61747 -0.089073285 -24.778427 -0.086437657 -24.766903 -27.597151 -112.28148
123886000 -27.282694 -113.98557 -0.08923658 -24.978149 -0.08665631 -24.960304 -27.584221 -112.43948
124885000 -27.245035 -114.50621 -0.090180784 -25.175913 -0.087572224 -25.162369 -27.554262 -112.52087
125884000 -27.198996 -114.72324 -0.091184944 -25.374063 -0.087593354 -25.363741 -27.518 -112.69856
126883000 -27.176603 -115.08801 -0.09060394 -25.577202 -0.088724785 -25.561337 -27.484411 -112.76044
127882000 -27.125425 -115.36351 -0.091456704 -25.774357 -0.088906825 -25.758167 -27.442923 -112.94138
128881000 -27.097565 -115.71516 -0.091297291 -25.979794 -0.088455573 -25.96113 -27.406096 -113.05575
129880000 -27.037991 -116.0088 -0.092083044 -26.179132 -0.08892294 -26.160473 -27.358541 -113.03837
130879000 -26.977814 -116.18166 -0.092060834 -26.380089 -0.089308448 -26.361914 -27.284929 -113.09182
131878000 -26.910677 -116.4155 -0.092419378 -26.580763 -0.090117089 -26.558897 -27.223318 -112.99011
132877000 -26.842682 -116.47553 -0.091440052 -26.780434 -0.089803129 -26.765957 -27.142296 -112.99922
133876000 -26.765038 -116.58537 -0.092627756 -26.980343 -0.090119734 -26.964205 -27.046045 -112.9371
134875000 -26.665857 -116.76506 -0.092613213 -27.18215 -0.090573274 -27.163025 -26.950665 -112.80657
135874000 -26.584349 -116.75716 -0.09274596 -27.382986 -0.090417594 -27.365572 -26.848825 -112.742
136873000 -26.467335 -116.70743 -0.093727171 -27.581608 -0.090352051 -27.56488 -26.757738 -112.7403
137872000 -26.392235 -116.82211 -0.092944831 -27.785749 -0.089967243 -27.773111 -26.657768 -112.70405
138871000 -26.320532 -117.04359 -0.093637235 -27.981428 -0.090962097 -27.965805 -26.553783 -112.91792
139870000 -26.219515 -117.30242 -0.094342455 -28.185532 -0.092314929 -28.165672 -26.479681 -113.03782
140869000 -26.136637 -117.72992 -0.095758796 -28.379211 -0.09330821 -28.363785 -26.367407 -113.21082
141868000 -26.041321 -118.22197 -0.096431538 -28.573437 -0.094310179 -28.556395 -26.298788 -113.52801
142867000 -25.962172 -118.4967 -0.094497479 -28.770857 -0.093044795 -28.754625 -26.220137 -113.7476
143866000 -25.893753 -118.98023 -0.0966454 -28.967539 -0.094082683 -28.950975 -26.148119 -114.21921
144865000 -25.83514 -119.55704 -0.097854912 -29.164143 -0.095219776 -29.146744 -26.087946 -114.51469
145864000 -25.78089 -119.80189 -0.098034948 -29.365391 -0.096251562 -29.352724 -26.05954 -114.80514
146863000 -25.73686 -120.21011 -0.098895535 -29.56415 -0.096880972 -29.552433 -26.005806 -115.11369
147862000 -25.694902 -120.58654 -0.099582538 -29.762375 -0.097298689 -29.749054 -25.968075 -115.46383
148861000 -25.660969 -121.09923 -0.099996537 -29.960567 -0.097377315 -29.944321 -25.949219 -115.66363
149860000 -25.648207 -121.28972 -0.10053457 -30.159159 -0.097481355 -30.146051 -25.911325 -115.84328
150859000 -25.62628 -121.65146 -0.10078625 -30.356892 -0.098662235 -30.340492 -25.904459 -116.08502
151858000 -25.607386 -121.96159 -0.10083341 -30.559816 -0.098595768 -30.540167 -25.89592 -116.38142
152857000 -25.593792 -122.27888 -0.10106523 -30.756584 -0.099201679 -30.740868 -25.876276 -116.53463
153856000 -25.581182 -122.53086 -0.10181008 -30.954405 -0.098640256 -30.938141 -25.89983 -116.81516
154855000 -25.579788 -122.68122 -0.10161558 -31.151369 -0.099007294 -31.138849 -25.882656 -117.04727
155854000 -25.595598 -122.93953 -0.10219038 -31.350706 -0.099409848 -31.334467 -25.87812 -117.29562
156853000 -25.576769 -123.63338 -0.10001508 -31.535425 -0.098010592 -31.529366 -25.870956 -117.58904
157852000 -25.576069 -123.84199 -0.1005539 -31.738291 -0.099655643 -31.730379 -25.864391 -117.92609
158851000 -25.572165 -124.0871 -0.10167017 -31.935987 -0.10030647 -31.925417 -25.845339 -118.19736
159850000 -25.558861 -124.21709 -0.10234701 -32.134644 -0.10008369 -32.126442 -25.841326 -118.40118
160849000 -25.539808 -124.32594 -0.10248536 -32.331142 -0.10143645 -32.326683 -25.811289 -118.65503
161848000 -25.521669 -124.41369 -0.10298526 -32.534534 -0.10125521 -32.525135 -25.768082 -118.77557
162847000 -25.479897 -124.64187 -0.10284715 -32.731888 -0.10183711 -32.724667 -25.741251 -119.02804
163846000 -25.433449 -124.842 -0.1029598 -32.935318 -0.10143698 -32.923912 -25.663677 -119.03687
164845000 -25.378347 -124.88127 -0.10341893 -33.130848 -0.10195424 -33.121513 -25.603502 -119.1233
165844000 -25.324051 -124.92766 -0.10321905 -33.328087 -0.10257521 -33.322426 -25.518116 -119.26333
166843000 -25.262474 -125.01563 -0.10312574 -33.528717 -0.10215354 -33.524799 -25.447783 -119.44894
167842000 -25.200176 -125.15103 -0.10336379 -33.723938 -0.10272337 -33.719509 -25.367386 -119.36411
168841000 -25.123837 -125.36021 -0.10397435 -33.92363 -0.10359337 -33.920773 -25.290586 -119.41097
169840000 -25.058481 -125.61478 -0.10386936 -34.119785 -0.10324609 -34.113132 -25.203562 -119.62583
170839000 -25.002493 -125.88234 -0.10509414 -34.31321 -0.10354777 -34.312809 -25.117397 -119.84795
171838000 -24.941101 -126.27003 -0.10486767 -34.520546 -0.10467514 -34.510948 -25.057379 -120.08353
172837000 -24.870926 -126.66528 -0.10638639 -34.711479 -0.10583252 -34.705845 -24.985495 -120.31193
173836000 -24.805599 -127.07854 -0.10704858 -34.913273 -0.10692228 -34.910641 -24.943893 -120.51982
174835000 -24.755966 -127.5151 -0.10757447 -35.106236 -0.10698119 -35.106625 -24.894587 -120.82899
175834000 -24.703878 -127.9288 -0.10852242 -35.304993 -0.10762754 -35.302525 -24.833431 -121.17391
176833000 -24.649384 -128.28256 -0.1090968 -35.501881 -0.10832389 -35.501282 -24.785799 -121.30732
177832000 -24.604763 -128.77753 -0.10969462 -35.698956 -0.10868962 -35.695496 -24.759459 -121.46254
178831000 -24.565838 -129.12543 -0.10979816 -35.897003 -0.10896646 -35.894615 -24.725597 -121.71329
179830000 -24.535044 -129.58043 -0.11026067 -36.092026 -0.1095433 -36.0919 -24.700396 -121.8325
180829000 -24.489187 -129.77762 -0.11068498 -36.288837 -0.1101518 -36.290119 -24.667053 -122.0026
181828000 -24.467678 -130.1306 -0.11108862 -36.48698 -0.1098486 -36.484535 -24.648943 -122.12139
182827000 -24.439199 -130.4601 -0.11068657 -36.682384 -0.11076942 -36.682674 -24.635721 -122.19447
183826000 -24.399282 -130.78772 -0.11264538 -36.878685 -0.11069401 -36.876087 -24.627028 -122.31284
184825000 -24.406626 -131.11057 -0.11182059 -37.075512 -0.11072056 -37.073689 -24.615391 -122.40224
185824000 -24.38245 -131.46957 -0.11174834 -37.269264 -0.11117732 -37.26873 -24.606516 -122.46191
186823000 -24.366407 -131.84872 -0.11178552 -37.468491 -0.11134198 -37.468563 -24.610247 -122.44044
187822000 -24.344149 -132.14473 -0.11244375 -37.664951 -0.11134145 -37.663635 -24.57431 -122.49629
188821000 -24.320745 -132.38728 -0.11216775 -37.860714 -0.11224346 -37.864491 -24.555922 -122.61713
189820000 -24.309584 -132.64668 -0.1125548 -38.065708 -0.11164581 -38.061024 -24.5478 -122.75962
190819000 -24.27968 -132.89537 -0.11404113 -38.262154 -0.11335635 -38.261059 -24.513157 -122.70164
191818000 -24.240635 -133.06438 -0.11517708 -38.455944 -0.11477838 -38.456211 -24.480898 -122.6314
192817000 -24.173532 -133.34789 -0.1156577 -38.638821 -0.1150043 -38.639904 -24.412241 -122.68635
193816000 -24.134748 -133.74004 -0.11491127 -38.830582 -0.11414557 -38.834328 -24.358013 -122.95515
194815000 -24.080193 -134.16934 -0.11402386 -39.030643 -0.11432841 -39.032608 -24.294003 -123.09015
195814000 -24.029491 -134.37373 -0.11465771 -39.229954 -0.11458967 -39.226673 -24.240185 -123.19219
196813000 -23.977448 -134.72252 -0.11453651 -39.420547 -0.11448655 -39.426357 -24.16774 -123.36281
197812000 -23.92234 -134.96651 -0.11473292 -39.623646 -0.11468747 -39.619461 -24.0916 -123.4591
198811000 -23.869865 -135.15425 -0.11441664 -39.815228 -0.11425559 -39.82093 -24.026749 -123.64639
199810000 -23.800198 -135.5033 -0.11480814 -40.010662 -0.11406558 -40.00935 -23.948109 -123.75035
200809000 -23.738605 -135.78616 -0.11471193 -40.205963 -0.11510371 -40.208038 -23.868208 -123.95409
201808000 -23.681015 -136.03505 -0.11555748 -40.407593 -0.11551256 -40.411961 -23.796677 -124.014
202807000 -23.62034 -136.38225 -0.1164843 -40.607735 -0.11612961 -40.611816 -23.74509 -124.26435
203806000 -23.570316 -136.82298 -0.1179914 -40.806904 -0.11669303 -40.808708 -23.679758 -124.40085
