!Keysight Technologies,E5080B,MY59205177,A.15.75.32
!Date: Friday, February 23, 2024 03:39:36
!Correction: S11(Cdelta 2-Port  ) 
!S21(Cdelta 2-Port  ) 
!S12(Cdelta 2-Port  ) 
!S22(Cdelta 2-Port  ) 
!S2P File: Measurements: S11, S21, S12, S22:
# Hz S  dB   R 50
10000000 -46.083996 -2.7219234 -0.014904022 -2.0446677 -0.018213194 -2.0942976 -45.928139 -157.58028
10999000 -45.301025 -4.7446189 -0.0162105 -2.2631443 -0.018105576 -2.3128378 -45.781662 -151.14838
11998000 -44.355408 -7.9518137 -0.016635079 -2.4857924 -0.017944416 -2.5308015 -45.986141 -146.89301
12997000 -43.589203 -13.368826 -0.015630603 -2.6674516 -0.017754931 -2.6991384 -45.566555 -141.078
13996000 -43.314014 -17.320206 -0.014049011 -2.8472428 -0.017702427 -2.8644664 -45.376251 -135.95801
14995000 -42.896435 -21.982292 -0.017206274 -3.0542936 -0.017287619 -3.0774806 -45.067947 -132.94475
15994000 -42.735821 -26.119431 -0.017995102 -3.2761471 -0.020235017 -3.2971015 -44.924927 -129.56204
16993000 -42.705502 -30.836058 -0.016853102 -3.4733665 -0.01930069 -3.4801455 -44.119884 -129.10095
17992000 -42.724377 -36.471535 -0.018024215 -3.6678348 -0.019595554 -3.6723404 -43.54126 -129.06715
18991000 -42.966675 -41.58493 -0.018734159 -3.8812127 -0.021270212 -3.8790796 -42.921059 -128.04428
19990000 -42.732952 -47.360447 -0.021146912 -4.0921669 -0.023187017 -4.0862675 -42.263691 -128.75346
20989000 -42.516388 -50.727089 -0.022808116 -4.2965322 -0.02483885 -4.2853289 -41.722298 -128.09633
21988000 -42.332912 -55.932022 -0.023762718 -4.4942245 -0.02538144 -4.4778819 -41.424118 -127.61285
22987000 -42.016815 -60.779846 -0.025500435 -4.6886692 -0.027045308 -4.6832099 -41.173935 -126.91245
23986000 -41.930912 -64.839226 -0.024378845 -4.8865242 -0.025128882 -4.8822002 -41.039524 -126.6462
24985000 -41.556446 -67.415916 -0.025703019 -5.0950737 -0.025743902 -5.0870233 -40.853283 -124.48281
25984000 -41.219028 -69.842247 -0.026478548 -5.3004293 -0.026401717 -5.3027854 -40.510036 -122.85726
26983000 -40.865326 -71.823158 -0.027147416 -5.5041304 -0.027162263 -5.5147781 -40.384899 -122.17401
27982000 -40.683411 -72.38147 -0.02863138 -5.6996031 -0.028940691 -5.7332287 -40.138031 -120.47058
28981000 -40.643505 -73.948181 -0.026501987 -5.8965549 -0.028794501 -5.9199381 -39.872925 -120.10886
29980000 -40.231361 -75.442688 -0.027063802 -6.0894046 -0.029030856 -6.0947957 -39.65844 -119.12286
30979000 -39.870682 -74.337967 -0.024430128 -6.4450636 -0.02384679 -6.4381671 -39.118095 -119.53606
31978000 -39.656853 -75.287651 -0.023496721 -6.6395493 -0.024587363 -6.6303587 -38.882851 -118.89775
32977000 -39.45446 -76.659195 -0.023476159 -6.8492575 -0.025494186 -6.844368 -38.639919 -118.75646
33976000 -39.290836 -77.823502 -0.02375517 -7.0507388 -0.026068369 -7.0458264 -38.352505 -118.20156
34975000 -39.010063 -78.705864 -0.023948822 -7.2491503 -0.026821565 -7.2486825 -38.13142 -117.88261
35974000 -38.795414 -79.191437 -0.022967115 -7.4444675 -0.026405364 -7.4485612 -37.866871 -116.96149
36973000 -38.555626 -79.979843 -0.023996716 -7.639513 -0.027300844 -7.6500521 -37.588154 -116.01785
37972000 -38.40012 -79.675568 -0.023461064 -7.8549919 -0.026754886 -7.8625751 -37.371758 -115.27839
38971000 -38.067673 -79.086105 -0.024303354 -8.0541592 -0.026687948 -8.0687351 -37.208851 -113.7698
39970000 -37.737885 -79.377007 -0.022684773 -8.251009 -0.025689999 -8.2662621 -36.958698 -113.03078
40969000 -37.456936 -79.058289 -0.023279926 -8.4441557 -0.025529338 -8.4644451 -36.717518 -111.68114
41968000 -37.134941 -78.870537 -0.023416299 -8.6489487 -0.026203789 -8.6674032 -36.516582 -110.36526
42967000 -36.862568 -79.080589 -0.023726279 -8.8622046 -0.026445212 -8.8782682 -36.343147 -108.68124
43966000 -36.557041 -79.735886 -0.024714146 -9.0655413 -0.028076658 -9.0803137 -36.066872 -107.89626
44965000 -36.345169 -80.509453 -0.025312701 -9.2720184 -0.028469829 -9.2859802 -35.854198 -107.6162
45964000 -36.096893 -81.546478 -0.026061859 -9.4649611 -0.0291979 -9.4848328 -35.637791 -107.34016
46963000 -35.891766 -83.38443 -0.026155612 -9.6578732 -0.029258622 -9.6829662 -35.464172 -107.55988
47962000 -35.738396 -84.804077 -0.028125379 -9.8611879 -0.030563168 -9.8796339 -35.251797 -107.55238
48961000 -35.509995 -86.123833 -0.03017815 -10.059406 -0.032629609 -10.081391 -35.02681 -107.66256
49960000 -35.294682 -87.447899 -0.03078554 -10.256853 -0.033123616 -10.282152 -34.892262 -107.91752
50959000 -35.066761 -88.702927 -0.031956509 -10.470644 -0.034634151 -10.48201 -34.708694 -108.07921
51958000 -34.858868 -89.777725 -0.033768203 -10.670553 -0.03576022 -10.680759 -34.531174 -108.60947
52957000 -34.63456 -90.880371 -0.035183188 -10.868005 -0.037462797 -10.877779 -34.374443 -108.37856
53956000 -34.470661 -91.542221 -0.036311228 -11.076586 -0.037999917 -11.074828 -34.248661 -108.34268
54955000 -34.304394 -91.947441 -0.037144262 -11.271702 -0.039435349 -11.270617 -34.098557 -108.3195
55954000 -34.129166 -92.802582 -0.037740879 -11.473689 -0.039658699 -11.472907 -33.985458 -107.99895
56953000 -34.018509 -92.841843 -0.037280813 -11.675494 -0.037917659 -11.66268 -33.917336 -108.23991
57952000 -33.853504 -93.324226 -0.038416706 -11.874765 -0.03869433 -11.863448 -33.807476 -108.33687
58951000 -33.729614 -93.716019 -0.039458338 -12.076942 -0.039349671 -12.052736 -33.65966 -108.40805
59950000 -33.617058 -94.099052 -0.041210707 -12.272773 -0.040720224 -12.253154 -33.58036 -108.60408
60949000 -33.493713 -94.672455 -0.041052345 -12.477685 -0.041274995 -12.456007 -33.493736 -108.92529
61948000 -33.431385 -94.971436 -0.041159488 -12.675848 -0.040434372 -12.662815 -33.396969 -108.98809
62947000 -33.335781 -95.178078 -0.041300084 -12.886251 -0.041165762 -12.868232 -33.262108 -109.27982
63946000 -33.261829 -95.99675 -0.043129276 -13.085059 -0.042343974 -13.068532 -33.1646 -109.40788
64945000 -33.159821 -96.121674 -0.043180261 -13.28916 -0.043283533 -13.269336 -33.044567 -109.91225
65944000 -33.05714 -96.45285 -0.044184852 -13.487623 -0.043454263 -13.471704 -32.948856 -110.31149
66943000 -32.919521 -96.759514 -0.041322559 -13.69049 -0.041547574 -13.67319 -32.836395 -110.54807
67942000 -32.85516 -96.739517 -0.043651149 -13.886464 -0.043819804 -13.875983 -32.714027 -110.86638
68941000 -32.756195 -96.853882 -0.043463416 -14.078671 -0.043184705 -14.072307 -32.615002 -110.76587
69940000 -32.645195 -96.765808 -0.043747112 -14.275237 -0.043570615 -14.267523 -32.475208 -111.09011
70939000 -32.540619 -96.734367 -0.043520153 -14.475799 -0.043375302 -14.465241 -32.337742 -110.93999
71938000 -32.409439 -96.32148 -0.043744758 -14.674863 -0.043161437 -14.664218 -32.218895 -110.86541
72937000 -32.251751 -96.116661 -0.042368282 -14.873152 -0.042807978 -14.86617 -32.074924 -110.51279
73936000 -32.118488 -95.822334 -0.042267386 -15.067421 -0.042575836 -15.064617 -31.965719 -110.28267
74935000 -31.994396 -96.024055 -0.041332226 -15.265757 -0.041393381 -15.264811 -31.814081 -110.0604
75934000 -31.86504 -96.263222 -0.041536856 -15.473944 -0.041181702 -15.463817 -31.728584 -109.88738
76933000 -31.732723 -96.591187 -0.042796213 -15.669559 -0.043447465 -15.664665 -31.560289 -110.25272
77932000 -31.633389 -97.373314 -0.044287104 -15.865937 -0.044357188 -15.859638 -31.455626 -110.24265
78931000 -31.565397 -98.057663 -0.043211371 -16.063177 -0.043219216 -16.060461 -31.360401 -110.11037
79930000 -31.447304 -98.934052 -0.045320462 -16.255705 -0.046188194 -16.255102 -31.261898 -110.33422
80929000 -31.335899 -99.71534 -0.047018681 -16.453407 -0.048067871 -16.452629 -31.164097 -110.57935
81928000 -31.230272 -100.45211 -0.04695823 -16.644791 -0.048407361 -16.643122 -31.033663 -110.54497
82927000 -31.133049 -101.24976 -0.048952382 -16.843992 -0.048887197 -16.84371 -30.925116 -110.88253
83926000 -31.015179 -101.78093 -0.050182465 -17.042585 -0.050709374 -17.04928 -30.807077 -111.11017
84925000 -30.909925 -102.27606 -0.051086791 -17.241383 -0.050350327 -17.237938 -30.71435 -111.13737
85924000 -30.817486 -102.69456 -0.052077755 -17.446375 -0.052400008 -17.441881 -30.628273 -111.05984
86923000 -30.712553 -103.17124 -0.052276343 -17.64052 -0.052575551 -17.637213 -30.522154 -110.99887
87922000 -30.600313 -103.43624 -0.051658865 -17.848812 -0.052131202 -17.839485 -30.444616 -110.9949
88921000 -30.526423 -103.73211 -0.052352324 -18.045351 -0.05323299 -18.04344 -30.343964 -111.04442
89920000 -30.423693 -104.27357 -0.053533312 -18.240061 -0.052876875 -18.237743 -30.295948 -111.1474
90919000 -30.318331 -104.5521 -0.053947929 -18.442709 -0.054187227 -18.43701 -30.202152 -111.33098
91918000 -30.22942 -104.87431 -0.054918837 -18.642895 -0.055381827 -18.640041 -30.135977 -111.36844
92917000 -30.140493 -105.19613 -0.056045197 -18.838921 -0.055333585 -18.836786 -30.075975 -111.44017
93916000 -30.053122 -105.54599 -0.055515017 -19.032665 -0.055441342 -19.029419 -29.982248 -112.04324
94915000 -29.970751 -106.17982 -0.05731637 -19.235733 -0.056199122 -19.230974 -29.925785 -111.90263
95914000 -29.902376 -106.39695 -0.058312695 -19.429102 -0.057247125 -19.429018 -29.832859 -112.21507
96913000 -29.814234 -106.58324 -0.059105091 -19.630882 -0.058298003 -19.62886 -29.768024 -112.51032
97912000 -29.737942 -107.08534 -0.060099728 -19.826359 -0.058374874 -19.826702 -29.690578 -112.76177
98911000 -29.636557 -107.20793 -0.060559068 -20.030176 -0.059801575 -20.026968 -29.639109 -112.93658
99910000 -29.560108 -107.31701 -0.061475273 -20.224562 -0.059959836 -20.23074 -29.535139 -113.24373
100909000 -29.477077 -107.60619 -0.061087765 -20.437437 -0.059950385 -20.430586 -29.450441 -113.43842
101908000 -29.381245 -107.8359 -0.062200759 -20.634491 -0.061263137 -20.631342 -29.338936 -113.2507
102907000 -29.25518 -107.77349 -0.062756702 -20.83811 -0.061416987 -20.839348 -29.273726 -113.22951
103906000 -29.156977 -107.82906 -0.062933192 -21.045511 -0.060464833 -21.035954 -29.124176 -113.17184
104905000 -29.016922 -107.78167 -0.063041404 -21.239876 -0.061364215 -21.243809 -29.002363 -112.88834
105904000 -28.87429 -107.83231 -0.063548073 -21.44186 -0.061247122 -21.432037 -28.889997 -112.71421
106903000 -28.76478 -107.91216 -0.063593514 -21.648003 -0.060945742 -21.644545 -28.762682 -112.64367
107902000 -28.592913 -108.15734 -0.064731322 -21.848143 -0.06188697 -21.838797 -28.629944 -112.59489
108901000 -28.488661 -108.41891 -0.064866379 -22.048588 -0.063664705 -22.045336 -28.504595 -112.52708
109900000 -28.351788 -108.91637 -0.066125683 -22.250774 -0.064903952 -22.240463 -28.34886 -112.58404
110899000 -28.24324 -109.50333 -0.067376152 -22.448374 -0.065002486 -22.440344 -28.230246 -112.88687
111898000 -28.151545 -110.13933 -0.068745583 -22.648851 -0.066021338 -22.646847 -28.11179 -112.9972
112897000 -28.019453 -110.694 -0.070725039 -22.846487 -0.067544937 -22.837896 -27.978165 -113.16203
113896000 -27.91571 -111.24194 -0.071617857 -23.046398 -0.068998851 -23.037809 -27.869457 -113.28568
114895000 -27.812916 -111.9333 -0.07262221 -23.249552 -0.070027851 -23.23217 -27.754345 -113.39371
115894000 -27.696611 -112.24049 -0.073352717 -23.449368 -0.070573226 -23.43531 -27.694614 -113.55409
116893000 -27.615746 -112.74082 -0.074267671 -23.646315 -0.072179221 -23.629789 -27.567661 -113.61012
117892000 -27.529758 -113.249 -0.074527316 -23.844053 -0.072580881 -23.832825 -27.491207 -113.79696
118891000 -27.474319 -113.60394 -0.074607372 -24.040829 -0.072486386 -24.029102 -27.397034 -113.95445
119890000 -27.387871 -114.02173 -0.075759396 -24.24464 -0.073621526 -24.230915 -27.384905 -114.09119
120889000 -27.338959 -114.51273 -0.076726764 -24.440454 -0.073135264 -24.430658 -27.306143 -114.07455
121888000 -27.296379 -114.8371 -0.076554984 -24.643148 -0.074581042 -24.628258 -27.249716 -114.3228
122887000 -27.253553 -114.99662 -0.077521741 -24.845484 -0.073895611 -24.830307 -27.197569 -114.32912
123886000 -27.198298 -115.43729 -0.077893846 -25.047005 -0.075536296 -25.026745 -27.182695 -114.4744
124885000 -27.16268 -115.93571 -0.078337416 -25.246105 -0.07567168 -25.234468 -27.153471 -114.57024
125884000 -27.115131 -116.15862 -0.079332508 -25.444939 -0.07578969 -25.433746 -27.127115 -114.65807
126883000 -27.09865 -116.51328 -0.079366781 -25.647301 -0.076846652 -25.633511 -27.090322 -114.6805
127882000 -27.048502 -116.81066 -0.079516269 -25.847227 -0.077072985 -25.830456 -27.046165 -114.84533
128881000 -27.021599 -117.15086 -0.080177531 -26.045809 -0.077189714 -26.032475 -27.008049 -114.88033
129880000 -26.962908 -117.50684 -0.080916174 -26.248396 -0.07743188 -26.231606 -26.97184 -114.87334
130879000 -26.901506 -117.60268 -0.080595225 -26.448843 -0.078021668 -26.43367 -26.896055 -114.9247
131878000 -26.835844 -117.84677 -0.080582306 -26.652393 -0.078326873 -26.633846 -26.835945 -114.75434
132877000 -26.777458 -117.88985 -0.080716796 -26.855711 -0.079212032 -26.837908 -26.757858 -114.75917
133876000 -26.690907 -118.08681 -0.080830462 -27.055965 -0.078644224 -27.035261 -26.666761 -114.61176
134875000 -26.593878 -118.19586 -0.081444718 -27.254519 -0.078878298 -27.236551 -26.570366 -114.42929
135874000 -26.514038 -118.21789 -0.080926985 -27.45112 -0.079023547 -27.441841 -26.473148 -114.38643
136873000 -26.404528 -118.15483 -0.081331827 -27.658379 -0.079062559 -27.640757 -26.391317 -114.31194
137872000 -26.324982 -118.23779 -0.081493512 -27.861757 -0.078999557 -27.849829 -26.293419 -114.23234
138871000 -26.252296 -118.49425 -0.082194649 -28.058853 -0.079718225 -28.046495 -26.197638 -114.36796
139870000 -26.152311 -118.76308 -0.08266636 -28.257103 -0.079769105 -28.243399 -26.118753 -114.58006
140869000 -26.074547 -119.32857 -0.083140492 -28.458435 -0.080929622 -28.436502 -26.02253 -114.80074
141868000 -25.995842 -119.72511 -0.08408127 -28.653376 -0.081397764 -28.640722 -25.972441 -115.02265
142867000 -25.915524 -119.88612 -0.083410963 -28.853073 -0.081311256 -28.834887 -25.89242 -115.15467
143866000 -25.839741 -120.38506 -0.085232906 -29.049345 -0.082232371 -29.03396 -25.818626 -115.63715
144865000 -25.788845 -120.91469 -0.086445317 -29.248018 -0.083999455 -29.235945 -25.767124 -115.89457
145864000 -25.735065 -121.2148 -0.086960271 -29.448214 -0.084648736 -29.436937 -25.734947 -116.17984
146863000 -25.688972 -121.57395 -0.087989576 -29.649296 -0.085292302 -29.638489 -25.690725 -116.45967
147862000 -25.649517 -121.91665 -0.088786878 -29.850161 -0.085638151 -29.831631 -25.655088 -116.7747
148861000 -25.618944 -122.36847 -0.089572169 -30.044128 -0.086933598 -30.033951 -25.631516 -116.95401
149860000 -25.587639 -122.56618 -0.090975054 -30.236557 -0.087323152 -30.221836 -25.58098 -117.03677
150859000 -25.56539 -122.99623 -0.090038069 -30.433168 -0.087458648 -30.422571 -25.566381 -117.37336
151858000 -25.554245 -123.32878 -0.089837223 -30.634714 -0.087729119 -30.619541 -25.552956 -117.73524
152857000 -25.536535 -123.66942 -0.090302624 -30.833864 -0.087495364 -30.819891 -25.539675 -117.87891
153856000 -25.536665 -123.88524 -0.090135589 -31.034676 -0.086882368 -31.01717 -25.556026 -118.22226
154855000 -25.533693 -124.08637 -0.090560585 -31.233915 -0.087358281 -31.222355 -25.548311 -118.47212
155854000 -25.555342 -124.31159 -0.090578564 -31.433046 -0.087821044 -31.419771 -25.536596 -118.74269
156853000 -25.536663 -125.02436 -0.08827699 -31.621981 -0.086966872 -31.615389 -25.536446 -119.06274
157852000 -25.548561 -125.18941 -0.089391947 -31.824993 -0.089228652 -31.816811 -25.522669 -119.41045
158851000 -25.54353 -125.44712 -0.090041503 -32.021271 -0.08850392 -32.01236 -25.506094 -119.66833
159850000 -25.532309 -125.55098 -0.090663671 -32.219364 -0.08886455 -32.213139 -25.510019 -119.86766
160849000 -25.519222 -125.65369 -0.090859272 -32.419994 -0.089901969 -32.415394 -25.479612 -120.14845
161848000 -25.504913 -125.71705 -0.090815656 -32.620132 -0.089946896 -32.615135 -25.443661 -120.21471
162847000 -25.458982 -125.88065 -0.090835482 -32.817657 -0.089781992 -32.814392 -25.41576 -120.50715
163846000 -25.421021 -126.07741 -0.091613218 -33.020275 -0.089699008 -33.01384 -25.337147 -120.47279
164845000 -25.36681 -126.08791 -0.091516986 -33.215298 -0.09048605 -33.215656 -25.273035 -120.59594
165844000 -25.311882 -126.11118 -0.091472037 -33.418453 -0.091102995 -33.413624 -25.194885 -120.71033
166843000 -25.25358 -126.13857 -0.091417581 -33.617016 -0.091271125 -33.618046 -25.129519 -120.88913
167842000 -25.18972 -126.22579 -0.091968022 -33.81715 -0.09153337 -33.811039 -25.05225 -120.80773
168841000 -25.118435 -126.40778 -0.09276817 -34.017155 -0.091011532 -34.012135 -24.979292 -120.8521
169840000 -25.052313 -126.62833 -0.092307262 -34.215405 -0.09164124 -34.209911 -24.896173 -121.05281
170839000 -24.995361 -126.88172 -0.093269594 -34.411659 -0.092205994 -34.407524 -24.813541 -121.19569
171838000 -24.935831 -127.25276 -0.093585134 -34.614109 -0.093405537 -34.607189 -24.747908 -121.43515
172837000 -24.863611 -127.57455 -0.095134042 -34.808956 -0.09413559 -34.802521 -24.68689 -121.66448
173836000 -24.800356 -128.0002 -0.096587963 -35.009529 -0.095361598 -35.005249 -24.643526 -121.86511
174835000 -24.747858 -128.39584 -0.096401364 -35.206184 -0.096030049 -35.204441 -24.603235 -122.16957
175834000 -24.698757 -128.75635 -0.097168714 -35.40464 -0.096734069 -35.401459 -24.541851 -122.44409
176833000 -24.643671 -129.10825 -0.09833812 -35.603214 -0.097804606 -35.601524 -24.494352 -122.57133
177832000 -24.592482 -129.53665 -0.099211745 -35.801094 -0.098461248 -35.801956 -24.47101 -122.71141
178831000 -24.560274 -129.75322 -0.10102046 -35.999023 -0.10020872 -35.996075 -24.435923 -122.79197
179830000 -24.48349 -130.16322 -0.10176504 -36.179855 -0.10116725 -36.18795 -24.364969 -122.85553
180829000 -24.436642 -130.50304 -0.10119957 -36.374836 -0.10035893 -36.376591 -24.325727 -123.20576
181828000 -24.412163 -130.95851 -0.10038992 -36.576687 -0.099571414 -36.574959 -24.311731 -123.40314
182827000 -24.386826 -131.3183 -0.10013323 -36.775028 -0.099887669 -36.774017 -24.294502 -123.51569
183826000 -24.342665 -131.61734 -0.10106709 -36.974415 -0.099200889 -36.970081 -24.284266 -123.67229
184825000 -24.349413 -131.96877 -0.1006755 -37.16687 -0.099661469 -37.170837 -24.262053 -123.77705
185824000 -24.321045 -132.32228 -0.1000519 -37.364136 -0.10032581 -37.372681 -24.25812 -123.87028
186823000 -24.301517 -132.68326 -0.10078042 -37.56546 -0.10026541 -37.565968 -24.256632 -123.90154
187822000 -24.279243 -133.03601 -0.10133231 -37.759754 -0.10059046 -37.761402 -24.213755 -123.96322
188821000 -24.255541 -133.28897 -0.10112538 -37.955673 -0.10078201 -37.961945 -24.195667 -124.11421
189820000 -24.233082 -133.5899 -0.1011434 -38.155319 -0.10048582 -38.156982 -24.1805 -124.28491
190819000 -24.202055 -133.8985 -0.10205283 -38.35397 -0.10135802 -38.352489 -24.137917 -124.33387
191818000 -24.16931 -134.19563 -0.10234541 -38.550091 -0.10185381 -38.553459 -24.108564 -124.3665
192817000 -24.124256 -134.45212 -0.10251769 -38.747761 -0.10187899 -38.749435 -24.064953 -124.44542
193816000 -24.090883 -134.70509 -0.10281826 -38.945423 -0.10178994 -38.944771 -24.012003 -124.61019
194815000 -24.03194 -135.09029 -0.10315225 -39.140839 -0.10260224 -39.140808 -23.949518 -124.64949
195814000 -23.976339 -135.28281 -0.10375217 -39.337242 -0.10281004 -39.336956 -23.8904 -124.72779
196813000 -23.919764 -135.62624 -0.10321322 -39.530731 -0.10221979 -39.533241 -23.814753 -124.88468
197812000 -23.868183 -135.83662 -0.1033288 -39.730167 -0.1037527 -39.725426 -23.743658 -125.00641
198811000 -23.806936 -135.97198 -0.10390992 -39.925251 -0.10303774 -39.931458 -23.674435 -125.15621
199810000 -23.739611 -136.34076 -0.10352205 -40.120689 -0.10244719 -40.11898 -23.593479 -125.23997
200809000 -23.681068 -136.5625 -0.1039762 -40.319336 -0.10365912 -40.317928 -23.521437 -125.41843
201808000 -23.623327 -136.77698 -0.10494139 -40.517773 -0.10431559 -40.519623 -23.452105 -125.47197
202807000 -23.568647 -137.10609 -0.10596462 -40.720547 -0.10481304 -40.725376 -23.398014 -125.68127
