!Keysight Technologies,E5080B,MY59205177,A.15.75.32
!Date: Friday, February 23, 2024 03:01:17
!Correction: S11(Cdelta 2-Port  ) 
!S21(Cdelta 2-Port  ) 
!S12(Cdelta 2-Port  ) 
!S22(Cdelta 2-Port  ) 
!S2P File: Measurements: S11, S21, S12, S22:
# Hz S  dB   R 50
10000000 -44.137066 -3.8854172 -0.027675187 -2.0400858 -0.031021742 -2.0927289 -48.084126 -150.50075
10999000 -43.502392 -5.452178 -0.028318444 -2.2555842 -0.030756865 -2.3109682 -47.748417 -142.76091
11998000 -42.708073 -8.2979574 -0.029428283 -2.4779201 -0.030435434 -2.5245759 -47.879326 -137.15346
12997000 -42.098118 -12.7844 -0.027887251 -2.6609368 -0.030511292 -2.6914511 -47.216892 -130.89487
13996000 -41.857704 -15.940755 -0.027436301 -2.8351531 -0.030008459 -2.8611026 -46.816383 -125.45462
14995000 -41.551617 -19.931559 -0.02919347 -3.0462792 -0.030252961 -3.0729942 -46.416847 -122.15897
15994000 -41.410725 -23.560829 -0.031121597 -3.2634122 -0.032617874 -3.288537 -46.18161 -118.01676
16993000 -41.386173 -27.644566 -0.029235167 -3.4585166 -0.031712431 -3.4685028 -45.257381 -119.45067
17992000 -41.451794 -32.116306 -0.030401023 -3.6590815 -0.032282222 -3.6634681 -44.589554 -119.94381
18991000 -41.747055 -36.892136 -0.030607486 -3.8700385 -0.033275429 -3.8676424 -43.961414 -119.26091
19990000 -41.600071 -41.664581 -0.033059452 -4.0760479 -0.034652941 -4.0741105 -43.215027 -120.98737
20989000 -41.550144 -44.749233 -0.035704888 -4.2751665 -0.037341386 -4.2691545 -42.612164 -120.62878
21988000 -41.441483 -49.514236 -0.035843741 -4.4782286 -0.037977982 -4.4655004 -42.337585 -120.34454
22987000 -41.215237 -53.776546 -0.036936447 -4.6745558 -0.038761452 -4.6672716 -42.08968 -119.90091
23986000 -41.197624 -57.489246 -0.037108496 -4.8670673 -0.037616327 -4.8697691 -41.962597 -119.61938
24985000 -40.867119 -60.089573 -0.037960745 -5.0792203 -0.037394125 -5.0796275 -41.697659 -117.19843
25984000 -40.634983 -62.259388 -0.038481738 -5.2870536 -0.038344629 -5.2870936 -41.341709 -116.01336
26983000 -40.349686 -64.333946 -0.03987579 -5.4814072 -0.039827723 -5.4997659 -41.230782 -115.25438
27982000 -40.206417 -65.229454 -0.040828142 -5.6804066 -0.041302174 -5.7178383 -40.897369 -113.48341
28981000 -40.178246 -66.587746 -0.03878966 -5.8786321 -0.040142011 -5.9040236 -40.67038 -113.00437
29980000 -39.828529 -67.939926 -0.038399994 -6.069706 -0.040814552 -6.0768523 -40.372513 -111.91097
30979000 -39.468124 -67.388191 -0.036503613 -6.4252677 -0.03586619 -6.4182305 -39.862812 -113.04346
31978000 -39.264164 -68.487244 -0.035268001 -6.6192479 -0.036497608 -6.6098027 -39.589668 -112.38375
32977000 -39.085217 -69.996323 -0.035926219 -6.8310757 -0.036775108 -6.8259535 -39.328472 -112.59447
33976000 -38.965096 -71.251724 -0.036530498 -7.0313859 -0.037361491 -7.0257945 -39.025429 -112.0876
34975000 -38.673019 -72.169067 -0.036350641 -7.2307959 -0.038720708 -7.2289629 -38.773952 -111.998
35974000 -38.507046 -72.859879 -0.036235526 -7.4215317 -0.038510464 -7.4276381 -38.475872 -111.40082
36973000 -38.278439 -73.671753 -0.036003742 -7.6237044 -0.03875022 -7.6242056 -38.172424 -110.37876
37972000 -38.109253 -73.630165 -0.036472026 -7.8323307 -0.038679443 -7.8418255 -37.960434 -109.84061
38971000 -37.762012 -73.341522 -0.036661286 -8.0361509 -0.039043274 -8.0446539 -37.765575 -108.32423
39970000 -37.450108 -73.966667 -0.035690796 -8.2314396 -0.037973281 -8.2430449 -37.493435 -107.84796
40969000 -37.184788 -73.847618 -0.036120676 -8.421277 -0.037906691 -8.4371328 -37.206223 -106.49715
41968000 -36.839745 -73.942612 -0.036129553 -8.6282148 -0.038097061 -8.6429977 -37.016167 -105.49636
42967000 -36.576454 -74.212776 -0.035975814 -8.8382149 -0.038100716 -8.8543825 -36.77906 -103.74619
43966000 -36.323742 -75.231499 -0.035959106 -9.037818 -0.03951868 -9.0557375 -36.495823 -103.08694
44965000 -36.084705 -76.024719 -0.036948193 -9.2433348 -0.03933426 -9.2563477 -36.256725 -103.10102
45964000 -35.872913 -77.119667 -0.038069379 -9.4412937 -0.040876221 -9.4553461 -36.021397 -102.97576
46963000 -35.6954 -79.172523 -0.038529269 -9.6334133 -0.040619101 -9.6569834 -35.8498 -103.26614
47962000 -35.549015 -80.736687 -0.039717477 -9.8330288 -0.04244069 -9.8516045 -35.64167 -103.48121
48961000 -35.340481 -82.105904 -0.041877668 -10.031234 -0.043985851 -10.051439 -35.416046 -103.78174
49960000 -35.135139 -83.575211 -0.043102089 -10.230251 -0.045196217 -10.24975 -35.268909 -103.9856
50959000 -34.922985 -84.98175 -0.043245882 -10.445131 -0.046217497 -10.452277 -35.092262 -104.38492
51958000 -34.735844 -86.04525 -0.045763072 -10.63903 -0.047523223 -10.650692 -34.921131 -104.83555
52957000 -34.531219 -87.202431 -0.047130939 -10.836959 -0.048256591 -10.845851 -34.762108 -104.75925
53956000 -34.378944 -87.933273 -0.048178587 -11.041046 -0.049487785 -11.036738 -34.628422 -104.757
54955000 -34.213726 -88.423859 -0.048798975 -11.243366 -0.049525488 -11.238932 -34.48111 -104.78196
55954000 -34.072472 -89.323753 -0.050204985 -11.444029 -0.050839543 -11.436777 -34.35923 -104.51698
56953000 -33.945972 -89.461014 -0.049814817 -11.637061 -0.049870331 -11.627714 -34.280514 -104.77449
57952000 -33.788261 -90.028694 -0.050732948 -11.834201 -0.050630543 -11.827996 -34.175854 -104.87377
58951000 -33.68063 -90.379471 -0.052042652 -12.042117 -0.052324552 -12.020107 -34.024601 -105.01687
59950000 -33.542557 -90.660324 -0.052116267 -12.242785 -0.052800626 -12.216969 -33.966972 -105.25097
60949000 -33.433178 -91.365608 -0.052100811 -12.440113 -0.053167742 -12.423528 -33.864799 -105.50082
61948000 -33.382763 -91.668411 -0.053258933 -12.640388 -0.051830452 -12.622621 -33.789803 -105.62769
62947000 -33.298294 -91.852707 -0.052543584 -12.851067 -0.052956011 -12.83073 -33.64809 -105.89271
63946000 -33.221859 -92.560684 -0.053801943 -13.0474 -0.054147385 -13.0286 -33.544701 -105.99493
64945000 -33.126453 -92.758102 -0.054611079 -13.254439 -0.055139575 -13.231968 -33.425884 -106.61289
65944000 -33.02951 -93.038315 -0.055079803 -13.450679 -0.055679675 -13.430858 -33.336304 -107.06136
66943000 -32.879433 -93.553467 -0.053501341 -13.651059 -0.053541437 -13.634529 -33.233673 -107.25722
67942000 -32.826286 -93.468277 -0.055538613 -13.844712 -0.055743128 -13.834623 -33.124599 -107.65643
68941000 -32.718937 -93.591873 -0.054753158 -14.043384 -0.054184344 -14.026423 -33.006001 -107.64284
69940000 -32.62466 -93.554321 -0.055736046 -14.238572 -0.055757809 -14.227861 -32.870975 -107.92652
70939000 -32.517635 -93.563148 -0.055534419 -14.434961 -0.056117047 -14.426606 -32.737633 -107.83876
71938000 -32.37151 -93.18605 -0.055822577 -14.629301 -0.055258341 -14.625219 -32.611168 -107.76639
72937000 -32.209358 -93.046844 -0.054481063 -14.831242 -0.054219991 -14.822182 -32.465977 -107.50353
73936000 -32.069084 -92.732704 -0.054895505 -15.023462 -0.054847531 -15.015688 -32.341396 -107.25262
74935000 -31.955484 -93.018105 -0.054027867 -15.220916 -0.053809542 -15.215638 -32.189323 -106.99162
75934000 -31.835161 -93.340332 -0.054412648 -15.430224 -0.053630803 -15.427236 -32.112732 -106.93107
76933000 -31.698248 -93.7407 -0.054807425 -15.622347 -0.054464549 -15.618852 -31.940269 -107.37364
77932000 -31.599691 -94.549965 -0.056235049 -15.820795 -0.056131732 -15.813741 -31.841427 -107.34745
78931000 -31.546581 -95.231529 -0.055496402 -16.01705 -0.055377368 -16.014109 -31.736465 -107.19081
79930000 -31.433603 -96.132469 -0.057575531 -16.212324 -0.05797112 -16.213579 -31.648787 -107.56572
80929000 -31.316704 -97.013901 -0.05965697 -16.407787 -0.059328143 -16.40226 -31.545835 -107.87908
81928000 -31.237831 -97.848366 -0.058804646 -16.601883 -0.059765358 -16.596449 -31.42474 -107.94436
82927000 -31.135273 -98.600761 -0.061216667 -16.798391 -0.061076738 -16.796808 -31.32309 -108.31145
83926000 -31.022362 -99.353561 -0.062467825 -16.996939 -0.062097035 -16.996515 -31.2139 -108.5494
84925000 -30.922251 -99.814545 -0.063349493 -17.196606 -0.061881717 -17.189081 -31.110703 -108.60464
85924000 -30.83522 -100.26193 -0.063403867 -17.398277 -0.06351734 -17.393032 -31.02788 -108.62555
86923000 -30.733482 -100.76124 -0.063938424 -17.591465 -0.063692018 -17.587128 -30.92754 -108.54789
87922000 -30.626711 -101.19666 -0.063599817 -17.795849 -0.063026167 -17.791307 -30.844654 -108.59483
88921000 -30.555977 -101.47243 -0.064406052 -17.993536 -0.064806469 -17.988064 -30.749269 -108.58347
89920000 -30.456015 -102.03336 -0.065854445 -18.194519 -0.06532044 -18.185236 -30.689911 -108.7746
90919000 -30.358892 -102.31936 -0.0661107 -18.389662 -0.065599002 -18.38006 -30.612215 -108.98717
91918000 -30.259762 -102.67556 -0.067149527 -18.58934 -0.06645266 -18.585249 -30.543787 -108.98698
92917000 -30.173855 -103.09084 -0.068166785 -18.787306 -0.067980617 -18.783112 -30.484634 -109.03758
93916000 -30.096033 -103.4383 -0.067433462 -18.979748 -0.066936858 -18.97562 -30.389734 -109.71398
94915000 -30.021826 -104.07732 -0.068908118 -19.180449 -0.068300106 -19.174833 -30.328686 -109.5905
95914000 -29.955908 -104.31161 -0.069886588 -19.376774 -0.069231093 -19.372484 -30.247499 -109.85492
96913000 -29.865868 -104.49354 -0.070696093 -19.575928 -0.070101246 -19.572739 -30.184147 -110.18266
97912000 -29.802097 -104.99328 -0.071806289 -19.77103 -0.070293032 -19.77054 -30.107115 -110.46809
98911000 -29.692364 -105.20679 -0.072500072 -19.973173 -0.071397595 -19.971529 -30.061718 -110.67896
99910000 -29.629286 -105.35032 -0.073316649 -20.172396 -0.072086841 -20.167452 -29.954243 -110.97367
100909000 -29.540216 -105.62899 -0.072986528 -20.379892 -0.07096 -20.36853 -29.866404 -111.19437
101908000 -29.460119 -105.89709 -0.073510945 -20.580069 -0.07230556 -20.575785 -29.75148 -110.95338
102907000 -29.324085 -105.89967 -0.074406184 -20.779848 -0.072536133 -20.773056 -29.674595 -110.90533
103906000 -29.226852 -105.98792 -0.074282423 -20.982477 -0.07199578 -20.976902 -29.536623 -110.90864
104905000 -29.079647 -105.87221 -0.074695334 -21.181458 -0.072857797 -21.181421 -29.414688 -110.58617
105904000 -28.940451 -106.01695 -0.075170971 -21.379295 -0.072808571 -21.376038 -29.294724 -110.47335
106903000 -28.829378 -106.13598 -0.0751312 -21.586327 -0.07294441 -21.580111 -29.157593 -110.37247
107902000 -28.676615 -106.46836 -0.075653508 -21.793404 -0.074254505 -21.77836 -29.026854 -110.30318
108901000 -28.560143 -106.72472 -0.076536544 -21.988691 -0.075219698 -21.978836 -28.894356 -110.24262
109900000 -28.436804 -107.18209 -0.077908874 -22.18796 -0.076300487 -22.177477 -28.741404 -110.3666
110899000 -28.3204 -107.87114 -0.079341739 -22.388102 -0.076530486 -22.377344 -28.623507 -110.66319
111898000 -28.230833 -108.54543 -0.080338381 -22.586691 -0.077465869 -22.581741 -28.498505 -110.77927
112897000 -28.101667 -109.12727 -0.081655994 -22.786255 -0.079078116 -22.773581 -28.370146 -110.98122
113896000 -28.005077 -109.68962 -0.082324974 -22.987913 -0.080266133 -22.975208 -28.260513 -111.10458
114895000 -27.908689 -110.34423 -0.083790965 -23.183481 -0.081630141 -23.170053 -28.153759 -111.24459
115894000 -27.771164 -110.68884 -0.085376784 -23.385639 -0.0826004 -23.373272 -28.083988 -111.42077
116893000 -27.697277 -111.28481 -0.085251652 -23.582663 -0.083417825 -23.563292 -27.952055 -111.48437
117892000 -27.617294 -111.75587 -0.085271709 -23.775671 -0.083933741 -23.758978 -27.884762 -111.69688
118891000 -27.560171 -112.13435 -0.086280808 -23.975748 -0.083843216 -23.964937 -27.786827 -111.89375
119890000 -27.46699 -112.54642 -0.086868897 -24.179159 -0.084792852 -24.163183 -27.76939 -112.01505
120889000 -27.417994 -113.05133 -0.087984554 -24.379812 -0.085424833 -24.3622 -27.702314 -112.0145
121888000 -27.377321 -113.36081 -0.086942315 -24.575048 -0.085346952 -24.558796 -27.643442 -112.25818
122887000 -27.333269 -113.5867 -0.088840507 -24.778509 -0.086194731 -24.763102 -27.593304 -112.31294
123886000 -27.288406 -114.01614 -0.089442685 -24.975973 -0.08668483 -24.958834 -27.578701 -112.47581
124885000 -27.242634 -114.48589 -0.089541249 -25.177631 -0.086851202 -25.162327 -27.555243 -112.57325
125884000 -27.188541 -114.67389 -0.091031097 -25.374552 -0.087006755 -25.35812 -27.522247 -112.71964
126883000 -27.177725 -115.07812 -0.090973467 -25.57707 -0.088333517 -25.5651 -27.480827 -112.76447
127882000 -27.123787 -115.36998 -0.09138374 -25.776539 -0.08827804 -25.757545 -27.443724 -112.91515
128881000 -27.095631 -115.6839 -0.091682486 -25.976501 -0.088603258 -25.959164 -27.403591 -113.02604
129880000 -27.041077 -116.01568 -0.092399016 -26.179249 -0.088475384 -26.159998 -27.361677 -113.02999
130879000 -26.975922 -116.17017 -0.091803044 -26.37841 -0.089743406 -26.361427 -27.285086 -113.09271
131878000 -26.912689 -116.38324 -0.092288755 -26.57983 -0.090221748 -26.557959 -27.219244 -113.00066
132877000 -26.847118 -116.47503 -0.091944493 -26.780434 -0.089853868 -26.765512 -27.130783 -112.99998
133876000 -26.761562 -116.62279 -0.092142798 -26.980967 -0.090280421 -26.962288 -27.048199 -112.88908
134875000 -26.664541 -116.75379 -0.092709728 -27.181538 -0.090600237 -27.160299 -26.943413 -112.75398
135874000 -26.584892 -116.80405 -0.092579626 -27.380255 -0.089987062 -27.36232 -26.844429 -112.77529
136873000 -26.470083 -116.67809 -0.093375392 -27.581064 -0.090032786 -27.564903 -26.753815 -112.77706
137872000 -26.39323 -116.82835 -0.093050614 -27.783209 -0.090062387 -27.771616 -26.652367 -112.71561
138871000 -26.322266 -117.0316 -0.094034269 -27.986057 -0.090412572 -27.969522 -26.55851 -112.85474
139870000 -26.221903 -117.29763 -0.094401978 -28.181318 -0.091416255 -28.166763 -26.470407 -113.05151
140869000 -26.140312 -117.78397 -0.096228011 -28.382057 -0.093012534 -28.359396 -26.367439 -113.17745
141868000 -26.039034 -118.26123 -0.096324876 -28.568125 -0.093764462 -28.556118 -26.296808 -113.49395
142867000 -25.965818 -118.47422 -0.094745643 -28.770021 -0.092285052 -28.756029 -26.224609 -113.72919
143866000 -25.892094 -118.98604 -0.096445829 -28.964497 -0.093962058 -28.949398 -26.146893 -114.20739
144865000 -25.839342 -119.4936 -0.097481087 -29.164042 -0.095684171 -29.150513 -26.09 -114.53121
145864000 -25.783461 -119.81388 -0.098214731 -29.364336 -0.096577905 -29.351622 -26.057932 -114.8243
146863000 -25.734848 -120.18996 -0.099156655 -29.562962 -0.097081617 -29.550632 -26.008163 -115.11897
147862000 -25.692272 -120.59285 -0.099975616 -29.759764 -0.097220063 -29.745525 -25.971638 -115.4308
148861000 -25.661797 -121.10417 -0.10019469 -29.960106 -0.097995237 -29.939365 -25.946608 -115.68472
149860000 -25.648684 -121.28526 -0.10134132 -30.15703 -0.098399818 -30.147345 -25.913193 -115.85372
150859000 -25.62501 -121.66314 -0.10142532 -30.357542 -0.098347127 -30.344065 -25.908396 -116.15031
151858000 -25.609753 -121.97896 -0.10081433 -30.554083 -0.099072441 -30.540379 -25.899481 -116.39194
152857000 -25.589043 -122.26099 -0.10073114 -30.750233 -0.098863758 -30.738836 -25.879688 -116.52763
153856000 -25.584131 -122.50779 -0.10103503 -30.953028 -0.098439008 -30.936247 -25.898743 -116.85205
154855000 -25.577318 -122.66216 -0.10176609 -31.1497 -0.098199107 -31.139259 -25.886541 -117.03148
155854000 -25.591309 -122.95509 -0.10200592 -31.351242 -0.099319801 -31.335808 -25.872511 -117.33784
156853000 -25.573133 -123.61572 -0.099290669 -31.537285 -0.098108023 -31.528709 -25.871935 -117.60684
157852000 -25.580624 -123.84551 -0.1005078 -31.737373 -0.10008395 -31.728716 -25.860157 -117.97337
158851000 -25.573864 -124.07854 -0.10144731 -31.936079 -0.10038621 -31.924807 -25.844744 -118.20039
159850000 -25.55744 -124.19476 -0.10175178 -32.134705 -0.10034224 -32.125839 -25.843103 -118.37067
160849000 -25.543205 -124.32495 -0.10217951 -32.33234 -0.10165453 -32.32658 -25.813269 -118.67582
161848000 -25.52408 -124.42197 -0.10221502 -32.533146 -0.10093355 -32.527481 -25.770493 -118.80005
162847000 -25.474573 -124.63811 -0.10263591 -32.729061 -0.10150588 -32.722942 -25.745539 -119.01984
163846000 -25.433725 -124.84454 -0.10299533 -32.929371 -0.10176768 -32.920731 -25.658457 -119.03667
164845000 -25.375801 -124.86202 -0.10331926 -33.130062 -0.10163651 -33.12064 -25.602198 -119.12437
165844000 -25.324076 -124.93308 -0.10331501 -33.332478 -0.10270058 -33.322956 -25.519855 -119.26611
166843000 -25.26145 -125.03716 -0.10299268 -33.527378 -0.10232633 -33.524197 -25.451626 -119.4733
167842000 -25.204519 -125.17559 -0.1028453 -33.728512 -0.10254128 -33.719345 -25.373751 -119.36591
168841000 -25.122173 -125.36158 -0.10380891 -33.924423 -0.10325722 -33.922436 -25.293911 -119.43468
169840000 -25.057806 -125.60964 -0.10409233 -34.117863 -0.10312309 -34.115482 -25.203564 -119.68391
170839000 -24.996054 -125.89805 -0.10469265 -34.312851 -0.10388288 -34.312115 -25.119406 -119.83427
171838000 -24.942608 -126.30518 -0.10474622 -34.520615 -0.10470325 -34.508549 -25.05336 -120.09583
172837000 -24.874573 -126.68336 -0.10603756 -34.71394 -0.10543361 -34.707661 -24.987843 -120.32546
173836000 -24.80584 -127.06725 -0.10725155 -34.91119 -0.10584632 -34.907963 -24.944931 -120.51973
174835000 -24.751463 -127.54048 -0.10728578 -35.105217 -0.10671535 -35.105534 -24.902311 -120.87592
175834000 -24.70122 -127.9314 -0.10792501 -35.304802 -0.10742057 -35.301781 -24.834032 -121.14286
176833000 -24.651426 -128.29411 -0.10933571 -35.50251 -0.10778835 -35.499191 -24.78149 -121.29689
177832000 -24.60326 -128.76373 -0.1092988 -35.699108 -0.1084818 -35.69746 -24.758825 -121.45853
178831000 -24.562223 -129.15631 -0.11025057 -35.892616 -0.10979205 -35.889954 -24.725306 -121.71522
179830000 -24.529659 -129.56909 -0.11039873 -36.090557 -0.10915281 -36.095428 -24.698509 -121.84596
180829000 -24.491995 -129.79594 -0.11151382 -36.289818 -0.11001294 -36.287281 -24.669687 -122.00722
181828000 -24.46707 -130.13707 -0.11135446 -36.483459 -0.11025269 -36.485916 -24.649008 -122.12273
182827000 -24.442934 -130.46808 -0.11062178 -36.681885 -0.10958949 -36.67989 -24.637217 -122.16696
183826000 -24.403765 -130.82152 -0.1125447 -36.880421 -0.11008197 -36.87624 -24.626274 -122.30244
184825000 -24.40465 -131.12437 -0.11224266 -37.07589 -0.11111996 -37.074978 -24.611961 -122.43102
185824000 -24.37995 -131.50786 -0.11177755 -37.268002 -0.11088095 -37.270176 -24.610329 -122.44273
186823000 -24.36249 -131.81685 -0.1121287 -37.468887 -0.11075348 -37.465912 -24.607315 -122.44079
187822000 -24.342186 -132.17424 -0.1125702 -37.663788 -0.11230827 -37.659805 -24.570669 -122.50706
188821000 -24.322166 -132.37715 -0.11248041 -37.859856 -0.11232049 -37.864803 -24.557592 -122.6123
189820000 -24.306004 -132.67578 -0.113287 -38.0606 -0.11226391 -38.05941 -24.546871 -122.80521
190819000 -24.281828 -132.89731 -0.11427552 -38.261356 -0.11340604 -38.258617 -24.512182 -122.71934
191818000 -24.243225 -133.07176 -0.11551202 -38.453831 -0.11451843 -38.455948 -24.483435 -122.61778
192817000 -24.171898 -133.35373 -0.11590229 -38.638992 -0.11530999 -38.640163 -24.412668 -122.69234
193816000 -24.138113 -133.69585 -0.11500643 -38.835182 -0.11394095 -38.830986 -24.352425 -122.94293
194815000 -24.081097 -134.18327 -0.11499048 -39.027298 -0.11431273 -39.029961 -24.289902 -123.08677
195814000 -24.024326 -134.36386 -0.11522121 -39.231525 -0.11382641 -39.227417 -24.242977 -123.19768
196813000 -23.974953 -134.76067 -0.11501069 -39.421555 -0.11390507 -39.421711 -24.157282 -123.36285
197812000 -23.922138 -134.96158 -0.11488017 -39.62249 -0.11430476 -39.618874 -24.091658 -123.45706
198811000 -23.869314 -135.13432 -0.11549022 -39.817684 -0.11377911 -39.818691 -24.028786 -123.64342
199810000 -23.793449 -135.52429 -0.11524353 -40.012028 -0.11422025 -40.010384 -23.947577 -123.74847
200809000 -23.740969 -135.79996 -0.1159419 -40.207512 -0.1149958 -40.210136 -23.866426 -123.95415
201808000 -23.679241 -136.0099 -0.11649254 -40.407604 -0.11528181 -40.412388 -23.797136 -124.00894
202807000 -23.623631 -136.37991 -0.11698687 -40.608139 -0.11566169 -40.611588 -23.742161 -124.25689
203806000 -23.568546 -136.82736 -0.11804247 -40.805077 -0.11602778 -40.810543 -23.679852 -124.39391
