!Keysight Technologies,E5080B,MY59205177,A.15.75.32
!Date: Friday, February 23, 2024 03:01:24
!Correction: S11(Cdelta 2-Port  ) 
!S21(Cdelta 2-Port  ) 
!S12(Cdelta 2-Port  ) 
!S22(Cdelta 2-Port  ) 
!S2P File: Measurements: S11, S21, S12, S22:
# Hz S  dB   R 50
10000000 -44.164177 -3.9576094 -0.02721905 -2.0399871 -0.030642679 -2.0932822 -48.022537 -150.69684
10999000 -43.528095 -5.4264755 -0.028594378 -2.256561 -0.030256871 -2.3100905 -47.843357 -142.46437
11998000 -42.727489 -8.1298151 -0.028672289 -2.4816871 -0.030086657 -2.5238252 -47.864647 -136.84572
12997000 -42.111206 -12.705145 -0.027909655 -2.6565878 -0.030057985 -2.6895068 -47.24342 -130.97807
13996000 -41.83445 -16.180374 -0.026697064 -2.8401368 -0.030431263 -2.8587732 -46.784695 -125.27182
14995000 -41.505337 -19.899506 -0.029286768 -3.0469055 -0.029622449 -3.0737319 -46.381454 -121.67439
15994000 -41.422222 -23.691641 -0.030055899 -3.2643571 -0.032760542 -3.2833238 -46.098713 -117.84683
16993000 -41.4468 -27.614267 -0.029182265 -3.4623394 -0.031651676 -3.4744358 -45.243946 -119.05289
17992000 -41.503189 -32.308647 -0.0293428 -3.6604671 -0.03246139 -3.6637311 -44.594589 -120.20416
18991000 -41.757652 -36.509392 -0.030086657 -3.8697274 -0.032984853 -3.8684762 -43.908974 -119.21576
19990000 -41.60907 -41.660553 -0.033089448 -4.0755587 -0.034414452 -4.0755072 -43.200401 -120.96912
20989000 -41.518482 -44.771706 -0.03460858 -4.2807388 -0.036743257 -4.2704859 -42.656712 -120.6217
21988000 -41.427956 -49.523159 -0.035425108 -4.4741912 -0.037640609 -4.4658289 -42.38184 -119.94509
22987000 -41.209927 -53.81707 -0.036386143 -4.6728878 -0.038571838 -4.668766 -42.082302 -119.82335
23986000 -41.190929 -57.54937 -0.036042891 -4.8695884 -0.037473764 -4.8702674 -41.965061 -119.90535
24985000 -40.832142 -60.292572 -0.037434857 -5.0759416 -0.038288742 -5.0740957 -41.695053 -117.32307
25984000 -40.639824 -62.30645 -0.038193945 -5.2875199 -0.038080607 -5.2867017 -41.356087 -115.7266
26983000 -40.333961 -63.980228 -0.039582681 -5.4829378 -0.038685188 -5.500155 -41.204922 -115.16636
27982000 -40.202236 -65.192436 -0.039691877 -5.6805577 -0.040354945 -5.7169628 -40.91349 -113.79381
28981000 -40.190079 -66.642632 -0.038132314 -5.8770075 -0.040166568 -5.9027267 -40.622372 -113.09098
29980000 -39.855705 -68.293404 -0.039085068 -6.0717168 -0.040227443 -6.0782537 -40.371799 -112.25454
30979000 -39.451843 -67.324585 -0.036210209 -6.4284821 -0.03584113 -6.4153733 -39.84552 -113.06763
31978000 -39.271942 -68.415344 -0.035206936 -6.6214137 -0.036940102 -6.6086526 -39.569546 -112.39115
32977000 -39.10239 -70.084991 -0.035802502 -6.8311634 -0.037529379 -6.8246193 -39.332699 -112.71432
33976000 -38.979362 -71.099602 -0.036534417 -7.0278769 -0.038020808 -7.0253687 -39.033733 -112.07426
34975000 -38.672951 -72.15004 -0.036373094 -7.231945 -0.038316686 -7.2264633 -38.780735 -112.02154
35974000 -38.493095 -72.91246 -0.035170663 -7.4238019 -0.038494274 -7.4235644 -38.488953 -111.201
36973000 -38.267776 -73.677551 -0.035762571 -7.618979 -0.039398257 -7.6269794 -38.181023 -110.46763
37972000 -38.102768 -73.699615 -0.035576742 -7.8329172 -0.039327465 -7.8400769 -37.955284 -109.78416
38971000 -37.778641 -73.361038 -0.036685824 -8.0331087 -0.039236303 -8.0494194 -37.774017 -108.42448
39970000 -37.473522 -73.888687 -0.034549348 -8.2296143 -0.038389549 -8.2500725 -37.473286 -107.90508
40969000 -37.172863 -73.754654 -0.03503444 -8.4211864 -0.037828095 -8.441946 -37.230663 -106.61243
41968000 -36.840256 -73.980736 -0.035169356 -8.6283331 -0.037582904 -8.6446495 -37.012459 -105.62763
42967000 -36.579781 -74.305557 -0.03545747 -8.8389883 -0.038244605 -8.8585224 -36.768532 -103.70833
43966000 -36.298656 -75.195045 -0.035647471 -9.0371056 -0.040377155 -9.0545168 -36.493046 -103.10146
44965000 -36.069805 -76.037262 -0.036898069 -9.2369089 -0.039584249 -9.2600737 -36.265938 -103.14584
45964000 -35.880634 -77.145065 -0.038303364 -9.4368591 -0.040985189 -9.4583778 -36.031693 -102.99248
46963000 -35.688572 -79.140869 -0.038101498 -9.6315012 -0.042102974 -9.6557617 -35.838154 -103.36691
47962000 -35.539024 -80.672974 -0.039381798 -9.833746 -0.042495847 -9.8532438 -35.638832 -103.57073
48961000 -35.351845 -82.215401 -0.041863553 -10.030995 -0.044282135 -10.053649 -35.408836 -103.76193
49960000 -35.124146 -83.660378 -0.042885099 -10.22841 -0.045206156 -10.25247 -35.262817 -104.0149
50959000 -34.933563 -85.048531 -0.04365455 -10.445034 -0.046465266 -10.451816 -35.095615 -104.30373
51958000 -34.732773 -86.220207 -0.045063082 -10.63975 -0.048049551 -10.651104 -34.93055 -104.95319
52957000 -34.518112 -87.18045 -0.046700753 -10.842851 -0.048838504 -10.847714 -34.753956 -104.69325
53956000 -34.35947 -87.933083 -0.047735211 -11.040844 -0.049708508 -11.042833 -34.621941 -104.66988
54955000 -34.205555 -88.459511 -0.048786409 -11.241143 -0.050217554 -11.23945 -34.471157 -104.76768
55954000 -34.057056 -89.301033 -0.049450867 -11.443807 -0.051111672 -11.438372 -34.349518 -104.53544
56953000 -33.935062 -89.443832 -0.04942102 -11.639725 -0.050104167 -11.629316 -34.287365 -104.74547
57952000 -33.777851 -90.009903 -0.049674995 -11.838247 -0.051490694 -11.83046 -34.19556 -104.8716
58951000 -33.669498 -90.343719 -0.050835874 -12.037311 -0.051481001 -12.021436 -34.031731 -104.97886
59950000 -33.551151 -90.726089 -0.052225254 -12.243722 -0.052072518 -12.218528 -33.961086 -105.30538
60949000 -33.445271 -91.319572 -0.052359134 -12.445168 -0.052835736 -12.422035 -33.860218 -105.47845
61948000 -33.382423 -91.709206 -0.052914083 -12.642413 -0.053376075 -12.624492 -33.781395 -105.66502
62947000 -33.30196 -91.805641 -0.053590707 -12.851403 -0.053781763 -12.832409 -33.651939 -105.9091
63946000 -33.241974 -92.630203 -0.054672681 -13.046708 -0.053973611 -13.030478 -33.536015 -105.99516
64945000 -33.132404 -92.734711 -0.054679759 -13.24931 -0.054769412 -13.232244 -33.428577 -106.57883
65944000 -33.02631 -93.082405 -0.055228975 -13.450242 -0.055162385 -13.434663 -33.349464 -107.04535
66943000 -32.876091 -93.503868 -0.053202856 -13.651336 -0.053451549 -13.635997 -33.237747 -107.3072
67942000 -32.834343 -93.482719 -0.055501383 -13.849916 -0.055493779 -13.837063 -33.109127 -107.69672
68941000 -32.715565 -93.565239 -0.055058569 -14.038931 -0.054825775 -14.029344 -33.005745 -107.60127
69940000 -32.619118 -93.628708 -0.055240251 -14.236902 -0.055523667 -14.229123 -32.872562 -107.90231
70939000 -32.518692 -93.627853 -0.0544268 -14.434261 -0.054868765 -14.427999 -32.726788 -107.89288
71938000 -32.384003 -93.185982 -0.055309203 -14.631397 -0.05511336 -14.623753 -32.602104 -107.76412
72937000 -32.211903 -93.04744 -0.053442899 -14.830675 -0.054242272 -14.822808 -32.45882 -107.57671
73936000 -32.082954 -92.723351 -0.05438827 -15.027596 -0.054336108 -15.021135 -32.352474 -107.30131
74935000 -31.955357 -93.105064 -0.053676404 -15.222864 -0.052780189 -15.218276 -32.193985 -107.05381
75934000 -31.835178 -93.295212 -0.054292072 -15.431988 -0.052839145 -15.428352 -32.108372 -106.96009
76933000 -31.70783 -93.744911 -0.055026323 -15.6242 -0.054792743 -15.620426 -31.949768 -107.38198
77932000 -31.613354 -94.525185 -0.055559851 -15.821262 -0.056173425 -15.818703 -31.844498 -107.37727
78931000 -31.546452 -95.324852 -0.054607935 -16.020054 -0.055749945 -16.013115 -31.74317 -107.22215
79930000 -31.429979 -96.11541 -0.057342865 -16.21092 -0.058180206 -16.211744 -31.644398 -107.58881
80929000 -31.305037 -97.105568 -0.058836397 -16.406204 -0.059475362 -16.401178 -31.541389 -107.89333
81928000 -31.216333 -97.931328 -0.058785755 -16.598879 -0.059487697 -16.59729 -31.423109 -108.00169
82927000 -31.134722 -98.599976 -0.060480844 -16.796715 -0.061249483 -16.796474 -31.321991 -108.35125
83926000 -31.016523 -99.365982 -0.062727816 -16.993706 -0.062485155 -16.996225 -31.211987 -108.56339
84925000 -30.916697 -99.805664 -0.063267022 -17.193672 -0.061738353 -17.192411 -31.11508 -108.60585
85924000 -30.833618 -100.3225 -0.063448519 -17.394699 -0.064261034 -17.389915 -31.029846 -108.61393
86923000 -30.726887 -100.82098 -0.063291974 -17.59272 -0.064220838 -17.582932 -30.934628 -108.53309
87922000 -30.616245 -101.18721 -0.063633703 -17.796213 -0.064105503 -17.790802 -30.842457 -108.63983
88921000 -30.55278 -101.44463 -0.065287329 -17.991388 -0.064486712 -17.993065 -30.753756 -108.59455
89920000 -30.452721 -102.01916 -0.065259211 -18.192987 -0.065513067 -18.188004 -30.695618 -108.78974
90919000 -30.349869 -102.31631 -0.066973925 -18.390457 -0.066002414 -18.383118 -30.608654 -108.97916
91918000 -30.26355 -102.73558 -0.067079075 -18.589912 -0.065790586 -18.580965 -30.539013 -108.99781
92917000 -30.172621 -103.08948 -0.067926712 -18.788727 -0.068050824 -18.784161 -30.481548 -109.14718
93916000 -30.088531 -103.42744 -0.067813389 -18.980595 -0.067460284 -18.978729 -30.39134 -109.68642
94915000 -30.015453 -104.07932 -0.069155604 -19.18228 -0.068197809 -19.175434 -30.339283 -109.60477
95914000 -29.950794 -104.28209 -0.069852121 -19.376205 -0.069255814 -19.373772 -30.249691 -109.85574
96913000 -29.869532 -104.52429 -0.070908688 -19.575684 -0.069995753 -19.572628 -30.175295 -110.2053
97912000 -29.796619 -105.00314 -0.072024725 -19.772039 -0.070043899 -19.769911 -30.099245 -110.46876
98911000 -29.692606 -105.20235 -0.072460063 -19.97406 -0.071317069 -19.971136 -30.061039 -110.66497
99910000 -29.62818 -105.3924 -0.072959676 -20.170479 -0.072125003 -20.170963 -29.954273 -110.96555
100909000 -29.54512 -105.62344 -0.073021278 -20.380348 -0.071133398 -20.370407 -29.877066 -111.21395
101908000 -29.45616 -105.88123 -0.073384576 -20.58378 -0.072716177 -20.575674 -29.751566 -111.02654
102907000 -29.32601 -105.9427 -0.07413812 -20.771687 -0.072911762 -20.777122 -29.686462 -110.9629
103906000 -29.225302 -105.99597 -0.074520208 -20.98311 -0.072063945 -20.978163 -29.531057 -110.90775
104905000 -29.08345 -105.90401 -0.075061932 -21.181211 -0.072925717 -21.180479 -29.405304 -110.54216
105904000 -28.943907 -106.00397 -0.075133041 -21.379108 -0.072717756 -21.377028 -29.28969 -110.49272
106903000 -28.838207 -106.17271 -0.075204417 -21.588316 -0.073386677 -21.583675 -29.16131 -110.35549
107902000 -28.677299 -106.46613 -0.075615048 -21.787357 -0.074317969 -21.777672 -29.027504 -110.30291
108901000 -28.560223 -106.73273 -0.076889068 -21.989252 -0.075275794 -21.98288 -28.895205 -110.2457
109900000 -28.431734 -107.21524 -0.077440046 -22.190155 -0.076468304 -22.178213 -28.743998 -110.35151
110899000 -28.319651 -107.86742 -0.078517176 -22.386974 -0.076572903 -22.378067 -28.620375 -110.66766
111898000 -28.228153 -108.55672 -0.079696603 -22.588024 -0.078003749 -22.580801 -28.507496 -110.78124
112897000 -28.098848 -109.11472 -0.081408054 -22.783842 -0.07941635 -22.773911 -28.36941 -110.97968
113896000 -28.004061 -109.70107 -0.082538664 -22.98616 -0.080346555 -22.976149 -28.267605 -111.11278
114895000 -27.903316 -110.36359 -0.083723143 -23.186779 -0.082108125 -23.170959 -28.154226 -111.21406
115894000 -27.771852 -110.68355 -0.084986873 -23.384071 -0.083395131 -23.367878 -28.091259 -111.39918
116893000 -27.692322 -111.26581 -0.08528544 -23.579826 -0.083629198 -23.560186 -27.958431 -111.54591
117892000 -27.613346 -111.74543 -0.085534655 -23.776705 -0.083663501 -23.765997 -27.883974 -111.73137
118891000 -27.553732 -112.16212 -0.085961312 -23.976347 -0.083705992 -23.962145 -27.788445 -111.8893
119890000 -27.46312 -112.56266 -0.087122694 -24.177631 -0.084607296 -24.162928 -27.774998 -112.03358
120889000 -27.416904 -113.04309 -0.088312648 -24.376183 -0.085066855 -24.36389 -27.705332 -112.01511
121888000 -27.374214 -113.36407 -0.087983765 -24.575733 -0.086318836 -24.558315 -27.639818 -112.3131
122887000 -27.331537 -113.59132 -0.088712893 -24.778763 -0.086822681 -24.762053 -27.592402 -112.34708
123886000 -27.277931 -113.9819 -0.089530677 -24.977701 -0.087418504 -24.956249 -27.580681 -112.48522
124885000 -27.24555 -114.49269 -0.089536756 -25.176876 -0.086705953 -25.160545 -27.553045 -112.56535
125884000 -27.193661 -114.70416 -0.09084262 -25.372721 -0.087165743 -25.356644 -27.52392 -112.75294
126883000 -27.177883 -115.04482 -0.090728693 -25.575457 -0.088148333 -25.562672 -27.481627 -112.7928
127882000 -27.122494 -115.3949 -0.090781033 -25.772943 -0.088796914 -25.755537 -27.438824 -112.94438
128881000 -27.090113 -115.70357 -0.090990387 -25.975266 -0.088955708 -25.961872 -27.396749 -113.07166
129880000 -27.040258 -116.02329 -0.092066385 -26.17753 -0.088997453 -26.159145 -27.356623 -113.02482
130879000 -26.984724 -116.19552 -0.091684595 -26.375938 -0.089552611 -26.361824 -27.280701 -113.14299
131878000 -26.914953 -116.43691 -0.091908537 -26.579628 -0.090118147 -26.561216 -27.22283 -113.00378
132877000 -26.847935 -116.47538 -0.091245748 -26.780514 -0.090238668 -26.762829 -27.134209 -113.02546
133876000 -26.767794 -116.67487 -0.092568517 -26.982244 -0.090161756 -26.965591 -27.045528 -112.9229
134875000 -26.662622 -116.7756 -0.091949783 -27.180696 -0.08977221 -27.161753 -26.942375 -112.79749
135874000 -26.581646 -116.82961 -0.092623785 -27.381468 -0.09067107 -27.361351 -26.841312 -112.77848
136873000 -26.471493 -116.72631 -0.09275151 -27.583519 -0.090331696 -27.566189 -26.75226 -112.76414
137872000 -26.392023 -116.90813 -0.092071675 -27.78722 -0.090667106 -27.766459 -26.653145 -112.70692
138871000 -26.320606 -117.034 -0.093030781 -27.98547 -0.091125466 -27.96945 -26.55653 -112.85617
139870000 -26.222591 -117.33427 -0.093715534 -28.184156 -0.092659488 -28.166649 -26.477489 -113.05561
140869000 -26.133713 -117.75191 -0.095989823 -28.377871 -0.092629604 -28.361883 -26.371384 -113.19501
141868000 -26.033289 -118.24829 -0.095810659 -28.570044 -0.094353303 -28.556261 -26.301317 -113.50819
142867000 -25.955866 -118.51952 -0.094213627 -28.769806 -0.093131542 -28.751995 -26.219179 -113.70865
143866000 -25.895035 -118.98656 -0.096425451 -28.965084 -0.094065219 -28.947483 -26.139055 -114.22871
144865000 -25.832207 -119.52299 -0.097603135 -29.162306 -0.095128492 -29.148243 -26.093071 -114.53737
145864000 -25.770914 -119.83698 -0.098176077 -29.364531 -0.096492678 -29.354603 -26.056822 -114.78819
146863000 -25.726383 -120.23107 -0.098736644 -29.56295 -0.096391834 -29.55097 -26.004517 -115.13276
147862000 -25.692894 -120.5884 -0.098964393 -29.76009 -0.097277775 -29.74873 -25.972198 -115.44857
148861000 -25.660854 -121.09233 -0.099453814 -29.955959 -0.097852789 -29.944069 -25.945562 -115.6981
149860000 -25.645575 -121.29961 -0.10030753 -30.15378 -0.097665876 -30.146393 -25.909595 -115.86032
150859000 -25.62604 -121.68802 -0.10011759 -30.356524 -0.099014446 -30.344172 -25.905317 -116.09125
151858000 -25.602797 -121.96289 -0.10000714 -30.557405 -0.098815031 -30.539986 -25.899536 -116.37733
152857000 -25.586607 -122.29439 -0.10087077 -30.752483 -0.099002525 -30.742863 -25.876234 -116.53792
153856000 -25.581455 -122.49664 -0.1009839 -30.950998 -0.098773718 -30.938011 -25.891516 -116.816
154855000 -25.575689 -122.65158 -0.10063948 -31.150974 -0.098711222 -31.136992 -25.883732 -117.06116
155854000 -25.588879 -122.91006 -0.1007163 -31.348202 -0.09932404 -31.335867 -25.875374 -117.2605
156853000 -25.571152 -123.603 -0.099045426 -31.538549 -0.098797552 -31.528164 -25.867994 -117.6025
157852000 -25.579548 -123.84916 -0.099972174 -31.737652 -0.10037032 -31.730686 -25.855282 -117.93513
158851000 -25.576431 -124.06963 -0.10121388 -31.935165 -0.1000715 -31.927719 -25.845198 -118.20526
159850000 -25.555775 -124.21467 -0.10197121 -32.134377 -0.10068292 -32.124554 -25.844969 -118.41283
160849000 -25.542904 -124.2976 -0.10161717 -32.330784 -0.1015594 -32.328335 -25.814161 -118.66667
161848000 -25.524982 -124.39029 -0.10193941 -32.534584 -0.1013294 -32.526237 -25.774832 -118.76546
162847000 -25.479408 -124.64863 -0.10234224 -32.733009 -0.10209788 -32.723957 -25.740053 -119.03232
163846000 -25.44125 -124.87337 -0.10175125 -32.931206 -0.10170064 -32.924557 -25.665319 -119.03284
164845000 -25.376278 -124.89787 -0.10243818 -33.133732 -0.10169349 -33.121674 -25.597343 -119.14195
165844000 -25.31983 -124.97699 -0.10193252 -33.326595 -0.10272443 -33.325428 -25.516428 -119.29626
166843000 -25.25926 -125.02628 -0.10290574 -33.523224 -0.10229453 -33.520195 -25.443817 -119.46934
167842000 -25.203295 -125.16074 -0.10305258 -33.72443 -0.10296272 -33.714573 -25.367468 -119.37054
168841000 -25.123455 -125.3609 -0.10312998 -33.923237 -0.10328215 -33.920002 -25.292973 -119.43282
169840000 -25.061319 -125.61163 -0.1028999 -34.115791 -0.10366044 -34.116795 -25.205154 -119.67081
170839000 -25.002304 -125.8688 -0.10469265 -34.31374 -0.10350907 -34.313244 -25.117144 -119.8304
171838000 -24.944855 -126.30888 -0.10411354 -34.514503 -0.10468098 -34.509972 -25.054546 -120.05336
172837000 -24.871073 -126.67675 -0.10567683 -34.707985 -0.10509972 -34.707642 -24.984455 -120.28795
173836000 -24.803829 -127.11552 -0.10668404 -34.912567 -0.10642194 -34.9095 -24.943453 -120.53388
174835000 -24.747715 -127.53677 -0.10694749 -35.105148 -0.10697588 -35.106674 -24.897472 -120.85211
175834000 -24.699711 -127.91451 -0.1080378 -35.304943 -0.10795978 -35.299995 -24.840334 -121.10946
176833000 -24.648705 -128.29755 -0.10882048 -35.50124 -0.10833345 -35.496441 -24.781855 -121.27653
177832000 -24.604765 -128.80661 -0.10901982 -35.696152 -0.1086384 -35.694389 -24.764812 -121.47762
178831000 -24.562176 -129.11835 -0.10939942 -35.898323 -0.10897894 -35.893181 -24.723293 -121.7272
179830000 -24.527443 -129.57684 -0.10995055 -36.091209 -0.10950985 -36.094349 -24.69677 -121.82537
180829000 -24.488852 -129.77277 -0.11108756 -36.287914 -0.11003551 -36.288845 -24.666327 -121.99143
181828000 -24.46171 -130.12209 -0.11040245 -36.48901 -0.11038148 -36.484615 -24.653191 -122.08887
182827000 -24.440619 -130.47826 -0.1109245 -36.677723 -0.11098345 -36.679626 -24.640444 -122.19889
183826000 -24.398766 -130.80005 -0.11186945 -36.880772 -0.11018313 -36.870495 -24.626862 -122.32214
184825000 -24.402369 -131.1192 -0.11112155 -37.071045 -0.11095106 -37.07156 -24.615356 -122.40627
185824000 -24.37916 -131.48253 -0.11146043 -37.266518 -0.11171886 -37.26889 -24.608459 -122.45394
186823000 -24.363474 -131.85677 -0.11180066 -37.470024 -0.11168831 -37.464306 -24.606987 -122.46761
187822000 -24.340958 -132.13829 -0.1117239 -37.667923 -0.11178658 -37.664841 -24.571154 -122.50462
188821000 -24.321043 -132.36971 -0.11191992 -37.86132 -0.11273651 -37.864342 -24.554947 -122.59541
189820000 -24.308517 -132.6638 -0.11230721 -38.062702 -0.11202484 -38.060806 -24.549757 -122.78866
190819000 -24.280903 -132.90735 -0.11408497 -38.260822 -0.11329657 -38.257599 -24.512722 -122.74626
191818000 -24.247133 -133.07117 -0.11462422 -38.452244 -0.11479804 -38.454559 -24.479156 -122.60654
192817000 -24.176334 -133.36668 -0.11539958 -38.640354 -0.11487406 -38.640434 -24.407478 -122.74001
193816000 -24.139713 -133.70636 -0.11450568 -38.831158 -0.11358726 -38.832348 -24.353807 -122.96589
194815000 -24.08164 -134.15453 -0.11399329 -39.031139 -0.1140018 -39.029644 -24.292807 -123.06322
195814000 -24.029402 -134.39476 -0.11473372 -39.227379 -0.1143797 -39.226906 -24.237173 -123.21429
196813000 -23.976017 -134.75439 -0.11423407 -39.420113 -0.11404698 -39.424545 -24.164312 -123.36526
197812000 -23.919416 -134.97409 -0.11464202 -39.623222 -0.11457983 -39.616753 -24.091978 -123.45071
198811000 -23.868404 -135.14992 -0.11477093 -39.815441 -0.11393882 -39.820156 -24.023436 -123.62852
199810000 -23.794554 -135.54747 -0.11462793 -40.009586 -0.1141174 -40.009129 -23.944906 -123.76504
200809000 -23.741091 -135.80565 -0.11497825 -40.211262 -0.11425586 -40.209202 -23.86611 -123.97194
201808000 -23.680584 -136.03952 -0.11577415 -40.408188 -0.11530308 -40.407722 -23.800304 -124.02412
202807000 -23.623938 -136.3912 -0.11664862 -40.608387 -0.11588155 -40.614552 -23.746168 -124.24128
203806000 -23.572273 -136.83058 -0.11829676 -40.811348 -0.11640666 -40.80891 -23.675827 -124.42094
