!Keysight Technologies,E5080B,MY59205177,A.15.75.32
!Date: Friday, February 23, 2024 03:39:42
!Correction: S11(Cdelta 2-Port  ) 
!S21(Cdelta 2-Port  ) 
!S12(Cdelta 2-Port  ) 
!S22(Cdelta 2-Port  ) 
!S2P File: Measurements: S11, S21, S12, S22:
# Hz S  dB   R 50
10000000 -46.079887 -2.5918362 -0.014395982 -2.0464411 -0.017508794 -2.0979476 -45.905239 -157.69418
10999000 -45.333466 -4.8698211 -0.015889363 -2.2614548 -0.017587544 -2.3158867 -45.851665 -150.98247
11998000 -44.328217 -7.878963 -0.016700562 -2.485893 -0.017772606 -2.5290525 -46.024601 -146.82378
12997000 -43.591064 -13.443635 -0.015757123 -2.6660991 -0.017706586 -2.6954851 -45.576248 -141.02014
13996000 -43.294994 -17.270706 -0.014719085 -2.8440323 -0.017849801 -2.8695469 -45.432175 -135.90103
14995000 -42.874901 -21.47648 -0.016825035 -3.0559447 -0.01726345 -3.0786543 -45.106991 -132.59515
15994000 -42.748043 -26.262245 -0.017709445 -3.2727873 -0.020165319 -3.2957113 -44.94315 -129.06483
16993000 -42.726563 -30.693115 -0.016805027 -3.4734485 -0.018924208 -3.4817207 -44.142673 -129.2916
17992000 -42.687057 -36.091309 -0.017552458 -3.6705911 -0.019384155 -3.6735699 -43.540359 -128.89113
18991000 -42.949379 -41.801388 -0.018560758 -3.8811731 -0.02107746 -3.8826308 -42.973351 -128.04639
19990000 -42.693039 -47.542915 -0.020646725 -4.0891461 -0.022904921 -4.0846825 -42.297646 -128.77222
20989000 -42.541836 -50.858353 -0.02287994 -4.2932706 -0.025168197 -4.2814317 -41.757179 -128.13043
21988000 -42.334682 -56.063732 -0.023817377 -4.4903827 -0.025302809 -4.4794545 -41.479286 -127.52007
22987000 -41.999928 -60.595123 -0.025113521 -4.6896076 -0.026404062 -4.6800861 -41.205299 -126.93574
23986000 -41.946003 -64.945274 -0.024617562 -4.8840275 -0.02546294 -4.8847909 -41.081223 -126.88877
24985000 -41.515812 -67.539955 -0.025587926 -5.0930572 -0.025819417 -5.0914817 -40.840961 -124.58421
25984000 -41.153828 -69.745422 -0.026434012 -5.2979064 -0.026086859 -5.2979107 -40.520092 -122.65539
26983000 -40.883633 -71.592155 -0.027228687 -5.5019779 -0.027672321 -5.514657 -40.404205 -122.29379
27982000 -40.701237 -72.384705 -0.028219175 -5.6961708 -0.029092878 -5.7339392 -40.144119 -121.01602
28981000 -40.681637 -73.969994 -0.026145194 -5.8981853 -0.028758541 -5.9225674 -39.89846 -120.01741
29980000 -40.242092 -75.24501 -0.027104696 -6.0912127 -0.028685318 -6.0995474 -39.629654 -119.13973
30979000 -39.870041 -74.204697 -0.024069339 -6.4426637 -0.023368413 -6.4332504 -39.120998 -119.52235
31978000 -39.663162 -75.20649 -0.023916546 -6.6385875 -0.024588145 -6.6276236 -38.863022 -118.85308
32977000 -39.464989 -76.834747 -0.023607856 -6.8484879 -0.025448358 -6.8454728 -38.618694 -118.84468
33976000 -39.294392 -77.955528 -0.024218492 -7.0500998 -0.025416853 -7.0438628 -38.34182 -118.23708
34975000 -39.007282 -78.523232 -0.024124263 -7.2471809 -0.026759835 -7.2496924 -38.098454 -117.96234
35974000 -38.815174 -79.110275 -0.023640389 -7.4456158 -0.026554076 -7.4463935 -37.856159 -116.98076
36973000 -38.560738 -79.916588 -0.023582349 -7.6399713 -0.026765825 -7.6475053 -37.572296 -115.95611
37972000 -38.40517 -79.767593 -0.023694266 -7.8561211 -0.026832504 -7.8640203 -37.362862 -115.29695
38971000 -38.079151 -78.946274 -0.024936739 -8.0564508 -0.026709827 -8.0684452 -37.201065 -113.77888
39970000 -37.757904 -79.494438 -0.023047268 -8.2495594 -0.026134517 -8.2664375 -36.953796 -113.09935
40969000 -37.462223 -79.104828 -0.024141703 -8.4450712 -0.025498873 -8.4708643 -36.728531 -111.68573
41968000 -37.127747 -79.087379 -0.023404589 -8.6516323 -0.026063943 -8.6702538 -36.537685 -110.45631
42967000 -36.861343 -79.037407 -0.02342541 -8.8631582 -0.027035149 -8.8805017 -36.336323 -108.61531
43966000 -36.565693 -79.7276 -0.02432522 -9.0628901 -0.027255779 -9.0855598 -36.068939 -107.85836
44965000 -36.317539 -80.412048 -0.025108313 -9.2629862 -0.028265813 -9.2837849 -35.852005 -107.70003
45964000 -36.106014 -81.506599 -0.02589806 -9.4664812 -0.029298496 -9.4878531 -35.632637 -107.1874
46963000 -35.90276 -83.405373 -0.026296241 -9.6598492 -0.030805876 -9.6826286 -35.44651 -107.40819
47962000 -35.734325 -84.785004 -0.027843483 -9.8621006 -0.030270426 -9.878952 -35.257904 -107.61343
48961000 -35.522923 -86.199455 -0.030319171 -10.060462 -0.03243218 -10.0811 -35.024109 -107.75429
49960000 -35.288605 -87.475517 -0.031486101 -10.258514 -0.033763509 -10.283389 -34.890163 -107.90336
50959000 -35.065258 -88.711136 -0.031580232 -10.472942 -0.034419671 -10.480462 -34.716507 -108.11223
51958000 -34.861115 -89.750877 -0.033584811 -10.669436 -0.035662346 -10.678886 -34.548771 -108.54386
52957000 -34.63055 -90.757256 -0.034665726 -10.872626 -0.03681244 -10.881122 -34.374546 -108.32794
53956000 -34.468197 -91.515633 -0.035984166 -11.075216 -0.037560448 -11.076679 -34.24511 -108.35535
54955000 -34.315819 -91.982361 -0.037022077 -11.276074 -0.038554601 -11.270826 -34.092201 -108.28439
55954000 -34.13002 -92.763992 -0.038095232 -11.474712 -0.03869877 -11.472463 -33.978565 -107.99492
56953000 -34.017498 -92.934265 -0.037369322 -11.671932 -0.038163651 -11.666131 -33.924664 -108.19434
57952000 -33.857559 -93.375504 -0.038789138 -11.868792 -0.039015327 -11.860514 -33.810234 -108.29884
58951000 -33.722496 -93.722839 -0.039394077 -12.075686 -0.040143315 -12.056637 -33.654251 -108.34303
59950000 -33.602982 -94.145775 -0.04005266 -12.279832 -0.040881447 -12.251617 -33.577171 -108.60998
60949000 -33.497467 -94.715149 -0.040516939 -12.47756 -0.041566912 -12.45803 -33.482506 -109.00881
61948000 -33.428001 -94.938972 -0.04099172 -12.676812 -0.040742174 -12.659146 -33.40744 -108.9687
62947000 -33.341816 -95.180061 -0.041106701 -12.886725 -0.041812848 -12.866624 -33.262833 -109.31939
63946000 -33.271896 -95.960953 -0.042280979 -13.087884 -0.042623676 -13.066052 -33.149147 -109.41107
64945000 -33.158085 -96.028214 -0.04250918 -13.28884 -0.043358307 -13.26969 -33.04211 -109.86841
65944000 -33.060627 -96.322159 -0.043012414 -13.488912 -0.043666054 -13.470378 -32.942341 -110.30842
66943000 -32.90723 -96.762413 -0.041496612 -13.690912 -0.042047299 -13.672421 -32.839897 -110.6078
67942000 -32.852737 -96.773315 -0.043876808 -13.885324 -0.043574017 -13.87329 -32.71907 -110.89282
68941000 -32.73933 -96.83255 -0.042651124 -14.07797 -0.043244574 -14.071189 -32.619446 -110.78693
69940000 -32.645046 -96.876083 -0.043101825 -14.277534 -0.043754697 -14.272062 -32.470043 -111.10434
70939000 -32.545464 -96.751076 -0.042561982 -14.476483 -0.04333321 -14.468404 -32.335632 -111.01928
71938000 -32.399834 -96.349121 -0.043027841 -14.670775 -0.043641739 -14.664271 -32.205914 -110.85483
72937000 -32.2575 -96.082481 -0.04261113 -14.875061 -0.04309006 -14.864879 -32.071861 -110.57301
73936000 -32.116047 -95.799538 -0.042271044 -15.070792 -0.042787325 -15.05813 -31.948448 -110.25684
74935000 -31.997562 -95.967491 -0.041872442 -15.269969 -0.041746724 -15.264679 -31.814116 -109.9473
75934000 -31.860531 -96.255684 -0.042359136 -15.474957 -0.041654468 -15.468466 -31.726463 -109.90719
76933000 -31.731695 -96.578247 -0.0435999 -15.669074 -0.043161958 -15.661347 -31.55357 -110.23941
77932000 -31.628319 -97.304779 -0.044603806 -15.864499 -0.045006584 -15.858841 -31.450932 -110.2242
78931000 -31.563955 -98.113945 -0.043388113 -16.065645 -0.043569572 -16.059835 -31.347898 -110.04901
79930000 -31.445156 -98.940506 -0.045479242 -16.259876 -0.0458235 -16.258892 -31.255869 -110.3094
80929000 -31.329218 -99.758461 -0.046786316 -16.45602 -0.047338199 -16.453941 -31.157198 -110.64489
81928000 -31.22386 -100.40278 -0.047266755 -16.646124 -0.048627771 -16.641991 -31.031008 -110.55679
82927000 -31.125633 -101.14614 -0.048815206 -16.844868 -0.049174652 -16.844645 -30.924063 -110.90015
83926000 -31.015741 -101.86196 -0.050248981 -17.039745 -0.049837597 -17.04402 -30.812317 -111.08018
84925000 -30.909266 -102.29427 -0.051653888 -17.245947 -0.050330684 -17.240149 -30.709173 -111.12211
85924000 -30.819231 -102.65042 -0.052178621 -17.443146 -0.051796921 -17.439804 -30.627481 -111.09599
86923000 -30.709566 -103.18008 -0.052128058 -17.640806 -0.05145533 -17.632473 -30.533054 -110.98994
87922000 -30.59487 -103.52757 -0.052664373 -17.845703 -0.051606737 -17.836718 -30.43828 -111.02506
88921000 -30.531858 -103.81317 -0.053775996 -18.0441 -0.052729618 -18.041117 -30.340149 -111.01681
89920000 -30.424187 -104.24857 -0.053583108 -18.245493 -0.052668303 -18.240335 -30.298985 -111.1058
90919000 -30.326677 -104.51105 -0.054392204 -18.444597 -0.053891577 -18.435177 -30.20344 -111.31249
91918000 -30.229563 -104.90726 -0.054833639 -18.638632 -0.053912282 -18.635077 -30.138088 -111.36855
92917000 -30.135475 -105.2308 -0.056561805 -18.841169 -0.055731852 -18.835382 -30.074905 -111.48746
93916000 -30.043571 -105.58573 -0.054974154 -19.032932 -0.055547528 -19.028143 -29.987736 -112.03686
94915000 -29.971205 -106.20914 -0.056926612 -19.234573 -0.055739455 -19.228846 -29.916651 -111.92906
95914000 -29.901842 -106.31564 -0.058302466 -19.431908 -0.056927923 -19.426691 -29.830669 -112.19087
96913000 -29.815563 -106.57787 -0.059294555 -19.633446 -0.058013879 -19.629028 -29.760935 -112.52552
97912000 -29.736671 -107.04164 -0.060335428 -19.824625 -0.058142427 -19.828838 -29.677477 -112.75171
98911000 -29.631659 -107.21394 -0.061202228 -20.030485 -0.059420254 -20.025871 -29.638887 -112.96053
99910000 -29.571077 -107.35711 -0.061367627 -20.225737 -0.060412601 -20.224829 -29.526062 -113.25813
100909000 -29.471436 -107.57888 -0.060960177 -20.435295 -0.05945988 -20.431408 -29.443853 -113.47201
101908000 -29.383671 -107.80711 -0.061823428 -20.635483 -0.060316529 -20.633831 -29.342337 -113.23725
102907000 -29.252459 -107.85713 -0.062259842 -20.831694 -0.060490821 -20.835705 -29.270056 -113.25736
103906000 -29.162521 -107.85413 -0.062505111 -21.042486 -0.060074795 -21.037151 -29.122793 -113.1853
104905000 -29.01174 -107.76425 -0.063196361 -21.237783 -0.061100893 -21.235357 -29.001925 -112.80795
105904000 -28.87348 -107.82207 -0.063396513 -21.44334 -0.061102465 -21.437294 -28.891203 -112.68413
106903000 -28.768101 -107.94189 -0.063635021 -21.645838 -0.061081991 -21.644989 -28.765314 -112.64628
107902000 -28.599165 -108.20999 -0.064476207 -21.845934 -0.06164252 -21.842127 -28.631647 -112.61443
108901000 -28.497759 -108.40294 -0.065572724 -22.052744 -0.063060053 -22.042685 -28.498449 -112.51199
109900000 -28.360895 -108.88143 -0.066096768 -22.24889 -0.064647511 -22.243238 -28.354311 -112.59033
110899000 -28.24276 -109.5086 -0.067620657 -22.44898 -0.065136239 -22.440695 -28.235554 -112.84607
111898000 -28.151653 -110.17201 -0.068649068 -22.648094 -0.066327013 -22.643476 -28.11236 -112.98668
112897000 -28.022549 -110.6996 -0.069932356 -22.8482 -0.067033596 -22.837603 -27.978912 -113.14449
113896000 -27.922176 -111.28716 -0.07096526 -23.052406 -0.068508372 -23.03779 -27.87076 -113.2702
114895000 -27.820515 -111.90802 -0.072409526 -23.247213 -0.069957346 -23.236626 -27.762218 -113.39718
115894000 -27.703682 -112.23978 -0.072790675 -23.449104 -0.070782654 -23.436344 -27.691612 -113.58808
116893000 -27.621572 -112.74701 -0.07337141 -23.643366 -0.072166853 -23.630596 -27.571833 -113.66452
117892000 -27.533684 -113.25775 -0.073774233 -23.842813 -0.072612733 -23.831285 -27.492996 -113.84443
118891000 -27.473175 -113.6301 -0.074297696 -24.044592 -0.072201595 -24.030451 -27.393314 -113.95676
119890000 -27.384106 -114.00944 -0.074672952 -24.245054 -0.0729523 -24.228931 -27.381567 -114.10434
120889000 -27.331314 -114.52689 -0.076501764 -24.444279 -0.073598884 -24.430771 -27.311285 -114.05142
121888000 -27.298315 -114.82494 -0.07634791 -24.640175 -0.073942214 -24.628727 -27.247349 -114.32004
122887000 -27.257944 -115.04208 -0.07820642 -24.843998 -0.074181043 -24.832403 -27.20466 -114.34532
123886000 -27.203634 -115.43459 -0.078216173 -25.04409 -0.074553125 -25.026485 -27.187618 -114.50934
124885000 -27.171238 -115.90034 -0.07803116 -25.243807 -0.075689331 -25.230223 -27.161196 -114.51293
125884000 -27.121559 -116.14312 -0.079224691 -25.443079 -0.075303189 -25.429537 -27.127247 -114.6562
126883000 -27.097378 -116.50244 -0.079615928 -25.648941 -0.076061018 -25.630842 -27.081827 -114.7225
127882000 -27.050581 -116.80402 -0.079426363 -25.849836 -0.076797381 -25.828114 -27.043665 -114.82851
128881000 -27.018005 -117.13153 -0.079926513 -26.050098 -0.076161392 -26.031301 -27.003813 -114.91328
129880000 -26.963024 -117.47542 -0.080363169 -26.24983 -0.076927803 -26.235029 -26.968451 -114.87353
130879000 -26.902403 -117.60563 -0.080434896 -26.450365 -0.078168996 -26.438023 -26.892889 -114.89455
131878000 -26.838697 -117.85928 -0.080639794 -26.653053 -0.07804618 -26.633934 -26.837934 -114.72005
132877000 -26.772631 -117.89282 -0.080564111 -26.855112 -0.078438103 -26.838099 -26.7544 -114.73074
133876000 -26.691051 -118.09599 -0.081111073 -27.05863 -0.078425184 -27.037149 -26.664474 -114.57193
134875000 -26.593557 -118.18523 -0.081219733 -27.256323 -0.079063348 -27.236458 -26.570295 -114.44678
135874000 -26.516945 -118.23353 -0.081265628 -27.457726 -0.078960545 -27.440529 -26.477814 -114.39762
136873000 -26.400869 -118.18976 -0.081686594 -27.658785 -0.078205369 -27.639908 -26.392117 -114.36386
137872000 -26.325207 -118.25157 -0.081238464 -27.858711 -0.078643963 -27.843958 -26.290083 -114.25384
138871000 -26.250242 -118.51899 -0.081861474 -28.062904 -0.078668207 -28.043169 -26.202944 -114.42567
139870000 -26.146795 -118.78012 -0.082508855 -28.259478 -0.07972692 -28.239685 -26.114218 -114.5675
140869000 -26.075609 -119.28581 -0.083580375 -28.457323 -0.080621071 -28.439754 -26.020971 -114.79764
141868000 -25.991209 -119.72524 -0.084085755 -28.653734 -0.081851453 -28.637764 -25.970602 -115.04577
142867000 -25.911354 -119.90704 -0.082428388 -28.850401 -0.08098527 -28.836773 -25.892616 -115.19827
143866000 -25.839245 -120.40464 -0.084803939 -29.04961 -0.082771897 -29.034039 -25.825214 -115.62765
144865000 -25.785118 -120.8961 -0.08617387 -29.249634 -0.083941393 -29.234077 -25.768824 -115.93276
145864000 -25.732536 -121.20495 -0.086476475 -29.448139 -0.084823474 -29.437498 -25.736263 -116.19189
146863000 -25.688839 -121.58562 -0.087186076 -29.651543 -0.085949697 -29.635113 -25.683504 -116.45656
147862000 -25.648766 -121.87754 -0.088282801 -29.847702 -0.085980065 -29.835039 -25.654587 -116.75266
148861000 -25.616854 -122.34422 -0.089537814 -30.044781 -0.087454952 -30.029255 -25.63298 -116.92474
149860000 -25.586155 -122.50876 -0.090071902 -30.237129 -0.087934628 -30.225691 -25.585701 -117.033
150859000 -25.56752 -123.00447 -0.089739442 -30.431072 -0.087845609 -30.421974 -25.565886 -117.41196
151858000 -25.553946 -123.35403 -0.088624127 -30.637701 -0.087368846 -30.620329 -25.553999 -117.73842
152857000 -25.540676 -123.70758 -0.089518256 -30.834248 -0.088230491 -30.822237 -25.54306 -117.92853
153856000 -25.531815 -123.92245 -0.089775115 -31.034441 -0.086837471 -31.020521 -25.552902 -118.2402
154855000 -25.537113 -124.04903 -0.089921527 -31.233622 -0.087414272 -31.222649 -25.544786 -118.50433
155854000 -25.549046 -124.28854 -0.089932621 -31.43133 -0.088245019 -31.421814 -25.542633 -118.75799
156853000 -25.533588 -124.99863 -0.087870702 -31.621622 -0.08661221 -31.613457 -25.529299 -119.0557
157852000 -25.549114 -125.21839 -0.089356013 -31.823536 -0.088554114 -31.815388 -25.52039 -119.4285
158851000 -25.546532 -125.43634 -0.089922845 -32.023979 -0.088815406 -32.013515 -25.507568 -119.67713
159850000 -25.534113 -125.54399 -0.090684816 -32.219685 -0.089453779 -32.214867 -25.504301 -119.86237
160849000 -25.519247 -125.63938 -0.090187922 -32.422218 -0.089941077 -32.414742 -25.475979 -120.15672
161848000 -25.504377 -125.70443 -0.090735301 -32.621975 -0.089824535 -32.615383 -25.43578 -120.25634
162847000 -25.46373 -125.86055 -0.091195785 -32.820808 -0.091017351 -32.8134 -25.412167 -120.51145
163846000 -25.42417 -126.07865 -0.090961576 -33.019711 -0.09050931 -33.012409 -25.335527 -120.49957
164845000 -25.364201 -126.06826 -0.091870196 -33.217968 -0.090668961 -33.215046 -25.268703 -120.59497
165844000 -25.308867 -126.10218 -0.090893112 -33.420254 -0.090697773 -33.411938 -25.194315 -120.74065
166843000 -25.251074 -126.1459 -0.091376342 -33.620461 -0.090692222 -33.611279 -25.127846 -120.89813
167842000 -25.191431 -126.24799 -0.092222914 -33.816982 -0.091086604 -33.811428 -25.04991 -120.79083
168841000 -25.121153 -126.40608 -0.092696242 -34.016277 -0.091329284 -34.009407 -24.978197 -120.84862
169840000 -25.053532 -126.61752 -0.09268038 -34.213947 -0.092187487 -34.211819 -24.898376 -121.05437
170839000 -24.992384 -126.8989 -0.093342856 -34.412041 -0.092453487 -34.407024 -24.811068 -121.22882
171838000 -24.938358 -127.27279 -0.093099274 -34.614788 -0.093344972 -34.608978 -24.750917 -121.42155
172837000 -24.868652 -127.62475 -0.094930053 -34.811001 -0.094260186 -34.803074 -24.682207 -121.6476
173836000 -24.799112 -127.97444 -0.095605314 -35.007935 -0.094583727 -35.005726 -24.640894 -121.87339
174835000 -24.740162 -128.42601 -0.096240446 -35.203594 -0.095443897 -35.206085 -24.59935 -122.2055
175834000 -24.691715 -128.74734 -0.09722589 -35.403362 -0.096523643 -35.401581 -24.540379 -122.44492
176833000 -24.64362 -129.07867 -0.098601595 -35.603439 -0.097567923 -35.603012 -24.493799 -122.57857
177832000 -24.599695 -129.54141 -0.099583335 -35.803932 -0.097912095 -35.803654 -24.473499 -122.72449
178831000 -24.550932 -129.73854 -0.10106921 -36.000393 -0.1002323 -35.993965 -24.432926 -122.77806
179830000 -24.482189 -130.1646 -0.1014073 -36.181442 -0.10087845 -36.187004 -24.366257 -122.88561
180829000 -24.431349 -130.511 -0.10063417 -36.377056 -0.10037773 -36.378876 -24.325184 -123.18999
181828000 -24.403404 -130.91949 -0.10016289 -36.580666 -0.099051781 -36.573235 -24.305902 -123.39899
182827000 -24.382015 -131.29749 -0.099787019 -36.772652 -0.099709675 -36.773415 -24.294384 -123.54576
183826000 -24.342787 -131.60735 -0.1002119 -36.968502 -0.099598959 -36.973454 -24.285458 -123.68387
184825000 -24.347229 -131.94466 -0.10023733 -37.170383 -0.099894032 -37.168327 -24.267437 -123.81315
185824000 -24.316137 -132.34183 -0.10053033 -37.366417 -0.10051178 -37.362255 -24.261875 -123.87265
186823000 -24.303518 -132.69113 -0.1007518 -37.564018 -0.10067073 -37.565048 -24.253897 -123.89689
187822000 -24.279655 -133.00243 -0.10061139 -37.759815 -0.10100906 -37.756359 -24.215847 -123.97334
188821000 -24.25618 -133.32671 -0.10040475 -37.95779 -0.10100085 -37.962227 -24.188925 -124.09816
189820000 -24.236908 -133.56868 -0.10109358 -38.154453 -0.10062623 -38.15451 -24.176907 -124.29532
190819000 -24.204445 -133.89307 -0.10206661 -38.35218 -0.10172369 -38.355522 -24.135977 -124.33156
191818000 -24.168472 -134.17619 -0.10185778 -38.551632 -0.10133894 -38.552078 -24.107246 -124.37275
192817000 -24.121237 -134.44403 -0.10196961 -38.748047 -0.10207138 -38.749489 -24.065533 -124.45657
193816000 -24.091585 -134.70114 -0.10284344 -38.944939 -0.10152072 -38.94294 -24.012829 -124.60079
194815000 -24.030733 -135.09465 -0.10234303 -39.138702 -0.10270084 -39.142513 -23.946413 -124.66882
195814000 -23.97633 -135.28163 -0.10379884 -39.336662 -0.10297836 -39.338852 -23.888029 -124.73916
196813000 -23.921293 -135.59531 -0.10309181 -39.529366 -0.10256169 -39.533665 -23.814825 -124.91473
197812000 -23.862379 -135.82495 -0.10350297 -39.72718 -0.10301786 -39.727047 -23.740522 -124.98354
198811000 -23.810379 -135.96315 -0.10413528 -39.929115 -0.1028453 -39.929672 -23.674067 -125.13223
199810000 -23.740831 -136.32057 -0.10334364 -40.119785 -0.10243129 -40.117908 -23.599739 -125.23351
200809000 -23.683578 -136.57487 -0.10395128 -40.316944 -0.10345896 -40.320148 -23.520021 -125.41341
201808000 -23.626894 -136.77361 -0.10511695 -40.520542 -0.10383198 -40.523579 -23.454632 -125.47996
202807000 -23.569483 -137.11531 -0.10574313 -40.720882 -0.10427475 -40.721539 -23.396996 -125.65755
