!Keysight Technologies,E5080B,MY59205177,A.15.75.32
!Date: Friday, February 23, 2024 03:39:49
!Correction: S11(Cdelta 2-Port  ) 
!S21(Cdelta 2-Port  ) 
!S12(Cdelta 2-Port  ) 
!S22(Cdelta 2-Port  ) 
!S2P File: Measurements: S11, S21, S12, S22:
# Hz S  dB   R 50
10000000 -46.086559 -2.8533876 -0.014633631 -2.0457814 -0.018444292 -2.0963295 -45.951794 -157.23128
10999000 -45.296192 -4.889719 -0.015767775 -2.2577798 -0.018050728 -2.3119533 -45.826828 -151.06546
11998000 -44.361118 -7.5246701 -0.016355226 -2.4859233 -0.017932719 -2.5288336 -46.027111 -147.01201
12997000 -43.608646 -13.29635 -0.015758943 -2.6650343 -0.017700087 -2.6989286 -45.625107 -141.20509
13996000 -43.305901 -17.296467 -0.015000131 -2.8440764 -0.017304512 -2.8646607 -45.388592 -136.27063
14995000 -42.895279 -21.570082 -0.017018639 -3.0552213 -0.016844265 -3.0792558 -45.087498 -132.60661
15994000 -42.756248 -26.25901 -0.017964171 -3.2768767 -0.01977654 -3.2948856 -44.988747 -129.37775
16993000 -42.648552 -30.54076 -0.017404571 -3.4740472 -0.019504284 -3.4784105 -44.129009 -128.72307
17992000 -42.702587 -36.249142 -0.017788719 -3.6679206 -0.020003561 -3.6736915 -43.595966 -129.05061
18991000 -42.95195 -41.671375 -0.0187339 -3.8791032 -0.020281309 -3.8808675 -42.920692 -127.85422
19990000 -42.683109 -47.670101 -0.021247841 -4.0908999 -0.022790942 -4.086575 -42.246525 -128.69856
20989000 -42.519482 -50.817974 -0.022784177 -4.2939639 -0.024421277 -4.2843723 -41.737602 -128.53273
21988000 -42.390938 -56.249382 -0.023479804 -4.4934473 -0.024998965 -4.4767056 -41.421535 -127.46364
22987000 -42.06863 -60.913807 -0.024925284 -4.6936021 -0.026206654 -4.6817169 -41.217434 -126.95824
23986000 -41.953602 -64.99247 -0.025192412 -4.8862267 -0.025423102 -4.881876 -41.073376 -126.5975
24985000 -41.532795 -67.410873 -0.025992068 -5.0912647 -0.026047276 -5.0872555 -40.837658 -124.34686
25984000 -41.195526 -69.946243 -0.026675967 -5.29916 -0.025918633 -5.299655 -40.532383 -122.93459
26983000 -40.860321 -71.558266 -0.027275315 -5.4976416 -0.026946068 -5.5178928 -40.417339 -122.22314
27982000 -40.695881 -72.260658 -0.02807744 -5.6958795 -0.028348148 -5.7301006 -40.125992 -120.76517
28981000 -40.670685 -73.985458 -0.026324108 -5.8955054 -0.028835934 -5.9202909 -39.867939 -119.98306
29980000 -40.255844 -75.307495 -0.026231915 -6.088429 -0.028808834 -6.0942459 -39.608486 -118.98434
30979000 -39.868767 -74.10997 -0.024449131 -6.441926 -0.02309281 -6.4371858 -39.138012 -119.54226
31978000 -39.666714 -75.1987 -0.023583651 -6.6375771 -0.024252594 -6.6284351 -38.862755 -118.7132
32977000 -39.466778 -76.751732 -0.02368984 -6.8474493 -0.025235372 -6.8468337 -38.645508 -118.90313
33976000 -39.302044 -77.902908 -0.024588145 -7.0493984 -0.025385346 -7.045712 -38.353554 -118.12366
34975000 -39.009712 -78.647812 -0.024112809 -7.2491498 -0.026591061 -7.2508717 -38.134968 -117.91266
35974000 -38.785233 -79.23098 -0.023546953 -7.4425011 -0.025918633 -7.4496388 -37.840199 -116.96857
36973000 -38.55497 -80.004601 -0.023725498 -7.6418977 -0.027488923 -7.6506019 -37.582676 -116.07367
37972000 -38.385632 -79.651726 -0.024102658 -7.8520522 -0.026534803 -7.8650908 -37.381481 -115.26836
38971000 -38.061691 -79.218178 -0.024857074 -8.055232 -0.026413698 -8.0691357 -37.20668 -113.70058
39970000 -37.732826 -79.288765 -0.022831537 -8.248765 -0.025642086 -8.2716436 -36.949978 -112.96935
40969000 -37.468605 -79.022461 -0.023616184 -8.4442377 -0.02498178 -8.4655828 -36.72234 -111.71795
41968000 -37.106346 -78.97068 -0.024018582 -8.6526165 -0.025522828 -8.6695671 -36.514675 -110.30644
42967000 -36.862602 -79.047844 -0.022953063 -8.8635559 -0.026285565 -8.8795052 -36.324596 -108.63573
43966000 -36.564808 -79.740974 -0.023713786 -9.0622196 -0.027577756 -9.08249 -36.068943 -107.92157
44965000 -36.326714 -80.482056 -0.025236152 -9.263876 -0.027228167 -9.2861586 -35.864223 -107.59341
45964000 -36.09581 -81.457207 -0.025610318 -9.4655848 -0.028572232 -9.4854889 -35.618637 -107.38318
46963000 -35.903671 -83.422371 -0.025485333 -9.6597147 -0.029116852 -9.6829224 -35.440762 -107.5583
47962000 -35.742428 -84.823456 -0.027817169 -9.86164 -0.030078838 -9.8833685 -35.246483 -107.62617
48961000 -35.533695 -86.118095 -0.02949057 -10.059744 -0.031585705 -10.080787 -35.022709 -107.78403
49960000 -35.297092 -87.403412 -0.03026443 -10.258631 -0.032841135 -10.283546 -34.880688 -107.93479
50959000 -35.067421 -88.710884 -0.031181825 -10.471778 -0.034008741 -10.483254 -34.7099 -108.11835
51958000 -34.862568 -89.704216 -0.033594199 -10.668565 -0.035311844 -10.68156 -34.539951 -108.54089
52957000 -34.64835 -90.750107 -0.034750789 -10.870446 -0.037068028 -10.879307 -34.378605 -108.3919
53956000 -34.49155 -91.488586 -0.036434434 -11.072609 -0.037757069 -11.075531 -34.25296 -108.34049
54955000 -34.309639 -91.960655 -0.03711189 -11.275277 -0.037627555 -11.272701 -34.0998 -108.22142
55954000 -34.14045 -92.785912 -0.038032036 -11.476122 -0.038651757 -11.474013 -33.980503 -107.97628
56953000 -34.03307 -92.853462 -0.038039088 -11.670318 -0.037666462 -11.663141 -33.918224 -108.22663
57952000 -33.862782 -93.484558 -0.039039094 -11.870315 -0.038788877 -11.858013 -33.816254 -108.26569
58951000 -33.739342 -93.729836 -0.039724533 -12.078331 -0.039418109 -12.056576 -33.649738 -108.36778
59950000 -33.628532 -94.108208 -0.040811419 -12.275913 -0.040973689 -12.25483 -33.588955 -108.69125
60949000 -33.493866 -94.606453 -0.041028567 -12.478597 -0.040591668 -12.456826 -33.47459 -108.94257
61948000 -33.424625 -94.999596 -0.040982313 -12.677636 -0.040650718 -12.660641 -33.397953 -109.02444
62947000 -33.343964 -95.267639 -0.041194245 -12.887148 -0.041379269 -12.867757 -33.257988 -109.27997
63946000 -33.257294 -95.988853 -0.042218767 -13.088756 -0.042160738 -13.068846 -33.148891 -109.42308
64945000 -33.146107 -96.108948 -0.042239938 -13.287502 -0.042765103 -13.268824 -33.034424 -109.90731
65944000 -33.056179 -96.390228 -0.04381562 -13.489746 -0.043214507 -13.470268 -32.930309 -110.39691
66943000 -32.917019 -96.768867 -0.041137014 -13.689258 -0.041725032 -13.672217 -32.832733 -110.5194
67942000 -32.842037 -96.738747 -0.043362752 -13.886853 -0.043135293 -13.875872 -32.708241 -110.87241
68941000 -32.730293 -96.815178 -0.042463955 -14.079283 -0.04301738 -14.071252 -32.605221 -110.79102
69940000 -32.639576 -96.852081 -0.043150194 -14.281733 -0.04297895 -14.26949 -32.465996 -111.06516
70939000 -32.541306 -96.695923 -0.043726195 -14.473267 -0.042318881 -14.469905 -32.344872 -110.96612
71938000 -32.398193 -96.333862 -0.042888235 -14.670248 -0.042933986 -14.669961 -32.205887 -110.80536
72937000 -32.242413 -96.163048 -0.042378217 -14.873119 -0.042235233 -14.86431 -32.065475 -110.59835
73936000 -32.109989 -95.745758 -0.042386841 -15.069038 -0.041872181 -15.065651 -31.963326 -110.34503
74935000 -31.977255 -95.947563 -0.04154522 -15.263303 -0.041237365 -15.260489 -31.80451 -110.02669
75934000 -31.860804 -96.237808 -0.041688964 -15.47331 -0.041265849 -15.468683 -31.72114 -109.96885
76933000 -31.74239 -96.525597 -0.043101564 -15.669729 -0.042800397 -15.659944 -31.557627 -110.22076
77932000 -31.626781 -97.338654 -0.043766983 -15.86376 -0.044422567 -15.856422 -31.448082 -110.21796
78931000 -31.555048 -98.02565 -0.042478073 -16.064861 -0.043426547 -16.060211 -31.350142 -110.07915
79930000 -31.445173 -98.938713 -0.045323078 -16.256159 -0.045493368 -16.256655 -31.261608 -110.38245
80929000 -31.339565 -99.658356 -0.047342647 -16.45644 -0.047746204 -16.451447 -31.155346 -110.64281
81928000 -31.238846 -100.41659 -0.047020249 -16.645796 -0.047616914 -16.643728 -31.03908 -110.62054
82927000 -31.129902 -101.07642 -0.049003433 -16.842382 -0.049178839 -16.843599 -30.92366 -110.91865
83926000 -31.018673 -101.82621 -0.049903583 -17.039726 -0.04894191 -17.04767 -30.797211 -111.10578
84925000 -30.920273 -102.26846 -0.051427566 -17.243467 -0.049515277 -17.23777 -30.710211 -111.16779
85924000 -30.822706 -102.65197 -0.051594686 -17.44092 -0.051049858 -17.440514 -30.627333 -111.08755
86923000 -30.71044 -103.17629 -0.051746886 -17.641073 -0.051213037 -17.638256 -30.529079 -110.97436
87922000 -30.606279 -103.55308 -0.052244119 -17.847038 -0.050473411 -17.839802 -30.437807 -110.96523
88921000 -30.526237 -103.78252 -0.053522043 -18.046505 -0.051932622 -18.040077 -30.349468 -111.00385
89920000 -30.424942 -104.30293 -0.053860128 -18.241554 -0.052398436 -18.241785 -30.283056 -111.16116
90919000 -30.317801 -104.54421 -0.054617632 -18.441338 -0.052925352 -18.44042 -30.199242 -111.36883
91918000 -30.224728 -104.92564 -0.054999843 -18.641348 -0.053539079 -18.637863 -30.141346 -111.38227
92917000 -30.136227 -105.22752 -0.056163985 -18.841051 -0.055047557 -18.834309 -30.071981 -111.45071
93916000 -30.03656 -105.55834 -0.055671282 -19.03516 -0.054649089 -19.030487 -29.97838 -112.03913
94915000 -29.967993 -106.23454 -0.056735158 -19.236845 -0.055816021 -19.229935 -29.917938 -111.89326
95914000 -29.894953 -106.37594 -0.058090221 -19.430048 -0.057124898 -19.427378 -29.8283 -112.17902
96913000 -29.818769 -106.58865 -0.059226062 -19.630537 -0.057809521 -19.627188 -29.759508 -112.531
97912000 -29.736492 -107.06786 -0.060503945 -19.82786 -0.057869334 -19.826191 -29.685629 -112.79976
98911000 -29.62319 -107.24019 -0.060590569 -20.029175 -0.059001707 -20.026836 -29.638836 -112.99557
99910000 -29.56344 -107.36156 -0.061434578 -20.225214 -0.059633348 -20.224195 -29.534927 -113.27669
100909000 -29.474827 -107.66259 -0.061051011 -20.435915 -0.059297703 -20.429749 -29.448551 -113.4629
101908000 -29.380331 -107.80181 -0.062094409 -20.640064 -0.059976894 -20.635561 -29.341549 -113.27127
102907000 -29.245468 -107.9156 -0.062286366 -20.832073 -0.060487408 -20.833326 -29.268988 -113.18983
103906000 -29.149042 -107.83905 -0.062820785 -21.042149 -0.059590571 -21.034986 -29.12557 -113.19519
104905000 -28.999264 -107.75432 -0.06321948 -21.238703 -0.060556445 -21.234592 -28.995352 -112.85474
105904000 -28.871326 -107.84124 -0.063716978 -21.442986 -0.060213901 -21.432808 -28.883137 -112.75072
106903000 -28.761192 -107.85472 -0.063344501 -21.64839 -0.060512871 -21.640356 -28.761694 -112.62624
107902000 -28.59816 -108.20927 -0.064884506 -21.847399 -0.061295427 -21.842091 -28.629772 -112.58436
108901000 -28.491386 -108.43513 -0.06513413 -22.048002 -0.062501699 -22.041937 -28.499937 -112.52753
109900000 -28.356829 -108.84946 -0.065793477 -22.248596 -0.063798934 -22.24313 -28.34609 -112.59491
110899000 -28.242428 -109.52163 -0.067497618 -22.44943 -0.064796485 -22.438408 -28.231478 -112.85278
111898000 -28.153044 -110.15456 -0.069140092 -22.650919 -0.065631062 -22.643835 -28.113804 -112.97411
112897000 -28.025024 -110.69946 -0.069749005 -22.847586 -0.066472895 -22.837128 -27.978785 -113.16509
113896000 -27.922693 -111.24641 -0.071267866 -23.048649 -0.067977726 -23.038853 -27.872452 -113.31912
114895000 -27.822826 -111.92515 -0.072164223 -23.248848 -0.069313154 -23.232796 -27.761044 -113.36227
115894000 -27.698227 -112.24422 -0.073340081 -23.447063 -0.069994964 -23.43597 -27.692333 -113.56563
116893000 -27.615217 -112.74121 -0.074147336 -23.642281 -0.070908427 -23.628933 -27.564327 -113.66741
117892000 -27.537325 -113.25076 -0.073673129 -23.84383 -0.071524702 -23.830002 -27.490351 -113.84222
118891000 -27.476017 -113.64201 -0.07506457 -24.042204 -0.072011568 -24.029709 -27.398409 -114.00406
119890000 -27.386724 -114.02166 -0.075649031 -24.241919 -0.072920188 -24.229605 -27.378643 -114.12009
120889000 -27.33729 -114.49671 -0.076414295 -24.442064 -0.072631687 -24.431772 -27.310608 -114.0444
121888000 -27.301497 -114.81574 -0.076545767 -24.640091 -0.073081292 -24.626274 -27.247774 -114.31663
122887000 -27.256306 -115.03126 -0.078073852 -24.840504 -0.074253716 -24.831236 -27.19776 -114.35749
123886000 -27.200016 -115.45484 -0.078252807 -25.044825 -0.074106522 -25.029034 -27.186409 -114.49194
124885000 -27.170769 -115.92752 -0.077727817 -25.243994 -0.074943155 -25.231276 -27.15461 -114.53469
125884000 -27.117556 -116.18249 -0.078667946 -25.444464 -0.074882843 -25.430508 -27.127001 -114.67696
126883000 -27.094564 -116.53152 -0.079014845 -25.649809 -0.075660095 -25.632578 -27.085371 -114.70902
127882000 -27.044708 -116.80423 -0.079458795 -25.84771 -0.076152429 -25.830912 -27.049911 -114.80795
128881000 -27.013117 -117.15451 -0.079960525 -26.049225 -0.076375835 -26.03331 -27.003696 -114.91901
129880000 -26.964296 -117.49185 -0.080335483 -26.252844 -0.076369777 -26.233297 -26.965141 -114.91122
130879000 -26.896093 -117.62721 -0.080321506 -26.451914 -0.077545457 -26.433187 -26.89126 -114.8953
131878000 -26.835285 -117.78743 -0.080572814 -26.652514 -0.077623457 -26.634581 -26.830959 -114.76999
132877000 -26.770954 -117.92443 -0.080163032 -26.85531 -0.078171372 -26.836973 -26.751459 -114.7164
133876000 -26.684286 -118.06631 -0.080928043 -27.056938 -0.077484317 -27.034054 -26.669209 -114.60573
134875000 -26.590921 -118.19836 -0.0805889 -27.255259 -0.07801798 -27.235266 -26.568207 -114.43025
135874000 -26.511946 -118.24112 -0.080652982 -27.455967 -0.077518843 -27.43906 -26.471922 -114.43903
136873000 -26.402151 -118.15594 -0.081504062 -27.658585 -0.078601256 -27.638889 -26.395002 -114.35059
137872000 -26.322515 -118.26022 -0.080901928 -27.858191 -0.078250699 -27.843838 -26.293636 -114.26399
138871000 -26.247232 -118.50557 -0.081422299 -28.055586 -0.077845618 -28.043484 -26.19536 -114.43498
139870000 -26.154146 -118.73528 -0.082263239 -28.259405 -0.079273984 -28.243668 -26.118948 -114.58664
140869000 -26.071692 -119.28215 -0.083185613 -28.455309 -0.080174103 -28.437349 -26.019409 -114.81611
141868000 -25.997316 -119.7235 -0.084460013 -28.654522 -0.081687912 -28.639458 -25.973013 -115.03616
142867000 -25.913952 -119.9174 -0.08258985 -28.850248 -0.080790639 -28.833473 -25.896801 -115.18922
143866000 -25.839426 -120.3705 -0.084891312 -29.045534 -0.082441576 -29.032511 -25.823761 -115.61598
144865000 -25.792257 -120.9101 -0.085849367 -29.246368 -0.083792552 -29.233541 -25.764473 -115.90464
145864000 -25.729351 -121.19441 -0.086312495 -29.448891 -0.084476113 -29.438522 -25.733473 -116.16991
146863000 -25.687868 -121.53821 -0.086950503 -29.649076 -0.08444602 -29.636686 -25.690252 -116.46268
147862000 -25.652819 -121.90785 -0.087945193 -29.843863 -0.085187763 -29.834219 -25.655901 -116.77902
148861000 -25.620239 -122.33301 -0.08954706 -30.043844 -0.086611941 -30.031984 -25.631058 -116.96024
149860000 -25.581263 -122.55202 -0.091344617 -30.24177 -0.087099984 -30.224382 -25.579409 -117.03263
150859000 -25.562338 -122.97482 -0.08993236 -30.434841 -0.087377295 -30.420908 -25.562128 -117.41056
151858000 -25.553442 -123.34112 -0.0894522 -30.635189 -0.087028936 -30.624226 -25.551945 -117.74651
152857000 -25.543077 -123.67561 -0.090199552 -30.833107 -0.086458787 -30.819925 -25.539221 -117.89423
153856000 -25.537693 -123.91116 -0.089331441 -31.032257 -0.086059541 -31.021318 -25.555763 -118.25691
154855000 -25.536348 -124.06806 -0.09002988 -31.232178 -0.086262852 -31.223059 -25.545811 -118.49385
155854000 -25.549694 -124.32245 -0.090293638 -31.433237 -0.087733872 -31.417307 -25.534313 -118.76128
156853000 -25.539303 -124.99212 -0.088439196 -31.624138 -0.086148255 -31.612301 -25.528215 -119.05939
157852000 -25.551971 -125.21872 -0.088984244 -31.821507 -0.08804293 -31.812143 -25.521799 -119.41978
158851000 -25.546543 -125.43192 -0.089710109 -32.020954 -0.088214114 -32.012505 -25.504791 -119.70135
159850000 -25.532883 -125.53584 -0.090291522 -32.221813 -0.089027308 -32.211586 -25.506947 -119.82578
160849000 -25.514025 -125.61468 -0.09060394 -32.420422 -0.089635059 -32.413864 -25.473825 -120.14652
161848000 -25.497864 -125.69904 -0.090905003 -32.619019 -0.08921808 -32.614079 -25.437614 -120.26467
162847000 -25.456478 -125.87733 -0.0907657 -32.819073 -0.089939229 -32.816025 -25.403128 -120.49008
163846000 -25.422979 -126.07423 -0.091170937 -33.021175 -0.089779876 -33.011089 -25.33149 -120.50089
164845000 -25.362921 -126.05775 -0.091354132 -33.221779 -0.089718565 -33.211826 -25.268608 -120.59718
165844000 -25.31324 -126.08856 -0.091147937 -33.41909 -0.089763492 -33.413494 -25.194857 -120.75007
166843000 -25.245373 -126.15081 -0.091685392 -33.616131 -0.090441383 -33.61414 -25.128826 -120.87853
167842000 -25.192482 -126.26023 -0.091751754 -33.818989 -0.090651512 -33.809784 -25.047112 -120.81259
168841000 -25.117985 -126.42447 -0.091937616 -34.016777 -0.090961576 -34.014606 -24.976286 -120.86972
169840000 -25.049286 -126.63701 -0.092367284 -34.210011 -0.091236755 -34.209488 -24.894331 -121.05479
170839000 -24.991556 -126.88103 -0.092926316 -34.411591 -0.091519624 -34.406319 -24.807657 -121.21261
171838000 -24.934053 -127.25894 -0.093316145 -34.613773 -0.092220008 -34.608608 -24.748661 -121.45691
172837000 -24.85998 -127.59526 -0.095042497 -34.808384 -0.094041154 -34.804314 -24.686844 -121.63985
173836000 -24.79598 -127.99557 -0.095553182 -35.010532 -0.094707012 -35.006535 -24.640564 -121.89149
174835000 -24.745501 -128.3992 -0.09597183 -35.203186 -0.095361598 -35.206505 -24.596893 -122.20805
175834000 -24.693047 -128.76282 -0.097197831 -35.406055 -0.096557789 -35.399452 -24.537161 -122.45062
176833000 -24.645334 -129.08516 -0.098137684 -35.606995 -0.097082414 -35.600742 -24.491955 -122.60055
177832000 -24.593233 -129.5081 -0.09871228 -35.803112 -0.097954459 -35.80117 -24.468573 -122.70782
178831000 -24.552738 -129.74194 -0.10084877 -36.001392 -0.099835224 -35.996326 -24.431705 -122.78475
179830000 -24.478163 -130.16263 -0.10136438 -36.184254 -0.10060769 -36.184978 -24.366732 -122.86436
180829000 -24.435625 -130.50298 -0.10048158 -36.375084 -0.099639222 -36.376995 -24.324379 -123.20231
181828000 -24.408056 -130.9214 -0.09884204 -36.576828 -0.098891035 -36.576469 -24.304249 -123.3615
182827000 -24.382902 -131.32861 -0.099864364 -36.77486 -0.09926074 -36.774975 -24.290596 -123.51402
183826000 -24.344427 -131.65289 -0.10077062 -36.972618 -0.098990612 -36.969135 -24.286755 -123.6852
184825000 -24.349991 -131.98039 -0.10034806 -37.169384 -0.099922106 -37.169941 -24.264847 -123.81277
185824000 -24.320221 -132.32845 -0.10038859 -37.362774 -0.099268153 -37.367039 -24.256264 -123.88726
186823000 -24.300798 -132.68883 -0.10014568 -37.562401 -0.10049986 -37.560669 -24.253571 -123.88097
187822000 -24.27635 -133.06387 -0.10087845 -37.762009 -0.10102893 -37.760666 -24.211603 -123.99035
188821000 -24.251923 -133.32094 -0.10076532 -37.953075 -0.10028183 -37.961369 -24.194881 -124.11836
189820000 -24.232533 -133.59579 -0.10146348 -38.154823 -0.099955484 -38.157745 -24.172531 -124.30527
190819000 -24.19825 -133.88164 -0.10190973 -38.353073 -0.10068292 -38.349854 -24.134802 -124.30916
191818000 -24.169346 -134.19724 -0.10226856 -38.550396 -0.10109888 -38.551739 -24.109793 -124.38011
192817000 -24.12137 -134.47182 -0.102197 -38.746601 -0.10127562 -38.753208 -24.059818 -124.4379
193816000 -24.092661 -134.74147 -0.10286306 -38.941784 -0.10143327 -38.942589 -24.013819 -124.60065
194815000 -24.028704 -135.07899 -0.10263696 -39.141098 -0.10248642 -39.140446 -23.944841 -124.69049
195814000 -23.973915 -135.29846 -0.1030881 -39.338528 -0.10249437 -39.338356 -23.892351 -124.75407
196813000 -23.921715 -135.62796 -0.10321984 -39.529942 -0.10191502 -39.53373 -23.812111 -124.87381
197812000 -23.863861 -135.83401 -0.1036798 -39.730755 -0.10293542 -39.728634 -23.74506 -124.9612
198811000 -23.809546 -135.96977 -0.10315941 -39.92506 -0.10194232 -39.930233 -23.6714 -125.13309
199810000 -23.741039 -136.33989 -0.10355811 -40.119686 -0.10248429 -40.118084 -23.59906 -125.22854
200809000 -23.682556 -136.60809 -0.10403347 -40.317963 -0.10258608 -40.317581 -23.518314 -125.40988
201808000 -23.626427 -136.76628 -0.1054246 -40.515903 -0.10348998 -40.521648 -23.451622 -125.46096
202807000 -23.568789 -137.12425 -0.10532805 -40.715942 -0.10429782 -40.72102 -23.399689 -125.65842
