!Keysight Technologies,E5080B,MY59205177,A.15.75.32
!Date: Friday, February 23, 2024 03:01:31
!Correction: S11(Cdelta 2-Port  ) 
!S21(Cdelta 2-Port  ) 
!S12(Cdelta 2-Port  ) 
!S22(Cdelta 2-Port  ) 
!S2P File: Measurements: S11, S21, S12, S22:
# Hz S  dB   R 50
10000000 -44.188976 -3.6843197 -0.026851518 -2.0383565 -0.03010777 -2.0931568 -48.035519 -150.8177
10999000 -43.558334 -5.6222248 -0.028413286 -2.2579954 -0.03048392 -2.312408 -47.823147 -142.71234
11998000 -42.715546 -7.8285503 -0.028215006 -2.4803886 -0.030397635 -2.5256832 -47.85384 -137.2518
12997000 -42.085999 -12.626298 -0.027799714 -2.6588075 -0.030017061 -2.6860437 -47.193974 -130.48764
13996000 -41.873402 -16.133944 -0.02699165 -2.8389916 -0.02982809 -2.8583925 -46.822166 -125.25829
14995000 -41.522667 -19.518709 -0.029025644 -3.0469923 -0.029437665 -3.0733061 -46.414032 -121.7317
15994000 -41.44249 -23.664858 -0.030082487 -3.2649584 -0.031737987 -3.2862689 -46.114731 -118.48412
16993000 -41.437763 -27.852564 -0.029190082 -3.4611974 -0.031008447 -3.4692752 -45.218475 -119.25169
17992000 -41.500748 -32.282059 -0.029735303 -3.6576674 -0.031638637 -3.659291 -44.576485 -119.9991
18991000 -41.74184 -36.902332 -0.031310886 -3.8700006 -0.03220164 -3.8650129 -43.896877 -119.74461
19990000 -41.620041 -41.890686 -0.03334273 -4.0782552 -0.034643285 -4.0704379 -43.21788 -121.12774
20989000 -41.540192 -44.725941 -0.035101768 -4.2789006 -0.036229525 -4.2721119 -42.635597 -121.00876
21988000 -41.396023 -49.561867 -0.035616152 -4.4815249 -0.038054496 -4.464272 -42.349739 -120.14442
22987000 -41.186275 -53.762836 -0.037778221 -4.6737967 -0.038400516 -4.6698837 -42.057201 -120.10396
23986000 -41.192478 -57.604027 -0.036965426 -4.8675499 -0.037777174 -4.8667731 -41.964272 -119.57893
24985000 -40.874645 -60.328671 -0.037623901 -5.0790024 -0.037972238 -5.0735497 -41.690586 -117.14549
25984000 -40.626308 -62.318386 -0.038948201 -5.2841721 -0.038468417 -5.2841635 -41.309803 -115.90152
26983000 -40.362324 -64.24501 -0.039745692 -5.4806595 -0.039386503 -5.5019188 -41.221668 -115.20379
27982000 -40.195465 -65.084862 -0.040220127 -5.682559 -0.040827621 -5.7180181 -40.922859 -113.45177
28981000 -40.175331 -66.466003 -0.038882904 -5.8733282 -0.040250957 -5.9002671 -40.627655 -113.02343
29980000 -39.769142 -68.218895 -0.038707912 -6.0709743 -0.041340329 -6.0811486 -40.338078 -112.21841
30979000 -39.444168 -67.302353 -0.0360348 -6.4258628 -0.035850789 -6.418088 -39.846539 -113.10948
31978000 -39.264259 -68.486862 -0.035876367 -6.6213479 -0.036549296 -6.6085024 -39.567505 -112.31481
32977000 -39.07954 -70.046783 -0.035426676 -6.8322544 -0.037762031 -6.8267441 -39.335983 -112.67715
33976000 -38.962067 -71.190636 -0.036250666 -7.029429 -0.038241211 -7.0247321 -39.032089 -112.22604
34975000 -38.678791 -72.053932 -0.03635978 -7.2288752 -0.039028909 -7.2268782 -38.793903 -112.11028
35974000 -38.499222 -72.86657 -0.036003478 -7.4239993 -0.038446739 -7.4236937 -38.489475 -111.22443
36973000 -38.263828 -73.787003 -0.035554558 -7.6242456 -0.039097082 -7.6298509 -38.184837 -110.4195
37972000 -38.100697 -73.64389 -0.035672005 -7.830883 -0.03833862 -7.8442707 -37.959858 -109.87393
38971000 -37.790985 -73.521812 -0.037335902 -8.0333509 -0.038751788 -8.0441542 -37.761845 -108.20995
39970000 -37.450222 -74.000984 -0.035479914 -8.2299299 -0.038025249 -8.2437181 -37.466084 -108.0111
40969000 -37.178967 -73.926018 -0.034993991 -8.4193792 -0.037262011 -8.440608 -37.206223 -106.6995
41968000 -36.850479 -74.156059 -0.035890725 -8.6294041 -0.038715485 -8.6419249 -37.002831 -105.46162
42967000 -36.590233 -74.386208 -0.03522129 -8.8347254 -0.037853684 -8.8539762 -36.789009 -103.77875
43966000 -36.309975 -75.161781 -0.035664175 -9.0366211 -0.039534613 -9.0592146 -36.500767 -103.21184
44965000 -36.080666 -76.169022 -0.036833584 -9.2374077 -0.039883628 -9.2598333 -36.25882 -103.04955
45964000 -35.860558 -77.22628 -0.038169395 -9.4436684 -0.041406449 -9.4607182 -36.023609 -102.82365
46963000 -35.686329 -79.168472 -0.038384587 -9.6318855 -0.041211754 -9.6540375 -35.842594 -103.38056
47962000 -35.552773 -80.679077 -0.039669149 -9.8321686 -0.042915422 -9.8491774 -35.645874 -103.55959
48961000 -35.334496 -82.174789 -0.041164454 -10.030806 -0.044262521 -10.049951 -35.40081 -103.75556
49960000 -35.144466 -83.716103 -0.04286889 -10.231015 -0.045021754 -10.252892 -35.267963 -103.92365
50959000 -34.93161 -84.978989 -0.043494791 -10.44363 -0.046453755 -10.450853 -35.093365 -104.44816
51958000 -34.725449 -86.128197 -0.045576029 -10.638957 -0.047869738 -10.649911 -34.905991 -105.01742
52957000 -34.539574 -87.127892 -0.046656009 -10.840048 -0.049066003 -10.846831 -34.745209 -104.70123
53956000 -34.370861 -88.016975 -0.047695953 -11.046014 -0.04923068 -11.043797 -34.61211 -104.81745
54955000 -34.217941 -88.493027 -0.049305558 -11.240085 -0.050575547 -11.238159 -34.460049 -104.78394
55954000 -34.047962 -89.356003 -0.050075099 -11.441105 -0.051021311 -11.439503 -34.34837 -104.51915
56953000 -33.945045 -89.433128 -0.049805652 -11.638972 -0.049169153 -11.628274 -34.27272 -104.74112
57952000 -33.784237 -89.99511 -0.050551716 -11.837103 -0.050609853 -11.827979 -34.177406 -104.81406
58951000 -33.673008 -90.307137 -0.051918473 -12.045333 -0.051225089 -12.020468 -34.018684 -105.03207
59950000 -33.542427 -90.851891 -0.052420706 -12.243049 -0.051980302 -12.216187 -33.961716 -105.26944
60949000 -33.455753 -91.422211 -0.052941073 -12.442868 -0.053019162 -12.420824 -33.864258 -105.52909
61948000 -33.383839 -91.668808 -0.053665921 -12.644413 -0.052384026 -12.621229 -33.789391 -105.61728
62947000 -33.294266 -91.799667 -0.05355585 -12.849948 -0.05391831 -12.834529 -33.645336 -105.92748
63946000 -33.224812 -92.593384 -0.053856459 -13.049321 -0.054691818 -13.028811 -33.548344 -106.08298
64945000 -33.124207 -92.808807 -0.054756567 -13.250997 -0.054958947 -13.234189 -33.430729 -106.55809
65944000 -33.028214 -93.079102 -0.056026317 -13.44938 -0.055465199 -13.431375 -33.344543 -107.06728
66943000 -32.887718 -93.505028 -0.053529907 -13.652733 -0.053956315 -13.635199 -33.243698 -107.28469
67942000 -32.828461 -93.476974 -0.055716906 -13.845385 -0.05538366 -13.834191 -33.122795 -107.62148
68941000 -32.723816 -93.616592 -0.055738933 -14.036831 -0.054547906 -14.029927 -33.014805 -107.60221
69940000 -32.632233 -93.646324 -0.055598654 -14.241172 -0.055230811 -14.231866 -32.867023 -107.93865
70939000 -32.512505 -93.606033 -0.055733688 -14.433853 -0.054623924 -14.424508 -32.743763 -107.88661
71938000 -32.375744 -93.220497 -0.055216916 -14.629079 -0.055076133 -14.62518 -32.622097 -107.73199
72937000 -32.223133 -93.078407 -0.054520119 -14.828861 -0.05424856 -14.822989 -32.466858 -107.51513
73936000 -32.077694 -92.797707 -0.054898128 -15.028156 -0.053823959 -15.02032 -32.349224 -107.28036
74935000 -31.961084 -93.067818 -0.054355241 -15.224171 -0.053702876 -15.2189 -32.192234 -106.95957
75934000 -31.834255 -93.409149 -0.054305963 -15.429091 -0.052522626 -15.424514 -32.111168 -107.03343
76933000 -31.708872 -93.751495 -0.055492729 -15.625859 -0.054304656 -15.620247 -31.938412 -107.34904
77932000 -31.611643 -94.590622 -0.056189422 -15.821374 -0.056408651 -15.814289 -31.845001 -107.37282
78931000 -31.537998 -95.338226 -0.054917 -16.015545 -0.055598393 -16.012726 -31.74457 -107.26759
79930000 -31.432613 -96.174286 -0.057505757 -16.213072 -0.057942525 -16.214046 -31.655745 -107.50464
80929000 -31.305994 -97.082275 -0.059021384 -16.406832 -0.059463032 -16.403744 -31.535404 -107.9211
81928000 -31.221237 -97.982742 -0.059029259 -16.600702 -0.059654869 -16.596838 -31.419308 -108.02037
82927000 -31.12986 -98.64286 -0.060688742 -16.798302 -0.061391782 -16.794846 -31.323185 -108.34631
83926000 -31.025036 -99.4133 -0.061915327 -16.993807 -0.062196556 -16.994099 -31.204264 -108.59328
84925000 -30.920753 -99.879951 -0.063104436 -17.193182 -0.062104125 -17.189568 -31.107401 -108.62408
85924000 -30.821711 -100.28915 -0.063382328 -17.396908 -0.064475678 -17.388952 -31.024885 -108.67479
86923000 -30.719345 -100.80028 -0.06424658 -17.593586 -0.063854367 -17.584513 -30.923885 -108.48396
87922000 -30.62007 -101.17043 -0.063534677 -17.798643 -0.063212909 -17.790239 -30.84197 -108.58395
88921000 -30.545513 -101.4752 -0.065861546 -17.99313 -0.064468056 -17.988136 -30.748505 -108.60512
89920000 -30.460211 -102.03432 -0.065834738 -18.190855 -0.064807519 -18.186661 -30.694948 -108.79488
90919000 -30.355053 -102.31451 -0.066698164 -18.390387 -0.065611616 -18.384809 -30.614483 -108.93894
91918000 -30.263533 -102.73377 -0.066829868 -18.592834 -0.065884933 -18.585211 -30.537794 -108.94226
92917000 -30.1772 -103.06461 -0.069065392 -18.790188 -0.067324094 -18.783373 -30.485085 -109.08388
93916000 -30.088709 -103.42716 -0.067343287 -18.981121 -0.067511812 -18.975103 -30.395555 -109.71606
94915000 -30.025978 -104.07022 -0.069319732 -19.181274 -0.068168096 -19.175869 -30.334829 -109.61466
95914000 -29.955343 -104.31384 -0.070336968 -19.374573 -0.068744794 -19.373232 -30.24588 -109.88638
96913000 -29.868889 -104.52627 -0.07117945 -19.577513 -0.070690565 -19.573013 -30.176466 -110.23484
97912000 -29.8013 -104.98387 -0.071998149 -19.768957 -0.070160173 -19.774752 -30.100391 -110.43919
98911000 -29.692862 -105.21293 -0.072971255 -19.972328 -0.071717337 -19.968246 -30.062716 -110.70107
99910000 -29.628561 -105.37732 -0.073166326 -20.171999 -0.072068155 -20.167618 -29.951927 -110.99186
100909000 -29.541956 -105.63328 -0.072997317 -20.380005 -0.071200497 -20.373379 -29.869307 -111.22919
101908000 -29.452883 -105.89095 -0.074191839 -20.578901 -0.07304997 -20.573147 -29.75292 -111.0236
102907000 -29.319733 -105.92421 -0.074367739 -20.777277 -0.072581671 -20.775591 -29.690067 -110.96415
103906000 -29.226517 -105.97168 -0.074250817 -20.982164 -0.071445227 -20.978195 -29.5376 -110.91782
104905000 -29.078333 -105.95135 -0.074988186 -21.183115 -0.072514288 -21.177301 -29.397543 -110.6154
105904000 -28.944128 -106.04924 -0.074729569 -21.383995 -0.071920246 -21.374508 -29.290049 -110.4869
106903000 -28.831793 -106.14377 -0.075252883 -21.58721 -0.072820686 -21.583206 -29.160973 -110.35631
107902000 -28.671333 -106.51254 -0.076121345 -21.785397 -0.072933614 -21.776978 -29.022194 -110.3499
108901000 -28.568136 -106.71322 -0.077075623 -21.990761 -0.074387491 -21.983011 -28.90027 -110.33324
109900000 -28.435965 -107.26668 -0.077096701 -22.188213 -0.076229356 -22.180038 -28.751566 -110.44186
110899000 -28.320797 -107.85068 -0.079216249 -22.384935 -0.076499656 -22.382061 -28.618177 -110.66006
111898000 -28.229248 -108.55905 -0.080585733 -22.586742 -0.077418968 -22.580952 -28.505495 -110.79404
112897000 -28.100336 -109.14418 -0.081686065 -22.785843 -0.078452334 -22.775698 -28.366043 -111.00301
113896000 -28.00214 -109.67236 -0.082584575 -22.986191 -0.080471285 -22.970905 -28.258024 -111.15523
114895000 -27.898039 -110.33325 -0.083525226 -23.184153 -0.081532024 -23.17128 -28.147396 -111.21519
115894000 -27.774036 -110.72957 -0.08509431 -23.383329 -0.08214321 -23.371367 -28.078115 -111.41531
116893000 -27.690639 -111.26585 -0.085493997 -23.579752 -0.083154216 -23.562557 -27.953804 -111.49744
117892000 -27.616358 -111.73705 -0.085363843 -23.775389 -0.083168201 -23.761026 -27.885155 -111.71968
118891000 -27.556129 -112.20431 -0.086387485 -23.977341 -0.08383029 -23.963081 -27.784683 -111.86205
119890000 -27.469099 -112.52498 -0.086647063 -24.179764 -0.084494591 -24.162268 -27.770136 -112.03796
120889000 -27.413715 -113.04183 -0.0880078 -24.37731 -0.085245579 -24.364925 -27.698902 -111.99563
121888000 -27.375126 -113.3889 -0.087596521 -24.572279 -0.084894486 -24.558764 -27.639915 -112.28896
122887000 -27.331829 -113.53478 -0.088794798 -24.773434 -0.085816629 -24.761106 -27.591948 -112.32575
123886000 -27.275419 -113.98823 -0.08951588 -24.979778 -0.086428151 -24.958038 -27.57192 -112.46821
124885000 -27.248772 -114.50614 -0.089577451 -25.177462 -0.086365573 -25.161221 -27.548758 -112.54257
125884000 -27.195473 -114.67074 -0.089978606 -25.37545 -0.086704105 -25.361475 -27.516382 -112.70632
126883000 -27.170216 -115.10722 -0.09098351 -25.576088 -0.087743916 -25.561346 -27.47752 -112.78033
127882000 -27.121424 -115.39449 -0.090986952 -25.776735 -0.088644996 -25.75848 -27.437464 -112.96681
128881000 -27.089766 -115.7063 -0.09173245 -25.97817 -0.088511579 -25.959387 -27.395874 -113.09767
129880000 -27.033346 -116.02283 -0.092054218 -26.178226 -0.088377371 -26.158684 -27.355661 -113.05966
130879000 -26.975061 -116.17442 -0.091642298 -26.381021 -0.089467786 -26.363365 -27.279718 -113.10746
131878000 -26.909004 -116.44146 -0.092185102 -26.577887 -0.089608103 -26.560873 -27.218998 -113.0265
132877000 -26.847855 -116.48083 -0.092000812 -26.78105 -0.08993315 -26.761984 -27.136778 -113.05963
133876000 -26.760115 -116.65754 -0.092240632 -26.981491 -0.089406744 -26.964296 -27.046465 -112.91548
134875000 -26.662306 -116.78938 -0.092620611 -27.182449 -0.090517767 -27.163921 -26.938534 -112.78257
135874000 -26.584204 -116.79599 -0.093027607 -27.376156 -0.090252936 -27.365847 -26.847086 -112.83296
136873000 -26.476337 -116.71632 -0.093330428 -27.586706 -0.09058702 -27.564209 -26.760025 -112.76771
137872000 -26.390028 -116.8281 -0.093721353 -27.787573 -0.090033576 -27.767578 -26.650951 -112.74887
138871000 -26.315756 -117.03799 -0.093385972 -27.982584 -0.09072341 -27.967115 -26.553699 -112.91865
139870000 -26.220306 -117.32012 -0.094370499 -28.185524 -0.092052631 -28.164179 -26.471119 -113.06281
140869000 -26.135712 -117.78551 -0.096371196 -28.378416 -0.092981324 -28.357868 -26.369368 -113.18668
141868000 -26.035446 -118.27093 -0.095895611 -28.569374 -0.093695961 -28.556471 -26.297173 -113.56126
142867000 -25.958443 -118.52708 -0.094590344 -28.769979 -0.092595227 -28.749601 -26.214952 -113.74838
143866000 -25.886419 -119.00796 -0.096079536 -28.966722 -0.094018139 -28.947254 -26.141993 -114.23315
144865000 -25.831186 -119.52714 -0.097763307 -29.16378 -0.09586782 -29.149721 -26.088692 -114.55642
145864000 -25.77985 -119.8488 -0.098107494 -29.363581 -0.096588224 -29.352707 -26.050369 -114.778
146863000 -25.726444 -120.22076 -0.098715194 -29.563467 -0.09634155 -29.549582 -25.999571 -115.13589
147862000 -25.69677 -120.62255 -0.09951818 -29.76001 -0.097092211 -29.750689 -25.963068 -115.45928
148861000 -25.658979 -121.09766 -0.09987019 -29.956896 -0.09756951 -29.946056 -25.938744 -115.67578
149860000 -25.640047 -121.30091 -0.10007203 -30.158054 -0.098159924 -30.145943 -25.912554 -115.85294
150859000 -25.621931 -121.66566 -0.10058649 -30.352674 -0.098765247 -30.339169 -25.904726 -116.10949
151858000 -25.6089 -121.97289 -0.1006506 -30.552393 -0.098234326 -30.540314 -25.8939 -116.35531
152857000 -25.58309 -122.32281 -0.10103635 -30.752186 -0.098820858 -30.741484 -25.878693 -116.53464
153856000 -25.577694 -122.48367 -0.10065378 -30.952789 -0.098745383 -30.939377 -25.893539 -116.85189
154855000 -25.57799 -122.71564 -0.10155305 -31.151134 -0.098096378 -31.138474 -25.875631 -117.03708
155854000 -25.589384 -122.93692 -0.1019145 -31.350103 -0.098592587 -31.33934 -25.870045 -117.31884
156853000 -25.574015 -123.63525 -0.099035367 -31.536175 -0.098755449 -31.526237 -25.869051 -117.587
157852000 -25.577803 -123.84804 -0.10003071 -31.735733 -0.099775366 -31.729435 -25.857666 -117.94411
158851000 -25.575102 -124.09242 -0.10138505 -31.936008 -0.10044105 -31.927568 -25.845663 -118.23373
159850000 -25.559778 -124.22227 -0.10193676 -32.133389 -0.10004131 -32.124088 -25.847286 -118.3737
160849000 -25.542538 -124.31355 -0.10187422 -32.330921 -0.10090971 -32.326794 -25.812363 -118.67561
161848000 -25.523539 -124.46721 -0.10218958 -32.532486 -0.10094521 -32.526875 -25.77298 -118.76519
162847000 -25.480785 -124.65564 -0.10205601 -32.730179 -0.10148203 -32.726784 -25.745533 -119.00906
163846000 -25.440451 -124.89375 -0.10227174 -32.929245 -0.10123269 -32.92477 -25.662886 -119.02741
164845000 -25.378302 -124.86579 -0.10324026 -33.128216 -0.10141791 -33.121994 -25.60261 -119.15379
165844000 -25.323559 -124.96293 -0.10303932 -33.328808 -0.10161425 -33.319618 -25.521061 -119.27804
166843000 -25.260452 -125.04365 -0.10282011 -33.525375 -0.10183791 -33.518406 -25.450651 -119.46457
167842000 -25.206873 -125.17358 -0.10349449 -33.725887 -0.10195213 -33.720863 -25.369654 -119.3576
168841000 -25.12438 -125.38667 -0.10368086 -33.920998 -0.10190496 -33.918217 -25.292904 -119.47079
169840000 -25.058014 -125.63382 -0.10341071 -34.11869 -0.10272284 -34.116085 -25.202372 -119.66373
170839000 -25.002266 -125.896 -0.10509706 -34.316288 -0.10287445 -34.31414 -25.122944 -119.85174
171838000 -24.943256 -126.30573 -0.10467674 -34.514877 -0.10344703 -34.509785 -25.054363 -120.10187
172837000 -24.876791 -126.72066 -0.10597602 -34.710293 -0.1048926 -34.707958 -24.987675 -120.29202
173836000 -24.805187 -127.11185 -0.10761295 -34.912514 -0.10608903 -34.906391 -24.938805 -120.53105
174835000 -24.753454 -127.5432 -0.10767955 -35.102577 -0.10645271 -35.106438 -24.898487 -120.86655
175834000 -24.697531 -127.91403 -0.10855267 -35.302387 -0.10732982 -35.299496 -24.83374 -121.16007
176833000 -24.650066 -128.27116 -0.10921147 -35.502823 -0.10825197 -35.501938 -24.780907 -121.30276
177832000 -24.606256 -128.77469 -0.10945728 -35.699917 -0.1082111 -35.69714 -24.761314 -121.46597
178831000 -24.562359 -129.14502 -0.11037643 -35.897057 -0.10861876 -35.891766 -24.719624 -121.71273
179830000 -24.5298 -129.55385 -0.11039209 -36.091278 -0.10904317 -36.087696 -24.699858 -121.82504
180829000 -24.484608 -129.78452 -0.11096673 -36.290424 -0.10912414 -36.288918 -24.664408 -121.97647
181828000 -24.460438 -130.13316 -0.11062868 -36.486423 -0.10948967 -36.485184 -24.644762 -122.11199
182827000 -24.439917 -130.49974 -0.11081032 -36.680019 -0.11057292 -36.677017 -24.633595 -122.19029
183826000 -24.399296 -130.80267 -0.11172656 -36.883484 -0.11043909 -36.877739 -24.627005 -122.27905
184825000 -24.404585 -131.13113 -0.11228436 -37.073318 -0.11052565 -37.076229 -24.606129 -122.42204
185824000 -24.38006 -131.44897 -0.11150983 -37.266457 -0.11061222 -37.273697 -24.609156 -122.44438
186823000 -24.365746 -131.84448 -0.11243047 -37.469036 -0.11112474 -37.468513 -24.604866 -122.42057
187822000 -24.344563 -132.14996 -0.11279336 -37.662617 -0.11177941 -37.663273 -24.569382 -122.52882
188821000 -24.324377 -132.39459 -0.11260925 -37.858444 -0.11191089 -37.86441 -24.558165 -122.59791
189820000 -24.306711 -132.67389 -0.11278751 -38.060413 -0.11213402 -38.060268 -24.549103 -122.73595
190819000 -24.279606 -132.90578 -0.11443605 -38.25943 -0.11345812 -38.257099 -24.518269 -122.73278
191818000 -24.242668 -133.0876 -0.11543174 -38.451649 -0.11424363 -38.456318 -24.482389 -122.58665
192817000 -24.174652 -133.36238 -0.11579648 -38.638737 -0.11502105 -38.642185 -24.40943 -122.70574
193816000 -24.140833 -133.73418 -0.11460933 -38.829987 -0.11350568 -38.830391 -24.355013 -122.95815
194815000 -24.082497 -134.16885 -0.11457372 -39.026428 -0.11476775 -39.030251 -24.290808 -123.10107
195814000 -24.028589 -134.37781 -0.11519834 -39.228333 -0.11413334 -39.231979 -24.240704 -123.19656
196813000 -23.978333 -134.75618 -0.1147999 -39.418633 -0.11392155 -39.419109 -24.162416 -123.39005
197812000 -23.915884 -134.95509 -0.11555509 -39.619865 -0.11408524 -39.619877 -24.091312 -123.47218
198811000 -23.865347 -135.1362 -0.1151109 -39.814053 -0.11381897 -39.818012 -24.023453 -123.67936
199810000 -23.795246 -135.5036 -0.11581987 -40.007084 -0.11398904 -40.007595 -23.945055 -123.78133
200809000 -23.740841 -135.78387 -0.11562634 -40.210682 -0.11384076 -40.208229 -23.868927 -123.97508
201808000 -23.683104 -136.01541 -0.11655157 -40.410011 -0.1155083 -40.408634 -23.800184 -124.04855
202807000 -23.622952 -136.38943 -0.11678451 -40.606819 -0.11601209 -40.611454 -23.741503 -124.23864
