!Keysight Technologies,E5080B,MY59205177,A.15.75.32
!Date: Friday, February 23, 2024 03:39:55
!Correction: S11(Cdelta 2-Port  ) 
!S21(Cdelta 2-Port  ) 
!S12(Cdelta 2-Port  ) 
!S22(Cdelta 2-Port  ) 
!S2P File: Measurements: S11, S21, S12, S22:
# Hz S  dB   R 50
10000000 -46.094013 -2.8266897 -0.015402771 -2.0470273 -0.017389499 -2.0969958 -45.903046 -157.51883
10999000 -45.345577 -4.5464077 -0.016259087 -2.2595665 -0.017613797 -2.3172121 -45.837574 -151.0145
11998000 -44.369995 -7.6531048 -0.016441492 -2.4858027 -0.017052162 -2.5316408 -46.026997 -146.93138
12997000 -43.602772 -13.49544 -0.015536039 -2.6681435 -0.017468767 -2.7001107 -45.652721 -141.20692
13996000 -43.310635 -17.559666 -0.014901165 -2.8437138 -0.017611196 -2.8674533 -45.399292 -136.15991
14995000 -42.906162 -21.636889 -0.016801907 -3.0562897 -0.016890781 -3.0800436 -45.06971 -132.81241
15994000 -42.760986 -26.174829 -0.018262584 -3.2761729 -0.019484002 -3.2960517 -44.981514 -129.60172
16993000 -42.657455 -30.987274 -0.017070355 -3.4675956 -0.018830353 -3.4794087 -44.138538 -129.04973
17992000 -42.718796 -36.172359 -0.018274281 -3.6712787 -0.019510526 -3.6705451 -43.520634 -129.28963
18991000 -42.991814 -41.763714 -0.018274022 -3.8823466 -0.020179102 -3.8794668 -42.929726 -128.02493
19990000 -42.741276 -47.358376 -0.021673953 -4.094017 -0.022218753 -4.0890083 -42.213638 -128.72488
20989000 -42.550083 -50.885612 -0.023107644 -4.2925797 -0.024340319 -4.2844443 -41.698605 -128.15625
21988000 -42.347279 -55.933716 -0.024070641 -4.4902344 -0.024897426 -4.4785924 -41.42469 -127.68998
22987000 -42.048698 -60.621979 -0.025752494 -4.6918178 -0.026790829 -4.6835103 -41.204525 -126.90198
23986000 -41.978893 -65.03981 -0.025062751 -4.8816762 -0.024821406 -4.877933 -41.037067 -126.46568
24985000 -41.527939 -67.565208 -0.02622905 -5.0920591 -0.024993237 -5.0876865 -40.828091 -124.3233
25984000 -41.154324 -69.62941 -0.027065365 -5.3012819 -0.025995973 -5.2977567 -40.481537 -122.90948
26983000 -40.844326 -71.488434 -0.027381076 -5.4982815 -0.026624138 -5.5170712 -40.372364 -122.11116
27982000 -40.692108 -72.47879 -0.028518032 -5.6992736 -0.029398311 -5.7306371 -40.111092 -120.54379
28981000 -40.648167 -73.991356 -0.026941899 -5.8973203 -0.028101409 -5.9184399 -39.870499 -119.8209
29980000 -40.244896 -75.308182 -0.026650963 -6.0920868 -0.028494582 -6.0997195 -39.620407 -118.98735
30979000 -39.868649 -74.193016 -0.024446787 -6.4429412 -0.02324219 -6.4345999 -39.097187 -119.48537
31978000 -39.652721 -75.230988 -0.023504268 -6.6387348 -0.025108835 -6.6312656 -38.873116 -118.77046
32977000 -39.446251 -76.782227 -0.023987086 -6.848042 -0.025049213 -6.8479304 -38.636631 -118.76639
33976000 -39.279827 -77.984474 -0.024771942 -7.05019 -0.02604988 -7.0447068 -38.365925 -118.16009
34975000 -38.99382 -78.658752 -0.024376502 -7.24861 -0.026382705 -7.2463169 -38.137623 -117.79642
35974000 -38.773254 -79.139771 -0.024092766 -7.4454741 -0.02633114 -7.4477491 -37.858265 -116.9308
36973000 -38.563293 -79.813858 -0.023518063 -7.6455054 -0.02704609 -7.6512036 -37.593994 -116.103
37972000 -38.404915 -79.541763 -0.023549033 -7.8537683 -0.026628826 -7.8642969 -37.372742 -115.26128
38971000 -38.065903 -79.190636 -0.025125498 -8.0605116 -0.027295113 -8.0700102 -37.218636 -113.72911
39970000 -37.757557 -79.434586 -0.022950461 -8.2502422 -0.026254572 -8.2669697 -36.955803 -113.19505
40969000 -37.459808 -79.100639 -0.023423847 -8.444746 -0.026201446 -8.4645958 -36.725372 -111.75222
41968000 -37.118679 -79.087784 -0.023795774 -8.6490698 -0.02615587 -8.668457 -36.53083 -110.52155
42967000 -36.855747 -79.049667 -0.023292679 -8.8623896 -0.026754105 -8.8825064 -36.339447 -108.65363
43966000 -36.576015 -79.718475 -0.023317141 -9.0640049 -0.027589738 -9.081213 -36.077808 -107.90115
44965000 -36.330677 -80.479546 -0.024829997 -9.2647562 -0.02830177 -9.2882643 -35.869011 -107.6637
45964000 -36.11871 -81.522713 -0.025572563 -9.4675951 -0.029052224 -9.4852209 -35.63205 -107.34084
46963000 -35.893188 -83.383736 -0.026003266 -9.6574612 -0.02955755 -9.6810865 -35.451649 -107.60587
47962000 -35.737049 -84.75663 -0.027221395 -9.8603983 -0.030489655 -9.8808937 -35.253426 -107.61184
48961000 -35.507053 -86.171333 -0.029084018 -10.057717 -0.032083243 -10.076283 -35.037132 -107.88107
49960000 -35.293201 -87.487801 -0.031136198 -10.259629 -0.033261865 -10.280327 -34.889664 -107.85519
50959000 -35.071358 -88.690643 -0.031497315 -10.470817 -0.034613539 -10.485483 -34.706181 -108.2169
51958000 -34.857857 -89.852386 -0.033258736 -10.671459 -0.035404753 -10.683276 -34.534714 -108.56484
52957000 -34.654282 -90.813957 -0.034873173 -10.873621 -0.036747433 -10.879113 -34.36668 -108.32098
53956000 -34.469482 -91.523331 -0.036047854 -11.073108 -0.037843499 -11.074637 -34.231461 -108.35043
54955000 -34.303432 -92.018707 -0.036885798 -11.274235 -0.038518824 -11.270232 -34.096039 -108.29308
55954000 -34.12513 -92.805649 -0.037271153 -11.469501 -0.039093163 -11.471266 -33.97998 -107.98897
56953000 -34.016842 -92.816788 -0.03737089 -11.672036 -0.037880059 -11.663927 -33.904793 -108.19366
57952000 -33.846958 -93.417686 -0.038517516 -11.87026 -0.03886044 -11.861077 -33.794502 -108.3631
58951000 -33.740318 -93.736565 -0.039517112 -12.075798 -0.039983425 -12.05458 -33.648666 -108.39455
59950000 -33.600822 -94.139839 -0.040001713 -12.278831 -0.040372711 -12.252099 -33.577358 -108.61955
60949000 -33.491188 -94.67366 -0.040389955 -12.478856 -0.040351808 -12.45397 -33.485088 -108.85505
61948000 -33.430271 -94.971695 -0.041111145 -12.677465 -0.04070925 -12.661705 -33.397106 -109.04018
62947000 -33.335209 -95.244141 -0.041233968 -12.884833 -0.041718759 -12.86898 -33.255783 -109.1925
63946000 -33.260742 -95.926628 -0.042241506 -13.085912 -0.042557802 -13.066702 -33.157738 -109.4294
64945000 -33.15527 -96.02729 -0.042645372 -13.290096 -0.043280918 -13.272571 -33.03738 -109.88711
65944000 -33.052124 -96.391235 -0.043576892 -13.486186 -0.043668408 -13.472379 -32.941357 -110.28752
66943000 -32.910263 -96.747475 -0.041331444 -13.690916 -0.04169393 -13.673786 -32.83799 -110.6058
67942000 -32.857426 -96.761673 -0.043549176 -13.887668 -0.04359781 -13.876187 -32.715004 -110.87146
68941000 -32.743359 -96.877449 -0.042824447 -14.076967 -0.042741314 -14.06922 -32.60556 -110.83931
69940000 -32.630985 -96.861099 -0.043820065 -14.281279 -0.042931892 -14.269452 -32.464554 -111.09966
70939000 -32.523487 -96.788406 -0.043354124 -14.474286 -0.043142613 -14.467607 -32.337242 -111.01424
71938000 -32.397766 -96.398849 -0.042972937 -14.673441 -0.043408509 -14.662326 -32.207645 -110.84412
72937000 -32.232704 -96.056747 -0.042752817 -14.872315 -0.042307116 -14.867494 -32.069 -110.56042
73936000 -32.107704 -95.79657 -0.041679032 -15.06981 -0.042231575 -15.059547 -31.950583 -110.3948
74935000 -31.976185 -95.940765 -0.042715695 -15.265604 -0.041254349 -15.266168 -31.806351 -109.99533
75934000 -31.853289 -96.275101 -0.04205671 -15.475352 -0.04131132 -15.470507 -31.720112 -109.98899
76933000 -31.720612 -96.555756 -0.043204051 -15.664138 -0.042315483 -15.660813 -31.546335 -110.28616
77932000 -31.633064 -97.311623 -0.044709466 -15.867184 -0.044299133 -15.858675 -31.454802 -110.21148
78931000 -31.547714 -98.053268 -0.043163788 -16.062639 -0.043378964 -16.059969 -31.357452 -110.06779
79930000 -31.434586 -98.990196 -0.045617361 -16.258717 -0.045727756 -16.256327 -31.252529 -110.39097
80929000 -31.330015 -99.687866 -0.04654533 -16.453781 -0.047598857 -16.452171 -31.152554 -110.64837
81928000 -31.23542 -100.38 -0.047395773 -16.644855 -0.047920253 -16.64216 -31.01655 -110.63113
82927000 -31.13201 -101.12433 -0.048787978 -16.847116 -0.04927728 -16.844147 -30.924908 -110.95457
83926000 -31.00634 -101.88637 -0.050225936 -17.043781 -0.050203152 -17.042191 -30.80056 -111.07292
84925000 -30.900091 -102.25963 -0.051430184 -17.243195 -0.050574761 -17.238672 -30.700405 -111.17739
85924000 -30.807018 -102.68737 -0.051329598 -17.445049 -0.051147293 -17.442402 -30.621988 -111.12329
86923000 -30.715294 -103.20984 -0.052187789 -17.639793 -0.052206393 -17.632643 -30.517544 -110.98238
87922000 -30.591087 -103.42817 -0.051662795 -17.845795 -0.051145986 -17.844278 -30.429323 -111.00191
88921000 -30.523607 -103.79303 -0.053186085 -18.041891 -0.052186742 -18.0399 -30.344637 -111.01994
89920000 -30.417118 -104.29977 -0.053594638 -18.243689 -0.052996624 -18.237841 -30.286879 -111.12238
90919000 -30.323467 -104.57316 -0.054507539 -18.445436 -0.054451704 -18.436787 -30.194727 -111.34615
91918000 -30.223995 -104.88853 -0.055474639 -18.641567 -0.053790148 -18.638018 -30.126558 -111.33688
92917000 -30.125843 -105.22922 -0.056404978 -18.842436 -0.055763315 -18.836319 -30.071329 -111.49609
93916000 -30.042961 -105.58088 -0.056112327 -19.033936 -0.054745559 -19.028017 -29.978167 -112.06526
94915000 -29.966803 -106.20174 -0.056781314 -19.237286 -0.055825461 -19.228563 -29.917715 -111.89071
95914000 -29.890749 -106.41769 -0.05826731 -19.431868 -0.057068769 -19.428526 -29.821899 -112.20574
96913000 -29.811008 -106.58622 -0.059705522 -19.628487 -0.058111735 -19.628531 -29.764076 -112.50478
97912000 -29.7425 -107.0955 -0.060051959 -19.824598 -0.058842957 -19.827925 -29.679514 -112.79395
98911000 -29.630238 -107.20434 -0.061140794 -20.028135 -0.059657492 -20.026657 -29.642796 -112.95739
99910000 -29.569513 -107.35955 -0.061548524 -20.224873 -0.060289759 -20.225927 -29.526783 -113.26468
100909000 -29.473005 -107.58237 -0.061240822 -20.437325 -0.059526537 -20.42775 -29.447346 -113.43164
101908000 -29.381231 -107.80118 -0.062615678 -20.638206 -0.060460109 -20.632484 -29.339094 -113.25744
102907000 -29.243219 -107.83889 -0.062973641 -20.835274 -0.061165474 -20.834896 -29.271864 -113.21813
103906000 -29.150768 -107.8432 -0.06255921 -21.045874 -0.06076907 -21.035824 -29.125681 -113.20438
104905000 -29.008583 -107.70924 -0.063468486 -21.241707 -0.061259724 -21.240191 -28.993284 -112.86084
105904000 -28.870922 -107.789 -0.063597456 -21.44235 -0.061209578 -21.435896 -28.886766 -112.75597
106903000 -28.758247 -107.88414 -0.06402722 -21.648476 -0.061449017 -21.643791 -28.76483 -112.67116
107902000 -28.592073 -108.22047 -0.064757861 -21.846931 -0.062160056 -21.839552 -28.625811 -112.57349
108901000 -28.489677 -108.43085 -0.065863907 -22.047928 -0.063287772 -22.04236 -28.498404 -112.54797
109900000 -28.356295 -108.89754 -0.065957472 -22.24947 -0.064413674 -22.239443 -28.354227 -112.60363
110899000 -28.243076 -109.49883 -0.067847565 -22.449236 -0.065003797 -22.439316 -28.227003 -112.82295
111898000 -28.155815 -110.16347 -0.069089323 -22.650253 -0.066301256 -22.642851 -28.105875 -112.98186
112897000 -28.026239 -110.69265 -0.070427991 -22.848766 -0.067417167 -22.837719 -27.971777 -113.14183
113896000 -27.916826 -111.24944 -0.071326286 -23.050938 -0.068455778 -23.037146 -27.87294 -113.29393
114895000 -27.819267 -111.89304 -0.072306611 -23.24785 -0.069648787 -23.234735 -27.76199 -113.35607
115894000 -27.691872 -112.24171 -0.073078662 -23.448673 -0.071503386 -23.437841 -27.694967 -113.62434
116893000 -27.616943 -112.75319 -0.074503884 -23.648975 -0.072192118 -23.629332 -27.564848 -113.59769
117892000 -27.532713 -113.2692 -0.074648723 -23.843433 -0.072293192 -23.831602 -27.485207 -113.86454
118891000 -27.473621 -113.66022 -0.074823059 -24.042194 -0.072752506 -24.031643 -27.396925 -113.99107
119890000 -27.386684 -114.021 -0.075738586 -24.243073 -0.073341399 -24.229111 -27.376614 -114.13216
120889000 -27.332542 -114.52277 -0.076607682 -24.44503 -0.073802143 -24.426685 -27.305464 -114.05209
121888000 -27.297867 -114.87977 -0.076854818 -24.639458 -0.073968545 -24.628689 -27.246071 -114.31921
122887000 -27.257994 -115.04195 -0.077276409 -24.844357 -0.074430145 -24.832348 -27.196135 -114.29607
123886000 -27.201977 -115.46704 -0.078318439 -25.045752 -0.075488351 -25.026958 -27.18651 -114.49686
124885000 -27.165602 -115.98238 -0.078366935 -25.248747 -0.075765461 -25.229477 -27.156286 -114.51611
125884000 -27.117323 -116.13393 -0.079063088 -25.447069 -0.075944848 -25.431719 -27.134682 -114.71844
126883000 -27.096756 -116.53691 -0.079132423 -25.647287 -0.076065496 -25.631021 -27.088085 -114.68384
127882000 -27.045622 -116.82815 -0.079769902 -25.847767 -0.077107765 -25.830065 -27.046284 -114.81051
128881000 -27.013395 -117.15792 -0.080180958 -26.050982 -0.076782621 -26.032673 -27.009846 -114.91363
129880000 -26.964487 -117.45346 -0.080930412 -26.252748 -0.077030562 -26.232401 -26.969566 -114.87292
130879000 -26.902374 -117.66046 -0.080127962 -26.448992 -0.078002959 -26.43433 -26.898573 -114.89445
131878000 -26.838594 -117.8265 -0.081161186 -26.654573 -0.078170054 -26.633144 -26.837721 -114.76573
132877000 -26.770929 -117.92233 -0.080338381 -26.852383 -0.078709334 -26.836655 -26.75996 -114.75896
133876000 -26.68524 -118.06034 -0.080505304 -27.053566 -0.078063048 -27.03862 -26.672287 -114.62687
134875000 -26.584772 -118.17199 -0.080815427 -27.255905 -0.078787357 -27.234909 -26.572567 -114.45262
135874000 -26.51511 -118.23955 -0.08100716 -27.454565 -0.078362979 -27.438633 -26.478382 -114.41477
136873000 -26.40563 -118.14161 -0.080687001 -27.656908 -0.078297354 -27.641775 -26.398439 -114.35947
137872000 -26.324032 -118.30146 -0.080776133 -27.859356 -0.078284964 -27.847595 -26.293659 -114.28641
138871000 -26.251207 -118.47294 -0.082359269 -28.062338 -0.078984529 -28.043335 -26.198208 -114.46923
139870000 -26.150845 -118.75185 -0.082304128 -28.255096 -0.079737999 -28.243446 -26.119551 -114.60419
140869000 -26.078836 -119.28259 -0.083685674 -28.458452 -0.08094123 -28.44014 -26.020329 -114.84856
141868000 -25.994888 -119.70126 -0.08405593 -28.654837 -0.082146898 -28.640814 -25.968771 -115.06388
142867000 -25.918493 -119.92329 -0.082555547 -28.852127 -0.08083231 -28.835085 -25.890469 -115.18166
143866000 -25.842051 -120.39827 -0.084549226 -29.049269 -0.082835741 -29.033295 -25.820267 -115.64742
144865000 -25.782726 -120.88973 -0.086454034 -29.246567 -0.084340975 -29.232315 -25.765034 -115.92271
145864000 -25.727665 -121.20526 -0.086608775 -29.449116 -0.085054718 -29.434219 -25.729174 -116.18667
146863000 -25.68779 -121.56573 -0.087446496 -29.646296 -0.085508518 -29.635555 -25.683079 -116.4501
147862000 -25.648521 -121.91853 -0.08815679 -29.847015 -0.086153008 -29.833092 -25.654039 -116.79057
148861000 -25.618517 -122.35549 -0.089516148 -30.046709 -0.087382577 -30.031502 -25.627342 -116.95986
149860000 -25.585707 -122.56433 -0.090048909 -30.234646 -0.088150978 -30.230658 -25.577932 -117.04961
150859000 -25.561144 -123.01842 -0.089986533 -30.438599 -0.087598637 -30.421997 -25.561333 -117.39015
151858000 -25.552296 -123.37926 -0.088863492 -30.637699 -0.087787494 -30.620079 -25.550652 -117.7262
152857000 -25.536867 -123.689 -0.089467525 -30.834927 -0.087701388 -30.822868 -25.532789 -117.90917
153856000 -25.533022 -123.88097 -0.089380853 -31.034273 -0.086587384 -31.023079 -25.553566 -118.22567
154855000 -25.5385 -124.05579 -0.090064235 -31.230606 -0.086822152 -31.219896 -25.540775 -118.47735
155854000 -25.552048 -124.29784 -0.089829557 -31.431868 -0.087492988 -31.421278 -25.535143 -118.73006
156853000 -25.53422 -125.01156 -0.087768212 -31.621153 -0.08730942 -31.613962 -25.531952 -119.03976
157852000 -25.543325 -125.20793 -0.089499235 -31.823473 -0.08847063 -31.816551 -25.51993 -119.41463
158851000 -25.542421 -125.44717 -0.089452729 -32.022354 -0.088857681 -32.014477 -25.506676 -119.69793
159850000 -25.528034 -125.51673 -0.090312667 -32.219265 -0.089251377 -32.213028 -25.509644 -119.85833
160849000 -25.515701 -125.62299 -0.090250298 -32.419937 -0.089831404 -32.415981 -25.475515 -120.16143
161848000 -25.491627 -125.70988 -0.090759359 -32.619232 -0.089694783 -32.615234 -25.437902 -120.22757
162847000 -25.458637 -125.86497 -0.09110643 -32.819847 -0.090182111 -32.817585 -25.413267 -120.51041
163846000 -25.418039 -126.07536 -0.09101259 -33.02211 -0.08969716 -33.012859 -25.332264 -120.49438
164845000 -25.359631 -126.05114 -0.091904044 -33.220673 -0.090560585 -33.216042 -25.273743 -120.60785
165844000 -25.313671 -126.09457 -0.090866148 -33.420319 -0.091139473 -33.415657 -25.194134 -120.72698
166843000 -25.248718 -126.14119 -0.091998696 -33.618095 -0.090685084 -33.617119 -25.124884 -120.87695
167842000 -25.19445 -126.24401 -0.092286907 -33.820488 -0.091070741 -33.81295 -25.050804 -120.80141
168841000 -25.110771 -126.41623 -0.0927568 -34.017223 -0.091960624 -34.011135 -24.976521 -120.87157
169840000 -25.052954 -126.63262 -0.092446879 -34.211811 -0.091592327 -34.209389 -24.890192 -121.0666
170839000 -24.988018 -126.90744 -0.093699135 -34.409206 -0.091387443 -34.406857 -24.807997 -121.24017
171838000 -24.931068 -127.25516 -0.092814185 -34.610687 -0.093325138 -34.607418 -24.748194 -121.45181
172837000 -24.857847 -127.58576 -0.094657809 -34.80909 -0.093688555 -34.803654 -24.680876 -121.67423
173836000 -24.796127 -127.98956 -0.09575218 -35.009949 -0.094139822 -35.005623 -24.633324 -121.91811
174835000 -24.741491 -128.38298 -0.096494794 -35.205997 -0.095692903 -35.204391 -24.598314 -122.20591
175834000 -24.690039 -128.77917 -0.097045086 -35.404655 -0.096947946 -35.401489 -24.535395 -122.46789
176833000 -24.639837 -129.09366 -0.09795393 -35.602783 -0.097366191 -35.601093 -24.48448 -122.6203
177832000 -24.591661 -129.52051 -0.098793052 -35.803543 -0.098704338 -35.801376 -24.468224 -122.71803
178831000 -24.54529 -129.76315 -0.10049535 -35.99889 -0.10018276 -35.997509 -24.422894 -122.80314
179830000 -24.47599 -130.15776 -0.10165241 -36.184166 -0.10105888 -36.18655 -24.361559 -122.88052
180829000 -24.425735 -130.51451 -0.10082466 -36.374096 -0.099712059 -36.373348 -24.322622 -123.21651
181828000 -24.411325 -130.93283 -0.10015627 -36.577549 -0.099114813 -36.573162 -24.30217 -123.40905
182827000 -24.379671 -131.33098 -0.10002382 -36.775482 -0.09976583 -36.772614 -24.288488 -123.51642
183826000 -24.34248 -131.63416 -0.10076505 -36.969582 -0.098993525 -36.96928 -24.279093 -123.67554
184825000 -24.344988 -131.99606 -0.10016634 -37.167171 -0.10035548 -37.170387 -24.259996 -123.8126
185824000 -24.315222 -132.34256 -0.10061669 -37.364605 -0.10090176 -37.366169 -24.257299 -123.88345
186823000 -24.296267 -132.7106 -0.10061775 -37.562824 -0.10023786 -37.561314 -24.250139 -123.88615
187822000 -24.275471 -133.04991 -0.10135431 -37.762569 -0.10081512 -37.757969 -24.211246 -123.97775
188821000 -24.253918 -133.3078 -0.10075154 -37.954647 -0.10121281 -37.957695 -24.191216 -124.07758
189820000 -24.232418 -133.61934 -0.10149183 -38.157703 -0.10077989 -38.153893 -24.172806 -124.29081
190819000 -24.200291 -133.90295 -0.10177404 -38.355064 -0.10128357 -38.350674 -24.134743 -124.33152
191818000 -24.169676 -134.18704 -0.10182651 -38.550243 -0.10178676 -38.551666 -24.109894 -124.3726
192817000 -24.121464 -134.46652 -0.10244613 -38.745186 -0.10196379 -38.747475 -24.066002 -124.45031
193816000 -24.093033 -134.70166 -0.10237616 -38.943836 -0.10120646 -38.943169 -24.012512 -124.58197
194815000 -24.032516 -135.10736 -0.10273238 -39.13549 -0.10287128 -39.143093 -23.946375 -124.65982
195814000 -23.974138 -135.28583 -0.10375721 -39.335915 -0.10263272 -39.33551 -23.891024 -124.73592
196813000 -23.919998 -135.62823 -0.10279202 -39.530811 -0.10227466 -39.534367 -23.813477 -124.88896
197812000 -23.864372 -135.83368 -0.10354406 -39.73053 -0.10355785 -39.727489 -23.741629 -124.96434
198811000 -23.811136 -135.96687 -0.10301494 -39.927521 -0.10285378 -39.927856 -23.675642 -125.14906
199810000 -23.737873 -136.32739 -0.10331846 -40.11784 -0.10239021 -40.119884 -23.599913 -125.20802
200809000 -23.680502 -136.60834 -0.1039595 -40.317024 -0.10345817 -40.317791 -23.520046 -125.38313
201808000 -23.623779 -136.78799 -0.10467038 -40.514339 -0.10471492 -40.520519 -23.456003 -125.46748
202807000 -23.567167 -137.12854 -0.10524902 -40.719292 -0.10514002 -40.719128 -23.397076 -125.67718
