!Keysight Technologies,E5080B,MY59205177,A.15.75.32
!Date: Friday, February 23, 2024 03:01:38
!Correction: S11(Cdelta 2-Port  ) 
!S21(Cdelta 2-Port  ) 
!S12(Cdelta 2-Port  ) 
!S22(Cdelta 2-Port  ) 
!S2P File: Measurements: S11, S21, S12, S22:
# Hz S  dB   R 50
10000000 -44.161301 -3.7655234 -0.028275453 -2.0371585 -0.030727927 -2.0912585 -48.123028 -150.55051
10999000 -43.537285 -5.4390135 -0.029176792 -2.2563422 -0.029889604 -2.3122928 -47.778687 -143.26738
11998000 -42.73798 -7.9884281 -0.029080629 -2.478724 -0.029782478 -2.52491 -47.933132 -137.18643
12997000 -42.093296 -12.787789 -0.028283009 -2.6584661 -0.029595602 -2.6921618 -47.196621 -131.17976
13996000 -41.844421 -16.067495 -0.027894024 -2.8387518 -0.030183623 -2.863811 -46.871693 -125.19204
14995000 -41.534618 -19.902395 -0.030134879 -3.0437355 -0.029514287 -3.0734072 -46.297176 -121.83278
15994000 -41.394211 -23.803436 -0.031336699 -3.2646794 -0.032347683 -3.2900321 -46.144936 -118.25751
16993000 -41.40234 -27.654087 -0.030347064 -3.460531 -0.031468108 -3.4689755 -45.236629 -119.18747
17992000 -41.482464 -32.3032 -0.030246705 -3.6565731 -0.032113235 -3.662919 -44.662846 -120.00117
18991000 -41.713352 -36.892513 -0.031003753 -3.8659148 -0.032541458 -3.8643086 -43.923973 -119.5329
19990000 -41.621441 -41.538071 -0.034224506 -4.0782332 -0.035276353 -4.0728946 -43.198246 -120.87109
20989000 -41.494282 -44.74567 -0.036052551 -4.2798004 -0.037535384 -4.2706251 -42.655922 -120.66019
21988000 -41.397961 -49.411407 -0.036997017 -4.4775634 -0.038116384 -4.4658313 -42.3559 -120.11217
22987000 -41.200016 -53.669502 -0.037502743 -4.6742468 -0.038650192 -4.6707392 -42.095383 -119.92154
23986000 -41.172741 -57.413357 -0.036961246 -4.8698397 -0.03720092 -4.8677115 -41.96352 -119.70732
24985000 -40.849937 -60.187969 -0.037992865 -5.0778203 -0.037596222 -5.0747495 -41.690968 -117.40113
25984000 -40.624256 -62.413456 -0.03912529 -5.2835741 -0.038065463 -5.2859311 -41.366299 -115.96983
26983000 -40.343899 -64.181923 -0.040129993 -5.4821086 -0.039496738 -5.5000348 -41.250256 -115.31775
27982000 -40.22451 -64.862099 -0.040863942 -5.6794524 -0.040764906 -5.7184696 -40.914173 -113.71777
28981000 -40.185234 -66.602211 -0.039504834 -5.8758588 -0.040771179 -5.902617 -40.651081 -112.94465
29980000 -39.804226 -68.186203 -0.04009812 -6.070055 -0.041349739 -6.0806665 -40.333229 -112.22818
30979000 -39.449364 -67.477539 -0.036868047 -6.4246311 -0.036056206 -6.4157157 -39.839615 -113.00362
31978000 -39.276512 -68.441696 -0.036439396 -6.6198964 -0.037118938 -6.6083927 -39.579624 -112.40787
32977000 -39.119083 -69.952377 -0.036103711 -6.8292146 -0.037416581 -6.8246717 -39.339729 -112.70383
33976000 -38.96489 -71.207558 -0.037205096 -7.0292249 -0.037979547 -7.0262537 -39.033504 -112.30122
34975000 -38.684685 -72.213226 -0.037507445 -7.2301884 -0.038665861 -7.2293978 -38.777637 -111.91755
35974000 -38.491524 -72.787453 -0.036201853 -7.4231281 -0.038401559 -7.4274092 -38.495972 -111.2134
36973000 -38.267696 -73.676773 -0.03683985 -7.6232109 -0.039366126 -7.6261735 -38.194263 -110.45802
37972000 -38.102493 -73.685219 -0.036282513 -7.8326426 -0.039139137 -7.8394451 -37.958443 -109.88116
38971000 -37.790653 -73.391205 -0.037780568 -8.0342093 -0.039598618 -8.0411434 -37.749126 -108.35659
39970000 -37.476086 -73.892143 -0.034665726 -8.2293625 -0.038144849 -8.2429228 -37.474884 -107.91813
40969000 -37.167549 -73.769325 -0.036007393 -8.4222746 -0.03814929 -8.4381323 -37.222843 -106.69732
41968000 -36.83741 -74.007835 -0.036401022 -8.6285524 -0.038447004 -8.6419296 -37.002193 -105.4632
42967000 -36.579292 -74.293053 -0.03567357 -8.8325014 -0.038631909 -8.8547373 -36.772106 -103.79099
43966000 -36.306061 -75.279892 -0.036265805 -9.0376482 -0.039574321 -9.05791 -36.4963 -103.22379
44965000 -36.093967 -76.06456 -0.037374545 -9.2429457 -0.04009629 -9.2559862 -36.286514 -102.96679
45964000 -35.868118 -77.160141 -0.038897268 -9.4391899 -0.041158967 -9.458642 -36.022911 -102.90624
46963000 -35.686291 -79.187996 -0.039285149 -9.6330738 -0.042038675 -9.6538343 -35.848164 -103.32346
47962000 -35.558254 -80.714668 -0.040195048 -9.8326073 -0.043049537 -9.8509817 -35.633221 -103.39065
48961000 -35.34338 -82.1464 -0.042435203 -10.030313 -0.0442416 -10.049569 -35.399223 -103.76928
49960000 -35.12962 -83.635612 -0.043803591 -10.230591 -0.045638029 -10.250609 -35.268639 -103.96112
50959000 -34.931793 -84.997368 -0.04433522 -10.443167 -0.046480179 -10.451038 -35.084934 -104.36823
51958000 -34.740253 -86.117554 -0.046441719 -10.641359 -0.048220206 -10.650823 -34.920231 -104.93171
52957000 -34.535358 -87.259727 -0.047651984 -10.841506 -0.048567038 -10.845957 -34.751827 -104.75219
53956000 -34.37537 -87.981651 -0.047974955 -11.041725 -0.049855664 -11.040232 -34.622482 -104.82719
54955000 -34.203312 -88.427574 -0.049482811 -11.242522 -0.050329898 -11.23817 -34.457447 -104.76402
55954000 -34.057785 -89.402534 -0.051279306 -11.443803 -0.050878305 -11.439272 -34.356544 -104.44875
56953000 -33.934219 -89.429192 -0.049878709 -11.639274 -0.04946867 -11.630702 -34.270649 -104.78748
57952000 -33.788391 -90.006813 -0.051247351 -11.836384 -0.051229801 -11.824304 -34.17337 -104.88457
58951000 -33.668373 -90.436623 -0.052217919 -12.040756 -0.052228924 -12.020294 -34.028664 -104.96531
59950000 -33.543739 -90.838448 -0.053480376 -12.238974 -0.0531114 -12.219986 -33.958927 -105.27962
60949000 -33.447079 -91.437485 -0.053486928 -12.441862 -0.053253692 -12.418301 -33.864807 -105.53893
61948000 -33.382671 -91.709442 -0.053821601 -12.639784 -0.053203117 -12.61968 -33.780972 -105.65326
62947000 -33.289482 -91.834061 -0.053581271 -12.851397 -0.053609315 -12.82945 -33.644665 -105.88358
63946000 -33.229042 -92.640831 -0.054994602 -13.048816 -0.054768365 -13.030532 -33.533783 -106.10238
64945000 -33.12619 -92.903069 -0.055469394 -13.252531 -0.055241559 -13.232239 -33.430496 -106.54195
65944000 -33.019218 -93.077003 -0.056478407 -13.448421 -0.055613339 -13.432226 -33.336121 -107.10545
66943000 -32.884136 -93.463364 -0.053565547 -13.65253 -0.054337155 -13.635079 -33.239735 -107.29456
67942000 -32.828861 -93.459778 -0.056018189 -13.846429 -0.055602852 -13.832319 -33.125984 -107.58164
68941000 -32.721848 -93.541916 -0.055529438 -14.043803 -0.054993812 -14.029708 -33.010151 -107.63911
69940000 -32.619339 -93.603615 -0.056056734 -14.241321 -0.05594293 -14.225952 -32.870789 -107.92751
70939000 -32.510105 -93.572067 -0.055613339 -14.435316 -0.055714022 -14.427093 -32.752258 -107.87209
71938000 -32.372169 -93.232582 -0.054968383 -14.629087 -0.055631693 -14.624663 -32.613277 -107.75276
72937000 -32.216053 -93.074364 -0.055588953 -14.82785 -0.054271888 -14.819733 -32.47707 -107.47414
73936000 -32.073864 -92.756317 -0.055511344 -15.027452 -0.054120392 -15.018123 -32.356796 -107.24156
74935000 -31.95816 -93.012726 -0.054278441 -15.222527 -0.053453907 -15.217595 -32.195618 -106.96264
75934000 -31.825548 -93.394424 -0.054635458 -15.435408 -0.053384721 -15.422726 -32.113621 -106.89649
76933000 -31.70318 -93.779465 -0.055885769 -15.622025 -0.055157665 -15.612641 -31.935318 -107.35345
77932000 -31.612059 -94.566696 -0.055909891 -15.82011 -0.056100264 -15.812881 -31.837776 -107.36454
78931000 -31.542522 -95.334824 -0.054902323 -16.0217 -0.056240819 -16.014122 -31.73881 -107.22602
79930000 -31.422827 -96.0858 -0.058041688 -16.211624 -0.058618616 -16.211525 -31.644463 -107.55552
80929000 -31.297657 -97.040962 -0.059438098 -16.405716 -0.059932541 -16.405907 -31.543163 -107.90895
81928000 -31.225 -97.89492 -0.059291404 -16.5986 -0.059707094 -16.596199 -31.412424 -107.99178
82927000 -31.132301 -98.603897 -0.061463717 -16.800247 -0.061418559 -16.796206 -31.325617 -108.35173
83926000 -31.024063 -99.388557 -0.062858604 -16.995283 -0.062512733 -16.994053 -31.194317 -108.5774
84925000 -30.91177 -99.839851 -0.062673189 -17.193617 -0.062218614 -17.188965 -31.111368 -108.61572
85924000 -30.834684 -100.28523 -0.063930281 -17.393429 -0.063754804 -17.393394 -31.023403 -108.67358
86923000 -30.731176 -100.82262 -0.064770997 -17.592663 -0.064237647 -17.582123 -30.92281 -108.60276
87922000 -30.62458 -101.20316 -0.06453532 -17.800093 -0.064077921 -17.786755 -30.840284 -108.59575
88921000 -30.556328 -101.51163 -0.065426871 -17.991907 -0.064710043 -17.989744 -30.740477 -108.57014
89920000 -30.453396 -102.00047 -0.065845512 -18.194061 -0.065400064 -18.185781 -30.68985 -108.77776
90919000 -30.356571 -102.35763 -0.0671774 -18.387154 -0.066012405 -18.382599 -30.610531 -108.99422
91918000 -30.257786 -102.7234 -0.067718729 -18.589588 -0.065958001 -18.588644 -30.544924 -108.92837
92917000 -30.180946 -103.06919 -0.068507589 -18.783981 -0.068134703 -18.781628 -30.477005 -109.0843
93916000 -30.089701 -103.44311 -0.067959577 -18.978588 -0.067475006 -18.975449 -30.391937 -109.71164
94915000 -30.023294 -104.04907 -0.069468603 -19.183477 -0.068320088 -19.175806 -30.330122 -109.58997
95914000 -29.956285 -104.29318 -0.070509024 -19.376993 -0.06896992 -19.373528 -30.241903 -109.89903
96913000 -29.877319 -104.49591 -0.071385227 -19.575331 -0.070598744 -19.573477 -30.175303 -110.22195
97912000 -29.802967 -105.04477 -0.072713017 -19.771984 -0.070452727 -19.774635 -30.10298 -110.45254
98911000 -29.694769 -105.21169 -0.072822265 -19.973673 -0.071416542 -19.971258 -30.063532 -110.68283
99910000 -29.627056 -105.37952 -0.073723152 -20.169231 -0.071967617 -20.168858 -29.950333 -110.99136
100909000 -29.536943 -105.60809 -0.073233984 -20.377863 -0.071281813 -20.370867 -29.863804 -111.19551
101908000 -29.455694 -105.86099 -0.074465699 -20.575647 -0.072725132 -20.575649 -29.754156 -110.92287
102907000 -29.324083 -105.88966 -0.07456366 -20.778376 -0.072605625 -20.774416 -29.681337 -110.91673
103906000 -29.22987 -106.00502 -0.075566322 -20.986269 -0.072115004 -20.976812 -29.535091 -110.90998
104905000 -29.081209 -105.89968 -0.075460695 -21.180611 -0.073024698 -21.181736 -29.401699 -110.5916
105904000 -28.947401 -106.05556 -0.075455956 -21.383791 -0.072775409 -21.376541 -29.292168 -110.47511
106903000 -28.832319 -106.14474 -0.076041788 -21.589819 -0.073278479 -21.584671 -29.163557 -110.34258
107902000 -28.670513 -106.46353 -0.077275619 -21.785414 -0.073378779 -21.777737 -29.031717 -110.32988
108901000 -28.559418 -106.72621 -0.078073591 -21.988585 -0.074759856 -21.977312 -28.88851 -110.27818
109900000 -28.439182 -107.23689 -0.078534044 -22.188183 -0.075797066 -22.178984 -28.74633 -110.40228
110899000 -28.314186 -107.90234 -0.079105534 -22.387674 -0.076300748 -22.375254 -28.615864 -110.70922
111898000 -28.230211 -108.5322 -0.080635309 -22.587332 -0.077423185 -22.582584 -28.498135 -110.84771
112897000 -28.108938 -109.1627 -0.082470335 -22.785248 -0.078777604 -22.774899 -28.364748 -111.00007
113896000 -28.003429 -109.69781 -0.083309636 -22.985283 -0.080483414 -22.975212 -28.256655 -111.13005
114895000 -27.902021 -110.37536 -0.084211648 -23.184851 -0.081896029 -23.170361 -28.153292 -111.25887
115894000 -27.77247 -110.72016 -0.085512742 -23.384539 -0.082982183 -23.370602 -28.07859 -111.40534
116893000 -27.692284 -111.28561 -0.085994586 -23.582186 -0.083228365 -23.561935 -27.947567 -111.54555
117892000 -27.619522 -111.78324 -0.086405709 -23.773861 -0.084008694 -23.762445 -27.87739 -111.77026
118891000 -27.553026 -112.15005 -0.086686417 -23.975897 -0.083620749 -23.961666 -27.784447 -111.89845
119890000 -27.467123 -112.58057 -0.087207474 -24.179289 -0.084925629 -24.16054 -27.76458 -112.03851
120889000 -27.41382 -113.05698 -0.088844471 -24.375618 -0.084829807 -24.363489 -27.69828 -112.06981
121888000 -27.369696 -113.36337 -0.08788576 -24.572903 -0.08590851 -24.558414 -27.640141 -112.31391
122887000 -27.334156 -113.59751 -0.089229971 -24.776302 -0.086191557 -24.759283 -27.589531 -112.36446
123886000 -27.28042 -114.01718 -0.0898026 -24.977224 -0.086621977 -24.957153 -27.576563 -112.49327
124885000 -27.242649 -114.49393 -0.090335138 -25.177507 -0.086765639 -25.161909 -27.542446 -112.59598
125884000 -27.187815 -114.70046 -0.090702794 -25.375032 -0.087834515 -25.35813 -27.518545 -112.77805
126883000 -27.162737 -115.09644 -0.091207147 -25.577696 -0.088481463 -25.562481 -27.479382 -112.77048
127882000 -27.119345 -115.39522 -0.091681428 -25.777178 -0.08849705 -25.756346 -27.437809 -112.9616
128881000 -27.086 -115.67757 -0.091933653 -25.978401 -0.088687532 -25.95924 -27.396135 -113.10205
129880000 -27.039679 -116.01112 -0.092369929 -26.176291 -0.088432059 -26.156586 -27.356867 -113.06055
130879000 -26.975368 -116.1431 -0.092205197 -26.378088 -0.089694783 -26.362761 -27.282621 -113.12164
131878000 -26.908133 -116.43418 -0.092327356 -26.579466 -0.089709051 -26.55961 -27.215654 -113.04315
132877000 -26.837105 -116.46102 -0.092341371 -26.777414 -0.090157002 -26.758711 -27.133394 -113.00299
133876000 -26.755909 -116.63414 -0.092304885 -26.982162 -0.089343593 -26.961889 -27.040445 -112.93565
134875000 -26.66169 -116.76388 -0.092204407 -27.177965 -0.090435833 -27.162127 -26.939499 -112.81371
135874000 -26.586445 -116.7972 -0.092738293 -27.379709 -0.090260074 -27.363668 -26.840733 -112.77779
136873000 -26.470411 -116.74516 -0.092832699 -27.5812 -0.090122908 -27.562647 -26.758894 -112.79842
137872000 -26.387318 -116.83104 -0.093279645 -27.783567 -0.089626342 -27.76819 -26.64867 -112.73113
138871000 -26.319872 -117.06296 -0.093558684 -27.985245 -0.090721034 -27.969162 -26.547804 -112.91429
139870000 -26.220381 -117.30211 -0.094062045 -28.186249 -0.092283465 -28.165751 -26.470043 -113.07416
140869000 -26.13785 -117.80101 -0.095946684 -28.377947 -0.093384914 -28.361628 -26.364611 -113.2197
141868000 -26.038536 -118.23869 -0.096500091 -28.571205 -0.093874499 -28.556009 -26.295126 -113.50851
142867000 -25.957489 -118.51645 -0.094434783 -28.769369 -0.092775315 -28.751507 -26.218395 -113.72031
143866000 -25.88542 -119.01277 -0.096326202 -28.964981 -0.093656547 -28.949169 -26.144651 -114.23345
144865000 -25.839964 -119.51357 -0.098071754 -29.163877 -0.095957533 -29.147509 -26.092878 -114.54707
145864000 -25.775524 -119.87863 -0.098185338 -29.363218 -0.096619457 -29.351324 -26.055111 -114.80985
146863000 -25.730974 -120.25578 -0.098896332 -29.561592 -0.096744917 -29.550352 -26.006227 -115.10631
147862000 -25.6856 -120.56168 -0.099901974 -29.756962 -0.096998237 -29.745754 -25.968864 -115.44283
148861000 -25.660419 -121.10268 -0.099729538 -29.954166 -0.098085523 -29.942497 -25.94486 -115.70644
149860000 -25.645842 -121.2978 -0.10101277 -30.160387 -0.098212615 -30.146273 -25.911411 -115.86381
150859000 -25.62306 -121.66918 -0.10073034 -30.356791 -0.099412501 -30.338957 -25.903275 -116.13483
151858000 -25.608717 -121.99605 -0.10002012 -30.55632 -0.09902636 -30.537718 -25.897085 -116.38525
152857000 -25.589706 -122.30757 -0.1009839 -30.753908 -0.099028476 -30.73967 -25.875309 -116.52
153856000 -25.579973 -122.517 -0.10054172 -30.95273 -0.098714404 -30.936249 -25.894344 -116.83014
154855000 -25.578831 -122.70697 -0.10166381 -31.1478 -0.099004641 -31.139618 -25.878294 -117.06645
155854000 -25.588511 -122.97494 -0.10166275 -31.349874 -0.099505201 -31.337198 -25.871094 -117.31082
156853000 -25.573484 -123.63962 -0.09921439 -31.533119 -0.098667532 -31.530169 -25.868534 -117.59958
157852000 -25.578527 -123.86613 -0.10056953 -31.737127 -0.10040687 -31.724146 -25.850935 -117.97285
158851000 -25.57453 -124.13407 -0.10098575 -31.933649 -0.099816687 -31.926029 -25.847769 -118.23291
159850000 -25.559385 -124.23307 -0.1023311 -32.13068 -0.10030542 -32.126579 -25.837423 -118.37218
160849000 -25.543745 -124.34615 -0.10156205 -32.332035 -0.10158431 -32.325962 -25.809593 -118.67457
161848000 -25.519524 -124.43999 -0.10268467 -32.529121 -0.10113174 -32.523689 -25.767279 -118.74034
162847000 -25.48111 -124.6771 -0.10221979 -32.728718 -0.10174172 -32.72533 -25.74147 -119.03626
163846000 -25.436268 -124.86816 -0.10269368 -32.92894 -0.10140996 -32.924763 -25.664587 -119.04031
164845000 -25.372749 -124.84428 -0.10326862 -33.130695 -0.10202527 -33.121174 -25.597059 -119.14651
165844000 -25.325634 -124.94032 -0.10344544 -33.323345 -0.10265128 -33.318699 -25.520363 -119.27852
166843000 -25.257948 -125.03989 -0.10233641 -33.525738 -0.10192563 -33.523151 -25.449854 -119.45941
167842000 -25.200396 -125.18013 -0.10361405 -33.726433 -0.10201414 -33.719231 -25.365063 -119.39739
168841000 -25.122816 -125.35244 -0.10332244 -33.924335 -0.10326995 -33.920631 -25.292728 -119.45615
169840000 -25.059464 -125.62337 -0.10427953 -34.114952 -0.10291236 -34.116421 -25.200449 -119.65053
170839000 -25.002541 -125.89585 -0.10560124 -34.314396 -0.10310533 -34.312752 -25.117626 -119.83849
171838000 -24.942347 -126.30186 -0.10470166 -34.515385 -0.10423816 -34.510189 -25.055397 -120.06941
172837000 -24.870695 -126.67525 -0.10592483 -34.711555 -0.10515514 -34.706738 -24.986898 -120.30042
173836000 -24.806074 -127.10828 -0.10736962 -34.912312 -0.10606223 -34.906487 -24.944963 -120.50534
174835000 -24.754223 -127.53648 -0.1076891 -35.103928 -0.10722581 -35.104366 -24.895658 -120.86882
175834000 -24.702261 -127.9555 -0.10886586 -35.304001 -0.10784195 -35.29697 -24.835146 -121.16714
176833000 -24.652098 -128.29045 -0.10945968 -35.501385 -0.10836238 -35.498238 -24.784344 -121.32633
177832000 -24.603415 -128.77052 -0.10993807 -35.695004 -0.10887861 -35.698494 -24.761974 -121.48766
178831000 -24.562643 -129.15654 -0.11041573 -35.894497 -0.1092412 -35.893539 -24.718349 -121.69701
179830000 -24.526968 -129.56836 -0.11054318 -36.087189 -0.10981807 -36.091507 -24.696806 -121.8373
180829000 -24.486795 -129.80331 -0.11129205 -36.290478 -0.11005516 -36.286633 -24.667994 -121.98743
181828000 -24.468578 -130.13649 -0.11069932 -36.486023 -0.1096532 -36.483349 -24.648571 -122.095
182827000 -24.437639 -130.48012 -0.1106717 -36.67654 -0.11104745 -36.679199 -24.638407 -122.20229
183826000 -24.400572 -130.7995 -0.11209895 -36.877201 -0.11047149 -36.873859 -24.626442 -122.3267
184825000 -24.403498 -131.13783 -0.11164688 -37.073116 -0.11135127 -37.074181 -24.607075 -122.44943
185824000 -24.375544 -131.46716 -0.11199536 -37.265675 -0.11134676 -37.27079 -24.607759 -122.49837
186823000 -24.364975 -131.81039 -0.11192364 -37.467556 -0.11118396 -37.466534 -24.606947 -122.44331
187822000 -24.343706 -132.13744 -0.112431 -37.665604 -0.11187556 -37.663231 -24.569849 -122.52322
188821000 -24.320696 -132.38181 -0.11227002 -37.856792 -0.11217599 -37.863647 -24.558649 -122.61557
189820000 -24.310049 -132.65732 -0.11251628 -38.060593 -0.11236671 -38.060249 -24.54228 -122.78597
190819000 -24.277866 -132.9165 -0.11352853 -38.261871 -0.11349081 -38.258762 -24.50849 -122.74419
191818000 -24.240482 -133.08456 -0.11518612 -38.455181 -0.11451684 -38.453438 -24.478022 -122.62808
192817000 -24.17495 -133.3541 -0.11525895 -38.640896 -0.11531372 -38.640308 -24.410681 -122.72137
193816000 -24.138805 -133.71762 -0.1149732 -38.831665 -0.11395981 -38.830868 -24.354033 -122.96447
194815000 -24.081314 -134.17737 -0.11448282 -39.028694 -0.11473319 -39.032818 -24.291069 -123.09333
195814000 -24.027308 -134.40739 -0.11547002 -39.229034 -0.11417294 -39.22794 -24.238388 -123.2205
196813000 -23.968658 -134.7538 -0.1147486 -39.418453 -0.11377645 -39.421272 -24.162746 -123.377
197812000 -23.91622 -134.98212 -0.11500377 -39.618019 -0.11472149 -39.614597 -24.087749 -123.47081
198811000 -23.864779 -135.14278 -0.11467153 -39.815609 -0.11368079 -39.817989 -24.025372 -123.64265
199810000 -23.79681 -135.53644 -0.11531637 -40.007156 -0.1145708 -40.006802 -23.944693 -123.74606
200809000 -23.737961 -135.80678 -0.11486369 -40.207153 -0.11512073 -40.207096 -23.863621 -123.95598
201808000 -23.676788 -136.03329 -0.11622931 -40.406937 -0.11562022 -40.413605 -23.799917 -124.003
202807000 -23.622215 -136.39777 -0.11658853 -40.61063 -0.11702676 -40.608513 -23.74188 -124.23105
203806000 -23.56986 -136.85333 -0.1181204 -40.806744 -0.1158874 -40.810577 -23.676619 -124.41744
