!Keysight Technologies,E5080B,MY59205177,A.15.75.32
!Date: Friday, February 23, 2024 02:47:20
!Correction: S11(Cdelta 2-Port  ) 
!S21(Cdelta 2-Port  ) 
!S12(Cdelta 2-Port  ) 
!S22(Cdelta 2-Port  ) 
!S2P File: Measurements: S11, S21, S12, S22:
# Hz S  dB   R 50
10000000 -40.041943 -3.3805223 -0.061164159 -2.0546584 -0.06383808 -2.1111779 -54.728855 -77.353149
10999000 -39.615383 -4.7191658 -0.062267981 -2.2693155 -0.063729323 -2.3263798 -52.52071 -75.522797
11998000 -39.098278 -6.3725839 -0.062728606 -2.4933019 -0.063533366 -2.5342727 -51.341522 -71.01902
12997000 -38.730946 -9.7066965 -0.061632015 -2.6728446 -0.063295908 -2.7045171 -49.785355 -71.30806
13996000 -38.527512 -12.071378 -0.060914237 -2.8556988 -0.063145146 -2.8777721 -48.75272 -69.789696
14995000 -38.36467 -14.7442 -0.063582219 -3.0603957 -0.062873051 -3.0863817 -47.813251 -70.136208
15994000 -38.300121 -17.452183 -0.06487032 -3.2860293 -0.065889932 -3.3032627 -47.27338 -68.627342
16993000 -38.35498 -20.258852 -0.063732475 -3.4797726 -0.065505184 -3.4921207 -46.663174 -74.030869
17992000 -38.473068 -23.40741 -0.063700952 -3.682853 -0.06558796 -3.6818199 -46.259048 -77.519341
18991000 -38.713947 -26.40922 -0.0654881 -3.8905978 -0.066710256 -3.8908532 -45.673859 -81.360558
19990000 -38.679729 -29.892157 -0.067688495 -4.0991507 -0.068653017 -4.0953379 -45.185318 -85.746124
20989000 -38.728554 -32.150608 -0.068954408 -4.3048244 -0.070681095 -4.2956948 -44.620586 -87.955849
21988000 -38.782799 -35.395878 -0.0708979 -4.5019379 -0.071287863 -4.4883089 -44.263107 -88.695015
22987000 -38.714725 -39.19421 -0.071973406 -4.7032943 -0.072498232 -4.6954107 -43.897842 -89.749924
23986000 -38.825451 -41.930996 -0.071396276 -4.8969779 -0.07154312 -4.8924437 -43.794907 -90.182091
24985000 -38.671711 -43.987259 -0.072690122 -5.1036863 -0.071957618 -5.1021914 -43.364269 -88.396278
25984000 -38.560246 -46.242809 -0.073891662 -5.3132548 -0.072731972 -5.313839 -42.92955 -88.096535
26983000 -38.396164 -48.361591 -0.074574985 -5.5114875 -0.074012518 -5.5297017 -42.712608 -87.966881
27982000 -38.282333 -49.265797 -0.075969346 -5.7104669 -0.074651882 -5.7467766 -42.315166 -87.464081
28981000 -38.341141 -50.366047 -0.073356405 -5.9081225 -0.074916556 -5.9315987 -41.994816 -87.669205
29980000 -38.059074 -52.198814 -0.073911674 -6.0988617 -0.075653769 -6.1088538 -41.634655 -88.003242
30979000 -37.768665 -52.157001 -0.071758918 -6.4617739 -0.070154652 -6.4471025 -41.142929 -90.143257
31978000 -37.630653 -53.358753 -0.071084723 -6.6527762 -0.070886321 -6.6460862 -40.855331 -90.127373
32977000 -37.549126 -54.827065 -0.070731878 -6.8624039 -0.071849972 -6.8592687 -40.571453 -91.029549
33976000 -37.440132 -56.114193 -0.071746022 -7.0648713 -0.072542451 -7.0595574 -40.229698 -91.301682
34975000 -37.242916 -57.429474 -0.072159484 -7.2657804 -0.073488832 -7.2621312 -39.965626 -91.790932
35974000 -37.092758 -58.164288 -0.071095772 -7.4586339 -0.073582031 -7.4601631 -39.614906 -91.728355
36973000 -36.93013 -59.352287 -0.072122902 -7.661046 -0.074253455 -7.6644149 -39.255497 -91.426437
37972000 -36.756435 -59.6008 -0.072070524 -7.8702488 -0.074050702 -7.8754129 -38.970703 -91.307083
38971000 -36.474041 -59.951733 -0.072442167 -8.0733242 -0.073916413 -8.0822792 -38.708019 -90.086082
39970000 -36.1973 -60.800228 -0.070497453 -8.2688704 -0.072698809 -8.2859049 -38.388214 -90.264397
40969000 -35.955032 -61.042297 -0.071029201 -8.460351 -0.07287544 -8.479147 -38.040558 -89.305229
41968000 -35.666016 -61.614811 -0.071172871 -8.67031 -0.072935455 -8.6858959 -37.78651 -88.532372
42967000 -35.444561 -62.189903 -0.070657417 -8.8769875 -0.073205814 -8.9008942 -37.468834 -87.051399
43966000 -35.219917 -63.307274 -0.071743391 -9.0776548 -0.074135222 -9.0981464 -37.130039 -86.987366
44965000 -35.031029 -64.393806 -0.072963886 -9.2788563 -0.075636387 -9.301137 -36.911888 -87.206787
45964000 -34.877766 -65.669243 -0.073700249 -9.4821253 -0.075869247 -9.5002127 -36.669067 -87.555519
46963000 -34.75576 -67.513657 -0.073968023 -9.6755304 -0.077103287 -9.6995087 -36.517479 -88.259598
47962000 -34.671463 -68.951271 -0.07657738 -9.8797226 -0.078068055 -9.8963642 -36.31057 -88.658112
48961000 -34.523163 -70.577988 -0.078527719 -10.07381 -0.080149584 -10.096591 -36.088387 -89.360382
49960000 -34.353168 -72.102043 -0.079382338 -10.273255 -0.080470756 -10.297639 -35.962887 -89.802544
50959000 -34.216503 -73.628479 -0.08028248 -10.487158 -0.081910275 -10.500287 -35.811195 -90.415169
51958000 -34.069103 -74.861862 -0.081816636 -10.687199 -0.083062127 -10.699161 -35.650066 -91.197334
52957000 -33.900948 -76.134895 -0.08344949 -10.886626 -0.084653221 -10.897479 -35.468845 -91.315895
53956000 -33.781704 -76.985703 -0.085567921 -11.087965 -0.085635506 -11.094045 -35.335705 -91.614326
54955000 -33.635479 -77.720665 -0.086062707 -11.288695 -0.086688265 -11.287919 -35.190212 -91.887596
55954000 -33.501678 -78.687096 -0.08711715 -11.491924 -0.08707463 -11.490313 -35.070301 -91.696365
56953000 -33.390591 -78.981033 -0.086379565 -11.686358 -0.08653114 -11.67771 -35.004501 -92.004066
57952000 -33.259899 -79.663666 -0.087751307 -11.885769 -0.087231509 -11.879339 -34.90575 -92.301849
58951000 -33.155037 -80.172806 -0.088412508 -12.094063 -0.088440776 -12.072571 -34.750374 -92.614304
59950000 -33.056583 -80.682259 -0.089819252 -12.292926 -0.089154139 -12.272776 -34.69405 -93.057945
60949000 -32.954758 -81.378662 -0.090204835 -12.494059 -0.089663334 -12.471657 -34.598759 -93.504211
61948000 -32.903843 -81.754128 -0.090776011 -12.6948 -0.089295238 -12.676998 -34.529732 -93.663116
62947000 -32.816399 -82.09919 -0.091583341 -12.907804 -0.090127662 -12.886812 -34.397064 -94.226768
63946000 -32.765511 -82.810829 -0.091698878 -13.104222 -0.091085017 -13.08293 -34.287731 -94.428017
64945000 -32.661018 -83.180229 -0.092087008 -13.307868 -0.092059776 -13.288973 -34.176373 -95.095551
65944000 -32.568031 -83.513344 -0.093631946 -13.50658 -0.093024164 -13.487003 -34.115185 -95.767052
66943000 -32.439266 -84.03064 -0.091186531 -13.708272 -0.090863243 -13.689483 -34.013454 -96.099571
67942000 -32.377094 -84.074005 -0.093767375 -13.904312 -0.093277529 -13.891318 -33.905968 -96.553391
68941000 -32.265564 -84.369133 -0.093267478 -14.097674 -0.092094414 -14.088411 -33.773258 -96.618591
69940000 -32.173046 -84.401054 -0.09388826 -14.292938 -0.092907012 -14.286592 -33.642567 -97.06636
70939000 -32.060738 -84.524231 -0.093209296 -14.493591 -0.092182986 -14.484899 -33.509216 -97.120461
71938000 -31.918377 -84.220963 -0.093759701 -14.692224 -0.093096897 -14.684639 -33.373459 -97.148087
72937000 -31.754297 -84.290283 -0.092940331 -14.888 -0.092777692 -14.883896 -33.207066 -97.021278
73936000 -31.598829 -84.155777 -0.092565082 -15.087234 -0.091982037 -15.079335 -33.084057 -96.948769
74935000 -31.491028 -84.551895 -0.092119791 -15.280971 -0.091254994 -15.277262 -32.905155 -96.747513
75934000 -31.368587 -84.881195 -0.092197001 -15.497266 -0.091568269 -15.485444 -32.822525 -96.804726
76933000 -31.253162 -85.357758 -0.093717121 -15.686402 -0.092763677 -15.677654 -32.656216 -97.366943
77932000 -31.167542 -86.250893 -0.094449595 -15.88163 -0.094452776 -15.87692 -32.55452 -97.481194
78931000 -31.111372 -87.00885 -0.093309537 -16.084684 -0.094094582 -16.078144 -32.451145 -97.43499
79930000 -31.031349 -87.89978 -0.096134588 -16.27573 -0.096555673 -16.273033 -32.358311 -97.919502
80929000 -30.924774 -88.91082 -0.098346062 -16.469273 -0.097810432 -16.470175 -32.264782 -98.346947
81928000 -30.863911 -89.806847 -0.098154895 -16.663836 -0.098085254 -16.662178 -32.139481 -98.536896
82927000 -30.778322 -90.558159 -0.099954426 -16.862408 -0.10000793 -16.861443 -32.042431 -99.049126
83926000 -30.675741 -91.337303 -0.10157053 -17.057098 -0.10075445 -17.05924 -31.933897 -99.402176
84925000 -30.579393 -91.942307 -0.10271118 -17.258472 -0.10105702 -17.255482 -31.830128 -99.648575
85924000 -30.508846 -92.433701 -0.10308492 -17.460569 -0.1020841 -17.460804 -31.753569 -99.646286
86923000 -30.415533 -93.080078 -0.10335186 -17.657265 -0.10199347 -17.65337 -31.644009 -99.68277
87922000 -30.311432 -93.599747 -0.10390621 -17.862829 -0.10252405 -17.854776 -31.560823 -99.837646
88921000 -30.24954 -93.910088 -0.10467143 -18.064009 -0.10345711 -18.057686 -31.463539 -99.938042
89920000 -30.157404 -94.580658 -0.10581236 -18.260212 -0.10403506 -18.253056 -31.408657 -100.19931
90919000 -30.065594 -94.961624 -0.10623253 -18.458841 -0.10533123 -18.458055 -31.329153 -100.45406
91918000 -29.97382 -95.443565 -0.10652805 -18.657087 -0.10530657 -18.652323 -31.25268 -100.55068
92917000 -29.890253 -95.837334 -0.10771219 -18.859007 -0.10687771 -18.850761 -31.194387 -100.6899
93916000 -29.819576 -96.341377 -0.10732505 -19.050604 -0.10671163 -19.047417 -31.110285 -101.46013
94915000 -29.753998 -96.999214 -0.10893196 -19.254398 -0.10787194 -19.24683 -31.054869 -101.3558
95914000 -29.689146 -97.259933 -0.1102126 -19.446947 -0.10892294 -19.444708 -30.960405 -101.69336
96913000 -29.61421 -97.568169 -0.11140731 -19.646143 -0.10960303 -19.643354 -30.898415 -102.14952
97912000 -29.540854 -98.076591 -0.11202883 -19.84133 -0.11020225 -19.844881 -30.817989 -102.47703
98911000 -29.437145 -98.384476 -0.11305001 -20.045055 -0.11130507 -20.041321 -30.780565 -102.77262
99910000 -29.364616 -98.522232 -0.11344536 -20.244539 -0.1113627 -20.245672 -30.669121 -103.10226
100909000 -29.281403 -98.883492 -0.1133258 -20.455227 -0.1108297 -20.444025 -30.590847 -103.40917
101908000 -29.198366 -99.187599 -0.11448309 -20.651205 -0.1124844 -20.649174 -30.453373 -103.18559
102907000 -29.065075 -99.296776 -0.11573852 -20.850231 -0.1126863 -20.85014 -30.385548 -103.25623
103906000 -28.973024 -99.485649 -0.11517921 -21.057899 -0.1123173 -21.054964 -30.224812 -103.28273
104905000 -28.81908 -99.468155 -0.11545726 -21.253565 -0.11287864 -21.256096 -30.088409 -103.03236
105904000 -28.6873 -99.659706 -0.11587836 -21.456055 -0.11329551 -21.450722 -29.956175 -102.97187
106903000 -28.570435 -99.855667 -0.11542457 -21.665501 -0.11285128 -21.655619 -29.823009 -102.98209
107902000 -28.412279 -100.32647 -0.11668798 -21.864553 -0.11411182 -21.858292 -29.677151 -103.03706
108901000 -28.303679 -100.6593 -0.11774775 -22.063444 -0.11527517 -22.057404 -29.530855 -103.07389
109900000 -28.184931 -101.23447 -0.11833453 -22.264166 -0.11687758 -22.253918 -29.375536 -103.26326
110899000 -28.075314 -101.91962 -0.12002137 -22.463104 -0.11712329 -22.454865 -29.244865 -103.66923
111898000 -27.992424 -102.60993 -0.12144983 -22.663214 -0.11847047 -22.656895 -29.128853 -103.96855
112897000 -27.877089 -103.26425 -0.12325265 -22.863325 -0.11957964 -22.853062 -28.991983 -104.24261
113896000 -27.781631 -103.90559 -0.1237086 -23.064878 -0.12101302 -23.053381 -28.87801 -104.49796
114895000 -27.689568 -104.64315 -0.12495685 -23.261835 -0.1217967 -23.249805 -28.764519 -104.66852
115894000 -27.560135 -105.06333 -0.12591977 -23.463184 -0.12336903 -23.450663 -28.691395 -104.90834
116893000 -27.488684 -105.71559 -0.12689093 -23.657394 -0.12343428 -23.641399 -28.558638 -105.18324
117892000 -27.410406 -106.2442 -0.12703513 -23.857214 -0.12453993 -23.841326 -28.485863 -105.49181
118891000 -27.352976 -106.70206 -0.12813795 -24.056143 -0.12492221 -24.039389 -28.385899 -105.70214
119890000 -27.268742 -107.16608 -0.12919439 -24.25773 -0.12527868 -24.245886 -28.379229 -105.86291
120889000 -27.214947 -107.6608 -0.13007212 -24.459509 -0.12608926 -24.445169 -28.298084 -105.84203
121888000 -27.177088 -108.05476 -0.12948668 -24.651091 -0.12762076 -24.643438 -28.239899 -106.23837
122887000 -27.135469 -108.28297 -0.13100016 -24.853779 -0.12812835 -24.843201 -28.192362 -106.30013
123886000 -27.074495 -108.73624 -0.13130057 -25.061487 -0.12807369 -25.045519 -28.168762 -106.48938
124885000 -27.045029 -109.24715 -0.13153857 -25.254374 -0.12787694 -25.244061 -28.144642 -106.59092
125884000 -26.993355 -109.4883 -0.13217685 -25.456564 -0.12872347 -25.442577 -28.112156 -106.78292
126883000 -26.967098 -109.8632 -0.13291611 -25.661858 -0.12899493 -25.643269 -28.073074 -106.86708
127882000 -26.916937 -110.1545 -0.13324788 -25.858793 -0.12955122 -25.842384 -28.023336 -107.04745
128881000 -26.886171 -110.54576 -0.1338461 -26.06109 -0.13038926 -26.042847 -27.985224 -107.1876
129880000 -26.828344 -110.90411 -0.13420412 -26.262611 -0.13058506 -26.241943 -27.935965 -107.20159
130879000 -26.767797 -111.13514 -0.1342722 -26.461185 -0.13177632 -26.444351 -27.859161 -107.30691
131878000 -26.697123 -111.31187 -0.13501395 -26.6653 -0.13144305 -26.645607 -27.78503 -107.21614
132877000 -26.626602 -111.46159 -0.13441664 -26.862213 -0.13192974 -26.84944 -27.702694 -107.27216
133876000 -26.537411 -111.63541 -0.13511944 -27.068903 -0.13190573 -27.046761 -27.599234 -107.22284
134875000 -26.440601 -111.8216 -0.13512932 -27.267054 -0.13263962 -27.24577 -27.481306 -107.13372
135874000 -26.360991 -111.90777 -0.13502571 -27.463404 -0.13275117 -27.452923 -27.375565 -107.1885
136873000 -26.246458 -111.9287 -0.13572699 -27.66894 -0.13243358 -27.652319 -27.284725 -107.19706
137872000 -26.166048 -112.10384 -0.13578334 -27.867825 -0.13261239 -27.859423 -27.170547 -107.19652
138871000 -26.096209 -112.30273 -0.13693729 -28.070215 -0.13288142 -28.058943 -27.073837 -107.41293
139870000 -25.997046 -112.63931 -0.1373872 -28.271729 -0.13390191 -28.253206 -26.990372 -107.64642
140869000 -25.91279 -113.12329 -0.13902158 -28.464489 -0.13549812 -28.444878 -26.881847 -107.8344
141868000 -25.820591 -113.67287 -0.1396957 -28.658972 -0.13626707 -28.644291 -26.817854 -108.23965
142867000 -25.745993 -113.96589 -0.13809288 -28.855927 -0.13490207 -28.836437 -26.734381 -108.4722
143866000 -25.686039 -114.51409 -0.13968047 -29.052919 -0.13687637 -29.038031 -26.667568 -109.02081
144865000 -25.63339 -115.01254 -0.14134674 -29.252178 -0.13820244 -29.238052 -26.613518 -109.41873
145864000 -25.578798 -115.40058 -0.14146146 -29.454323 -0.13897561 -29.441725 -26.584858 -109.71527
146863000 -25.535265 -115.83148 -0.14236198 -29.649715 -0.13966738 -29.638275 -26.535362 -110.06269
147862000 -25.496996 -116.21191 -0.14310245 -29.848078 -0.13994111 -29.834024 -26.503727 -110.42271
148861000 -25.468878 -116.74609 -0.14394365 -30.049387 -0.14128496 -30.034073 -26.480675 -110.67884
149860000 -25.454079 -116.94777 -0.14438492 -30.244173 -0.14130181 -30.234421 -26.451021 -110.85918
150859000 -25.430681 -117.36992 -0.14505722 -30.445532 -0.14176661 -30.435005 -26.448309 -111.12553
151858000 -25.424463 -117.70351 -0.14501117 -30.643036 -0.14237751 -30.631859 -26.449144 -111.43066
152857000 -25.405624 -117.98624 -0.145308 -30.83786 -0.14220043 -30.828541 -26.431332 -111.57865
153856000 -25.399332 -118.27671 -0.14546326 -31.041216 -0.14241923 -31.02771 -26.457336 -111.89984
154855000 -25.386839 -118.4169 -0.14570792 -31.23922 -0.14228496 -31.224237 -26.452642 -112.12698
155854000 -25.401234 -118.65965 -0.14609583 -31.441977 -0.1425471 -31.423149 -26.448923 -112.3512
156853000 -25.392715 -119.36086 -0.14388426 -31.625637 -0.14233577 -31.619148 -26.445387 -112.67749
157852000 -25.396442 -119.60119 -0.14521219 -31.826668 -0.14371969 -31.818293 -26.443916 -113.00482
158851000 -25.388493 -119.84561 -0.14574647 -32.027477 -0.14386365 -32.016418 -26.429115 -113.26635
159850000 -25.374407 -119.98238 -0.14674401 -32.224293 -0.14447136 -32.216614 -26.429079 -113.44485
160849000 -25.35354 -120.11541 -0.1465009 -32.423996 -0.14490491 -32.41777 -26.402103 -113.79329
161848000 -25.336847 -120.22212 -0.14687307 -32.623543 -0.14474006 -32.61908 -26.35919 -113.90202
162847000 -25.28651 -120.45747 -0.14742336 -32.822273 -0.1458324 -32.815056 -26.3351 -114.16468
163846000 -25.244745 -120.70789 -0.14763948 -33.024952 -0.14573416 -33.012939 -26.248947 -114.19427
164845000 -25.182558 -120.76256 -0.14851531 -33.223011 -0.14564742 -33.217712 -26.182003 -114.32118
165844000 -25.130386 -120.84608 -0.14755379 -33.419933 -0.14631295 -33.413849 -26.096493 -114.51297
166843000 -25.061506 -120.97648 -0.14801176 -33.620583 -0.14595902 -33.617847 -26.027615 -114.75839
167842000 -25.004574 -121.13682 -0.14841995 -33.818691 -0.14748093 -33.812908 -25.937717 -114.70029
168841000 -24.92816 -121.32941 -0.14887373 -34.018486 -0.14712933 -34.012886 -25.860443 -114.8048
169840000 -24.863064 -121.68145 -0.14887694 -34.213177 -0.14726992 -34.208618 -25.765982 -115.06092
170839000 -24.804501 -121.95359 -0.14998774 -34.410172 -0.14888069 -34.406811 -25.679873 -115.26955
171838000 -24.743412 -122.41549 -0.14990146 -34.610546 -0.14976937 -34.603691 -25.617884 -115.56747
172837000 -24.679131 -122.81135 -0.15151054 -34.807381 -0.15012065 -34.798748 -25.545012 -115.86101
173836000 -24.617851 -123.25041 -0.15296361 -35.005207 -0.15099537 -35.003563 -25.501085 -116.12701
174835000 -24.564192 -123.7251 -0.15345487 -35.198933 -0.15209064 -35.202351 -25.455681 -116.53654
175834000 -24.514183 -124.14729 -0.15386438 -35.399136 -0.15327412 -35.395386 -25.400663 -116.83995
176833000 -24.464741 -124.51807 -0.15495017 -35.598576 -0.15358949 -35.594498 -25.344885 -117.03754
177832000 -24.421705 -125.01085 -0.15551463 -35.792706 -0.15421708 -35.794121 -25.324638 -117.23064
178831000 -24.386322 -125.43181 -0.15575208 -35.993053 -0.15474173 -35.985374 -25.289263 -117.5226
179830000 -24.350864 -125.88759 -0.15703104 -36.188965 -0.15539846 -36.1898 -25.264004 -117.65028
180829000 -24.312353 -126.12522 -0.15680721 -36.38306 -0.15574135 -36.384163 -25.231346 -117.86877
181828000 -24.284166 -126.51418 -0.15686411 -36.582458 -0.1561272 -36.579723 -25.210936 -117.99058
182827000 -24.264034 -126.88074 -0.15707399 -36.780281 -0.15633757 -36.779202 -25.197227 -118.09542
183826000 -24.21966 -127.19981 -0.15799735 -36.977806 -0.15664887 -36.976772 -25.187746 -118.24791
184825000 -24.228481 -127.51778 -0.15770154 -37.170216 -0.15716846 -37.17038 -25.169086 -118.35586
185824000 -24.197578 -127.89896 -0.15846018 -37.366192 -0.15707614 -37.369354 -25.166624 -118.40411
186823000 -24.183023 -128.25526 -0.15791252 -37.568329 -0.15784435 -37.56332 -25.162836 -118.39367
187822000 -24.162392 -128.57352 -0.15936667 -37.762344 -0.15784328 -37.760796 -25.124018 -118.48299
188821000 -24.140873 -128.81442 -0.15961964 -37.95649 -0.15786636 -37.961819 -25.11326 -118.58375
189820000 -24.123728 -129.10233 -0.15932854 -38.160664 -0.15838449 -38.159687 -25.103189 -118.72002
190819000 -24.09058 -129.36258 -0.16095616 -38.358002 -0.15946388 -38.355797 -25.064447 -118.72617
191818000 -24.059944 -129.57797 -0.1620902 -38.550926 -0.16108832 -38.552021 -25.030994 -118.62737
192817000 -23.985395 -129.84135 -0.16284721 -38.737984 -0.16157675 -38.741409 -24.952524 -118.71004
193816000 -23.950729 -130.21136 -0.16124952 -38.932049 -0.16004397 -38.931042 -24.891836 -118.985
194815000 -23.889702 -130.70659 -0.16192442 -39.12796 -0.1611571 -39.130295 -24.822878 -119.15121
195814000 -23.835728 -130.92345 -0.16241293 -39.325577 -0.16145316 -39.328575 -24.768951 -119.28025
196813000 -23.784763 -131.31123 -0.16179115 -39.521141 -0.16054946 -39.52351 -24.687254 -119.47923
197812000 -23.72645 -131.55328 -0.16216733 -39.717125 -0.16116999 -39.72216 -24.616758 -119.59518
198811000 -23.673437 -131.74608 -0.16230625 -39.915852 -0.16070257 -39.919289 -24.545465 -119.84848
199810000 -23.603678 -132.13287 -0.16310683 -40.11356 -0.16145852 -40.107208 -24.461763 -119.93623
200809000 -23.544954 -132.45406 -0.163367 -40.309639 -0.16143757 -40.310188 -24.383404 -120.19756
201808000 -23.4881 -132.70401 -0.1636745 -40.507854 -0.16231833 -40.511982 -24.306822 -120.31119
202807000 -23.431084 -133.12227 -0.1643901 -40.710838 -0.1636288 -40.711742 -24.249075 -120.53223
203806000 -23.380438 -133.56172 -0.16636281 -40.908627 -0.1636315 -40.911125 -24.183809 -120.76305
204805000 -23.331303 -133.9319 -0.16744904 -41.108242 -0.16530858 -41.109356 -24.124855 -121.01727
