!Keysight Technologies,E5080B,MY59205177,A.15.75.32
!Date: Friday, February 23, 2024 03:26:38
!Correction: S11(Cdelta 2-Port  ) 
!S21(Cdelta 2-Port  ) 
!S12(Cdelta 2-Port  ) 
!S22(Cdelta 2-Port  ) 
!S2P File: Measurements: S11, S21, S12, S22:
# Hz S  dB   R 50
10000000 -45.934883 -0.39667854 -0.01695315 -2.0600498 -0.019650942 -2.1100338 -46.203754 -159.40671
10999000 -45.1451 -2.7249675 -0.01788827 -2.2787111 -0.01984103 -2.3320987 -46.139118 -153.08327
11998000 -44.258934 -5.5544705 -0.017537123 -2.5006649 -0.019263249 -2.547595 -46.337677 -148.57838
12997000 -43.495731 -11.111914 -0.017482802 -2.6865737 -0.01872688 -2.7147312 -46.081787 -142.82307
13996000 -43.252083 -14.884233 -0.016706798 -2.8677506 -0.018792395 -2.8834047 -45.841198 -137.57637
14995000 -42.841297 -19.164335 -0.018760938 -3.0741062 -0.019580472 -3.0994091 -45.580391 -133.5878
15994000 -42.712505 -23.632572 -0.019896161 -3.2964129 -0.021754343 -3.315238 -45.528576 -130.21915
16993000 -42.678574 -28.172062 -0.018499665 -3.4921687 -0.020752324 -3.5021672 -44.596638 -129.84549
17992000 -42.767117 -33.203236 -0.019686047 -3.6930957 -0.021695547 -3.6951418 -44.04557 -129.39955
18991000 -43.045124 -38.477024 -0.021348253 -3.9018838 -0.02257158 -3.9052293 -43.383404 -128.38524
19990000 -42.8405 -44.181892 -0.022719381 -4.1160722 -0.02430856 -4.1090841 -42.7598 -129.3553
20989000 -42.702934 -47.34251 -0.025235111 -4.3205056 -0.027131006 -4.3091078 -42.178864 -128.60217
21988000 -42.561256 -52.880199 -0.026540533 -4.5152922 -0.027133349 -4.5057297 -41.948952 -128.05183
22987000 -42.285583 -57.6558 -0.027979739 -4.7184629 -0.028522201 -4.7066703 -41.663239 -127.52276
23986000 -42.245129 -61.728687 -0.026856467 -4.9125805 -0.027276097 -4.9135046 -41.549854 -127.40547
24985000 -41.855457 -64.411171 -0.028008658 -5.1230822 -0.027933104 -5.1153226 -41.409111 -124.66408
25984000 -41.488773 -66.898674 -0.029248718 -5.3288989 -0.028967531 -5.3295999 -41.029957 -122.85422
26983000 -41.210751 -68.724625 -0.030321518 -5.5284209 -0.029909153 -5.5483403 -40.925182 -122.40141
27982000 -41.050941 -69.54451 -0.031385716 -5.7304578 -0.03121572 -5.7597132 -40.669884 -120.73384
28981000 -41.014782 -71.042625 -0.029646426 -5.9264455 -0.03102826 -5.9491115 -40.415073 -119.86851
29980000 -40.625557 -72.53009 -0.029803069 -6.1241894 -0.031890012 -6.127049 -40.148106 -119.06961
30979000 -40.244934 -71.508873 -0.027003633 -6.4765916 -0.025824104 -6.4684329 -39.658012 -119.37469
31978000 -40.002254 -72.574036 -0.026058475 -6.6758461 -0.027619436 -6.6644769 -39.409054 -118.7596
32977000 -39.850506 -74.024231 -0.026242333 -6.8817587 -0.028086036 -6.881721 -39.145199 -118.64414
33976000 -39.668148 -75.300514 -0.027335489 -7.0879703 -0.028633203 -7.0837445 -38.870956 -118.22903
34975000 -39.350487 -76.214684 -0.027648093 -7.2863674 -0.029489789 -7.288816 -38.650818 -117.7239
35974000 -39.161877 -76.756142 -0.026446253 -7.4850702 -0.029011572 -7.4881806 -38.348774 -116.86318
36973000 -38.937061 -77.321175 -0.027147677 -7.6846366 -0.029996991 -7.6886306 -38.07851 -115.79638
37972000 -38.747562 -77.265739 -0.026723891 -7.8913541 -0.03026443 -7.9049673 -37.854729 -115.10245
38971000 -38.414902 -76.688019 -0.028447941 -8.0982847 -0.030264951 -8.1077633 -37.686882 -113.33399
39970000 -38.082985 -77.026939 -0.026380623 -8.289712 -0.029467376 -8.3094139 -37.427177 -112.74101
40969000 -37.765327 -76.595474 -0.026568141 -8.4840231 -0.029273998 -8.5102205 -37.190166 -111.24983
41968000 -37.414909 -76.629906 -0.027328717 -8.6933861 -0.030055117 -8.7070427 -36.985203 -109.89841
42967000 -37.164635 -76.745491 -0.026346765 -8.910183 -0.029736085 -8.9248905 -36.784939 -108.03995
43966000 -36.868927 -77.585823 -0.027594687 -9.1047068 -0.031539034 -9.1272478 -36.509617 -107.2113
44965000 -36.618336 -78.261459 -0.027929977 -9.311614 -0.031132808 -9.3289585 -36.29208 -107.08216
45964000 -36.382523 -79.289536 -0.030014455 -9.513299 -0.032708637 -9.5325279 -36.048786 -106.68961
46963000 -36.18375 -81.325554 -0.030755039 -9.7055511 -0.033528723 -9.730648 -35.865738 -106.811
47962000 -36.027519 -82.785835 -0.031211548 -9.9114733 -0.03492197 -9.928443 -35.658802 -106.86747
48961000 -35.810791 -84.145309 -0.034048397 -10.107666 -0.036191937 -10.13382 -35.422295 -106.9525
49960000 -35.591049 -85.516861 -0.035738818 -10.308464 -0.037627816 -10.333823 -35.287483 -107.19396
50959000 -35.357979 -86.81913 -0.035453558 -10.52343 -0.038602397 -10.531716 -35.100868 -107.32389
51958000 -35.163776 -87.97879 -0.03820648 -10.721844 -0.040041946 -10.731515 -34.934307 -107.83578
52957000 -34.940395 -89.017532 -0.039526254 -10.920582 -0.040993288 -10.93174 -34.782368 -107.54031
53956000 -34.78495 -89.706383 -0.040561095 -11.124048 -0.041966535 -11.127019 -34.626873 -107.41431
54955000 -34.618568 -90.268517 -0.04148642 -11.326245 -0.042594399 -11.322507 -34.485729 -107.40491
55954000 -34.436169 -91.091614 -0.042449579 -11.525431 -0.043667883 -11.525495 -34.371944 -107.09386
56953000 -34.321259 -91.029694 -0.04199215 -11.725101 -0.042355213 -11.718267 -34.296463 -107.31092
57952000 -34.152218 -91.669968 -0.043253202 -11.925817 -0.043727241 -11.915442 -34.196793 -107.38962
58951000 -34.038139 -92.054405 -0.045155935 -12.132553 -0.044149812 -12.109923 -34.052013 -107.43296
59950000 -33.906391 -92.386871 -0.045267627 -12.328581 -0.045008678 -12.313538 -33.977386 -107.64088
60949000 -33.790089 -92.938644 -0.046013694 -12.536535 -0.046198137 -12.515609 -33.887978 -107.95231
61948000 -33.728809 -93.191368 -0.045526851 -12.732818 -0.045826901 -12.716358 -33.785328 -107.95378
62947000 -33.645935 -93.496643 -0.046513148 -12.948327 -0.046533819 -12.925269 -33.647839 -108.27078
63946000 -33.569836 -94.280289 -0.047411997 -13.146823 -0.047465123 -13.125811 -33.549511 -108.44563
64945000 -33.459042 -94.336426 -0.047961343 -13.34735 -0.04863929 -13.328119 -33.433983 -108.92875
65944000 -33.351307 -94.605782 -0.048934579 -13.546654 -0.048036985 -13.526461 -33.350349 -109.35397
66943000 -33.216606 -95.071739 -0.046655748 -13.749658 -0.046990417 -13.732081 -33.233566 -109.67181
67942000 -33.151512 -95.051949 -0.04894793 -13.947198 -0.04892306 -13.934804 -33.118538 -109.87135
68941000 -33.050003 -95.102089 -0.048581962 -14.137414 -0.047985684 -14.131145 -32.992439 -109.91702
69940000 -32.940746 -95.079277 -0.048363909 -14.341334 -0.049191669 -14.332672 -32.861736 -110.22639
70939000 -32.836712 -94.985619 -0.048675936 -14.538743 -0.04896678 -14.529404 -32.72842 -110.05057
71938000 -32.685661 -94.485954 -0.048675153 -14.732501 -0.049485166 -14.724862 -32.586227 -109.92525
72937000 -32.522312 -94.408867 -0.048218638 -14.933362 -0.048061326 -14.92298 -32.447929 -109.63965
73936000 -32.372486 -93.997765 -0.048251353 -15.133414 -0.048277531 -15.123632 -32.317463 -109.46876
74935000 -32.238396 -94.254311 -0.047959249 -15.330532 -0.047315169 -15.327167 -32.167686 -109.06915
75934000 -32.115849 -94.454704 -0.047895387 -15.540999 -0.047334537 -15.533685 -32.070202 -109.01914
76933000 -31.982664 -94.859398 -0.049685467 -15.732853 -0.048594262 -15.726594 -31.908354 -109.33987
77932000 -31.879801 -95.646919 -0.05060095 -15.930879 -0.050365515 -15.922626 -31.801065 -109.26124
78931000 -31.800549 -96.354904 -0.049458724 -16.132851 -0.049815863 -16.125782 -31.698723 -109.07069
79930000 -31.687639 -97.264084 -0.051440399 -16.324619 -0.052110244 -16.323193 -31.5896 -109.46458
80929000 -31.582109 -98.071617 -0.053760011 -16.522116 -0.05366068 -16.521791 -31.489647 -109.65669
81928000 -31.479403 -98.782104 -0.054042809 -16.711819 -0.054209244 -16.711695 -31.350513 -109.68941
82927000 -31.379129 -99.59803 -0.055980165 -16.914204 -0.05540254 -16.912159 -31.242689 -109.96821
83926000 -31.25905 -100.29822 -0.057102341 -17.11536 -0.056932908 -17.111153 -31.121416 -110.14817
84925000 -31.160843 -100.68761 -0.057684656 -17.31068 -0.056736995 -17.309198 -31.029371 -110.15485
85924000 -31.062881 -101.14813 -0.058774997 -17.513323 -0.058293018 -17.510942 -30.940769 -110.14609
86923000 -30.948132 -101.5696 -0.058670044 -17.714712 -0.058954999 -17.708382 -30.837095 -109.94463
87922000 -30.837358 -101.934 -0.058855288 -17.920191 -0.058871295 -17.908573 -30.743193 -109.99026
88921000 -30.762232 -102.19709 -0.059797376 -18.114935 -0.059276186 -18.111406 -30.648741 -109.97013
89920000 -30.661551 -102.71227 -0.060808972 -18.314346 -0.060285296 -18.306704 -30.600729 -110.1171
90919000 -30.560692 -102.99287 -0.061753057 -18.513939 -0.061314855 -18.508137 -30.507027 -110.28188
91918000 -30.465979 -103.37131 -0.063009359 -18.711056 -0.061086453 -18.707088 -30.43821 -110.30994
92917000 -30.37001 -103.69279 -0.063973367 -18.913666 -0.06273517 -18.910521 -30.374481 -110.38371
93916000 -30.276817 -104.02663 -0.063691497 -19.108543 -0.062260628 -19.105574 -30.283316 -110.96071
94915000 -30.205536 -104.71274 -0.065240823 -19.309057 -0.063937902 -19.304152 -30.226852 -110.79292
95914000 -30.13574 -104.90356 -0.066427156 -19.503036 -0.064934433 -19.501444 -30.136703 -111.12833
96913000 -30.041857 -105.10665 -0.067247331 -19.704697 -0.06552726 -19.704329 -30.075033 -111.48801
97912000 -29.973341 -105.60091 -0.068100519 -19.897976 -0.066182718 -19.903797 -29.994585 -111.71002
98911000 -29.864859 -105.71185 -0.069273964 -20.107798 -0.067059621 -20.101568 -29.957634 -111.93176
99910000 -29.794838 -105.87522 -0.069736384 -20.301371 -0.068263292 -20.303539 -29.841093 -112.18931
100909000 -29.70158 -106.1327 -0.069055401 -20.51368 -0.067111671 -20.505171 -29.755348 -112.46025
101908000 -29.613422 -106.368 -0.069793463 -20.713156 -0.069316313 -20.709154 -29.641739 -112.21906
102907000 -29.474272 -106.33727 -0.071150243 -20.914585 -0.068951778 -20.905739 -29.56369 -112.20263
103906000 -29.37385 -106.42396 -0.070870273 -21.11549 -0.068863146 -21.114292 -29.420605 -112.10648
104905000 -29.233469 -106.28021 -0.072066836 -21.314447 -0.069286592 -21.320057 -29.291735 -111.7292
105904000 -29.087366 -106.40603 -0.072147377 -21.521852 -0.06985002 -21.517363 -29.181585 -111.67319
106903000 -28.978336 -106.46802 -0.072370574 -21.727463 -0.069795571 -21.724552 -29.051226 -111.57122
107902000 -28.812349 -106.80671 -0.072629839 -21.929007 -0.070777133 -21.919188 -28.907949 -111.54182
108901000 -28.701731 -107.02394 -0.074289791 -22.128622 -0.071830496 -22.120394 -28.777437 -111.4174
109900000 -28.572264 -107.5206 -0.074812263 -22.332977 -0.073263206 -22.324074 -28.631256 -111.52512
110899000 -28.46229 -108.15124 -0.076470681 -22.532013 -0.073622048 -22.519791 -28.511488 -111.81782
111898000 -28.368496 -108.83856 -0.077357568 -22.72971 -0.074802518 -22.723665 -28.382814 -111.93829
112897000 -28.244402 -109.36111 -0.079282157 -22.929302 -0.075742014 -22.918186 -28.245985 -112.14031
113896000 -28.140471 -109.96237 -0.080208123 -23.132244 -0.077527799 -23.120443 -28.139988 -112.2501
114895000 -28.035532 -110.58431 -0.081323653 -23.330015 -0.078564093 -23.316013 -28.022804 -112.33051
115894000 -27.905867 -110.96885 -0.082948938 -23.530272 -0.079640709 -23.518921 -27.957003 -112.55936
116893000 -27.838428 -111.43936 -0.083674058 -23.727886 -0.081216566 -23.713943 -27.830736 -112.61
117892000 -27.753534 -111.95836 -0.083817884 -23.921637 -0.081726417 -23.911282 -27.753437 -112.7851
118891000 -27.689226 -112.40706 -0.084796026 -24.127172 -0.080939114 -24.111647 -27.659031 -112.91365
119890000 -27.601978 -112.73717 -0.085225247 -24.326956 -0.082659766 -24.314526 -27.64336 -113.03312
120889000 -27.554495 -113.24834 -0.086105481 -24.529615 -0.082568742 -24.51264 -27.571829 -113.00514
121888000 -27.514673 -113.60599 -0.086009897 -24.727514 -0.083212793 -24.714706 -27.510956 -113.25915
122887000 -27.474802 -113.76236 -0.087129295 -24.929907 -0.084017925 -24.910538 -27.463205 -113.22341
123886000 -27.418135 -114.18888 -0.08761818 -25.133343 -0.084240414 -25.113625 -27.444206 -113.40751
124885000 -27.382406 -114.66836 -0.087519661 -25.333254 -0.084550284 -25.320852 -27.411667 -113.42491
125884000 -27.3325 -114.90231 -0.088427566 -25.529009 -0.085470237 -25.514771 -27.383055 -113.62321
126883000 -27.305571 -115.2403 -0.089286514 -25.735106 -0.086475946 -25.721067 -27.347778 -113.62614
127882000 -27.258827 -115.57253 -0.089507423 -25.932425 -0.087091528 -25.915533 -27.302629 -113.74625
128881000 -27.23348 -115.91334 -0.089881882 -26.13452 -0.086971097 -26.121065 -27.260599 -113.84531
129880000 -27.172424 -116.23483 -0.091174103 -26.34012 -0.087551095 -26.317862 -27.220476 -113.79434
130879000 -27.109259 -116.39085 -0.09038879 -26.53879 -0.088098936 -26.520281 -27.148064 -113.80347
131878000 -27.049452 -116.60569 -0.091182567 -26.740686 -0.089010395 -26.72307 -27.077494 -113.73698
132877000 -26.97353 -116.68914 -0.090912931 -26.94383 -0.088812239 -26.926037 -26.996588 -113.69304
133876000 -26.882996 -116.82446 -0.091876805 -27.143108 -0.088914223 -27.121597 -26.908699 -113.55839
134875000 -26.787264 -116.98915 -0.091665827 -27.343859 -0.089266434 -27.325518 -26.811499 -113.41778
135874000 -26.70332 -117.00939 -0.091798551 -27.546871 -0.089290477 -27.527964 -26.706373 -113.39035
136873000 -26.588528 -116.94628 -0.092457987 -27.747425 -0.088532716 -27.73181 -26.618614 -113.30645
137872000 -26.510439 -117.05872 -0.092244335 -27.950357 -0.089102879 -27.934559 -26.51416 -113.29385
138871000 -26.431417 -117.29302 -0.092893787 -28.149467 -0.089702711 -28.131088 -26.409496 -113.40369
139870000 -26.331635 -117.58479 -0.093260072 -28.347418 -0.090277784 -28.330626 -26.334946 -113.58723
140869000 -26.252895 -118.16743 -0.094097495 -28.549944 -0.09117569 -28.52861 -26.235031 -113.84226
141868000 -26.167965 -118.56968 -0.095777586 -28.745687 -0.092537582 -28.729641 -26.183271 -114.08948
142867000 -26.086239 -118.77631 -0.094358332 -28.943224 -0.09195216 -28.925753 -26.096405 -114.18391
143866000 -26.015343 -119.25393 -0.095925249 -29.141685 -0.093350001 -29.126417 -26.024456 -114.66169
144865000 -25.957806 -119.77596 -0.097866297 -29.339241 -0.095300741 -29.326244 -25.964125 -114.96384
145864000 -25.904556 -120.09168 -0.098111466 -29.542921 -0.096493207 -29.529762 -25.935364 -115.19328
146863000 -25.859694 -120.47379 -0.099169903 -29.741899 -0.096515439 -29.728846 -25.882381 -115.50508
147862000 -25.815142 -120.77972 -0.099571146 -29.943096 -0.097114444 -29.928019 -25.85013 -115.76431
148861000 -25.782404 -121.24511 -0.100458 -30.140488 -0.098657206 -30.122023 -25.838049 -115.95682
149860000 -25.75256 -121.38492 -0.10228579 -30.326778 -0.099140503 -30.322039 -25.783607 -116.02766
150859000 -25.729887 -121.86347 -0.10208649 -30.529976 -0.099391043 -30.512924 -25.759184 -116.39663
151858000 -25.720612 -122.23141 -0.10137816 -30.730204 -0.099193208 -30.714769 -25.746235 -116.74741
152857000 -25.701103 -122.53895 -0.10131563 -30.929026 -0.099521622 -30.915998 -25.736349 -116.87857
153856000 -25.704729 -122.77334 -0.10212757 -31.127491 -0.098627016 -31.11657 -25.75733 -117.18459
154855000 -25.702621 -122.93402 -0.10151435 -31.328609 -0.098870113 -31.316984 -25.744373 -117.45107
155854000 -25.716694 -123.19373 -0.10233906 -31.529295 -0.099548638 -31.515863 -25.739223 -117.69624
156853000 -25.707344 -123.88798 -0.10081539 -31.717373 -0.098848663 -31.711472 -25.739525 -117.98251
157852000 -25.717484 -124.05681 -0.10169084 -31.918831 -0.10048794 -31.91173 -25.725164 -118.3686
158851000 -25.71937 -124.31417 -0.1024085 -32.11874 -0.10039151 -32.110062 -25.716148 -118.63121
159850000 -25.704821 -124.41188 -0.10292773 -32.318237 -0.10119427 -32.307575 -25.721401 -118.80363
160849000 -25.691059 -124.47771 -0.10328268 -32.516323 -0.10212704 -32.510715 -25.688366 -119.08748
161848000 -25.673113 -124.57095 -0.10308015 -32.720978 -0.10177299 -32.711044 -25.652166 -119.21043
162847000 -25.63298 -124.75552 -0.1033622 -32.917034 -0.10270853 -32.91357 -25.623638 -119.43642
163846000 -25.5947 -124.97774 -0.10375774 -33.118462 -0.10192457 -33.106979 -25.54631 -119.48117
164845000 -25.538588 -124.96438 -0.10452612 -33.319454 -0.10312283 -33.312885 -25.485987 -119.55515
165844000 -25.48456 -125.01183 -0.10446116 -33.516987 -0.1037535 -33.514431 -25.404625 -119.6949
166843000 -25.41737 -125.05851 -0.10435483 -33.717434 -0.10275253 -33.709328 -25.336149 -119.89182
167842000 -25.367586 -125.15577 -0.10465579 -33.919605 -0.10390037 -33.905788 -25.261219 -119.8121
168841000 -25.286892 -125.34504 -0.10596912 -34.115829 -0.10439567 -34.10957 -25.182102 -119.89275
169840000 -25.222357 -125.57358 -0.10538773 -34.311977 -0.10465499 -34.308849 -25.10125 -120.0545
170839000 -25.156548 -125.82013 -0.10652062 -34.508759 -0.10509679 -34.507275 -25.017029 -120.25433
171838000 -25.103565 -126.22972 -0.10681112 -34.712063 -0.10635694 -34.70779 -24.954773 -120.48954
172837000 -25.032309 -126.52451 -0.10838812 -34.904964 -0.10684615 -34.90332 -24.886402 -120.70477
173836000 -24.96311 -126.95558 -0.10949976 -35.107605 -0.10778543 -35.107693 -24.839504 -120.93345
174835000 -24.906748 -127.38382 -0.10963515 -35.304943 -0.10871564 -35.306473 -24.79142 -121.23687
175834000 -24.855768 -127.73067 -0.11132684 -35.50695 -0.10972223 -35.50058 -24.73119 -121.53465
176833000 -24.807734 -128.09589 -0.11204503 -35.705448 -0.11027235 -35.704708 -24.679228 -121.64017
177832000 -24.761387 -128.5415 -0.11225276 -35.901409 -0.1116575 -35.904663 -24.659775 -121.79462
178831000 -24.719028 -128.81857 -0.1136582 -36.104881 -0.11223017 -36.098106 -24.623608 -121.92354
179830000 -24.659529 -129.13638 -0.11601263 -36.290516 -0.11446847 -36.293285 -24.572182 -121.91329
180829000 -24.592339 -129.44232 -0.11518532 -36.47876 -0.11374855 -36.481419 -24.512133 -122.18311
181828000 -24.568821 -129.91867 -0.11426702 -36.67886 -0.11322775 -36.672394 -24.493618 -122.42847
182827000 -24.544634 -130.29108 -0.11423353 -36.87476 -0.11308029 -36.876907 -24.477015 -122.55502
183826000 -24.504993 -130.62598 -0.11477146 -37.075249 -0.11330507 -37.073303 -24.465401 -122.6977
184825000 -24.505999 -130.98593 -0.11461837 -37.271706 -0.11394227 -37.273792 -24.451262 -122.83089
185824000 -24.476213 -131.3521 -0.11403475 -37.467098 -0.11407993 -37.469959 -24.443062 -122.91607
186823000 -24.459793 -131.73001 -0.11522759 -37.668274 -0.1140491 -37.668594 -24.437307 -122.92361
187822000 -24.436832 -132.05818 -0.11568642 -37.86113 -0.114953 -37.862907 -24.394108 -123.00729
188821000 -24.409739 -132.32208 -0.11554632 -38.060478 -0.11547002 -38.064987 -24.373524 -123.11943
189820000 -24.390272 -132.61714 -0.11588581 -38.261673 -0.1150269 -38.257908 -24.357239 -123.34483
190819000 -24.35264 -132.90532 -0.11689778 -38.458424 -0.11584646 -38.455219 -24.317858 -123.36381
191818000 -24.323757 -133.21716 -0.11654785 -38.656181 -0.11597726 -38.657486 -24.288168 -123.41228
192817000 -24.276426 -133.46606 -0.11742461 -38.853168 -0.11620857 -38.851696 -24.239641 -123.51336
193816000 -24.24214 -133.71912 -0.11706638 -39.051617 -0.11606606 -39.048813 -24.192757 -123.64708
194815000 -24.176491 -134.13611 -0.11740626 -39.242676 -0.11727861 -39.243488 -24.12269 -123.74299
195814000 -24.125441 -134.3266 -0.11823399 -39.442627 -0.11805496 -39.444263 -24.06554 -123.82136
196813000 -24.071133 -134.64864 -0.11730999 -39.639168 -0.11747594 -39.638138 -23.981161 -123.96732
197812000 -24.009178 -134.90587 -0.11807545 -39.836155 -0.11745253 -39.832081 -23.912762 -124.08633
198811000 -23.953793 -135.05563 -0.1184992 -40.029449 -0.11811083 -40.035378 -23.842525 -124.26323
199810000 -23.882803 -135.4044 -0.11921299 -40.227844 -0.11732488 -40.224091 -23.765104 -124.35706
200809000 -23.823532 -135.65617 -0.11948864 -40.423626 -0.11818903 -40.423237 -23.68372 -124.54092
201808000 -23.764597 -135.8645 -0.12000274 -40.62603 -0.11936305 -40.629787 -23.618204 -124.60896
202807000 -23.708881 -136.21402 -0.12112588 -40.828217 -0.11994313 -40.826347 -23.562239 -124.82561
203806000 -23.654385 -136.62892 -0.12245858 -41.027821 -0.12083255 -41.029343 -23.501097 -124.98045
