!Keysight Technologies,E5080B,MY59205177,A.15.75.32
!Date: Friday, February 23, 2024 03:01:44
!Correction: S11(Cdelta 2-Port  ) 
!S21(Cdelta 2-Port  ) 
!S12(Cdelta 2-Port  ) 
!S22(Cdelta 2-Port  ) 
!S2P File: Measurements: S11, S21, S12, S22:
# Hz S  dB   R 50
10000000 -44.110004 -4.0528684 -0.027582183 -2.0364437 -0.031473584 -2.0895195 -48.038155 -150.31099
10999000 -43.49107 -5.5258727 -0.028561808 -2.256453 -0.030184666 -2.3095706 -47.779419 -142.6261
11998000 -42.730366 -7.8290949 -0.028994372 -2.4800248 -0.030594191 -2.5236666 -47.9254 -136.96063
12997000 -42.072468 -12.633932 -0.028376808 -2.6606684 -0.030755822 -2.6892657 -47.225212 -130.56572
13996000 -41.837406 -16.134953 -0.027070314 -2.8373008 -0.030697424 -2.8605833 -46.801826 -124.86725
14995000 -41.528996 -19.930553 -0.029003752 -3.0478406 -0.031145323 -3.0703449 -46.42255 -121.58321
15994000 -41.409206 -23.714706 -0.030420054 -3.2643981 -0.032872174 -3.2828753 -46.129238 -118.31434
16993000 -41.385643 -27.437847 -0.0293686 -3.4601283 -0.032067336 -3.4659169 -45.236423 -119.01804
17992000 -41.485783 -32.05394 -0.030093955 -3.6600871 -0.032265011 -3.6627774 -44.595352 -119.92046
18991000 -41.754166 -36.687103 -0.029803069 -3.868871 -0.033612199 -3.8693559 -43.957428 -119.33759
19990000 -41.567097 -41.735611 -0.033199783 -4.0774283 -0.035169881 -4.0749774 -43.18655 -121.01863
20989000 -41.482468 -44.406292 -0.035405274 -4.2828021 -0.037957873 -4.2705693 -42.622623 -120.54391
21988000 -41.45314 -49.537842 -0.035567347 -4.4776969 -0.038282994 -4.4668274 -42.358109 -120.18153
22987000 -41.196781 -53.866631 -0.037156794 -4.6735892 -0.039022639 -4.6644826 -42.079334 -119.54317
23986000 -41.180748 -57.498787 -0.036707494 -4.8687143 -0.037437208 -4.8697834 -41.927818 -119.8497
24985000 -40.933922 -60.221165 -0.038373616 -5.0737343 -0.038275685 -5.0763602 -41.746189 -117.12724
25984000 -40.653061 -62.731632 -0.038704254 -5.2827559 -0.039158985 -5.2862768 -41.321976 -115.98801
26983000 -40.359756 -64.326057 -0.039489422 -5.4833803 -0.039314408 -5.5005012 -41.229797 -115.07179
27982000 -40.250885 -65.275955 -0.040934231 -5.6789145 -0.041290939 -5.7158051 -40.922802 -113.9403
28981000 -40.226528 -66.748634 -0.038804546 -5.8754425 -0.041063324 -5.9025936 -40.696075 -113.04296
29980000 -39.8088 -68.336227 -0.038650453 -6.06636 -0.04147492 -6.0765901 -40.380043 -112.14754
30979000 -39.458378 -67.466393 -0.036967512 -6.4248772 -0.035638597 -6.4130445 -39.853462 -112.94592
31978000 -39.25058 -68.640945 -0.036056466 -6.6213894 -0.036668073 -6.6108856 -39.571682 -112.50786
32977000 -39.091751 -70.120186 -0.035860185 -6.8311787 -0.037357572 -6.824203 -39.323673 -112.6142
33976000 -38.938347 -71.326454 -0.036609076 -7.0295725 -0.037549485 -7.024404 -39.023781 -112.10712
34975000 -38.683708 -72.215408 -0.036570702 -7.2302823 -0.03907305 -7.226954 -38.78648 -112.00524
35974000 -38.491791 -72.837791 -0.036297131 -7.422883 -0.038389023 -7.4260249 -38.49992 -111.34866
36973000 -38.273403 -73.810471 -0.036397107 -7.6240363 -0.039117455 -7.6257596 -38.19408 -110.452
37972000 -38.091213 -73.80307 -0.036047332 -7.8318348 -0.03958033 -7.8368473 -37.942142 -109.87555
38971000 -37.765297 -73.406929 -0.037328068 -8.0369663 -0.038618326 -8.0411034 -37.743729 -108.52084
39970000 -37.466377 -74.002251 -0.035761263 -8.2294168 -0.038769025 -8.2412281 -37.493771 -107.83485
40969000 -37.172676 -73.806114 -0.035471041 -8.420393 -0.037565932 -8.4372692 -37.204041 -106.66647
41968000 -36.837738 -73.997681 -0.035313934 -8.6267862 -0.037803024 -8.6393414 -37.017952 -105.556
42967000 -36.588951 -74.316269 -0.034737743 -8.8407326 -0.038666382 -8.855238 -36.771297 -103.76289
43966000 -36.305954 -75.116356 -0.036358736 -9.0360546 -0.039763715 -9.0542545 -36.483162 -103.27924
44965000 -36.083435 -76.101357 -0.037395954 -9.2374678 -0.039611939 -9.2559862 -36.249023 -103.14953
45964000 -35.870872 -77.140709 -0.038540762 -9.4364347 -0.041000605 -9.4587965 -36.033936 -102.93124
46963000 -35.696972 -79.206795 -0.038616762 -9.6306477 -0.041176476 -9.6523104 -35.840996 -103.33878
47962000 -35.539444 -80.751129 -0.039566223 -9.8331089 -0.042312082 -9.8472013 -35.622608 -103.51101
48961000 -35.341759 -82.14801 -0.042043641 -10.027832 -0.043856673 -10.050837 -35.410378 -103.91043
49960000 -35.117775 -83.543259 -0.043247715 -10.22895 -0.045152273 -10.251733 -35.258804 -103.96786
50959000 -34.928242 -84.971664 -0.043931723 -10.441362 -0.04627401 -10.449687 -35.080349 -104.38592
51958000 -34.730247 -86.077568 -0.045750774 -10.639968 -0.047170978 -10.65008 -34.914349 -104.93309
52957000 -34.533176 -87.165627 -0.047154229 -10.840243 -0.048878558 -10.848917 -34.740456 -104.71543
53956000 -34.376179 -88.00148 -0.048136972 -11.04184 -0.049474433 -11.046548 -34.618267 -104.82965
54955000 -34.218128 -88.484711 -0.048379093 -11.242826 -0.050257623 -11.240078 -34.442207 -104.73396
55954000 -34.056499 -89.343971 -0.050443031 -11.440864 -0.05089166 -11.434127 -34.345264 -104.53838
56953000 -33.951935 -89.35804 -0.049949933 -11.636814 -0.049600895 -11.629336 -34.274834 -104.83414
57952000 -33.796883 -90.039474 -0.050588902 -11.835703 -0.051581066 -11.825354 -34.18153 -104.90978
58951000 -33.671093 -90.373466 -0.052305426 -12.04351 -0.05124316 -12.018212 -34.02166 -104.99022
59950000 -33.544506 -90.882271 -0.052888405 -12.240285 -0.05255983 -12.222451 -33.96608 -105.30827
60949000 -33.438614 -91.378853 -0.05329169 -12.441258 -0.052854605 -12.41798 -33.864014 -105.55157
61948000 -33.382744 -91.693474 -0.053210977 -12.642922 -0.052846219 -12.625416 -33.765106 -105.67405
62947000 -33.294056 -91.886368 -0.053939015 -12.853408 -0.05333126 -12.829242 -33.644447 -105.94258
63946000 -33.228874 -92.683624 -0.054743461 -13.047602 -0.054208457 -13.029346 -33.543449 -106.1109
64945000 -33.117359 -92.783134 -0.054966286 -13.250369 -0.055374745 -13.234207 -33.427094 -106.55809
65944000 -33.014965 -93.12706 -0.056203056 -13.45135 -0.055850632 -13.430138 -33.330452 -107.16486
66943000 -32.885384 -93.526482 -0.053564761 -13.652318 -0.0543251 -13.632469 -33.233898 -107.33539
67942000 -32.834286 -93.518532 -0.055693045 -13.845675 -0.055878688 -13.832929 -33.115078 -107.69239
68941000 -32.711823 -93.646324 -0.05511808 -14.040415 -0.055516589 -14.031821 -33.008808 -107.66534
69940000 -32.620235 -93.626167 -0.055665776 -14.239632 -0.055579513 -14.228998 -32.862072 -107.9311
70939000 -32.51255 -93.611221 -0.055607308 -14.431719 -0.055996422 -14.424793 -32.732571 -107.88084
71938000 -32.382576 -93.203339 -0.055260699 -14.633103 -0.055836733 -14.620614 -32.601131 -107.76427
72937000 -32.214615 -93.118538 -0.054131661 -14.83005 -0.055040739 -14.821929 -32.459888 -107.46091
73936000 -32.073059 -92.779198 -0.054431781 -15.023346 -0.05377626 -15.015528 -32.345341 -107.30319
74935000 -31.963076 -93.028442 -0.053936135 -15.223691 -0.05399432 -15.221544 -32.19804 -107.01225
75934000 -31.826502 -93.322006 -0.054413959 -15.428627 -0.05325605 -15.426661 -32.105564 -106.96277
76933000 -31.71096 -93.772095 -0.055162124 -15.624625 -0.054534275 -15.61637 -31.938028 -107.37182
77932000 -31.61153 -94.534836 -0.056034707 -15.821562 -0.0567265 -15.815652 -31.843891 -107.38934
78931000 -31.535809 -95.314697 -0.054939024 -16.017467 -0.055486437 -16.01078 -31.739861 -107.2989
79930000 -31.431843 -96.10672 -0.05729565 -16.213114 -0.057524905 -16.210287 -31.647285 -107.6247
80929000 -31.309362 -97.012482 -0.058730654 -16.409506 -0.05868841 -16.403337 -31.545061 -107.97399
81928000 -31.227812 -97.980774 -0.058643542 -16.599112 -0.059475102 -16.596655 -31.43125 -107.99342
82927000 -31.133228 -98.643021 -0.060664594 -16.797348 -0.0610728 -16.792389 -31.315357 -108.30981
83926000 -31.025368 -99.283531 -0.062621713 -16.990065 -0.062226493 -16.992159 -31.2108 -108.55166
84925000 -30.920982 -99.841324 -0.062647454 -17.197058 -0.062417664 -17.187763 -31.108583 -108.6274
85924000 -30.824722 -100.26552 -0.064012773 -17.393532 -0.063500263 -17.392979 -31.025389 -108.65006
86923000 -30.729609 -100.82117 -0.063832037 -17.588678 -0.063656822 -17.584101 -30.938063 -108.53586
87922000 -30.606743 -101.17047 -0.064026691 -17.797424 -0.063127548 -17.789085 -30.840015 -108.62253
88921000 -30.555214 -101.50688 -0.065550119 -17.995499 -0.065039799 -17.985176 -30.74848 -108.64346
89920000 -30.453632 -102.08437 -0.065607406 -18.196535 -0.065713584 -18.181587 -30.69158 -108.81641
90919000 -30.349443 -102.42337 -0.066647172 -18.388401 -0.066025548 -18.381119 -30.613754 -108.94431
91918000 -30.259954 -102.72589 -0.067270197 -18.589348 -0.065855235 -18.584833 -30.539009 -109.01288
92917000 -30.171698 -103.12484 -0.067921713 -18.788254 -0.068026371 -18.786928 -30.463495 -109.14529
93916000 -30.090755 -103.47384 -0.067997709 -18.980404 -0.066654265 -18.977213 -30.394951 -109.72762
94915000 -30.013697 -104.11432 -0.069342613 -19.182917 -0.068038464 -19.175911 -30.328171 -109.63535
95914000 -29.953686 -104.33369 -0.070166491 -19.373533 -0.069933936 -19.373579 -30.233692 -109.89786
96913000 -29.874029 -104.5816 -0.07129918 -19.577545 -0.070516661 -19.57198 -30.173677 -110.20532
97912000 -29.797857 -105.06703 -0.072312139 -19.767193 -0.070623472 -19.767002 -30.094757 -110.47431
98911000 -29.689785 -105.21801 -0.072870702 -19.972361 -0.07204289 -19.968971 -30.055037 -110.74878
99910000 -29.632008 -105.37092 -0.073825575 -20.16938 -0.071943402 -20.169369 -29.95141 -111.04138
100909000 -29.534962 -105.61828 -0.072984681 -20.382578 -0.071124189 -20.37192 -29.857019 -111.18073
101908000 -29.451647 -105.91248 -0.074475177 -20.576912 -0.072536662 -20.573788 -29.745825 -110.95817
102907000 -29.322903 -105.98257 -0.074325867 -20.773258 -0.073465921 -20.777229 -29.668993 -110.96177
103906000 -29.224581 -105.96273 -0.075228125 -20.985216 -0.072622731 -20.977377 -29.529942 -110.91104
104905000 -29.078991 -105.89732 -0.075964078 -21.179554 -0.072670378 -21.179476 -29.39493 -110.54899
105904000 -28.942589 -106.04003 -0.075482033 -21.381523 -0.072860956 -21.375095 -29.284384 -110.46643
106903000 -28.83197 -106.14931 -0.076064706 -21.586811 -0.073679708 -21.580385 -29.159035 -110.31126
107902000 -28.666622 -106.44949 -0.076717809 -21.786283 -0.073644169 -21.784142 -29.021463 -110.31817
108901000 -28.56531 -106.72639 -0.077539921 -21.986542 -0.074353516 -21.979277 -28.885666 -110.29262
109900000 -28.426346 -107.21342 -0.077798709 -22.185467 -0.075838424 -22.178322 -28.7418 -110.35226
110899000 -28.322783 -107.86366 -0.079326972 -22.38423 -0.076982342 -22.376501 -28.614111 -110.62868
111898000 -28.225452 -108.57737 -0.080503196 -22.586275 -0.078248329 -22.579203 -28.50119 -110.75148
112897000 -28.112724 -109.12921 -0.082132921 -22.788206 -0.078680597 -22.773775 -28.371355 -110.99876
113896000 -27.999407 -109.7048 -0.083037592 -22.984879 -0.079506777 -22.972628 -28.261078 -111.1254
114895000 -27.901386 -110.3205 -0.083577737 -23.184694 -0.081653357 -23.171877 -28.147606 -111.22655
115894000 -27.782223 -110.67117 -0.085534655 -23.382969 -0.082591698 -23.370043 -28.081478 -111.40455
116893000 -27.696724 -111.25998 -0.085944414 -23.578609 -0.083304092 -23.564863 -27.950279 -111.54689
117892000 -27.614582 -111.75848 -0.086039998 -23.775656 -0.083946407 -23.760843 -27.880733 -111.753
118891000 -27.556849 -112.19776 -0.086569957 -23.977318 -0.084299274 -23.957607 -27.786386 -111.9357
119890000 -27.469284 -112.58191 -0.087187134 -24.176186 -0.084486403 -24.162062 -27.771725 -112.05404
120889000 -27.409592 -113.06855 -0.08816313 -24.377401 -0.085240036 -24.361551 -27.694323 -112.03104
121888000 -27.374805 -113.41967 -0.088677756 -24.574146 -0.085641317 -24.561808 -27.639978 -112.31075
122887000 -27.334583 -113.62216 -0.089377679 -24.77261 -0.086930163 -24.76082 -27.593266 -112.36072
123886000 -27.283731 -114.02792 -0.089812905 -24.97574 -0.086972684 -24.958479 -27.571903 -112.51096
124885000 -27.246994 -114.53314 -0.090387203 -25.173866 -0.087444916 -25.159002 -27.547407 -112.56335
125884000 -27.189857 -114.69886 -0.090653896 -25.37587 -0.087664142 -25.360144 -27.521832 -112.76133
126883000 -27.16777 -115.14591 -0.091385588 -25.575218 -0.08847829 -25.561218 -27.479435 -112.79285
127882000 -27.118216 -115.37364 -0.091833182 -25.776535 -0.089133263 -25.757109 -27.436235 -112.9642
128881000 -27.092855 -115.7364 -0.091386385 -25.979689 -0.088654771 -25.958637 -27.398058 -113.06583
129880000 -27.033998 -116.02924 -0.092038624 -26.181126 -0.087933838 -26.158592 -27.359367 -113.06233
130879000 -26.973925 -116.18311 -0.09164653 -26.375885 -0.089461446 -26.360191 -27.2817 -113.13282
131878000 -26.907118 -116.42706 -0.09207458 -26.579269 -0.089759789 -26.561941 -27.219631 -113.0039
132877000 -26.840899 -116.45639 -0.09195745 -26.780495 -0.090100706 -26.762642 -27.131966 -113.00751
133876000 -26.756702 -116.65436 -0.092249356 -26.978127 -0.089506894 -26.961567 -27.043894 -112.94594
134875000 -26.660458 -116.77312 -0.092464596 -27.179649 -0.090698563 -27.162806 -26.941065 -112.81757
135874000 -26.581373 -116.79308 -0.09234111 -27.380909 -0.090141408 -27.362667 -26.837837 -112.77955
136873000 -26.467388 -116.73319 -0.093593597 -27.584755 -0.089950331 -27.564327 -26.752832 -112.79614
137872000 -26.391094 -116.85652 -0.093711562 -27.784039 -0.089806303 -27.768019 -26.648554 -112.74941
138871000 -26.319326 -117.03278 -0.093724526 -27.980381 -0.090310819 -27.969675 -26.551052 -112.89539
139870000 -26.22142 -117.29841 -0.094810992 -28.185335 -0.092419118 -28.167648 -26.471851 -113.06158
140869000 -26.132774 -117.72749 -0.096337579 -28.376184 -0.093335718 -28.360958 -26.361469 -113.23254
141868000 -26.033632 -118.25466 -0.096678481 -28.568064 -0.093982689 -28.555473 -26.29681 -113.54137
142867000 -25.960409 -118.50809 -0.094529755 -28.76849 -0.093173854 -28.752375 -26.211966 -113.73812
143866000 -25.891258 -119.00657 -0.096256062 -28.964817 -0.094077125 -28.948616 -26.144691 -114.22146
144865000 -25.834873 -119.5376 -0.097317219 -29.162285 -0.095469035 -29.148977 -26.086485 -114.5518
145864000 -25.778601 -119.86757 -0.098148011 -29.363619 -0.096278027 -29.351349 -26.05537 -114.80809
146863000 -25.73073 -120.23097 -0.098917782 -29.564795 -0.09716659 -29.550615 -26.002316 -115.11549
147862000 -25.693415 -120.60724 -0.099924758 -29.757355 -0.097067058 -29.747404 -25.966005 -115.46374
148861000 -25.656729 -121.11569 -0.1001009 -29.957264 -0.097408019 -29.93956 -25.942219 -115.66835
149860000 -25.641689 -121.29169 -0.10072161 -30.157509 -0.098061159 -30.147827 -25.910944 -115.85225
150859000 -25.622055 -121.66312 -0.1004474 -30.358278 -0.098582789 -30.340361 -25.899063 -116.10737
151858000 -25.606169 -121.96508 -0.10010912 -30.554585 -0.098855548 -30.539476 -25.893974 -116.41808
152857000 -25.590843 -122.30723 -0.10098601 -30.752415 -0.098880179 -30.734547 -25.878267 -116.55401
153856000 -25.575537 -122.51059 -0.10043495 -30.950661 -0.098497793 -30.936068 -25.890717 -116.81457
154855000 -25.572323 -122.72074 -0.10138955 -31.149847 -0.09849567 -31.136787 -25.87871 -117.0697
155854000 -25.587133 -122.95771 -0.10132092 -31.350971 -0.099618293 -31.332338 -25.870285 -117.32719
156853000 -25.574568 -123.66615 -0.099272661 -31.53652 -0.098021179 -31.525398 -25.863504 -117.61952
157852000 -25.570198 -123.90173 -0.10059629 -31.73674 -0.10028978 -31.729921 -25.855057 -117.97717
158851000 -25.572166 -124.10548 -0.1011577 -31.934864 -0.10008263 -31.926008 -25.838449 -118.20334
159850000 -25.556986 -124.23672 -0.1017441 -32.13224 -0.10064398 -32.122112 -25.839447 -118.40233
160849000 -25.541691 -124.35843 -0.10225743 -32.331825 -0.1007065 -32.325645 -25.807798 -118.66479
161848000 -25.516361 -124.44444 -0.10288877 -32.533588 -0.10071524 -32.526184 -25.770584 -118.79912
162847000 -25.475634 -124.64771 -0.10251848 -32.729362 -0.10173562 -32.724129 -25.735079 -119.03716
163846000 -25.438093 -124.87972 -0.10270376 -32.93259 -0.10075074 -32.923386 -25.663771 -119.04111
164845000 -25.375681 -124.89562 -0.10361166 -33.129139 -0.1020197 -33.119907 -25.597397 -119.15359
165844000 -25.318729 -124.9714 -0.10317558 -33.325901 -0.10263431 -33.320316 -25.515036 -119.2807
166843000 -25.256258 -125.02962 -0.10343324 -33.522205 -0.1022251 -33.522247 -25.445883 -119.48674
167842000 -25.201923 -125.15684 -0.10352444 -33.728394 -0.10273132 -33.71796 -25.362757 -119.38944
168841000 -25.119974 -125.40644 -0.1035764 -33.920712 -0.1027239 -33.920689 -25.289351 -119.42982
169840000 -25.056911 -125.60586 -0.10369544 -34.11927 -0.10283364 -34.109386 -25.195864 -119.65882
170839000 -25.001019 -125.90954 -0.10429252 -34.316109 -0.10347513 -34.311069 -25.116919 -119.83928
171838000 -24.944502 -126.33575 -0.10511297 -34.517227 -0.10455263 -34.510906 -25.051954 -120.08836
172837000 -24.869881 -126.67603 -0.10632909 -34.71003 -0.10556383 -34.705513 -24.981937 -120.32482
173836000 -24.80652 -127.10238 -0.10709952 -34.912033 -0.10626065 -34.904984 -24.941847 -120.52926
174835000 -24.750208 -127.52599 -0.10758191 -35.105949 -0.10706238 -35.104763 -24.89609 -120.8532
175834000 -24.698071 -127.92106 -0.10836051 -35.302845 -0.10810149 -35.299202 -24.834162 -121.16099
176833000 -24.64847 -128.28706 -0.10941428 -35.499989 -0.10828117 -35.49815 -24.779943 -121.31811
177832000 -24.602715 -128.78329 -0.10996914 -35.69873 -0.10849746 -35.698761 -24.757092 -121.52296
178831000 -24.560291 -129.16154 -0.10940976 -35.896439 -0.10913343 -35.89278 -24.722849 -121.71785
179830000 -24.53149 -129.57312 -0.11098558 -36.090183 -0.10944401 -36.091965 -24.692142 -121.80626
180829000 -24.489931 -129.8087 -0.1110934 -36.286613 -0.11031961 -36.287376 -24.664833 -122.02737
181828000 -24.464577 -130.14941 -0.11088069 -36.487316 -0.11019402 -36.48167 -24.648123 -122.13305
182827000 -24.43709 -130.49968 -0.11062443 -36.681278 -0.11087193 -36.677902 -24.633854 -122.20004
183826000 -24.399643 -130.82512 -0.11222274 -36.87891 -0.1110132 -36.87455 -24.626087 -122.32468
184825000 -24.403919 -131.12151 -0.11174727 -37.072971 -0.11085015 -37.074085 -24.609192 -122.42987
185824000 -24.375227 -131.49623 -0.11163519 -37.266132 -0.1108868 -37.275188 -24.60631 -122.4678
186823000 -24.362522 -131.85172 -0.11139191 -37.471226 -0.11172257 -37.463322 -24.601229 -122.43806
187822000 -24.33997 -132.15445 -0.11242011 -37.665752 -0.11226418 -37.661983 -24.569155 -122.54422
188821000 -24.317974 -132.39856 -0.11187052 -37.85836 -0.11223602 -37.862629 -24.549074 -122.6153
189820000 -24.305094 -132.65269 -0.11243525 -38.060165 -0.11260022 -38.059856 -24.544207 -122.78008
190819000 -24.276493 -132.90027 -0.11353996 -38.256847 -0.11339223 -38.25938 -24.509144 -122.73968
191818000 -24.240511 -133.09337 -0.11510717 -38.45285 -0.11450249 -38.453209 -24.47953 -122.63027
192817000 -24.170708 -133.38562 -0.11528766 -38.638996 -0.11516485 -38.63649 -24.406532 -122.69931
193816000 -24.133394 -133.73781 -0.11467099 -38.832355 -0.11361702 -38.833553 -24.351892 -122.98101
194815000 -24.078417 -134.16704 -0.11375732 -39.028488 -0.11413839 -39.029484 -24.285749 -123.0808
195814000 -24.024376 -134.3988 -0.11474223 -39.225021 -0.11373952 -39.228958 -24.237818 -123.19981
196813000 -23.971897 -134.75058 -0.11476376 -39.419495 -0.11307339 -39.422283 -24.157938 -123.37055
197812000 -23.915236 -134.98079 -0.11491021 -39.616745 -0.11446794 -39.620472 -24.08955 -123.48405
198811000 -23.865301 -135.1615 -0.11467844 -39.812778 -0.11428084 -39.820133 -24.020409 -123.63605
199810000 -23.791382 -135.52673 -0.11524407 -40.008057 -0.11375944 -40.01017 -23.941246 -123.74788
200809000 -23.738106 -135.82661 -0.11498995 -40.20755 -0.11401748 -40.208054 -23.865528 -123.97695
201808000 -23.680429 -136.04019 -0.1162107 -40.409554 -0.11552744 -40.406528 -23.798992 -124.01196
202807000 -23.621582 -136.41769 -0.11654971 -40.606422 -0.11617188 -40.608318 -23.743427 -124.24001
203806000 -23.57098 -136.85651 -0.11824675 -40.809151 -0.11591346 -40.812767 -23.676003 -124.43401
