!Keysight Technologies,E5080B,MY59205177,A.15.75.32
!Date: Friday, February 23, 2024 03:40:02
!Correction: S11(Cdelta 2-Port  ) 
!S21(Cdelta 2-Port  ) 
!S12(Cdelta 2-Port  ) 
!S22(Cdelta 2-Port  ) 
!S2P File: Measurements: S11, S21, S12, S22:
# Hz S  dB   R 50
10000000 -46.083897 -2.8346601 -0.014821163 -2.0414801 -0.0183949 -2.1008551 -45.941166 -157.60229
10999000 -45.271885 -4.5984192 -0.016512949 -2.2643037 -0.018029414 -2.3155868 -45.791908 -151.39928
11998000 -44.338097 -7.781445 -0.016616369 -2.4870334 -0.017280342 -2.5290689 -46.0014 -146.92459
12997000 -43.57336 -13.489723 -0.016010696 -2.6644986 -0.017361429 -2.6982608 -45.596424 -141.17111
13996000 -43.32663 -17.363855 -0.01518534 -2.8471978 -0.018019537 -2.8707457 -45.414845 -136.2014
14995000 -42.900261 -21.798075 -0.017169889 -3.0541232 -0.017127788 -3.0834568 -45.079159 -132.78137
15994000 -42.754974 -26.286985 -0.018573755 -3.2754238 -0.019571891 -3.2938223 -44.969704 -129.19063
16993000 -42.690422 -31.042879 -0.017526466 -3.4705627 -0.019266108 -3.4816837 -44.117008 -128.76714
17992000 -42.703674 -36.144753 -0.018337451 -3.6728745 -0.019859754 -3.6727614 -43.516479 -128.96616
18991000 -42.945686 -41.742775 -0.019655103 -3.8794332 -0.020799661 -3.8763714 -42.919178 -128.09293
19990000 -42.715546 -47.37236 -0.021415628 -4.091743 -0.022231501 -4.0887713 -42.228947 -128.98901
20989000 -42.55695 -50.595909 -0.023620088 -4.2948699 -0.024195066 -4.2851324 -41.689049 -128.24854
21988000 -42.298344 -56.358238 -0.023557624 -4.4879589 -0.0255848 -4.4760132 -41.445869 -127.61884
22987000 -42.021667 -60.629253 -0.025210377 -4.689117 -0.026033735 -4.6806149 -41.159042 -126.87679
23986000 -41.91608 -65.079254 -0.024841974 -4.8825178 -0.025252817 -4.8837376 -41.035721 -126.76402
24985000 -41.534771 -67.597954 -0.02524865 -5.0933104 -0.025668126 -5.0894933 -40.854061 -124.39784
25984000 -41.138115 -69.685684 -0.026860895 -5.2986093 -0.026123319 -5.3007088 -40.503986 -122.71744
26983000 -40.828274 -71.579239 -0.027675446 -5.5001984 -0.026810365 -5.5114012 -40.37962 -122.0495
27982000 -40.68285 -72.577507 -0.028970918 -5.6974802 -0.028952938 -5.7286172 -40.103893 -120.66988
28981000 -40.640156 -74.24498 -0.027306834 -5.8933749 -0.028227773 -5.9199648 -39.879444 -119.82828
29980000 -40.250214 -75.418076 -0.026326191 -6.0910392 -0.028929746 -6.0987082 -39.623951 -119.08163
30979000 -39.869019 -74.303001 -0.024872955 -6.4411077 -0.02344753 -6.4385815 -39.131325 -119.51404
31978000 -39.664463 -75.251472 -0.023498803 -6.6399789 -0.0243752 -6.6286411 -38.866856 -118.7216
32977000 -39.465275 -76.67717 -0.024073504 -6.8510838 -0.025308797 -6.8447247 -38.62244 -118.81911
33976000 -39.301537 -77.979301 -0.025217406 -7.0510678 -0.025521265 -7.0487924 -38.327953 -118.0265
34975000 -39.000378 -78.700928 -0.025058325 -7.2503328 -0.026647318 -7.2483811 -38.112862 -117.90032
35974000 -38.790565 -79.301964 -0.023609417 -7.4463058 -0.026246499 -7.4488645 -37.854164 -116.95518
36973000 -38.560093 -80.040932 -0.024026129 -7.6435061 -0.026211603 -7.6497617 -37.605679 -116.03302
37972000 -38.386318 -79.644989 -0.023831172 -7.8525295 -0.026707744 -7.8631001 -37.355408 -115.34273
38971000 -38.07803 -79.12294 -0.025034113 -8.0612202 -0.026655652 -8.0678978 -37.196918 -113.75504
39970000 -37.743347 -79.358826 -0.02284611 -8.2505531 -0.025598861 -8.272543 -36.951904 -113.08361
40969000 -37.470856 -79.035561 -0.023431135 -8.4455194 -0.025249172 -8.466382 -36.731144 -111.74488
41968000 -37.131504 -78.968933 -0.023902752 -8.650672 -0.02549731 -8.6647034 -36.527843 -110.40353
42967000 -36.854668 -79.042702 -0.024142744 -8.8635015 -0.025614485 -8.8832951 -36.339394 -108.55008
43966000 -36.561893 -79.814751 -0.024065435 -9.0635262 -0.026948933 -9.0827866 -36.056293 -107.9568
44965000 -36.337696 -80.400757 -0.024727423 -9.2661238 -0.026840057 -9.2837315 -35.843266 -107.67532
45964000 -36.099762 -81.560059 -0.027009362 -9.4643555 -0.028349189 -9.4821625 -35.639458 -107.33076
46963000 -35.90506 -83.386086 -0.026430106 -9.6613455 -0.02949865 -9.6821165 -35.445724 -107.55438
47962000 -35.736195 -84.922493 -0.02814935 -9.8625946 -0.030558215 -9.8770628 -35.249924 -107.64475
48961000 -35.534172 -86.32003 -0.029877353 -10.057935 -0.031877495 -10.079467 -35.021606 -107.79668
49960000 -35.277843 -87.588943 -0.031282727 -10.25756 -0.032671861 -10.281159 -34.870274 -107.78398
50959000 -35.062115 -88.754509 -0.031961463 -10.473146 -0.034304608 -10.481792 -34.70771 -108.17847
51958000 -34.857803 -89.839157 -0.033707418 -10.671371 -0.03553655 -10.679755 -34.522289 -108.59216
52957000 -34.638546 -90.88884 -0.03554203 -10.871572 -0.03691791 -10.877536 -34.372253 -108.3502
53956000 -34.470627 -91.55619 -0.036624737 -11.075513 -0.037547655 -11.076358 -34.237137 -108.35925
54955000 -34.307674 -91.973419 -0.037650794 -11.276709 -0.038519606 -11.271382 -34.083504 -108.3075
55954000 -34.135361 -92.868561 -0.038944282 -11.476563 -0.038905364 -11.471783 -33.975712 -108.04555
56953000 -34.016037 -92.866096 -0.037756026 -11.670473 -0.037533034 -11.663691 -33.924229 -108.20596
57952000 -33.848835 -93.420425 -0.038849995 -11.870871 -0.039064433 -11.862481 -33.787525 -108.36434
58951000 -33.723591 -93.792435 -0.040163696 -12.074127 -0.03965478 -12.058249 -33.655628 -108.41061
59950000 -33.603939 -94.079201 -0.040544111 -12.27809 -0.040737208 -12.251798 -33.589447 -108.64162
60949000 -33.49361 -94.669327 -0.041070115 -12.478073 -0.041281007 -12.449736 -33.483307 -108.93969
61948000 -33.414028 -94.962799 -0.041986398 -12.675316 -0.040915158 -12.65848 -33.402771 -109.06013
62947000 -33.334114 -95.139847 -0.040988848 -12.888058 -0.041811544 -12.87003 -33.250015 -109.27158
63946000 -33.268822 -95.965965 -0.042132508 -13.086049 -0.043422628 -13.067538 -33.142036 -109.401
64945000 -33.14777 -96.156464 -0.043071762 -13.289368 -0.043159604 -13.269147 -33.037266 -109.88952
65944000 -33.045506 -96.360329 -0.044410277 -13.488685 -0.04348224 -13.467293 -32.939816 -110.28569
66943000 -32.906921 -96.78331 -0.041814156 -13.689827 -0.041902237 -13.672309 -32.836567 -110.60715
67942000 -32.850658 -96.729317 -0.044263043 -13.886744 -0.043806206 -13.875388 -32.711681 -110.83665
68941000 -32.727932 -96.801125 -0.043344975 -14.07953 -0.042151853 -14.069812 -32.600632 -110.74874
69940000 -32.642109 -96.881348 -0.043888837 -14.277788 -0.043075945 -14.268881 -32.466339 -111.12773
70939000 -32.533371 -96.791656 -0.043173984 -14.475044 -0.043384191 -14.465868 -32.33292 -110.94974
71938000 -32.404682 -96.377182 -0.04325242 -14.675912 -0.042449579 -14.659859 -32.205986 -110.95008
72937000 -32.244392 -96.132103 -0.043455049 -14.871577 -0.042957515 -14.865105 -32.071323 -110.52685
73936000 -32.117924 -95.833488 -0.042919867 -15.06799 -0.042289864 -15.06827 -31.959234 -110.33311
74935000 -31.991076 -96.009598 -0.042015672 -15.262017 -0.0413973 -15.260361 -31.799412 -109.96533
75934000 -31.851055 -96.21804 -0.042810328 -15.473828 -0.04208938 -15.469679 -31.710119 -109.88094
76933000 -31.722839 -96.582832 -0.04340145 -15.668188 -0.043016076 -15.660779 -31.538397 -110.26324
77932000 -31.621746 -97.374596 -0.044442445 -15.867344 -0.044470165 -15.85582 -31.443197 -110.14215
78931000 -31.555792 -98.051285 -0.042946793 -16.065903 -0.04352146 -16.062971 -31.353922 -110.02724
79930000 -31.44043 -98.855606 -0.045819316 -16.258341 -0.045938086 -16.256134 -31.249407 -110.39484
80929000 -31.321695 -99.718575 -0.047334537 -16.454603 -0.047361489 -16.450996 -31.156425 -110.60522
81928000 -31.212208 -100.47882 -0.047124922 -16.645466 -0.047813989 -16.642664 -31.019503 -110.61344
82927000 -31.128242 -101.19639 -0.048428826 -16.842255 -0.049117316 -16.842016 -30.917166 -110.89915
83926000 -31.010649 -101.85914 -0.049516585 -17.043613 -0.049790729 -17.042288 -30.806377 -111.09651
84925000 -30.906904 -102.27234 -0.051202036 -17.237911 -0.050278049 -17.237144 -30.706429 -111.12341
85924000 -30.814554 -102.72102 -0.052105263 -17.43807 -0.051997852 -17.438309 -30.629032 -111.18646
86923000 -30.699903 -103.15942 -0.052653369 -17.639215 -0.05247651 -17.63386 -30.520285 -111.03857
87922000 -30.589115 -103.50415 -0.05132724 -17.851496 -0.051087577 -17.839602 -30.435987 -111.03676
88921000 -30.523497 -103.81924 -0.053183462 -18.04192 -0.053103801 -18.039034 -30.341763 -111.02586
89920000 -30.42433 -104.32436 -0.05368977 -18.242218 -0.053245571 -18.234333 -30.286003 -111.18786
90919000 -30.322763 -104.57691 -0.055186503 -18.439728 -0.054000609 -18.439363 -30.196529 -111.33398
91918000 -30.218988 -104.91768 -0.055685967 -18.640455 -0.054061156 -18.636221 -30.132292 -111.37559
92917000 -30.128313 -105.20725 -0.056682181 -18.841436 -0.054976512 -18.837267 -30.065804 -111.4589
93916000 -30.040941 -105.6326 -0.055941358 -19.034336 -0.055064861 -19.029606 -29.975508 -112.06516
94915000 -29.959103 -106.19224 -0.05739034 -19.235449 -0.056287497 -19.228617 -29.916435 -111.92293
95914000 -29.899048 -106.34966 -0.058557745 -19.428837 -0.057052244 -19.426233 -29.824471 -112.16566
96913000 -29.817446 -106.58009 -0.059216093 -19.630856 -0.057953279 -19.625462 -29.745756 -112.54254
97912000 -29.727375 -107.03345 -0.06038215 -19.827034 -0.058759779 -19.82794 -29.679382 -112.80025
98911000 -29.628025 -107.25058 -0.061133709 -20.02627 -0.05942104 -20.021437 -29.644281 -112.94942
99910000 -29.559164 -107.33736 -0.062006705 -20.227804 -0.060031224 -20.224577 -29.528173 -113.2122
100909000 -29.468376 -107.60825 -0.061458994 -20.436047 -0.059006952 -20.42741 -29.446125 -113.45935
101908000 -29.37602 -107.83157 -0.062227543 -20.636036 -0.060657769 -20.63763 -29.33057 -113.27309
102907000 -29.248449 -107.86125 -0.063325591 -20.834951 -0.060884837 -20.836378 -29.26943 -113.20675
103906000 -29.148664 -107.85821 -0.063638963 -21.040882 -0.059551205 -21.037674 -29.117458 -113.15884
104905000 -29.009092 -107.75177 -0.063841753 -21.240425 -0.060109966 -21.237825 -29.001554 -112.87241
105904000 -28.866814 -107.82366 -0.063913472 -21.439789 -0.060516544 -21.435703 -28.877592 -112.77036
106903000 -28.761953 -107.92145 -0.064524025 -21.647213 -0.060772743 -21.641027 -28.762829 -112.61817
107902000 -28.596142 -108.21748 -0.064864278 -21.850927 -0.062291354 -21.843761 -28.625322 -112.57681
108901000 -28.482786 -108.43493 -0.065827377 -22.049963 -0.062804505 -22.042622 -28.497187 -112.52485
109900000 -28.35651 -108.91385 -0.066163264 -22.252895 -0.064054802 -22.241257 -28.345503 -112.6302
110899000 -28.240303 -109.53465 -0.067657992 -22.44717 -0.064416036 -22.439579 -28.222418 -112.8651
111898000 -28.151705 -110.16074 -0.069509111 -22.647974 -0.06603317 -22.646158 -28.108408 -112.97871
112897000 -28.020617 -110.69218 -0.070519812 -22.84701 -0.067406386 -22.833967 -27.971571 -113.17905
113896000 -27.919397 -111.26363 -0.071762867 -23.049715 -0.068539672 -23.0371 -27.869989 -113.30319
114895000 -27.812223 -111.90501 -0.072582722 -23.245024 -0.070012853 -23.233404 -27.755453 -113.4426
115894000 -27.689604 -112.25667 -0.073505156 -23.449728 -0.071080245 -23.434212 -27.691492 -113.61443
116893000 -27.611797 -112.7614 -0.074479915 -23.644648 -0.071876295 -23.626593 -27.561316 -113.6386
117892000 -27.531631 -113.28564 -0.074227385 -23.837879 -0.072236076 -23.827492 -27.491659 -113.82647
118891000 -27.473619 -113.63995 -0.074692175 -24.043608 -0.072983369 -24.023794 -27.392973 -113.98727
119890000 -27.387632 -114.02785 -0.075577646 -24.24251 -0.073303223 -24.231468 -27.376974 -114.10411
120889000 -27.332886 -114.47099 -0.077099331 -24.442425 -0.072690122 -24.430529 -27.305523 -114.04036
121888000 -27.294567 -114.87925 -0.076737568 -24.63797 -0.074130744 -24.628691 -27.242777 -114.32922
122887000 -27.256203 -115.02312 -0.077763923 -24.843281 -0.073913254 -24.829409 -27.194656 -114.33423
123886000 -27.199072 -115.43975 -0.079115018 -25.04483 -0.074327976 -25.025618 -27.184528 -114.50909
124885000 -27.166533 -115.95947 -0.078533515 -25.245052 -0.075508639 -25.231981 -27.157608 -114.51528
125884000 -27.115953 -116.14246 -0.079630159 -25.44162 -0.075241819 -25.428717 -27.129557 -114.69452
126883000 -27.09812 -116.51102 -0.079510465 -25.646147 -0.076509669 -25.632584 -27.080929 -114.66419
127882000 -27.049683 -116.80775 -0.080257691 -25.845945 -0.076982342 -25.829212 -27.048187 -114.84243
128881000 -27.01293 -117.16174 -0.080360003 -26.04863 -0.076352917 -26.031399 -27.004269 -114.90936
129880000 -26.957699 -117.49073 -0.080644801 -26.252092 -0.076661952 -26.232357 -26.969864 -114.87981
130879000 -26.89727 -117.63467 -0.080905095 -26.451128 -0.078079127 -26.432417 -26.894543 -114.89085
131878000 -26.837845 -117.82777 -0.081162766 -26.652237 -0.077774465 -26.633509 -26.833759 -114.81232
132877000 -26.768011 -117.91405 -0.080682777 -26.855856 -0.078245692 -26.838514 -26.751633 -114.70746
133876000 -26.686573 -118.07441 -0.08091116 -27.052656 -0.077940233 -27.035109 -26.666533 -114.61746
134875000 -26.59432 -118.21951 -0.081417285 -27.255486 -0.079159833 -27.23789 -26.572157 -114.43047
135874000 -26.509497 -118.23384 -0.080908522 -27.455427 -0.078478694 -27.437544 -26.473995 -114.41103
136873000 -26.399811 -118.14533 -0.082198873 -27.65699 -0.078418329 -27.638302 -26.391582 -114.36642
137872000 -26.327436 -118.31041 -0.081063338 -27.860374 -0.078297883 -27.844379 -26.289942 -114.30112
138871000 -26.252508 -118.47373 -0.08207383 -28.057293 -0.078153446 -28.041277 -26.196114 -114.4424
139870000 -26.146696 -118.76512 -0.082500674 -28.260948 -0.079804175 -28.243582 -26.118603 -114.6115
140869000 -26.073402 -119.33279 -0.08319696 -28.456266 -0.080633201 -28.436335 -26.01996 -114.77994
141868000 -25.98988 -119.70133 -0.084308244 -28.653734 -0.082179874 -28.638615 -25.969398 -115.08346
142867000 -25.916401 -119.90002 -0.083317548 -28.851068 -0.080822021 -28.836592 -25.889183 -115.18409
143866000 -25.838713 -120.37668 -0.085330054 -29.047056 -0.081968307 -29.031385 -25.816628 -115.6355
144865000 -25.785511 -120.8942 -0.086840108 -29.246109 -0.083896793 -29.233793 -25.764578 -115.92291
145864000 -25.730976 -121.25177 -0.08687418 -29.448559 -0.08549162 -29.435183 -25.733706 -116.17471
146863000 -25.687416 -121.58857 -0.087874927 -29.651358 -0.085622311 -29.636419 -25.684584 -116.49567
147862000 -25.653055 -121.93785 -0.088488333 -29.847466 -0.085646071 -29.832607 -25.648439 -116.78427
148861000 -25.614342 -122.36769 -0.089672059 -30.045254 -0.086965822 -30.03228 -25.631193 -116.95688
149860000 -25.585163 -122.52687 -0.090580411 -30.235748 -0.087602071 -30.225285 -25.580643 -117.03469
150859000 -25.565269 -122.99896 -0.090550013 -30.436625 -0.086857542 -30.420687 -25.565519 -117.42757
151858000 -25.550936 -123.34708 -0.089615501 -30.634594 -0.087501436 -30.621033 -25.550173 -117.75723
152857000 -25.539309 -123.67832 -0.090430021 -30.833017 -0.087688178 -30.823603 -25.534679 -117.91229
153856000 -25.532572 -123.89573 -0.089986011 -31.032866 -0.086220607 -31.022186 -25.549805 -118.25117
154855000 -25.529921 -124.0611 -0.090371609 -31.234356 -0.087446496 -31.219173 -25.537577 -118.51707
155854000 -25.551006 -124.29454 -0.0898581 -31.431496 -0.087551884 -31.423309 -25.534964 -118.74727
156853000 -25.534605 -124.99454 -0.088245817 -31.623865 -0.086981133 -31.611465 -25.53397 -119.06828
157852000 -25.548279 -125.21334 -0.088983975 -31.820755 -0.088127203 -31.813547 -25.520153 -119.41063
158851000 -25.542274 -125.39823 -0.089937642 -32.018764 -0.088565737 -32.012711 -25.503855 -119.6909
159850000 -25.528646 -125.53328 -0.090356015 -32.217297 -0.088418059 -32.212833 -25.507744 -119.83832
160849000 -25.516388 -125.64699 -0.090621911 -32.419064 -0.089218609 -32.414349 -25.476278 -120.14713
161848000 -25.496378 -125.72019 -0.09112256 -32.622681 -0.088994808 -32.613834 -25.43714 -120.26968
162847000 -25.458481 -125.9011 -0.091198951 -32.819416 -0.09005525 -32.814114 -25.408733 -120.51061
163846000 -25.419025 -126.10453 -0.09062244 -33.019112 -0.089888491 -33.014408 -25.329348 -120.49165
164845000 -25.361715 -126.07039 -0.091466755 -33.216839 -0.090165719 -33.212246 -25.26947 -120.6161
165844000 -25.304934 -126.10656 -0.091620617 -33.418087 -0.090875663 -33.411434 -25.191427 -120.72924
166843000 -25.247326 -126.1627 -0.090892315 -33.618977 -0.089735478 -33.61264 -25.125338 -120.90257
167842000 -25.192719 -126.24558 -0.092266276 -33.821724 -0.09093567 -33.807335 -25.050438 -120.82764
168841000 -25.112274 -126.4323 -0.092662662 -34.016544 -0.090725526 -34.010506 -24.977577 -120.86526
169840000 -25.049086 -126.64632 -0.092784569 -34.215553 -0.091545798 -34.209583 -24.893967 -121.05957
170839000 -24.992256 -126.8708 -0.093681678 -34.412315 -0.091817848 -34.408123 -24.81032 -121.24186
171838000 -24.933231 -127.27376 -0.093173325 -34.616108 -0.092808895 -34.607788 -24.748774 -121.42722
172837000 -24.861008 -127.56747 -0.094784267 -34.808594 -0.093845673 -34.803516 -24.679419 -121.69224
173836000 -24.788889 -127.98268 -0.096356899 -35.009777 -0.094769984 -35.007114 -24.641972 -121.87908
174835000 -24.737934 -128.41277 -0.095676228 -35.20454 -0.095793463 -35.204308 -24.594734 -122.20315
175834000 -24.687576 -128.80693 -0.097109415 -35.407024 -0.09671554 -35.400101 -24.534595 -122.47688
176833000 -24.637581 -129.09669 -0.098102733 -35.603237 -0.097490616 -35.602646 -24.487448 -122.59552
177832000 -24.592134 -129.51556 -0.098787487 -35.800331 -0.098128676 -35.802967 -24.466656 -122.73279
178831000 -24.548233 -129.74786 -0.10066491 -36.0014 -0.099840522 -35.994297 -24.429943 -122.80182
179830000 -24.472969 -130.16089 -0.10212439 -36.184582 -0.10097171 -36.182602 -24.363955 -122.882
180829000 -24.426826 -130.52452 -0.10090282 -36.375759 -0.099668883 -36.378124 -24.321278 -123.20786
181828000 -24.404924 -130.94411 -0.10011389 -36.576591 -0.098882824 -36.573803 -24.304348 -123.38439
182827000 -24.379768 -131.33327 -0.10013455 -36.773735 -0.098940559 -36.772434 -24.289104 -123.53438
183826000 -24.340158 -131.63721 -0.10181856 -36.971069 -0.098825097 -36.969364 -24.281961 -123.70627
184825000 -24.341499 -131.9817 -0.10139299 -37.168793 -0.099605583 -37.168213 -24.262398 -123.80531
185824000 -24.315056 -132.33168 -0.10059391 -37.359768 -0.10026965 -37.363907 -24.25885 -123.85014
186823000 -24.297638 -132.72548 -0.10045721 -37.568871 -0.10003336 -37.563969 -24.24868 -123.89075
187822000 -24.269749 -133.05272 -0.10172316 -37.761482 -0.10075657 -37.758118 -24.21207 -123.96817
188821000 -24.252697 -133.30766 -0.10113094 -37.95335 -0.10093011 -37.959827 -24.190762 -124.11957
189820000 -24.232277 -133.58528 -0.10191026 -38.156982 -0.10053457 -38.15461 -24.171518 -124.32047
190819000 -24.194654 -133.90294 -0.10225743 -38.351688 -0.10126793 -38.351063 -24.130415 -124.34313
191818000 -24.16704 -134.18727 -0.1025283 -38.55085 -0.10155145 -38.551281 -24.108139 -124.37852
192817000 -24.12023 -134.4689 -0.10294522 -38.745026 -0.10162512 -38.74984 -24.060295 -124.45674
193816000 -24.087736 -134.70723 -0.10280501 -38.944153 -0.10129549 -38.942978 -24.011209 -124.59229
194815000 -24.027803 -135.10947 -0.10293118 -39.136936 -0.10252379 -39.142498 -23.947651 -124.64481
195814000 -23.971668 -135.31236 -0.10393909 -39.335045 -0.10264226 -39.339363 -23.885918 -124.74326
196813000 -23.918835 -135.61932 -0.10411514 -39.532368 -0.10299718 -39.534477 -23.810905 -124.91005
197812000 -23.862062 -135.84529 -0.10425539 -39.732212 -0.1031952 -39.729225 -23.739368 -124.98043
198811000 -23.808594 -135.98703 -0.10422623 -39.922695 -0.10300911 -39.928364 -23.672119 -125.15228
199810000 -23.742809 -136.33176 -0.10474144 -40.116882 -0.10276366 -40.11832 -23.591969 -125.2121
200809000 -23.681347 -136.59358 -0.10491116 -40.317905 -0.10333357 -40.316746 -23.521122 -125.41804
201808000 -23.625011 -136.79576 -0.10529464 -40.519371 -0.10440468 -40.51952 -23.450607 -125.44981
202807000 -23.565998 -137.10922 -0.10570574 -40.721474 -0.10496287 -40.718723 -23.394938 -125.65349
