!Keysight Technologies,E5080B,MY59205177,A.15.75.32
!Date: Friday, February 23, 2024 03:40:08
!Correction: S11(Cdelta 2-Port  ) 
!S21(Cdelta 2-Port  ) 
!S12(Cdelta 2-Port  ) 
!S22(Cdelta 2-Port  ) 
!S2P File: Measurements: S11, S21, S12, S22:
# Hz S  dB   R 50
10000000 -46.069798 -2.7845562 -0.014902724 -2.0406623 -0.01796495 -2.0964172 -45.863335 -157.07307
10999000 -45.279598 -4.8380318 -0.015772711 -2.26126 -0.017733617 -2.3155644 -45.830414 -150.87177
11998000 -44.37376 -7.582726 -0.015705943 -2.4862993 -0.017372604 -2.5301182 -46.024143 -147.04782
12997000 -43.63842 -13.445289 -0.015384845 -2.6669636 -0.01657947 -2.6974266 -45.629597 -141.16522
13996000 -43.305801 -17.187971 -0.014422993 -2.8422332 -0.017185222 -2.8658974 -45.355038 -136.05905
14995000 -42.929134 -21.636299 -0.016947953 -3.0559931 -0.017073993 -3.0806227 -45.083027 -132.84424
15994000 -42.714413 -26.226631 -0.018216053 -3.276149 -0.019534968 -3.2974114 -44.9533 -129.32341
16993000 -42.683247 -30.79121 -0.017232522 -3.4683931 -0.018462751 -3.481425 -44.136501 -128.83054
17992000 -42.743332 -36.360214 -0.017094264 -3.6707623 -0.019831149 -3.6701953 -43.552311 -129.28177
18991000 -42.985352 -41.691368 -0.018518122 -3.880739 -0.019962212 -3.8775992 -42.915943 -128.06546
19990000 -42.712753 -47.127781 -0.020827753 -4.0916939 -0.022250755 -4.0888624 -42.267967 -128.61972
20989000 -42.51844 -50.700005 -0.022868749 -4.2942157 -0.023788746 -4.2857471 -41.72192 -128.29103
21988000 -42.380779 -56.179825 -0.024126085 -4.4916768 -0.024486357 -4.480752 -41.423141 -127.36042
22987000 -42.030254 -60.799599 -0.024721175 -4.6882458 -0.026280355 -4.6838341 -41.196686 -126.82955
23986000 -41.954128 -64.995079 -0.024579555 -4.8821192 -0.025189027 -4.8816118 -41.061481 -126.86559
24985000 -41.553074 -67.654312 -0.025339 -5.0938168 -0.025091911 -5.0883217 -40.867462 -124.23974
25984000 -41.150829 -69.742104 -0.026612937 -5.3021183 -0.025960557 -5.3013716 -40.47728 -122.82996
26983000 -40.859211 -71.587784 -0.02722973 -5.5008507 -0.026673624 -5.5152497 -40.389351 -122.15866
27982000 -40.68898 -72.415916 -0.02861757 -5.6987972 -0.028199894 -5.7325435 -40.137051 -120.53558
28981000 -40.640682 -74.250397 -0.026501726 -5.8968806 -0.027820036 -5.9197073 -39.853153 -119.82548
29980000 -40.209465 -75.605125 -0.026390258 -6.092227 -0.028835151 -6.0959759 -39.614014 -119.16464
30979000 -39.868122 -74.35778 -0.024524365 -6.4450188 -0.022966856 -6.4360256 -39.116627 -119.49114
31978000 -39.656384 -75.401077 -0.02287057 -6.6383858 -0.024641512 -6.6300416 -38.871765 -118.70232
32977000 -39.454239 -76.847862 -0.023636745 -6.8462081 -0.025430912 -6.8466301 -38.631382 -118.80537
33976000 -39.281406 -77.997353 -0.023961578 -7.0507684 -0.025576988 -7.0466242 -38.336037 -118.14863
34975000 -38.988724 -78.712196 -0.024345003 -7.2485094 -0.025663959 -7.2485681 -38.111568 -117.92282
35974000 -38.781693 -79.236694 -0.02348553 -7.4443421 -0.025777493 -7.4478869 -37.85857 -116.91822
36973000 -38.547161 -79.898178 -0.023650018 -7.6462593 -0.026632473 -7.6521759 -37.587879 -115.96507
37972000 -38.393177 -79.574837 -0.023851996 -7.8549457 -0.026909862 -7.8650465 -37.359367 -115.20564
38971000 -38.068233 -79.133743 -0.024057105 -8.0578594 -0.026636118 -8.0679102 -37.205402 -113.84742
39970000 -37.737446 -79.447342 -0.022383975 -8.2523241 -0.025775149 -8.265892 -36.967316 -113.15031
40969000 -37.474049 -79.041542 -0.022729009 -8.4452877 -0.025377015 -8.4678736 -36.7038 -111.6792
41968000 -37.112598 -79.067673 -0.022827113 -8.6505318 -0.026413698 -8.6707249 -36.526333 -110.46609
42967000 -36.854557 -78.970772 -0.023570897 -8.8631811 -0.026000662 -8.8838062 -36.34103 -108.55774
43966000 -36.579361 -79.76503 -0.023652881 -9.0633888 -0.027434999 -9.0809631 -36.073784 -107.90057
44965000 -36.314762 -80.445366 -0.024369994 -9.2641487 -0.027534772 -9.2828703 -35.859703 -107.59237
45964000 -36.091404 -81.522224 -0.025746245 -9.4615107 -0.028552949 -9.4827709 -35.620285 -107.38386
46963000 -35.903042 -83.3507 -0.025783742 -9.6582355 -0.028647536 -9.6826744 -35.442638 -107.62064
47962000 -35.740139 -84.822571 -0.027716869 -9.8628759 -0.030370785 -9.8808451 -35.246292 -107.66991
48961000 -35.514538 -86.152596 -0.029514026 -10.05671 -0.031662367 -10.07912 -35.019653 -107.85234
49960000 -35.284031 -87.454269 -0.030595234 -10.255822 -0.032939728 -10.281672 -34.881489 -107.85204
50959000 -35.075657 -88.662697 -0.030976638 -10.471827 -0.033881951 -10.48295 -34.695415 -108.20683
51958000 -34.851677 -89.77253 -0.033337772 -10.670293 -0.035151351 -10.683325 -34.529732 -108.63782
52957000 -34.645805 -90.781082 -0.035042271 -10.87009 -0.036193501 -10.877519 -34.368061 -108.29881
53956000 -34.473896 -91.499763 -0.035810854 -11.073002 -0.037725475 -11.076151 -34.246811 -108.33414
54955000 -34.319073 -91.953896 -0.036924958 -11.273271 -0.038400255 -11.270522 -34.098553 -108.30161
55954000 -34.145473 -92.860931 -0.038117427 -11.473218 -0.039052676 -11.471408 -33.980225 -108.02606
56953000 -34.022854 -92.891174 -0.037648182 -11.674979 -0.037350263 -11.66355 -33.911655 -108.16704
57952000 -33.857601 -93.439224 -0.038699292 -11.870434 -0.039210707 -11.864379 -33.810719 -108.26421
58951000 -33.737049 -93.833618 -0.040386822 -12.075943 -0.039632313 -12.054366 -33.654606 -108.36858
59950000 -33.606556 -94.127457 -0.040360171 -12.272572 -0.039941624 -12.254348 -33.574638 -108.64912
60949000 -33.488167 -94.709045 -0.040831279 -12.475111 -0.040921688 -12.453795 -33.496399 -108.98351
61948000 -33.429062 -95.055885 -0.040977348 -12.672304 -0.040778495 -12.656749 -33.40044 -108.99435
62947000 -33.328865 -95.25898 -0.04153895 -12.889564 -0.041584425 -12.871506 -33.258892 -109.22641
63946000 -33.26141 -95.996941 -0.042327505 -13.087351 -0.04230189 -13.068021 -33.145512 -109.45113
64945000 -33.153397 -96.067513 -0.04311673 -13.290431 -0.043145489 -13.26763 -33.041611 -109.92079
65944000 -33.058235 -96.465103 -0.044036582 -13.486588 -0.043224182 -13.471684 -32.943859 -110.29939
66943000 -32.90918 -96.835587 -0.041487202 -13.686618 -0.0418991 -13.67322 -32.838676 -110.55405
67942000 -32.841793 -96.739487 -0.044241861 -13.885224 -0.043981403 -13.872485 -32.705093 -110.87824
68941000 -32.731594 -96.910889 -0.042887188 -14.076955 -0.042258497 -14.070573 -32.60511 -110.859
69940000 -32.636917 -96.895752 -0.043427594 -14.277467 -0.04350185 -14.271885 -32.470474 -111.1324
70939000 -32.530609 -96.74337 -0.043782674 -14.475561 -0.042739484 -14.468559 -32.328449 -110.95042
71938000 -32.391052 -96.330513 -0.043421842 -14.671616 -0.043775354 -14.664454 -32.210796 -110.84988
72937000 -32.238789 -96.162674 -0.042756736 -14.867907 -0.042493496 -14.859982 -32.056278 -110.51685
73936000 -32.102169 -95.755806 -0.042322278 -15.070227 -0.042549957 -15.056369 -31.945766 -110.32985
74935000 -31.97654 -96.003326 -0.04228124 -15.265441 -0.041277871 -15.261037 -31.798342 -109.99593
75934000 -31.856649 -96.22197 -0.041985877 -15.469878 -0.040847216 -15.472965 -31.722979 -109.90874
76933000 -31.725714 -96.550835 -0.042965356 -15.667411 -0.043155421 -15.658112 -31.547155 -110.17594
77932000 -31.621735 -97.370804 -0.044101171 -15.862544 -0.044327375 -15.860896 -31.44088 -110.20922
78931000 -31.553915 -98.091583 -0.042916469 -16.067602 -0.044013046 -16.059189 -31.345055 -110.11068
79930000 -31.434977 -98.945152 -0.04500946 -16.256956 -0.045411754 -16.254854 -31.240923 -110.37301
80929000 -31.328077 -99.717201 -0.04692683 -16.454473 -0.047393419 -16.450991 -31.145939 -110.58709
81928000 -31.225334 -100.48025 -0.04698623 -16.647694 -0.047471929 -16.644222 -31.019094 -110.63664
82927000 -31.127903 -101.17689 -0.047942236 -16.844725 -0.048492175 -16.842976 -30.912346 -110.89931
83926000 -31.007095 -101.82607 -0.050074577 -17.040886 -0.049826339 -17.043718 -30.793127 -111.06205
84925000 -30.898174 -102.26756 -0.050851326 -17.239819 -0.049895991 -17.236656 -30.703609 -111.14779
85924000 -30.814228 -102.69386 -0.052159756 -17.444262 -0.051512696 -17.437263 -30.619467 -111.09928
86923000 -30.710428 -103.2383 -0.051567182 -17.641947 -0.051976632 -17.633665 -30.516077 -110.99103
87922000 -30.584593 -103.52784 -0.051874202 -17.846487 -0.051322788 -17.842474 -30.434219 -111.00508
88921000 -30.528395 -103.80571 -0.053281996 -18.0425 -0.051881012 -18.040363 -30.334396 -111.02113
89920000 -30.417328 -104.30444 -0.053009726 -18.245777 -0.053110875 -18.238373 -30.285355 -111.17511
90919000 -30.324461 -104.52042 -0.054195352 -18.437132 -0.052801937 -18.431789 -30.204872 -111.3568
91918000 -30.216619 -104.93793 -0.054810829 -18.644884 -0.053823695 -18.636747 -30.12961 -111.35282
92917000 -30.135241 -105.26479 -0.05570196 -18.839827 -0.055094484 -18.833735 -30.065395 -111.43338
93916000 -30.044294 -105.60636 -0.055486176 -19.030741 -0.054664817 -19.03002 -29.976158 -112.04193
94915000 -29.967327 -106.21002 -0.056827735 -19.23418 -0.056112848 -19.229965 -29.908504 -111.87762
95914000 -29.889538 -106.40156 -0.057839427 -19.43055 -0.056538988 -19.426514 -29.819191 -112.16045
96913000 -29.804842 -106.63919 -0.058972053 -19.628645 -0.057779618 -19.626015 -29.760611 -112.54895
97912000 -29.729939 -107.10347 -0.059806824 -19.82527 -0.05866427 -19.82795 -29.677626 -112.78698
98911000 -29.619947 -107.24361 -0.060496859 -20.029745 -0.059128445 -20.025707 -29.631046 -112.97704
99910000 -29.557817 -107.31213 -0.061162848 -20.226826 -0.059485074 -20.221531 -29.531399 -113.25162
100909000 -29.465672 -107.64536 -0.060423363 -20.43409 -0.058846105 -20.426403 -29.448996 -113.50212
101908000 -29.38063 -107.83942 -0.061567426 -20.639164 -0.060430449 -20.630684 -29.332472 -113.27689
102907000 -29.2451 -107.84352 -0.062272184 -20.836008 -0.060303144 -20.83222 -29.265734 -113.29144
103906000 -29.14813 -107.84824 -0.062245134 -21.039421 -0.059879787 -21.035707 -29.119265 -113.16837
104905000 -29.009588 -107.73437 -0.063372083 -21.238779 -0.060524683 -21.237761 -28.998447 -112.91275
105904000 -28.866869 -107.81989 -0.063604809 -21.441284 -0.060860686 -21.436399 -28.881689 -112.71313
106903000 -28.758698 -107.90778 -0.063901126 -21.645052 -0.061452691 -21.641283 -28.764421 -112.63907
107902000 -28.592407 -108.17697 -0.064240538 -21.848154 -0.061168101 -21.840416 -28.622705 -112.5958
108901000 -28.488371 -108.434 -0.064952299 -22.050081 -0.063476101 -22.041122 -28.497053 -112.54479
109900000 -28.357674 -108.91747 -0.065846831 -22.250708 -0.064003579 -22.240881 -28.348799 -112.63681
110899000 -28.239975 -109.49133 -0.067161098 -22.4482 -0.064852975 -22.438675 -28.222702 -112.85734
111898000 -28.142391 -110.16973 -0.06899491 -22.648798 -0.065746956 -22.644407 -28.10853 -112.97116
112897000 -28.027796 -110.7024 -0.07018806 -22.84971 -0.067111149 -22.834568 -27.976173 -113.15968
113896000 -27.920149 -111.27879 -0.071285494 -23.048832 -0.068144955 -23.03796 -27.865328 -113.31561
114895000 -27.822567 -111.91625 -0.071954459 -23.247272 -0.069697186 -23.233496 -27.752792 -113.38219
115894000 -27.701534 -112.26452 -0.073609941 -23.449371 -0.070808969 -23.43716 -27.687145 -113.58745
116893000 -27.623209 -112.75008 -0.074211851 -23.643908 -0.071393386 -23.626745 -27.561262 -113.63387
117892000 -27.53686 -113.25628 -0.073629946 -23.838245 -0.071572855 -23.826872 -27.482632 -113.8623
118891000 -27.475756 -113.62664 -0.074621066 -24.044931 -0.072121583 -24.029938 -27.391506 -113.95685
119890000 -27.394541 -114.0143 -0.075953014 -24.244364 -0.073546752 -24.227692 -27.380604 -114.10102
120889000 -27.336166 -114.55288 -0.076813713 -24.445568 -0.072994947 -24.427765 -27.299118 -114.02785
121888000 -27.29496 -114.85527 -0.076593451 -24.639978 -0.073240563 -24.628124 -27.242826 -114.29991
122887000 -27.258005 -115.04552 -0.077343605 -24.840681 -0.07441619 -24.826096 -27.201832 -114.31435
123886000 -27.203627 -115.45685 -0.078311853 -25.047729 -0.075249985 -25.026932 -27.187616 -114.47281
124885000 -27.165709 -115.96839 -0.07859493 -25.24876 -0.075019792 -25.232801 -27.150599 -114.5684
125884000 -27.116392 -116.14013 -0.07914982 -25.443041 -0.074925505 -25.427504 -27.122156 -114.65318
126883000 -27.089668 -116.52836 -0.079310104 -25.644133 -0.076351859 -25.632149 -27.086802 -114.70314
127882000 -27.042789 -116.82549 -0.079830274 -25.845802 -0.076507032 -25.830124 -27.052515 -114.82059
128881000 -27.012966 -117.12994 -0.079785451 -26.047199 -0.076072082 -26.031956 -27.00511 -114.91917
129880000 -26.955774 -117.49692 -0.080917493 -26.249456 -0.07656315 -26.231909 -26.965071 -114.88366
130879000 -26.896938 -117.63546 -0.080515064 -26.447624 -0.077612132 -26.433224 -26.888374 -114.90639
131878000 -26.831425 -117.85526 -0.080680408 -26.651409 -0.078391977 -26.634451 -26.831902 -114.74415
132877000 -26.771414 -117.92043 -0.080430679 -26.852877 -0.077585779 -26.837709 -26.754496 -114.74505
133876000 -26.682934 -118.08169 -0.080958895 -27.053679 -0.077757858 -27.03516 -26.667339 -114.61755
134875000 -26.593596 -118.19456 -0.080617905 -27.254602 -0.078738593 -27.235872 -26.574045 -114.47669
135874000 -26.50839 -118.22678 -0.080444917 -27.455681 -0.077969752 -27.437592 -26.473867 -114.45208
136873000 -26.403431 -118.15376 -0.081841953 -27.657124 -0.077836663 -27.64015 -26.392815 -114.37257
137872000 -26.321859 -118.24133 -0.081897616 -27.857792 -0.078503996 -27.842987 -26.291218 -114.29062
138871000 -26.246952 -118.49369 -0.081851453 -28.058697 -0.078730948 -28.042839 -26.198532 -114.41696
139870000 -26.149469 -118.76011 -0.082771629 -28.260883 -0.079167217 -28.243101 -26.11459 -114.64465
140869000 -26.070417 -119.28587 -0.083781727 -28.456709 -0.080696493 -28.43751 -26.017929 -114.79188
141868000 -25.99399 -119.69597 -0.084638707 -28.65288 -0.081649661 -28.639402 -25.965425 -115.07376
142867000 -25.911949 -119.89826 -0.082728885 -28.851946 -0.081153534 -28.834166 -25.889429 -115.1794
143866000 -25.839611 -120.37609 -0.084959418 -29.049751 -0.082097568 -29.032921 -25.81736 -115.67206
144865000 -25.788593 -120.90807 -0.086229317 -29.247595 -0.083750322 -29.230246 -25.765652 -115.93639
145864000 -25.729012 -121.21807 -0.0865454 -29.448442 -0.084609143 -29.434271 -25.73144 -116.21494
146863000 -25.683981 -121.60816 -0.087803349 -29.649456 -0.085345633 -29.634167 -25.67771 -116.46892
147862000 -25.650471 -121.91272 -0.088042669 -29.845243 -0.085621513 -29.830029 -25.655758 -116.7869
148861000 -25.614462 -122.35513 -0.089334875 -30.043671 -0.087345079 -30.031433 -25.627207 -116.94123
149860000 -25.58531 -122.56483 -0.090170741 -30.238543 -0.087479778 -30.227846 -25.581722 -117.07523
150859000 -25.563774 -123.02068 -0.090019569 -30.43335 -0.087556638 -30.417227 -25.561796 -117.42551
151858000 -25.552546 -123.36941 -0.089379266 -30.636461 -0.087635085 -30.617304 -25.552713 -117.73997
152857000 -25.533857 -123.71003 -0.090104409 -30.831228 -0.087975569 -30.822224 -25.53533 -117.91686
153856000 -25.536901 -123.90786 -0.089338042 -31.030821 -0.08663439 -31.019697 -25.552092 -118.24445
154855000 -25.533915 -124.06467 -0.089633472 -31.230211 -0.08767207 -31.222523 -25.539608 -118.49907
155854000 -25.549858 -124.33727 -0.090302624 -31.432861 -0.087558486 -31.419403 -25.535749 -118.74258
156853000 -25.537119 -125.01663 -0.087934628 -31.616943 -0.086455084 -31.613424 -25.531273 -119.08005
157852000 -25.541355 -125.1896 -0.088939853 -31.821812 -0.088518448 -31.812286 -25.521397 -119.41754
158851000 -25.541292 -125.44472 -0.090032257 -32.021957 -0.088544607 -32.009895 -25.506264 -119.66447
159850000 -25.528141 -125.54718 -0.090638824 -32.220982 -0.088360205 -32.210445 -25.504372 -119.84573
160849000 -25.517811 -125.6604 -0.090356544 -32.419678 -0.089595422 -32.41375 -25.471214 -120.14082
161848000 -25.49864 -125.74713 -0.09037742 -32.618767 -0.089214385 -32.612209 -25.4387 -120.26358
162847000 -25.455885 -125.896 -0.090655215 -32.816986 -0.089846998 -32.815208 -25.412376 -120.4959
163846000 -25.413263 -126.10616 -0.091024749 -33.017139 -0.090164661 -33.011517 -25.330227 -120.49884
164845000 -25.355507 -126.07001 -0.091364704 -33.220867 -0.090381913 -33.213642 -25.267578 -120.61905
165844000 -25.307354 -126.1329 -0.091731921 -33.416843 -0.090590984 -33.411423 -25.191339 -120.72974
166843000 -25.243748 -126.15141 -0.091493189 -33.619595 -0.09082412 -33.614002 -25.122637 -120.92107
167842000 -25.192802 -126.28234 -0.092095993 -33.818462 -0.091460407 -33.8097 -25.04875 -120.78945
168841000 -25.111389 -126.40936 -0.09228532 -34.012829 -0.091332987 -34.012383 -24.974262 -120.89085
169840000 -25.046961 -126.64217 -0.092488922 -34.21117 -0.091571443 -34.210548 -24.887989 -121.0783
170839000 -24.990444 -126.86868 -0.093927145 -34.409492 -0.091882892 -34.412018 -24.806679 -121.23724
171838000 -24.928864 -127.2352 -0.092835344 -34.611473 -0.092868134 -34.606331 -24.74366 -121.44907
172837000 -24.861822 -127.59496 -0.094438754 -34.808933 -0.094507538 -34.801746 -24.680887 -121.64661
173836000 -24.793352 -127.99332 -0.095870733 -35.008633 -0.09527164 -35.004276 -24.637215 -121.86584
174835000 -24.741667 -128.41707 -0.096296825 -35.20182 -0.096152849 -35.205738 -24.592905 -122.19867
175834000 -24.691788 -128.77039 -0.097233303 -35.407688 -0.096406922 -35.400517 -24.533812 -122.47331
176833000 -24.636883 -129.09322 -0.097869471 -35.604874 -0.097072884 -35.601543 -24.485262 -122.63078
177832000 -24.599226 -129.53062 -0.0991413 -35.801327 -0.098061688 -35.801384 -24.461842 -122.71935
178831000 -24.548365 -129.75702 -0.10038674 -35.998383 -0.10012183 -35.99506 -24.422653 -122.80607
179830000 -24.4753 -130.14204 -0.1012674 -36.18264 -0.10083976 -36.181393 -24.363358 -122.90443
180829000 -24.427469 -130.52974 -0.10049562 -36.378971 -0.099819861 -36.371857 -24.315521 -123.2104
181828000 -24.404501 -130.94156 -0.10013137 -36.575214 -0.099145532 -36.57338 -24.301571 -123.38432
182827000 -24.379862 -131.32381 -0.10036184 -36.776962 -0.099670477 -36.773235 -24.28838 -123.52012
183826000 -24.340704 -131.63976 -0.10036661 -36.971806 -0.099566117 -36.969376 -24.277431 -123.66821
184825000 -24.344982 -131.97482 -0.10025693 -37.170376 -0.099883966 -37.168102 -24.258995 -123.79682
185824000 -24.31427 -132.32626 -0.1004625 -37.363232 -0.10040078 -37.364201 -24.254898 -123.85602
186823000 -24.296246 -132.71686 -0.10046887 -37.563717 -0.099405877 -37.562851 -24.245459 -123.89779
187822000 -24.274611 -133.06946 -0.1007685 -37.757977 -0.10019547 -37.757816 -24.206377 -123.97341
188821000 -24.248806 -133.29309 -0.1002715 -37.954163 -0.1009476 -37.959816 -24.189745 -124.10846
189820000 -24.228693 -133.5997 -0.10068849 -38.159889 -0.1004233 -38.154556 -24.172594 -124.3054
190819000 -24.193756 -133.90147 -0.10212518 -38.353218 -0.10122129 -38.350491 -24.134415 -124.3335
191818000 -24.164778 -134.19948 -0.10202394 -38.552353 -0.10129257 -38.549576 -24.109121 -124.37671
192817000 -24.118675 -134.44859 -0.1022447 -38.745972 -0.10160577 -38.748123 -24.06069 -124.4453
193816000 -24.085793 -134.72594 -0.10284211 -38.9422 -0.10108961 -38.940853 -24.010941 -124.61437
194815000 -24.02935 -135.12459 -0.10240001 -39.139606 -0.10255241 -39.144016 -23.944242 -124.68318
195814000 -23.969814 -135.28198 -0.10376649 -39.335571 -0.10225345 -39.335491 -23.889729 -124.7345
196813000 -23.917149 -135.62672 -0.10326173 -39.531437 -0.10235973 -39.532337 -23.811855 -124.89598
197812000 -23.858076 -135.82423 -0.10374554 -39.728924 -0.10264995 -39.727886 -23.740925 -125.00346
198811000 -23.809166 -135.97675 -0.10277373 -39.925926 -0.10274404 -39.926819 -23.671392 -125.158
199810000 -23.731245 -136.32341 -0.10374687 -40.116417 -0.10332827 -40.113251 -23.593933 -125.22098
200809000 -23.680746 -136.57773 -0.10432778 -40.31757 -0.10340355 -40.317997 -23.516329 -125.41653
201808000 -23.624378 -136.80409 -0.10476796 -40.520847 -0.10408836 -40.521477 -23.451689 -125.47171
202807000 -23.564596 -137.0963 -0.10571767 -40.717091 -0.10509547 -40.72514 -23.393198 -125.68399
