!Keysight Technologies,E5080B,MY59205177,A.15.75.32
!Date: Friday, February 23, 2024 03:01:52
!Correction: S11(Cdelta 2-Port  ) 
!S21(Cdelta 2-Port  ) 
!S12(Cdelta 2-Port  ) 
!S22(Cdelta 2-Port  ) 
!S2P File: Measurements: S11, S21, S12, S22:
# Hz S  dB   R 50
10000000 -44.226395 -3.5639992 -0.026704619 -2.0409067 -0.030257914 -2.0936885 -48.033085 -150.04279
10999000 -43.508739 -5.371181 -0.028441688 -2.2567358 -0.030770941 -2.3107076 -47.809376 -142.46384
11998000 -42.705292 -7.9618602 -0.028732743 -2.4797564 -0.030600186 -2.5238628 -47.870827 -137.65062
12997000 -42.129017 -12.855411 -0.027887771 -2.6604414 -0.029909153 -2.6928389 -47.255276 -130.76402
13996000 -41.847542 -15.914687 -0.027056769 -2.8363891 -0.030043909 -2.8601279 -46.798553 -124.95256
14995000 -41.555592 -19.831884 -0.029739212 -3.0482275 -0.029868752 -3.0705829 -46.346458 -121.85638
15994000 -41.434425 -23.573626 -0.030871835 -3.2632754 -0.03223554 -3.286454 -46.144482 -118.32586
16993000 -41.435291 -27.575821 -0.030007418 -3.4629717 -0.031693138 -3.4668133 -45.270454 -118.84553
17992000 -41.492771 -32.512302 -0.030135661 -3.6583855 -0.032173213 -3.6606894 -44.621098 -120.07638
18991000 -41.726376 -36.797127 -0.030889822 -3.8702745 -0.032914687 -3.866976 -43.908539 -119.16816
19990000 -41.614464 -41.741558 -0.033390466 -4.077642 -0.034882829 -4.0737667 -43.227917 -121.0005
20989000 -41.509335 -44.82338 -0.035398751 -4.2780013 -0.036342029 -4.2742066 -42.590084 -120.56067
21988000 -41.442924 -49.499458 -0.036118329 -4.4774241 -0.037407964 -4.4648833 -42.342522 -120.16354
22987000 -41.16407 -53.754517 -0.037306659 -4.6758084 -0.038239647 -4.6674552 -42.083626 -119.76456
23986000 -41.184059 -57.649094 -0.037004586 -4.8699832 -0.037368018 -4.867743 -41.953815 -119.89451
24985000 -40.886204 -60.082783 -0.038219016 -5.0740705 -0.037746623 -5.0734992 -41.685192 -117.38544
25984000 -40.657745 -62.373875 -0.039181188 -5.2838993 -0.038116906 -5.2877007 -41.337288 -116.0806
26983000 -40.35825 -64.193291 -0.039603058 -5.4801798 -0.039631009 -5.4997706 -41.252483 -115.00562
27982000 -40.201572 -64.97155 -0.041022032 -5.6806149 -0.040334828 -5.7172008 -40.902927 -113.4709
28981000 -40.234058 -66.597916 -0.039083499 -5.8810534 -0.039993092 -5.9023013 -40.663589 -113.16058
29980000 -39.796871 -68.215416 -0.03882492 -6.0700116 -0.040780064 -6.0811601 -40.337154 -112.0994
30979000 -39.460915 -67.336761 -0.036428954 -6.4245563 -0.035475217 -6.4121332 -39.828873 -113.0844
31978000 -39.258705 -68.484848 -0.035710633 -6.6203289 -0.036921304 -6.6115746 -39.572304 -112.42153
32977000 -39.096222 -70.114784 -0.036029581 -6.8283682 -0.037911654 -6.8251023 -39.345589 -112.703
33976000 -38.955986 -71.267601 -0.036562346 -7.0281968 -0.037628338 -7.0234246 -39.021324 -112.19155
34975000 -38.666183 -72.247299 -0.036828104 -7.2315569 -0.038494274 -7.2271709 -38.762043 -112.09602
35974000 -38.498787 -72.931839 -0.035772488 -7.4223528 -0.037926279 -7.4272065 -38.472645 -111.24149
36973000 -38.269047 -73.853912 -0.036292695 -7.6220531 -0.038982157 -7.6277051 -38.173405 -110.49335
37972000 -38.10759 -73.74971 -0.035553515 -7.8297925 -0.038598739 -7.839931 -37.964466 -109.91077
38971000 -37.767941 -73.442024 -0.036234483 -8.0325613 -0.038935401 -8.0447674 -37.7607 -108.41067
39970000 -37.457523 -74.048126 -0.034650851 -8.2245865 -0.037286557 -8.2418394 -37.4631 -108.05114
40969000 -37.18782 -73.951721 -0.035447814 -8.4228611 -0.037942991 -8.437562 -37.220413 -106.64363
41968000 -36.830147 -74.021477 -0.035061318 -8.625742 -0.038384587 -8.6418314 -37.003017 -105.54402
42967000 -36.575993 -74.426781 -0.034759402 -8.8366499 -0.038091578 -8.8563366 -36.779312 -103.83386
43966000 -36.30209 -75.197868 -0.035989124 -9.0403061 -0.039011408 -9.0531492 -36.487389 -103.20783
44965000 -36.088337 -76.104622 -0.037139043 -9.2405443 -0.03952286 -9.2542372 -36.249008 -103.07049
45964000 -35.872791 -77.108871 -0.037449218 -9.4367495 -0.040657252 -9.4575415 -36.020306 -103.01736
46963000 -35.687439 -79.290848 -0.037540082 -9.6307631 -0.041548096 -9.6524744 -35.838722 -103.3235
47962000 -35.548496 -80.866013 -0.039204698 -9.8347406 -0.042660534 -9.8510799 -35.653553 -103.43003
48961000 -35.34922 -82.242882 -0.041499745 -10.027921 -0.044115555 -10.049813 -35.39912 -103.7752
49960000 -35.13176 -83.577408 -0.042717524 -10.227375 -0.045053925 -10.255036 -35.258816 -104.00522
50959000 -34.923523 -84.941841 -0.043575846 -10.441141 -0.046296772 -10.451747 -35.094631 -104.40715
51958000 -34.726551 -86.112152 -0.04506151 -10.639843 -0.047308367 -10.651138 -34.918644 -104.86627
52957000 -34.537296 -87.262535 -0.047060285 -10.841619 -0.048794262 -10.847109 -34.752075 -104.75159
53956000 -34.372231 -88.084587 -0.047775779 -11.041502 -0.048857089 -11.039095 -34.60524 -104.74712
54955000 -34.207977 -88.476746 -0.048217326 -11.244227 -0.049766637 -11.23812 -34.470791 -104.84557
55954000 -34.045135 -89.383148 -0.049851999 -11.440967 -0.050298735 -11.437962 -34.344479 -104.48125
56953000 -33.946133 -89.49025 -0.049605869 -11.64181 -0.049168631 -11.628468 -34.279602 -104.7479
57952000 -33.771957 -90.083588 -0.051024716 -11.835062 -0.050148685 -11.826601 -34.172932 -104.85645
58951000 -33.663586 -90.344292 -0.0516311 -12.042233 -0.051242638 -12.01932 -34.019207 -105.00136
59950000 -33.557362 -90.821556 -0.052603588 -12.236448 -0.052382715 -12.21505 -33.954006 -105.2095
60949000 -33.427605 -91.415749 -0.052264031 -12.444466 -0.052512668 -12.417298 -33.855431 -105.54164
61948000 -33.383099 -91.654587 -0.053754769 -12.64072 -0.052445073 -12.624088 -33.781658 -105.67513
62947000 -33.288399 -91.874519 -0.053133413 -12.85195 -0.052967802 -12.834193 -33.637173 -105.93898
63946000 -33.217583 -92.554214 -0.054228116 -13.046988 -0.05384938 -13.032224 -33.533833 -106.03532
64945000 -33.127357 -92.792328 -0.054758139 -13.248167 -0.054700732 -13.230431 -33.433643 -106.5932
65944000 -33.01857 -93.097954 -0.055595245 -13.44964 -0.055302911 -13.43121 -33.336407 -107.02048
66943000 -32.877369 -93.504433 -0.053421412 -13.652712 -0.053619534 -13.632659 -33.230247 -107.37971
67942000 -32.828369 -93.394737 -0.055495091 -13.846025 -0.054990407 -13.832781 -33.111023 -107.70825
68941000 -32.725258 -93.575737 -0.055231072 -14.039877 -0.053892627 -14.030144 -33.003021 -107.64504
69940000 -32.623196 -93.600418 -0.054971792 -14.239451 -0.055524979 -14.230252 -32.85833 -107.92503
70939000 -32.516384 -93.621353 -0.055496924 -14.438062 -0.054794054 -14.42795 -32.7341 -107.87749
71938000 -32.376442 -93.251495 -0.05478514 -14.630427 -0.054519594 -14.62089 -32.602184 -107.82426
72937000 -32.21933 -93.145271 -0.054880824 -14.832131 -0.054339517 -14.824819 -32.464397 -107.49805
73936000 -32.07394 -92.845779 -0.053875327 -15.027079 -0.053381838 -15.013157 -32.339684 -107.3116
74935000 -31.958839 -93.096092 -0.053888693 -15.22127 -0.052463148 -15.22385 -32.195335 -107.00018
75934000 -31.83333 -93.395874 -0.053562403 -15.432901 -0.053112186 -15.428562 -32.111382 -106.99641
76933000 -31.709833 -93.7631 -0.055241559 -15.623718 -0.054316975 -15.617724 -31.939276 -107.38493
77932000 -31.609007 -94.600189 -0.056211449 -15.81778 -0.055746537 -15.816586 -31.83219 -107.3867
78931000 -31.537603 -95.328178 -0.055264894 -16.016953 -0.055521835 -16.01264 -31.738382 -107.20547
79930000 -31.433098 -96.151459 -0.057501297 -16.213305 -0.057399523 -16.211811 -31.64175 -107.58334
80929000 -31.302292 -96.995743 -0.058677129 -16.407072 -0.058888089 -16.404135 -31.533234 -107.95518
81928000 -31.218493 -97.936317 -0.059021384 -16.602299 -0.058970481 -16.594767 -31.418524 -107.99002
82927000 -31.128742 -98.770683 -0.060597654 -16.798872 -0.060641494 -16.794683 -31.309103 -108.3374
83926000 -31.021181 -99.38475 -0.062059484 -16.99486 -0.061353449 -16.994961 -31.20013 -108.58766
84925000 -30.912663 -99.788803 -0.06330353 -17.193319 -0.061096165 -17.19208 -31.10961 -108.63884
85924000 -30.817856 -100.27126 -0.063779496 -17.391792 -0.062625133 -17.39135 -31.018934 -108.61962
86923000 -30.722237 -100.78496 -0.062929519 -17.59617 -0.062534265 -17.588577 -30.927139 -108.56564
87922000 -30.612698 -101.2417 -0.064235814 -17.802544 -0.063213438 -17.789808 -30.834839 -108.58748
88921000 -30.552845 -101.47704 -0.064433113 -17.994646 -0.06360665 -17.988317 -30.741201 -108.59824
89920000 -30.453169 -102.08531 -0.065984018 -18.19116 -0.064547665 -18.18285 -30.693056 -108.78779
90919000 -30.35141 -102.38227 -0.066778868 -18.389715 -0.064855345 -18.379036 -30.608892 -108.97986
91918000 -30.257286 -102.69893 -0.066858783 -18.588186 -0.065609515 -18.580732 -30.54159 -109.00572
92917000 -30.170681 -103.06675 -0.067744501 -18.786409 -0.066543601 -18.78042 -30.470673 -109.13843
93916000 -30.090313 -103.42616 -0.067447402 -18.979452 -0.066930547 -18.978092 -30.385103 -109.70989
94915000 -30.010738 -104.12041 -0.068990171 -19.181532 -0.067466326 -19.175541 -30.323454 -109.58298
95914000 -29.952326 -104.32312 -0.069950774 -19.37788 -0.068610147 -19.372684 -30.240263 -109.9245
96913000 -29.872242 -104.55132 -0.07118392 -19.575478 -0.069813192 -19.571135 -30.173841 -110.20328
97912000 -29.789133 -105.03519 -0.072581671 -19.772455 -0.069986552 -19.770231 -30.09115 -110.4964
98911000 -29.687811 -105.23069 -0.072616413 -19.972097 -0.070863694 -19.969385 -30.051689 -110.68517
99910000 -29.625477 -105.38862 -0.074050173 -20.168304 -0.071559966 -20.166708 -29.950071 -111.01121
100909000 -29.535685 -105.61717 -0.07258825 -20.380772 -0.070907898 -20.371202 -29.859011 -111.19537
101908000 -29.448162 -105.90905 -0.074234761 -20.575497 -0.072366886 -20.573027 -29.751413 -110.94678
102907000 -29.319883 -105.97713 -0.074290849 -20.777199 -0.072418742 -20.773569 -29.678677 -110.94193
103906000 -29.226686 -106.05785 -0.075062983 -20.982586 -0.072022095 -20.979399 -29.526031 -110.90946
104905000 -29.075897 -105.91856 -0.075315304 -21.178358 -0.072772771 -21.180948 -29.393377 -110.61069
105904000 -28.937719 -106.02818 -0.076013073 -21.383675 -0.072394788 -21.374165 -29.284071 -110.48708
106903000 -28.829916 -106.17584 -0.074592628 -21.588028 -0.073039703 -21.580654 -29.160049 -110.33741
107902000 -28.671827 -106.53361 -0.075908497 -21.786388 -0.072880179 -21.778891 -29.025808 -110.37892
108901000 -28.563576 -106.78358 -0.076846652 -21.990683 -0.074934989 -21.977423 -28.890047 -110.27514
109900000 -28.435575 -107.28513 -0.077379964 -22.188463 -0.075832367 -22.179379 -28.740746 -110.34149
110899000 -28.318724 -107.86444 -0.078962125 -22.385695 -0.076340795 -22.377914 -28.618866 -110.68294
111898000 -28.22168 -108.54802 -0.080003768 -22.583656 -0.077486165 -22.580534 -28.49844 -110.83926
112897000 -28.101286 -109.14105 -0.081727214 -22.785011 -0.078585178 -22.773695 -28.366909 -110.97533
113896000 -28.000097 -109.72858 -0.082850523 -22.985302 -0.079872727 -22.973948 -28.257826 -111.13078
114895000 -27.898392 -110.36833 -0.083884917 -23.183868 -0.081819005 -23.170551 -28.145679 -111.26235
115894000 -27.775112 -110.69718 -0.085194625 -23.382517 -0.082691684 -23.370176 -28.077444 -111.41966
116893000 -27.693548 -111.31089 -0.085499808 -23.581053 -0.083190627 -23.563034 -27.951021 -111.5431
117892000 -27.613646 -111.7716 -0.086124495 -23.773653 -0.08285448 -23.762707 -27.880968 -111.7612
118891000 -27.552752 -112.22642 -0.086468816 -23.978935 -0.083588295 -23.957123 -27.78438 -111.94535
119890000 -27.463909 -112.58553 -0.087370962 -24.178577 -0.084702842 -24.165112 -27.769814 -112.07575
120889000 -27.406952 -113.03846 -0.08835201 -24.376701 -0.084190533 -24.36157 -27.693558 -111.99425
121888000 -27.36817 -113.41194 -0.088304989 -24.572521 -0.085080057 -24.560564 -27.634989 -112.28437
122887000 -27.334358 -113.60976 -0.089320078 -24.775625 -0.085383385 -24.758791 -27.594618 -112.34715
123886000 -27.276037 -114.04673 -0.089899592 -24.976137 -0.085504822 -24.95883 -27.572191 -112.49997
124885000 -27.242874 -114.51293 -0.090297341 -25.175331 -0.086445056 -25.164392 -27.545383 -112.58394
125884000 -27.190496 -114.73454 -0.090406232 -25.370773 -0.086423136 -25.357096 -27.5151 -112.76425
126883000 -27.16806 -115.12108 -0.091145292 -25.574455 -0.087578036 -25.563992 -27.471716 -112.75959
127882000 -27.120167 -115.40083 -0.091271125 -25.776646 -0.087949418 -25.760324 -27.432417 -112.93183
128881000 -27.091337 -115.72884 -0.091879189 -25.976633 -0.088160753 -25.960878 -27.395119 -113.07745
129880000 -27.033657 -116.03938 -0.092391089 -26.180992 -0.087946251 -26.158758 -27.34878 -113.07674
130879000 -26.967691 -116.20504 -0.091927305 -26.374878 -0.088852137 -26.359623 -27.274754 -113.1011
131878000 -26.907164 -116.39758 -0.092535727 -26.576097 -0.089425772 -26.560528 -27.210175 -113.01535
132877000 -26.84342 -116.49311 -0.091794051 -26.78117 -0.089711167 -26.758842 -27.127409 -113.05166
133876000 -26.749937 -116.69038 -0.091928102 -26.98003 -0.089220196 -26.961946 -27.037634 -112.94775
134875000 -26.661095 -116.80644 -0.09284883 -27.180468 -0.089495532 -27.164944 -26.935753 -112.83376
135874000 -26.577538 -116.82521 -0.091266632 -27.37689 -0.089430794 -27.362984 -26.83639 -112.82647
136873000 -26.464945 -116.77002 -0.093048759 -27.58259 -0.089686058 -27.562536 -26.752377 -112.80246
137872000 -26.391163 -116.84818 -0.093582489 -27.784573 -0.090020366 -27.766085 -26.651005 -112.73209
138871000 -26.319107 -117.05859 -0.093144499 -27.982639 -0.090302624 -27.971138 -26.547857 -112.92077
139870000 -26.216749 -117.31922 -0.094016023 -28.182804 -0.091537602 -28.167801 -26.47438 -113.08289
140869000 -26.138016 -117.74211 -0.095960446 -28.380571 -0.092427574 -28.36055 -26.360516 -113.24633
141868000 -26.037186 -118.26283 -0.095859356 -28.570845 -0.093480125 -28.554625 -26.293066 -113.51823
142867000 -25.962271 -118.52754 -0.094046175 -28.766998 -0.091881305 -28.749926 -26.215555 -113.72942
143866000 -25.891314 -119.0172 -0.095897466 -28.965334 -0.093373276 -28.945837 -26.141768 -114.21846
144865000 -25.834698 -119.56379 -0.097532973 -29.161917 -0.094858617 -29.147907 -26.084831 -114.52578
145864000 -25.777353 -119.85155 -0.098063543 -29.364067 -0.096004643 -29.352379 -26.052429 -114.81753
146863000 -25.731298 -120.24809 -0.099035896 -29.560984 -0.096009143 -29.550066 -26.000994 -115.14875
147862000 -25.690191 -120.62357 -0.099815093 -29.758852 -0.096908234 -29.747011 -25.96554 -115.46576
148861000 -25.659529 -121.12505 -0.099901974 -29.958845 -0.097177714 -29.941122 -25.944489 -115.69625
149860000 -25.643667 -121.29942 -0.10009005 -30.159458 -0.097294718 -30.145128 -25.906597 -115.82565
150859000 -25.618496 -121.68732 -0.10054251 -30.354689 -0.097948901 -30.343987 -25.903221 -116.11476
151858000 -25.605228 -121.9978 -0.1005955 -30.551464 -0.098417826 -30.541624 -25.89666 -116.39079
152857000 -25.586369 -122.31216 -0.10089593 -30.751295 -0.098587826 -30.741381 -25.872732 -116.56645
153856000 -25.580418 -122.50756 -0.1013294 -30.951815 -0.097581156 -30.940451 -25.889112 -116.80634
154855000 -25.572628 -122.6886 -0.10206025 -31.150406 -0.098194607 -31.137644 -25.878626 -117.06466
155854000 -25.592146 -122.95789 -0.10175417 -31.349066 -0.098741941 -31.335754 -25.872665 -117.30173
156853000 -25.571384 -123.67094 -0.099169374 -31.536558 -0.097893827 -31.526606 -25.865561 -117.60747
157852000 -25.573357 -123.85153 -0.10082546 -31.738041 -0.099353172 -31.727516 -25.858829 -117.98073
158851000 -25.569042 -124.09 -0.10160471 -31.933969 -0.099170692 -31.924486 -25.840601 -118.20171
159850000 -25.553034 -124.21486 -0.102166 -32.134319 -0.099803969 -32.124741 -25.838369 -118.38618
160849000 -25.533537 -124.35239 -0.1019993 -32.334679 -0.10073962 -32.326614 -25.805984 -118.69455
161848000 -25.517414 -124.47623 -0.10209259 -32.533848 -0.1004678 -32.524235 -25.766449 -118.77657
162847000 -25.475475 -124.65897 -0.10295954 -32.728298 -0.1014346 -32.725136 -25.739758 -119.03345
163846000 -25.434223 -124.88986 -0.10230725 -32.930599 -0.10087421 -32.923588 -25.660406 -119.03673
164845000 -25.374802 -124.87663 -0.10336644 -33.128788 -0.10144731 -33.119972 -25.595583 -119.15488
165844000 -25.319988 -124.96771 -0.10293171 -33.330692 -0.10178412 -33.320721 -25.512251 -119.30446
166843000 -25.257524 -125.08227 -0.10310374 -33.52729 -0.10129654 -33.520008 -25.442913 -119.45864
167842000 -25.197981 -125.16867 -0.10330415 -33.724804 -0.10190257 -33.719181 -25.365232 -119.37646
168841000 -25.123135 -125.37553 -0.10353929 -33.924271 -0.10240266 -33.917625 -25.287489 -119.47926
169840000 -25.053238 -125.63977 -0.10369517 -34.119568 -0.10265207 -34.114632 -25.200167 -119.67257
170839000 -25.00181 -125.92932 -0.10432831 -34.318581 -0.10222881 -34.312851 -25.115196 -119.85204
171838000 -24.937157 -126.33932 -0.10379008 -34.518074 -0.10398415 -34.509872 -25.052382 -120.11124
172837000 -24.874277 -126.69713 -0.10567338 -34.715584 -0.1044243 -34.704948 -24.979122 -120.32243
173836000 -24.803568 -127.12045 -0.10679069 -34.911053 -0.10578001 -34.909378 -24.939207 -120.54773
174835000 -24.748945 -127.53914 -0.10707617 -35.103634 -0.10662355 -35.102882 -24.895075 -120.88095
175834000 -24.701639 -127.95908 -0.10809565 -35.305882 -0.10693529 -35.302322 -24.831717 -121.18851
176833000 -24.648832 -128.31602 -0.10885737 -35.498791 -0.10738502 -35.496632 -24.777075 -121.31242
177832000 -24.600298 -128.79527 -0.10849056 -35.697258 -0.10812511 -35.697197 -24.755304 -121.49168
178831000 -24.561508 -129.17255 -0.11004162 -35.890774 -0.10854046 -35.892708 -24.716318 -121.71856
179830000 -24.526697 -129.57367 -0.1103844 -36.087841 -0.10876447 -36.090065 -24.692635 -121.85761
180829000 -24.487913 -129.79718 -0.1107811 -36.287205 -0.10887755 -36.284897 -24.66234 -122.00739
181828000 -24.461063 -130.15775 -0.11115182 -36.483189 -0.10915413 -36.48103 -24.64399 -122.12056
182827000 -24.438019 -130.52208 -0.1104598 -36.677189 -0.10938057 -36.679626 -24.63172 -122.1915
183826000 -24.39452 -130.83789 -0.11242702 -36.877014 -0.11009233 -36.879429 -24.623697 -122.31929
184825000 -24.402447 -131.14127 -0.1123877 -37.072117 -0.11066798 -37.075039 -24.606287 -122.43716
185824000 -24.37594 -131.47803 -0.11125752 -37.270435 -0.11102648 -37.273296 -24.601889 -122.46279
186823000 -24.355913 -131.83641 -0.11177809 -37.47147 -0.11048264 -37.468708 -24.600878 -122.44139
187822000 -24.340599 -132.16075 -0.11248785 -37.66824 -0.11127452 -37.665222 -24.567141 -122.5255
188821000 -24.320375 -132.41064 -0.1122934 -37.855759 -0.11182377 -37.864056 -24.552305 -122.61731
189820000 -24.301819 -132.67509 -0.11279415 -38.062855 -0.1118259 -38.060822 -24.545246 -122.78091
190819000 -24.275969 -132.94019 -0.11396566 -38.258926 -0.11255346 -38.258842 -24.509758 -122.73683
191818000 -24.239594 -133.10515 -0.11551202 -38.452442 -0.11406026 -38.451317 -24.480356 -122.64327
192817000 -24.168863 -133.37381 -0.11532196 -38.638363 -0.11433585 -38.641521 -24.403816 -122.72978
193816000 -24.136036 -133.73595 -0.11464708 -38.83194 -0.11237681 -38.829659 -24.352198 -122.98376
194815000 -24.077707 -134.1786 -0.11473665 -39.031693 -0.1136978 -39.033871 -24.286211 -123.10838
195814000 -24.026171 -134.41071 -0.11534349 -39.230293 -0.11310314 -39.226055 -24.234953 -123.24574
196813000 -23.970774 -134.74438 -0.1149033 -39.419361 -0.11425373 -39.422043 -24.15715 -123.39742
197812000 -23.914331 -134.97664 -0.11459073 -39.616428 -0.11417135 -39.618244 -24.086004 -123.50774
198811000 -23.861319 -135.16765 -0.11396672 -39.81464 -0.11397363 -39.817509 -24.020245 -123.66963
199810000 -23.795029 -135.52612 -0.115142 -40.007561 -0.11371932 -40.008434 -23.941593 -123.78769
200809000 -23.735413 -135.80127 -0.11519383 -40.208176 -0.11359151 -40.205486 -23.861631 -123.95412
201808000 -23.681072 -136.04596 -0.11596291 -40.406448 -0.11489213 -40.408432 -23.794086 -124.05451
202807000 -23.620251 -136.41998 -0.11681695 -40.60545 -0.1158305 -40.608643 -23.739832 -124.25465
203806000 -23.568016 -136.83022 -0.118068 -40.806179 -0.11588581 -40.810215 -23.675631 -124.43034
