!Keysight Technologies,E5080B,MY59205177,A.15.75.32
!Date: Friday, February 23, 2024 03:40:14
!Correction: S11(Cdelta 2-Port  ) 
!S21(Cdelta 2-Port  ) 
!S12(Cdelta 2-Port  ) 
!S22(Cdelta 2-Port  ) 
!S2P File: Measurements: S11, S21, S12, S22:
# Hz S  dB   R 50
10000000 -46.142193 -2.7638998 -0.014840904 -2.0397699 -0.018742219 -2.0999153 -45.912579 -157.24324
10999000 -45.290741 -5.0926218 -0.015517854 -2.2610943 -0.018122993 -2.3132124 -45.848423 -151.43739
11998000 -44.330956 -8.0492229 -0.015456805 -2.4851518 -0.017831348 -2.5287774 -46.01059 -147.04137
12997000 -43.601208 -13.520348 -0.014268721 -2.6647611 -0.018279221 -2.6947217 -45.547436 -141.31207
13996000 -43.291534 -17.669867 -0.013888001 -2.8477464 -0.018302357 -2.8667016 -45.348434 -136.00616
14995000 -42.849174 -21.575804 -0.016726809 -3.0552144 -0.018069705 -3.0824926 -45.096889 -132.53893
15994000 -42.73801 -26.420504 -0.01796885 -3.2752967 -0.020744521 -3.298156 -44.986164 -129.07118
16993000 -42.646065 -30.824842 -0.017219007 -3.468411 -0.019830368 -3.4794495 -44.129059 -128.80067
17992000 -42.692165 -36.201595 -0.017710743 -3.6720383 -0.020065974 -3.6726341 -43.576565 -128.83093
18991000 -42.952335 -41.499439 -0.018483028 -3.8804781 -0.020347627 -3.8792231 -42.952717 -127.78651
19990000 -42.724205 -47.601574 -0.020431632 -4.0942988 -0.022947598 -4.0865097 -42.257874 -128.77859
20989000 -42.561749 -50.782959 -0.022708712 -4.2931852 -0.024375722 -4.283617 -41.726398 -128.13263
21988000 -42.376282 -56.048592 -0.023081619 -4.4920883 -0.025195535 -4.4779563 -41.469551 -127.40228
22987000 -41.992607 -60.973003 -0.024166431 -4.6938782 -0.026366038 -4.6823583 -41.196621 -127.04021
23986000 -41.94677 -64.967484 -0.024294764 -4.8855987 -0.025341865 -4.882937 -41.061817 -126.76124
24985000 -41.552185 -67.627449 -0.025348373 -5.0966182 -0.025517881 -5.0933714 -40.819832 -124.53255
25984000 -41.201157 -69.606262 -0.026177486 -5.2986245 -0.026856987 -5.2985177 -40.469112 -122.76015
26983000 -40.832214 -71.590813 -0.02737873 -5.4989309 -0.027455319 -5.5135531 -40.410885 -122.07651
27982000 -40.720402 -72.708267 -0.028407034 -5.6973515 -0.02833486 -5.7302294 -40.118801 -120.72145
28981000 -40.655212 -73.897896 -0.02630119 -5.8931046 -0.028991506 -5.9150901 -39.912994 -120.19902
29980000 -40.259243 -75.305794 -0.026617626 -6.0911503 -0.029106429 -6.09374 -39.669712 -119.03039
30979000 -39.853722 -74.435844 -0.024048775 -6.4452381 -0.023680992 -6.4370961 -39.118198 -119.40918
31978000 -39.657951 -75.389305 -0.023454819 -6.6388035 -0.024680302 -6.6282887 -38.878174 -118.79807
32977000 -39.475063 -76.831795 -0.023445709 -6.8495402 -0.025521787 -6.8462434 -38.62986 -118.79457
33976000 -39.272663 -77.929878 -0.024109686 -7.0517564 -0.025302809 -7.0454197 -38.345242 -118.11607
34975000 -38.986279 -78.538437 -0.024363225 -7.2471313 -0.026667112 -7.2482181 -38.118652 -117.80518
35974000 -38.785137 -79.324654 -0.023046227 -7.4459009 -0.026231134 -7.4471431 -37.843006 -116.90195
36973000 -38.566952 -79.891953 -0.023695568 -7.646584 -0.027265416 -7.6505609 -37.588085 -116.15801
37972000 -38.394985 -79.728683 -0.023040501 -7.8549013 -0.027352421 -7.8641186 -37.366634 -115.22824
38971000 -38.086216 -79.042664 -0.024553262 -8.0564346 -0.027741358 -8.0650682 -37.185932 -113.73833
39970000 -37.758259 -79.467972 -0.02221667 -8.2530308 -0.026873918 -8.2704916 -36.956394 -113.17005
40969000 -37.467651 -79.069756 -0.022936409 -8.446619 -0.026309524 -8.4697056 -36.72422 -111.70386
41968000 -37.108307 -78.964867 -0.023583129 -8.6497488 -0.026748635 -8.6673098 -36.532166 -110.41881
42967000 -36.864807 -79.044739 -0.02265797 -8.8647499 -0.026645495 -8.8795671 -36.331543 -108.64902
43966000 -36.5611 -79.636688 -0.023984222 -9.0630093 -0.028130328 -9.0804901 -36.063335 -107.90083
44965000 -36.318249 -80.467445 -0.024310121 -9.2603521 -0.028183741 -9.2843189 -35.849159 -107.61887
45964000 -36.110901 -81.49778 -0.025979308 -9.46768 -0.02938945 -9.486907 -35.626709 -107.33141
46963000 -35.90575 -83.357994 -0.025829313 -9.6613932 -0.029708456 -9.6814642 -35.447697 -107.5416
47962000 -35.726227 -84.793648 -0.027180757 -9.861824 -0.030612178 -9.8789206 -35.249027 -107.5631
48961000 -35.516891 -86.236778 -0.029527318 -10.059673 -0.032229282 -10.079446 -35.021091 -107.80221
49960000 -35.285851 -87.470261 -0.030207604 -10.254847 -0.033836033 -10.28367 -34.894768 -107.88969
50959000 -35.055569 -88.720467 -0.031486884 -10.471227 -0.034508906 -10.48257 -34.713356 -108.10052
51958000 -34.850342 -89.780983 -0.033212826 -10.664212 -0.036113627 -10.68272 -34.527184 -108.58229
52957000 -34.644989 -90.810478 -0.034766186 -10.868088 -0.036743257 -10.878466 -34.36668 -108.33732
53956000 -34.47559 -91.54686 -0.03575474 -11.07177 -0.038573667 -11.076105 -34.254078 -108.35858
54955000 -34.30088 -92.000626 -0.036941666 -11.272777 -0.038699292 -11.271578 -34.0909 -108.31141
55954000 -34.125362 -92.837547 -0.03800723 -11.47254 -0.039057642 -11.474234 -33.984528 -108.05003
56953000 -34.017815 -92.843864 -0.037121288 -11.675463 -0.037366711 -11.665202 -33.913216 -108.19222
57952000 -33.857063 -93.355942 -0.038511772 -11.869424 -0.038994692 -11.859257 -33.807076 -108.25797
58951000 -33.729801 -93.838051 -0.039823279 -12.076084 -0.039317019 -12.054665 -33.647289 -108.40984
59950000 -33.604488 -94.123985 -0.040435418 -12.276453 -0.040456321 -12.256543 -33.579311 -108.60744
60949000 -33.496593 -94.749924 -0.040536013 -12.473914 -0.041662045 -12.452954 -33.478168 -108.94359
61948000 -33.420494 -95.032333 -0.040783722 -12.672976 -0.040918555 -12.66045 -33.3881 -108.98988
62947000 -33.331486 -95.212837 -0.040693834 -12.886771 -0.041320205 -12.868363 -33.244747 -109.28115
63946000 -33.25676 -96.012245 -0.042400695 -13.087095 -0.042632565 -13.067824 -33.1413 -109.43446
64945000 -33.143772 -96.136559 -0.04280144 -13.286626 -0.042827584 -13.271749 -33.023624 -109.86848
65944000 -33.042419 -96.438957 -0.043693509 -13.487477 -0.043601993 -13.473453 -32.928383 -110.34234
66943000 -32.901592 -96.828743 -0.041523792 -13.691134 -0.041940399 -13.671742 -32.823532 -110.59348
67942000 -32.844433 -96.764236 -0.043184705 -13.8837 -0.043676775 -13.871761 -32.702709 -110.87145
68941000 -32.744015 -96.842911 -0.042862091 -14.082782 -0.043255035 -14.069139 -32.603664 -110.87024
69940000 -32.644413 -96.850494 -0.043265752 -14.276849 -0.043827649 -14.268573 -32.450737 -111.12445
70939000 -32.5341 -96.754074 -0.043319091 -14.474331 -0.043823987 -14.47137 -32.332767 -110.96835
71938000 -32.390659 -96.422516 -0.042852942 -14.670584 -0.043188624 -14.66221 -32.186974 -110.88698
72937000 -32.239296 -96.142723 -0.042984962 -14.86869 -0.042485651 -14.868012 -32.063717 -110.57767
73936000 -32.094967 -95.808472 -0.042335872 -15.067049 -0.042222686 -15.059752 -31.946409 -110.35257
74935000 -31.967258 -95.941193 -0.042233665 -15.259609 -0.041319422 -15.260253 -31.798143 -109.98628
75934000 -31.852823 -96.269173 -0.041923668 -15.47162 -0.041099906 -15.466634 -31.708569 -109.91216
76933000 -31.726751 -96.575844 -0.043355431 -15.668303 -0.042906012 -15.660077 -31.538286 -110.22261
77932000 -31.617813 -97.426224 -0.043432038 -15.861472 -0.044993769 -15.85828 -31.444714 -110.2422
78931000 -31.541656 -98.112228 -0.042740267 -16.063681 -0.044043116 -16.062569 -31.351658 -110.09393
79930000 -31.438162 -99.00219 -0.044962645 -16.259314 -0.045892041 -16.254326 -31.248873 -110.38436
80929000 -31.315498 -99.75164 -0.046576992 -16.453199 -0.047871832 -16.454 -31.149549 -110.57074
81928000 -31.217049 -100.52245 -0.047193222 -16.642958 -0.047855865 -16.642315 -31.022846 -110.60244
82927000 -31.127901 -101.15078 -0.048835885 -16.843641 -0.048863634 -16.844139 -30.915611 -110.88148
83926000 -31.004107 -101.87331 -0.050288785 -17.042337 -0.050159421 -17.043762 -30.805815 -111.10509
84925000 -30.89979 -102.26392 -0.050964735 -17.239252 -0.049932912 -17.234734 -30.697206 -111.08453
85924000 -30.803896 -102.70178 -0.051504314 -17.443342 -0.05162717 -17.439831 -30.626593 -111.12373
86923000 -30.69809 -103.16935 -0.052030861 -17.640602 -0.0515588 -17.63501 -30.521544 -110.93712
87922000 -30.586899 -103.55745 -0.051331695 -17.848459 -0.050528929 -17.837729 -30.431818 -111.03801
88921000 -30.5194 -103.77813 -0.052743506 -18.044485 -0.052194603 -18.041187 -30.332615 -110.94889
89920000 -30.414633 -104.31399 -0.054178577 -18.244431 -0.052140631 -18.236137 -30.28627 -111.21452
90919000 -30.315943 -104.62312 -0.05401817 -18.443949 -0.054110691 -18.433807 -30.19768 -111.34566
91918000 -30.218884 -104.98143 -0.055295043 -18.641121 -0.05430413 -18.634136 -30.124708 -111.40239
92917000 -30.125546 -105.20802 -0.055965219 -18.84103 -0.055518426 -18.837414 -30.06407 -111.4724
93916000 -30.042877 -105.59671 -0.055992492 -19.030832 -0.054632574 -19.029032 -29.977249 -112.03043
94915000 -29.95978 -106.15829 -0.056801774 -19.234619 -0.056022909 -19.229883 -29.908253 -111.96656
95914000 -29.889091 -106.40127 -0.058274653 -19.429365 -0.056551576 -19.426207 -29.824057 -112.15688
96913000 -29.799435 -106.62205 -0.059350189 -19.627268 -0.05753015 -19.629503 -29.751028 -112.49805
97912000 -29.729797 -107.0623 -0.059948549 -19.825001 -0.057660785 -19.826723 -29.672989 -112.75146
98911000 -29.622463 -107.22334 -0.060333855 -20.0277 -0.05946723 -20.025728 -29.628695 -113.01184
99910000 -29.554789 -107.368 -0.061078053 -20.22529 -0.05951158 -20.226627 -29.522205 -113.28435
100909000 -29.463169 -107.6264 -0.061200652 -20.434753 -0.05903057 -20.429234 -29.443846 -113.50069
101908000 -29.379257 -107.8106 -0.061990164 -20.636112 -0.060141198 -20.634312 -29.337011 -113.23007
102907000 -29.240696 -107.7873 -0.061945785 -20.831778 -0.059971645 -20.832804 -29.255829 -113.25386
103906000 -29.14563 -107.88715 -0.062820785 -21.044386 -0.059492685 -21.034187 -29.12022 -113.19041
104905000 -29.004984 -107.73414 -0.063270435 -21.238564 -0.060495283 -21.234688 -28.995348 -112.83478
105904000 -28.862572 -107.8201 -0.063960493 -21.443327 -0.060856223 -21.436337 -28.881926 -112.74197
106903000 -28.755718 -107.89979 -0.063566722 -21.646261 -0.061137907 -21.639694 -28.756254 -112.63477
107902000 -28.589006 -108.23431 -0.064056903 -21.847458 -0.061409373 -21.839682 -28.621138 -112.58965
108901000 -28.487167 -108.43556 -0.065633692 -22.05102 -0.062634848 -22.044651 -28.495569 -112.51748
109900000 -28.354433 -108.90075 -0.065810822 -22.251741 -0.064106293 -22.244366 -28.346235 -112.6188
110899000 -28.243113 -109.53675 -0.06756676 -22.449745 -0.064281002 -22.440079 -28.224613 -112.85923
111898000 -28.147629 -110.13545 -0.068919949 -22.651535 -0.066176146 -22.642218 -28.107712 -113.01463
112897000 -28.020102 -110.71773 -0.070469566 -22.84816 -0.066571727 -22.837538 -27.974762 -113.15909
113896000 -27.921871 -111.29595 -0.071216553 -23.049507 -0.068231732 -23.036222 -27.863079 -113.27679
114895000 -27.812372 -111.88727 -0.072013147 -23.246504 -0.069058552 -23.236059 -27.758837 -113.38177
115894000 -27.690622 -112.25992 -0.072531663 -23.44787 -0.070232257 -23.433836 -27.694464 -113.58353
116893000 -27.609381 -112.74926 -0.074263461 -23.642859 -0.071767338 -23.629843 -27.563715 -113.59693
117892000 -27.534561 -113.19569 -0.073827416 -23.83814 -0.071845241 -23.829964 -27.487646 -113.83421
118891000 -27.471991 -113.68263 -0.075037174 -24.044697 -0.071588121 -24.028915 -27.390324 -113.96351
119890000 -27.384418 -114.02488 -0.075114869 -24.240583 -0.072634578 -24.229502 -27.379805 -114.11208
120889000 -27.335772 -114.52967 -0.076280199 -24.445902 -0.072247393 -24.427288 -27.301542 -114.05652
121888000 -27.29229 -114.83219 -0.076161914 -24.639542 -0.073356926 -24.630413 -27.242775 -114.33163
122887000 -27.257614 -115.03103 -0.077711478 -24.8395 -0.074279524 -24.83218 -27.195644 -114.37508
123886000 -27.196012 -115.47976 -0.077912822 -25.04348 -0.074307434 -25.027725 -27.181932 -114.48843
124885000 -27.15921 -115.98161 -0.078407526 -25.24629 -0.074790403 -25.232864 -27.15246 -114.52715
125884000 -27.111179 -116.18171 -0.079179607 -25.443176 -0.074842811 -25.429359 -27.122635 -114.68983
126883000 -27.09285 -116.52498 -0.079417668 -25.644802 -0.075822093 -25.630543 -27.080889 -114.68851
127882000 -27.044462 -116.83035 -0.079563722 -25.846369 -0.076710694 -25.830454 -27.04261 -114.8569
128881000 -27.00983 -117.16479 -0.079726398 -26.046244 -0.076466464 -26.031796 -27.004831 -114.91369
129880000 -26.95373 -117.49465 -0.080940172 -26.250849 -0.076627702 -26.232008 -26.962095 -114.85272
130879000 -26.901863 -117.65397 -0.080491066 -26.448156 -0.077398941 -26.433504 -26.887529 -114.88229
131878000 -26.834995 -117.85902 -0.080859207 -26.652353 -0.077713855 -26.632114 -26.830706 -114.76589
132877000 -26.771896 -117.92533 -0.080466539 -26.854675 -0.07732252 -26.834818 -26.751534 -114.7857
133876000 -26.683504 -118.09766 -0.080998987 -27.055555 -0.077917039 -27.038134 -26.663294 -114.62123
134875000 -26.592762 -118.19664 -0.080992915 -27.252466 -0.078022197 -27.23605 -26.563828 -114.48873
135874000 -26.513622 -118.20835 -0.080654562 -27.454475 -0.078417018 -27.440315 -26.472435 -114.40781
136873000 -26.399921 -118.18951 -0.080698073 -27.658066 -0.078234889 -27.638678 -26.390818 -114.33361
137872000 -26.322069 -118.27832 -0.080742382 -27.858278 -0.078447066 -27.842524 -26.291101 -114.27497
138871000 -26.248882 -118.45805 -0.082364015 -28.05456 -0.078649499 -28.045078 -26.198042 -114.4548
139870000 -26.149849 -118.80027 -0.08202371 -28.261118 -0.079538152 -28.239201 -26.118307 -114.57148
140869000 -26.07316 -119.33726 -0.082765825 -28.456903 -0.080125585 -28.437885 -26.019871 -114.81177
141868000 -25.995108 -119.70325 -0.084088661 -28.654894 -0.081922412 -28.638531 -25.971645 -115.04331
142867000 -25.910398 -119.89195 -0.082716487 -28.850046 -0.080308586 -28.834826 -25.892294 -115.17333
143866000 -25.839321 -120.40568 -0.084996112 -29.048508 -0.082051672 -29.032316 -25.816101 -115.63023
144865000 -25.784184 -120.89905 -0.085941777 -29.247314 -0.08356481 -29.23267 -25.76177 -115.9096
145864000 -25.729061 -121.22562 -0.086255461 -29.448416 -0.084221944 -29.433973 -25.732851 -116.16081
146863000 -25.685949 -121.58017 -0.087400012 -29.650877 -0.085059464 -29.640406 -25.683405 -116.48638
147862000 -25.647163 -121.94115 -0.088173434 -29.846062 -0.08557637 -29.834536 -25.653158 -116.79998
148861000 -25.615301 -122.32687 -0.088597968 -30.044107 -0.086672157 -30.031328 -25.625225 -116.91847
149860000 -25.581823 -122.53175 -0.090036221 -30.235939 -0.08740741 -30.225344 -25.577471 -117.0536
150859000 -25.560448 -123.01854 -0.089639552 -30.434982 -0.087690026 -30.421181 -25.559837 -117.43901
151858000 -25.542433 -123.36976 -0.089809738 -30.638288 -0.086753227 -30.618824 -25.548407 -117.76244
152857000 -25.534067 -123.68243 -0.089647219 -30.831255 -0.086892925 -30.821533 -25.538982 -117.95688
153856000 -25.534304 -123.91609 -0.089505047 -31.033054 -0.086410724 -31.021141 -25.550402 -118.26892
154855000 -25.52659 -124.06216 -0.08948496 -31.235155 -0.086693808 -31.223366 -25.540432 -118.49952
155854000 -25.545744 -124.32227 -0.08982189 -31.435106 -0.087241545 -31.419865 -25.53026 -118.75992
156853000 -25.532892 -125.02671 -0.087725423 -31.620613 -0.086395673 -31.612797 -25.528959 -119.07604
157852000 -25.540653 -125.24104 -0.088940643 -31.819187 -0.088242382 -31.812235 -25.515501 -119.42176
158851000 -25.538385 -125.46365 -0.089376092 -32.021309 -0.088415682 -32.011189 -25.499189 -119.71684
159850000 -25.532404 -125.57725 -0.090254523 -32.219208 -0.088704973 -32.212734 -25.496948 -119.88304
160849000 -25.507145 -125.661 -0.090084583 -32.421398 -0.089488134 -32.41526 -25.468895 -120.15991
161848000 -25.495939 -125.71473 -0.090355225 -32.623184 -0.089010924 -32.611549 -25.433687 -120.28098
162847000 -25.45359 -125.92981 -0.090563759 -32.815281 -0.089987591 -32.812897 -25.403429 -120.50311
163846000 -25.415512 -126.09402 -0.090446405 -33.019566 -0.090044677 -33.011318 -25.326126 -120.55796
164845000 -25.358255 -126.06728 -0.09094175 -33.218235 -0.090150394 -33.212032 -25.265671 -120.59034
165844000 -25.310163 -126.10692 -0.090424731 -33.421398 -0.090768084 -33.415726 -25.186102 -120.76904
166843000 -25.245182 -126.15765 -0.091699935 -33.617496 -0.090507723 -33.612782 -25.123428 -120.8841
167842000 -25.187298 -126.2723 -0.091236226 -33.820721 -0.091161154 -33.81012 -25.044952 -120.82265
168841000 -25.113319 -126.41003 -0.09191779 -34.016308 -0.090451695 -34.013363 -24.965813 -120.8913
169840000 -25.04516 -126.64674 -0.091922812 -34.211639 -0.090964481 -34.209351 -24.887077 -121.0854
170839000 -24.989267 -126.89844 -0.092967309 -34.41127 -0.092338204 -34.409428 -24.805403 -121.2228
171838000 -24.928202 -127.28411 -0.092441328 -34.612877 -0.092863373 -34.608215 -24.743254 -121.46496
172837000 -24.857662 -127.62155 -0.094262831 -34.807411 -0.094112046 -34.800804 -24.680033 -121.66948
173836000 -24.79147 -127.98954 -0.095519572 -35.005497 -0.095071338 -35.005238 -24.638453 -121.86037
174835000 -24.736124 -128.38829 -0.095542066 -35.202511 -0.09573286 -35.204239 -24.594275 -122.19891
175834000 -24.680187 -128.78476 -0.096271411 -35.403904 -0.0964498 -35.398087 -24.533766 -122.46229
176833000 -24.636734 -129.11171 -0.097469442 -35.602886 -0.097552039 -35.602741 -24.485201 -122.61149
177832000 -24.592804 -129.53249 -0.098694541 -35.800762 -0.097740538 -35.801884 -24.466156 -122.70998
178831000 -24.543276 -129.7804 -0.10046463 -35.99929 -0.099516854 -35.995907 -24.42255 -122.8022
179830000 -24.472837 -130.12926 -0.10135749 -36.183933 -0.10030144 -36.184254 -24.361698 -122.86725
180829000 -24.423956 -130.5049 -0.10034329 -36.374992 -0.099422567 -36.37484 -24.31846 -123.19996
181828000 -24.404655 -130.94597 -0.099422567 -36.574066 -0.098509446 -36.575554 -24.30205 -123.41833
182827000 -24.380754 -131.30917 -0.098966241 -36.772694 -0.098951943 -36.773354 -24.288986 -123.54768
183826000 -24.339369 -131.64706 -0.10082864 -36.974178 -0.099423096 -36.965961 -24.279137 -123.69788
184825000 -24.34424 -132.01646 -0.10063841 -37.168888 -0.099867538 -37.169025 -24.261751 -123.81964
185824000 -24.311665 -132.34415 -0.099750996 -37.363632 -0.099693254 -37.368793 -24.254992 -123.89183
186823000 -24.295267 -132.70927 -0.10074703 -37.565784 -0.099159308 -37.563709 -24.24852 -123.91064
187822000 -24.273018 -133.04539 -0.10094362 -37.757095 -0.099922903 -37.761086 -24.208185 -123.9684
188821000 -24.247171 -133.31308 -0.10029879 -37.955826 -0.10067921 -37.958633 -24.190704 -124.1086
189820000 -24.228283 -133.60712 -0.10107133 -38.153736 -0.10015574 -38.152328 -24.174438 -124.28897
190819000 -24.193531 -133.90063 -0.10162618 -38.351559 -0.10100456 -38.350971 -24.133039 -124.33369
191818000 -24.161114 -134.21426 -0.10190336 -38.549587 -0.10098071 -38.549496 -24.103939 -124.36656
192817000 -24.11977 -134.46338 -0.10181485 -38.746784 -0.1012303 -38.748703 -24.06242 -124.45779
193816000 -24.087095 -134.73166 -0.10227598 -38.943817 -0.10181432 -38.941998 -24.007015 -124.62305
194815000 -24.030228 -135.11647 -0.10217924 -39.137264 -0.10231838 -39.141457 -23.939249 -124.65754
195814000 -23.968933 -135.30731 -0.10400935 -39.337589 -0.10181883 -39.336456 -23.888224 -124.7736
196813000 -23.917467 -135.6207 -0.10350244 -39.530136 -0.10143698 -39.532093 -23.805202 -124.9017
197812000 -23.85705 -135.83759 -0.1030449 -39.726997 -0.10283284 -39.7258 -23.73921 -124.97126
198811000 -23.804203 -136.00262 -0.10409498 -39.924248 -0.10257918 -39.927227 -23.666115 -125.13579
199810000 -23.739054 -136.33087 -0.10384841 -40.116745 -0.10254261 -40.117634 -23.592541 -125.23846
200809000 -23.682585 -136.57028 -0.10438108 -40.319111 -0.10314111 -40.315231 -23.514448 -125.40376
201808000 -23.619583 -136.78864 -0.10498673 -40.516434 -0.10385212 -40.520653 -23.449059 -125.47813
202807000 -23.564276 -137.11633 -0.10514135 -40.716465 -0.10477962 -40.718639 -23.395592 -125.67498
