!Keysight Technologies,E5080B,MY59205177,A.15.75.32
!Date: Friday, February 23, 2024 03:02:00
!Correction: S11(Cdelta 2-Port  ) 
!S21(Cdelta 2-Port  ) 
!S12(Cdelta 2-Port  ) 
!S22(Cdelta 2-Port  ) 
!S2P File: Measurements: S11, S21, S12, S22:
# Hz S  dB   R 50
10000000 -44.126583 -3.9925752 -0.026957007 -2.0410004 -0.030713066 -2.0920472 -48.078579 -150.41916
10999000 -43.520653 -5.5790658 -0.027991202 -2.2539921 -0.030112201 -2.3105872 -47.859745 -142.47929
11998000 -42.746075 -8.1407557 -0.02804357 -2.4765468 -0.03041484 -2.5230587 -47.838623 -137.69211
12997000 -42.104118 -12.672395 -0.026943203 -2.6573517 -0.030917458 -2.6925151 -47.256966 -130.94148
13996000 -41.852707 -16.123905 -0.026389217 -2.8361092 -0.030815 -2.8608761 -46.85445 -124.83456
14995000 -41.550442 -19.842707 -0.02929198 -3.0446887 -0.029695947 -3.0691388 -46.36462 -121.64114
15994000 -41.438118 -23.749052 -0.03004 -3.2657018 -0.032182083 -3.2864587 -46.088165 -118.28676
16993000 -41.408211 -27.781511 -0.029288592 -3.4558494 -0.031083532 -3.4714222 -45.222862 -118.71815
17992000 -41.47155 -32.285938 -0.029529404 -3.6595876 -0.032215722 -3.6660316 -44.635353 -120.05298
18991000 -41.761585 -37.00227 -0.030049384 -3.8705454 -0.032428529 -3.8646226 -43.873871 -119.48035
19990000 -41.626709 -42.204609 -0.032367762 -4.0773048 -0.03488335 -4.0736771 -43.215813 -120.98248
20989000 -41.520905 -44.730755 -0.03482281 -4.2791753 -0.036248058 -4.2691579 -42.652363 -120.92044
21988000 -41.411255 -49.40818 -0.036005307 -4.477457 -0.037040353 -4.4656215 -42.351566 -120.18867
22987000 -41.217052 -53.851204 -0.037719466 -4.6764202 -0.038453791 -4.6689987 -42.050564 -119.68163
23986000 -41.176579 -57.378124 -0.03658323 -4.8698063 -0.037331201 -4.8699446 -41.921535 -119.9109
24985000 -40.866573 -60.263618 -0.037493084 -5.0756993 -0.0375534 -5.0741935 -41.693027 -117.23328
25984000 -40.62125 -62.508579 -0.038203608 -5.283 -0.037911132 -5.2854581 -41.383793 -115.90666
26983000 -40.367138 -64.436707 -0.039436396 -5.4823818 -0.038641311 -5.4970069 -41.226883 -114.81412
27982000 -40.18605 -65.293533 -0.040786073 -5.6802859 -0.040865771 -5.7144861 -40.906288 -113.66835
28981000 -40.180309 -66.612144 -0.038767982 -5.8803234 -0.040326204 -5.9016438 -40.668804 -113.03282
29980000 -39.814316 -68.220413 -0.039252236 -6.0716052 -0.040381074 -6.0793633 -40.343174 -112.38831
30979000 -39.453846 -67.435188 -0.036608815 -6.428493 -0.035298537 -6.4131684 -39.825199 -113.05093
31978000 -39.260002 -68.333076 -0.035027657 -6.6214733 -0.036860999 -6.6102595 -39.545551 -112.59301
32977000 -39.086613 -70.024765 -0.035804592 -6.8310795 -0.037079778 -6.8268466 -39.328373 -112.72693
33976000 -38.934433 -71.258705 -0.036658414 -7.0282421 -0.038409919 -7.0218401 -39.007668 -112.36658
34975000 -38.688435 -72.194382 -0.035953626 -7.2276697 -0.038486961 -7.2274961 -38.779377 -112.0887
35974000 -38.485542 -72.905907 -0.03553655 -7.4236021 -0.037730694 -7.425921 -38.478664 -111.25449
36973000 -38.277901 -73.758148 -0.035252083 -7.6216469 -0.039120853 -7.6245608 -38.177162 -110.48542
37972000 -38.09639 -73.618385 -0.035185277 -7.8346081 -0.038794361 -7.8411717 -37.95137 -109.84259
38971000 -37.774311 -73.399673 -0.036563393 -8.0315495 -0.038956556 -8.0461025 -37.744663 -108.35488
39970000 -37.475548 -74.072258 -0.034378968 -8.2276459 -0.037849505 -8.2396355 -37.454166 -108.06757
40969000 -37.180016 -73.914322 -0.034935277 -8.4213047 -0.037464101 -8.4400654 -37.194721 -106.61862
41968000 -36.831799 -74.064941 -0.034978073 -8.6234694 -0.038494535 -8.6374054 -36.985878 -105.62084
42967000 -36.581642 -74.481377 -0.035069149 -8.8333168 -0.038805332 -8.8524513 -36.760773 -103.81789
43966000 -36.288456 -75.228149 -0.036068995 -9.0379734 -0.040138874 -9.0556221 -36.470165 -103.17309
44965000 -36.067551 -76.042198 -0.037129905 -9.2404757 -0.040412426 -9.2551069 -36.274586 -103.05988
45964000 -35.866379 -77.40731 -0.037335902 -9.4421864 -0.040563188 -9.4572182 -36.01511 -103.00047
46963000 -35.686718 -79.300514 -0.037362013 -9.6300039 -0.041443821 -9.6535969 -35.83231 -103.3019
47962000 -35.529293 -80.726227 -0.039824326 -9.8316374 -0.042781051 -9.8511591 -35.635647 -103.50995
48961000 -35.340031 -82.268829 -0.042021684 -10.026361 -0.044231925 -10.047397 -35.396984 -103.75764
49960000 -35.144642 -83.573898 -0.04294052 -10.231752 -0.045287244 -10.252551 -35.25845 -103.92968
50959000 -34.913273 -84.953674 -0.043307588 -10.440725 -0.046214096 -10.452398 -35.080212 -104.31007
51958000 -34.728096 -86.055351 -0.045336943 -10.637873 -0.047535524 -10.648518 -34.910934 -104.84779
52957000 -34.518761 -87.376122 -0.046349097 -10.839516 -0.048454218 -10.843925 -34.747925 -104.83756
53956000 -34.371849 -87.97599 -0.047687579 -11.04104 -0.049670283 -11.041886 -34.612202 -104.77252
54955000 -34.205326 -88.472893 -0.048440345 -11.24015 -0.049965121 -11.236819 -34.468304 -104.79307
55954000 -34.050236 -89.404793 -0.049857497 -11.438294 -0.050336968 -11.438811 -34.35223 -104.56045
56953000 -33.935234 -89.588814 -0.04834925 -11.638373 -0.049110509 -11.627781 -34.279778 -104.77226
57952000 -33.792839 -90.033554 -0.049985282 -11.834105 -0.051132366 -11.82806 -34.180557 -104.89862
58951000 -33.670784 -90.341003 -0.050914709 -12.037576 -0.051799539 -12.02161 -34.023567 -105.00002
59950000 -33.535652 -90.771217 -0.051274329 -12.239334 -0.052693721 -12.221559 -33.951572 -105.24341
60949000 -33.42577 -91.358749 -0.052101858 -12.439956 -0.052815039 -12.424347 -33.85603 -105.56325
61948000 -33.386086 -91.647499 -0.053195778 -12.639189 -0.052811369 -12.623033 -33.768715 -105.70607
62947000 -33.294731 -91.855545 -0.052601755 -12.851136 -0.053209666 -12.831495 -33.63522 -105.93679
63946000 -33.224957 -92.644356 -0.054067709 -13.050793 -0.053944521 -13.029816 -33.533665 -106.19073
64945000 -33.116768 -92.758461 -0.054262716 -13.251669 -0.054997485 -13.230215 -33.422436 -106.63661
65944000 -33.022671 -93.062836 -0.055238415 -13.450138 -0.055237629 -13.428986 -33.342148 -107.03773
66943000 -32.889706 -93.56736 -0.053174291 -13.649655 -0.053728823 -13.634055 -33.223671 -107.32803
67942000 -32.822384 -93.478333 -0.055064861 -13.845922 -0.055845913 -13.833169 -33.11039 -107.62488
68941000 -32.716518 -93.63652 -0.05439325 -14.040759 -0.054776751 -14.027647 -33.009548 -107.6077
69940000 -32.622692 -93.604462 -0.055238154 -14.241282 -0.055008758 -14.230509 -32.851074 -107.95312
70939000 -32.517483 -93.622833 -0.055023175 -14.432615 -0.055767249 -14.427634 -32.736923 -107.858
71938000 -32.377079 -93.350716 -0.0550819 -14.633162 -0.054757353 -14.625921 -32.592773 -107.71062
72937000 -32.21838 -93.053635 -0.05356057 -14.830021 -0.055115458 -14.821731 -32.451374 -107.47746
73936000 -32.079411 -92.825981 -0.053660419 -15.026698 -0.053938229 -15.019183 -32.349812 -107.26884
74935000 -31.946562 -93.072617 -0.053430583 -15.220867 -0.053073142 -15.218163 -32.186333 -107.0452
75934000 -31.823317 -93.345833 -0.053469367 -15.429426 -0.05334384 -15.423877 -32.101994 -106.99934
76933000 -31.699457 -93.756989 -0.054565467 -15.622463 -0.055246804 -15.61641 -31.933777 -107.38209
77932000 -31.607759 -94.598602 -0.055544119 -15.822842 -0.056467131 -15.810604 -31.831041 -107.34279
78931000 -31.547297 -95.353577 -0.054176219 -16.019777 -0.055377368 -16.014381 -31.740858 -107.25248
79930000 -31.426853 -96.120781 -0.058060575 -16.211809 -0.0580834 -16.209366 -31.644226 -107.55942
80929000 -31.310305 -97.125969 -0.058413442 -16.407875 -0.059794229 -16.400972 -31.531286 -107.95103
81928000 -31.21781 -97.986526 -0.058542266 -16.597374 -0.06015721 -16.592375 -31.417984 -108.06028
82927000 -31.133801 -98.630486 -0.060961753 -16.796137 -0.061128981 -16.794937 -31.322559 -108.3867
83926000 -31.020958 -99.362518 -0.061487347 -16.99028 -0.061852835 -16.993786 -31.209154 -108.57404
84925000 -30.913832 -99.914505 -0.063166425 -17.19186 -0.062018521 -17.187279 -31.104134 -108.66509
85924000 -30.821903 -100.31828 -0.06321685 -17.394743 -0.063818373 -17.389755 -31.021582 -108.67177
86923000 -30.724701 -100.83047 -0.063730113 -17.587976 -0.063868545 -17.582022 -30.927732 -108.53035
87922000 -30.615309 -101.19886 -0.063840181 -17.79673 -0.063020393 -17.789577 -30.836094 -108.67646
88921000 -30.548458 -101.4922 -0.064421557 -17.990246 -0.063983873 -17.991486 -30.74365 -108.58817
89920000 -30.445871 -102.04601 -0.06501773 -18.196737 -0.065463662 -18.18429 -30.685925 -108.78192
90919000 -30.346188 -102.32488 -0.06569019 -18.387459 -0.065380618 -18.383741 -30.604906 -108.98633
91918000 -30.262135 -102.76871 -0.066749953 -18.590054 -0.065864176 -18.583048 -30.535978 -109.01272
92917000 -30.170969 -103.08785 -0.06735985 -18.786695 -0.067189224 -18.783449 -30.473137 -109.14052
93916000 -30.087015 -103.42403 -0.066897422 -18.980057 -0.066913195 -18.974445 -30.38035 -109.72794
94915000 -30.009556 -104.05988 -0.068387412 -19.182505 -0.067821801 -19.175346 -30.327469 -109.5724
95914000 -29.945177 -104.3294 -0.069554351 -19.373219 -0.068907857 -19.373394 -30.233912 -109.85513
96913000 -29.860708 -104.54072 -0.070611902 -19.575537 -0.069717966 -19.57407 -30.167965 -110.27754
97912000 -29.797596 -104.99492 -0.071285754 -19.76906 -0.070103087 -19.770958 -30.086838 -110.45551
98911000 -29.696077 -105.20107 -0.071965508 -19.972654 -0.071500227 -19.967794 -30.048435 -110.70441
99910000 -29.624039 -105.40403 -0.072927557 -20.170982 -0.072064206 -20.168549 -29.946484 -110.96028
100909000 -29.53376 -105.68311 -0.071903929 -20.375168 -0.070900269 -20.369444 -29.85355 -111.26228
101908000 -29.447456 -105.89014 -0.073382467 -20.578417 -0.072526924 -20.573223 -29.749249 -111.02891
102907000 -29.322243 -105.94982 -0.073815309 -20.778015 -0.072569825 -20.77706 -29.672827 -110.94695
103906000 -29.230257 -105.95606 -0.074021734 -20.982323 -0.071889713 -20.975554 -29.523832 -110.89048
104905000 -29.074736 -105.96091 -0.074520998 -21.179659 -0.072176591 -21.180876 -29.395159 -110.63086
105904000 -28.942129 -106.03193 -0.074381955 -21.384081 -0.071678124 -21.374584 -29.27951 -110.45625
106903000 -28.826206 -106.16615 -0.075213902 -21.586235 -0.07266748 -21.582657 -29.154215 -110.4033
107902000 -28.667318 -106.50574 -0.076215655 -21.785265 -0.073555179 -21.778383 -29.017572 -110.35831
108901000 -28.55479 -106.76996 -0.076830573 -21.986788 -0.074184462 -21.978466 -28.883987 -110.26998
109900000 -28.434036 -107.24186 -0.077756017 -22.187551 -0.075796805 -22.179277 -28.737732 -110.36582
110899000 -28.320398 -107.90343 -0.078721985 -22.385651 -0.076100796 -22.377684 -28.615263 -110.65936
111898000 -28.22858 -108.53683 -0.080009304 -22.588362 -0.077591047 -22.579596 -28.50161 -110.81295
112897000 -28.100979 -109.19462 -0.081247687 -22.786652 -0.079007991 -22.771992 -28.365065 -111.00381
113896000 -27.99452 -109.74577 -0.082585894 -22.985905 -0.080069952 -22.97374 -28.252834 -111.16402
114895000 -27.897009 -110.3717 -0.083493032 -23.182863 -0.081191778 -23.170507 -28.142521 -111.24136
115894000 -27.771229 -110.6887 -0.08534088 -23.38274 -0.08271385 -23.370411 -28.072834 -111.41072
116893000 -27.687237 -111.31824 -0.085434861 -23.579844 -0.084160179 -23.559494 -27.949142 -111.55151
117892000 -27.612385 -111.78033 -0.085523039 -23.777529 -0.083880693 -23.761362 -27.874844 -111.78069
118891000 -27.547312 -112.21608 -0.086738437 -23.976219 -0.08441963 -23.963074 -27.779839 -111.97569
119890000 -27.462971 -112.56149 -0.087201133 -24.175749 -0.084779128 -24.158886 -27.769541 -112.06831
120889000 -27.414701 -113.05816 -0.08822336 -24.373026 -0.08453761 -24.360456 -27.690306 -111.99389
121888000 -27.370722 -113.37173 -0.088475384 -24.575256 -0.085212581 -24.561886 -27.632868 -112.33646
122887000 -27.330072 -113.59856 -0.088975258 -24.778244 -0.085485548 -24.76227 -27.582125 -112.36559
123886000 -27.274786 -114.04271 -0.089358918 -24.97654 -0.086541176 -24.958628 -27.574703 -112.51997
124885000 -27.235781 -114.51198 -0.089765601 -25.172777 -0.086844862 -25.16398 -27.542738 -112.56116
125884000 -27.18807 -114.71819 -0.090673983 -25.373821 -0.086724445 -25.359104 -27.510565 -112.75398
126883000 -27.16466 -115.0902 -0.090653628 -25.577034 -0.087888665 -25.560551 -27.475021 -112.74661
127882000 -27.116041 -115.40758 -0.0902799 -25.777689 -0.088448703 -25.759533 -27.432333 -112.98396
128881000 -27.081903 -115.73251 -0.091108017 -25.976545 -0.088001989 -25.958099 -27.390587 -113.08713
129880000 -27.030828 -116.03885 -0.091945022 -26.177212 -0.08851739 -26.158922 -27.350584 -113.05972
130879000 -26.969265 -116.2269 -0.091948457 -26.37705 -0.089302897 -26.361704 -27.273359 -113.13091
131878000 -26.900379 -116.4337 -0.091510639 -26.578165 -0.089705884 -26.560858 -27.209017 -113.03342
132877000 -26.836115 -116.48974 -0.091638595 -26.782228 -0.089619465 -26.761059 -27.124023 -113.01936
133876000 -26.749552 -116.68076 -0.091708131 -26.979362 -0.089648269 -26.9629 -27.030787 -112.95693
134875000 -26.65501 -116.80137 -0.091806218 -27.17967 -0.090630636 -27.166325 -26.930527 -112.8401
135874000 -26.575832 -116.82488 -0.092173733 -27.379595 -0.089731775 -27.363001 -26.833364 -112.79995
136873000 -26.462843 -116.76278 -0.09268593 -27.58457 -0.089846469 -27.560886 -26.74596 -112.78305
137872000 -26.386726 -116.87522 -0.092345603 -27.78487 -0.089946628 -27.766624 -26.644608 -112.78244
138871000 -26.313173 -117.05364 -0.092945091 -27.980537 -0.091211647 -27.966513 -26.547186 -112.90981
139870000 -26.213511 -117.32741 -0.09382239 -28.182125 -0.092598401 -28.163298 -26.4594 -113.05002
140869000 -26.126673 -117.81905 -0.095336728 -28.380022 -0.093255311 -28.358816 -26.360645 -113.19556
141868000 -26.033503 -118.28506 -0.095464796 -28.567585 -0.093895398 -28.555979 -26.290604 -113.52864
142867000 -25.955082 -118.57211 -0.094114691 -28.766125 -0.09269201 -28.750404 -26.209566 -113.7407
143866000 -25.893461 -119.03977 -0.096472032 -28.963657 -0.093973167 -28.948654 -26.13965 -114.23396
144865000 -25.835285 -119.51785 -0.097471558 -29.163269 -0.095439658 -29.147627 -26.084433 -114.54379
145864000 -25.776352 -119.85648 -0.097488768 -29.364258 -0.096724011 -29.354141 -26.048836 -114.8085
146863000 -25.734655 -120.24995 -0.098942146 -29.561462 -0.097099356 -29.550735 -25.998135 -115.13616
147862000 -25.689713 -120.59826 -0.099346817 -29.76199 -0.097169243 -29.746752 -25.965641 -115.46263
148861000 -25.653446 -121.10465 -0.099469706 -29.95891 -0.097469702 -29.946333 -25.939507 -115.69199
149860000 -25.643116 -121.32196 -0.10022832 -30.153547 -0.097620077 -30.143995 -25.910534 -115.84525
150859000 -25.621519 -121.70038 -0.10006011 -30.355158 -0.098530099 -30.343508 -25.902428 -116.11523
151858000 -25.602497 -121.99009 -0.10040051 -30.55649 -0.098432913 -30.540915 -25.88969 -116.40299
152857000 -25.585154 -122.29783 -0.10082281 -30.749529 -0.09855181 -30.739082 -25.877209 -116.52532
153856000 -25.582664 -122.53176 -0.10063047 -30.953447 -0.097880855 -30.936165 -25.890303 -116.85473
154855000 -25.574516 -122.68073 -0.10092454 -31.14987 -0.098665677 -31.136858 -25.880203 -117.07003
155854000 -25.587063 -122.95256 -0.10096429 -31.349985 -0.099164076 -31.335024 -25.869175 -117.29359
156853000 -25.570885 -123.64253 -0.099292256 -31.536272 -0.098677061 -31.52651 -25.870237 -117.64381
157852000 -25.576925 -123.92428 -0.10050834 -31.737785 -0.099676564 -31.724413 -25.851362 -117.9493
158851000 -25.570045 -124.13735 -0.10136703 -31.93215 -0.10029031 -31.924816 -25.834473 -118.22327
159850000 -25.557281 -124.18204 -0.10166593 -32.132877 -0.09999124 -32.124641 -25.837202 -118.38957
160849000 -25.539719 -124.35098 -0.10181088 -32.329517 -0.10101834 -32.327488 -25.808846 -118.69205
161848000 -25.522001 -124.43665 -0.10237431 -32.532967 -0.10086043 -32.527351 -25.764341 -118.79445
162847000 -25.47892 -124.65845 -0.1021008 -32.732128 -0.10129549 -32.726376 -25.736046 -119.02886
163846000 -25.438866 -124.89616 -0.10229983 -32.931293 -0.10156178 -32.922356 -25.659065 -119.06408
164845000 -25.37315 -124.89812 -0.10259826 -33.126347 -0.10191026 -33.119278 -25.597486 -119.14119
165844000 -25.323563 -124.96039 -0.10210001 -33.329399 -0.10262291 -33.320099 -25.515833 -119.30363
166843000 -25.255186 -125.06812 -0.10207774 -33.527626 -0.10208464 -33.522095 -25.442757 -119.47701
167842000 -25.197712 -125.22021 -0.10316498 -33.725906 -0.10203852 -33.716148 -25.364914 -119.36024
168841000 -25.12525 -125.41897 -0.10298844 -33.923409 -0.10233799 -33.918186 -25.289518 -119.47285
169840000 -25.057734 -125.62862 -0.10321799 -34.116608 -0.1031056 -34.116005 -25.205202 -119.61807
170839000 -25.001476 -125.92365 -0.10450783 -34.312199 -0.10334126 -34.312119 -25.115076 -119.8438
171838000 -24.942089 -126.36198 -0.1039306 -34.515404 -0.10425699 -34.509834 -25.053968 -120.0937
172837000 -24.872679 -126.69483 -0.10582218 -34.710339 -0.10476796 -34.706612 -24.984762 -120.30965
173836000 -24.803974 -127.12597 -0.10671853 -34.913151 -0.1058373 -34.907593 -24.940561 -120.54621
174835000 -24.754337 -127.56236 -0.10675408 -35.105789 -0.10661427 -35.106171 -24.896877 -120.88821
175834000 -24.699905 -127.9512 -0.10751557 -35.305904 -0.10745135 -35.300209 -24.831768 -121.17049
176833000 -24.648829 -128.3125 -0.10856382 -35.499638 -0.10854843 -35.496616 -24.785994 -121.32649
177832000 -24.601572 -128.78941 -0.10913768 -35.693901 -0.10828992 -35.696663 -24.759378 -121.4791
178831000 -24.557524 -129.17133 -0.10920829 -35.896175 -0.10919847 -35.891663 -24.719509 -121.7086
179830000 -24.528234 -129.57542 -0.10967179 -36.088661 -0.1091098 -36.091061 -24.698095 -121.84159
180829000 -24.48748 -129.79999 -0.11009419 -36.286682 -0.11039183 -36.285591 -24.664989 -122.02554
181828000 -24.466038 -130.16356 -0.11021579 -36.48724 -0.11008569 -36.483475 -24.647684 -122.124
182827000 -24.439638 -130.50638 -0.11048211 -36.684544 -0.11057027 -36.677258 -24.634005 -122.23477
183826000 -24.396965 -130.83493 -0.1115911 -36.874733 -0.11076969 -36.875393 -24.627022 -122.33279
184825000 -24.404217 -131.1367 -0.11185299 -37.072437 -0.11086608 -37.074024 -24.607214 -122.42766
185824000 -24.370676 -131.46248 -0.11134809 -37.271645 -0.11151567 -37.271679 -24.60573 -122.48302
186823000 -24.360476 -131.86342 -0.11152682 -37.46891 -0.11114758 -37.465912 -24.601284 -122.47345
187822000 -24.340279 -132.16907 -0.11193294 -37.664494 -0.11177198 -37.664635 -24.570009 -122.54213
188821000 -24.320776 -132.41998 -0.11207823 -37.857574 -0.11222486 -37.863518 -24.549364 -122.61974
189820000 -24.302315 -132.68513 -0.11231039 -38.060959 -0.11243631 -38.058376 -24.54171 -122.81967
190819000 -24.277216 -132.91838 -0.11301361 -38.260147 -0.1134544 -38.256561 -24.507936 -122.7544
191818000 -24.237759 -133.09578 -0.11467472 -38.452633 -0.11427233 -38.455605 -24.476646 -122.66423
192817000 -24.167259 -133.37056 -0.11470076 -38.637859 -0.11489639 -38.642086 -24.405861 -122.7318
193816000 -24.135557 -133.73534 -0.11354952 -38.83268 -0.11369062 -38.830124 -24.346947 -123.03067
194815000 -24.078936 -134.17975 -0.11368982 -39.028069 -0.11400817 -39.029839 -24.283499 -123.12971
195814000 -24.023447 -134.39574 -0.1140964 -39.225826 -0.11441106 -39.22393 -24.23184 -123.2159
196813000 -23.971022 -134.74644 -0.11367707 -39.421181 -0.11390029 -39.425076 -24.155956 -123.37117
197812000 -23.913609 -135.01044 -0.11430157 -39.619202 -0.11418251 -39.617451 -24.089054 -123.48939
198811000 -23.865482 -135.17549 -0.11395131 -39.814449 -0.11419526 -39.818886 -24.015564 -123.67452
199810000 -23.793762 -135.55302 -0.11356494 -40.00758 -0.11371215 -40.010159 -23.939766 -123.78092
200809000 -23.735933 -135.8222 -0.11455645 -40.207638 -0.11491765 -40.20755 -23.862434 -123.94602
201808000 -23.675291 -136.07661 -0.11539824 -40.408161 -0.11485067 -40.411201 -23.794962 -124.02125
202807000 -23.620241 -136.42566 -0.11544982 -40.607243 -0.11572257 -40.611568 -23.740511 -124.24911
203806000 -23.566256 -136.85536 -0.11746796 -40.808773 -0.11600598 -40.807423 -23.676662 -124.41496
