!Keysight Technologies,E5080B,MY59205177,A.15.75.32
!Date: Friday, February 23, 2024 03:02:06
!Correction: S11(Cdelta 2-Port  ) 
!S21(Cdelta 2-Port  ) 
!S12(Cdelta 2-Port  ) 
!S22(Cdelta 2-Port  ) 
!S2P File: Measurements: S11, S21, S12, S22:
# Hz S  dB   R 50
10000000 -44.138489 -4.0001073 -0.027680919 -2.0349603 -0.030271469 -2.094451 -48.1021 -150.08292
10999000 -43.508366 -5.6056485 -0.029012352 -2.2527158 -0.030615306 -2.3084214 -47.835464 -142.40775
11998000 -42.726192 -7.9782305 -0.029187476 -2.4824088 -0.030245662 -2.5230644 -47.89706 -137.15054
12997000 -42.097649 -12.687773 -0.028696263 -2.6609988 -0.030049905 -2.6878488 -47.290344 -131.07536
13996000 -41.881844 -15.992357 -0.027287558 -2.8366923 -0.030364789 -2.8572021 -46.782612 -125.18075
14995000 -41.524345 -19.913973 -0.030008459 -3.0447068 -0.029613325 -3.072706 -46.365707 -122.15403
15994000 -41.433643 -23.772522 -0.030662231 -3.266505 -0.031975806 -3.2851033 -46.135521 -118.12257
16993000 -41.427853 -27.839405 -0.030237842 -3.4564321 -0.03120164 -3.4685373 -45.188412 -119.14801
17992000 -41.480915 -32.141586 -0.030074406 -3.6579702 -0.032110106 -3.6626344 -44.597862 -119.91577
18991000 -41.781189 -36.831909 -0.031878538 -3.8677406 -0.032721158 -3.8647325 -43.932766 -119.57098
19990000 -41.617519 -41.863319 -0.033273865 -4.0773811 -0.035290968 -4.0725594 -43.221176 -121.03667
20989000 -41.505653 -44.49614 -0.03559475 -4.2783618 -0.03686909 -4.2722216 -42.600399 -120.61953
21988000 -41.38979 -49.784531 -0.036425561 -4.4767227 -0.037986077 -4.4623981 -42.37035 -120.23615
22987000 -41.190701 -53.860767 -0.037567239 -4.6719484 -0.038367089 -4.6679468 -42.083057 -119.88924
23986000 -41.231606 -57.701351 -0.037251048 -4.8701849 -0.037190475 -4.8680325 -41.928123 -119.71811
24985000 -40.86026 -60.329552 -0.038303103 -5.0774531 -0.037866481 -5.0755672 -41.665306 -117.34055
25984000 -40.635063 -62.579548 -0.038904581 -5.285079 -0.038219277 -5.2857499 -41.329029 -116.17065
26983000 -40.378956 -64.281502 -0.039693184 -5.481534 -0.039457552 -5.4961224 -41.26416 -114.97476
27982000 -40.197315 -65.036369 -0.041051302 -5.6795602 -0.040491857 -5.7135305 -40.889858 -113.71198
28981000 -40.162525 -66.610573 -0.039172571 -5.8757811 -0.040001974 -5.9029479 -40.640652 -112.85335
29980000 -39.808937 -68.282463 -0.0395354 -6.0692754 -0.040872823 -6.0770898 -40.314453 -112.45275
30979000 -39.444359 -67.436615 -0.036879793 -6.422101 -0.036024362 -6.415154 -39.846897 -112.89297
31978000 -39.269611 -68.433411 -0.036108408 -6.6185031 -0.036853425 -6.6093202 -39.562725 -112.56733
32977000 -39.083511 -70.149025 -0.035365347 -6.8300657 -0.037286818 -6.8254862 -39.34676 -112.68182
33976000 -38.941895 -71.279015 -0.037213974 -7.0281754 -0.037768297 -7.02562 -39.030922 -112.32382
34975000 -38.660683 -72.243195 -0.037104055 -7.2277226 -0.038829621 -7.2271276 -38.790695 -112.08677
35974000 -38.48595 -72.981575 -0.035595272 -7.423058 -0.038028382 -7.4285088 -38.468899 -111.24787
36973000 -38.264874 -73.679573 -0.036082305 -7.6249576 -0.039117977 -7.6287947 -38.180477 -110.43447
37972000 -38.117893 -73.59623 -0.035472088 -7.8366213 -0.039625261 -7.8432856 -37.946972 -109.81538
38971000 -37.79221 -73.544052 -0.036446184 -8.0330248 -0.039657917 -8.0418072 -37.762939 -108.3829
39970000 -37.459137 -74.174957 -0.035124734 -8.2252407 -0.03808818 -8.2445183 -37.468334 -107.95849
40969000 -37.178543 -73.942307 -0.035518803 -8.4217548 -0.037945863 -8.4387236 -37.198547 -106.67263
41968000 -36.859978 -74.157288 -0.035335593 -8.6266241 -0.038649406 -8.6402922 -37.00069 -105.60606
42967000 -36.578316 -74.245628 -0.035364565 -8.8395691 -0.039324593 -8.8561468 -36.765583 -103.72874
43966000 -36.305927 -75.266434 -0.035813205 -9.0370312 -0.039417587 -9.0564318 -36.473396 -103.2762
44965000 -36.093513 -76.068878 -0.03718891 -9.2397432 -0.040086884 -9.2591562 -36.25079 -103.17548
45964000 -35.863544 -77.291199 -0.037506402 -9.4384298 -0.040907841 -9.4579515 -36.022083 -103.02395
46963000 -35.695614 -79.256775 -0.038196556 -9.6302547 -0.041378222 -9.6532955 -35.828144 -103.36254
47962000 -35.54842 -80.805748 -0.039691877 -9.8350754 -0.043293469 -9.851222 -35.623543 -103.5021
48961000 -35.34729 -82.175934 -0.042387888 -10.029549 -0.044518024 -10.055023 -35.416203 -103.86171
49960000 -35.124794 -83.593918 -0.043065749 -10.22785 -0.045295089 -10.251183 -35.247925 -103.91304
50959000 -34.916035 -85.004204 -0.043226015 -10.44389 -0.046564169 -10.452237 -35.068657 -104.35444
51958000 -34.718338 -86.07225 -0.045565303 -10.639331 -0.048019711 -10.648822 -34.910511 -104.97237
52957000 -34.528587 -87.230598 -0.046957448 -10.83965 -0.048549764 -10.845638 -34.737698 -104.74339
53956000 -34.376492 -87.941299 -0.048187226 -11.041304 -0.049841262 -11.041076 -34.611027 -104.79289
54955000 -34.202671 -88.524742 -0.048249524 -11.2446 -0.0512188 -11.23845 -34.460644 -104.78774
55954000 -34.046261 -89.380013 -0.049058411 -11.438541 -0.050302666 -11.442387 -34.346466 -104.62785
56953000 -33.929249 -89.464531 -0.049116794 -11.637819 -0.049545385 -11.623614 -34.277988 -104.80595
57952000 -33.781403 -90.135872 -0.051187631 -11.834702 -0.0509024 -11.825029 -34.167648 -104.89967
58951000 -33.658653 -90.385918 -0.051045932 -12.04305 -0.051688991 -12.021401 -34.005913 -104.99424
59950000 -33.538887 -90.737701 -0.052845959 -12.239223 -0.052486729 -12.218903 -33.948933 -105.27776
60949000 -33.439266 -91.422295 -0.052824471 -12.441444 -0.052346557 -12.419516 -33.861275 -105.47031
61948000 -33.372162 -91.651009 -0.053062137 -12.644189 -0.053044315 -12.621273 -33.777119 -105.62786
62947000 -33.292343 -91.87896 -0.053132363 -12.849047 -0.05394426 -12.831121 -33.637951 -105.91201
63946000 -33.229012 -92.659225 -0.054387484 -13.051693 -0.055427708 -13.026972 -33.53817 -106.07132
64945000 -33.117954 -92.773903 -0.05475945 -13.248939 -0.055367932 -13.232223 -33.420013 -106.61815
65944000 -33.014427 -93.104256 -0.055930346 -13.452868 -0.054907825 -13.433171 -33.332169 -107.03603
66943000 -32.881454 -93.538467 -0.053658061 -13.650179 -0.053821336 -13.632265 -33.225323 -107.28227
67942000 -32.828281 -93.484894 -0.055671807 -13.846044 -0.055447109 -13.832591 -33.105446 -107.57717
68941000 -32.722069 -93.66938 -0.05552629 -14.039597 -0.054257736 -14.031693 -33.004433 -107.57716
69940000 -32.618244 -93.607216 -0.055652406 -14.235156 -0.055516589 -14.231126 -32.864925 -107.95782
70939000 -32.508595 -93.545708 -0.055884194 -14.4315 -0.055022914 -14.425303 -32.728222 -107.93685
71938000 -32.372364 -93.294884 -0.055732116 -14.630721 -0.055408567 -14.625314 -32.599072 -107.73624
72937000 -32.211163 -93.060844 -0.054842025 -14.830513 -0.054352622 -14.822508 -32.453018 -107.47667
73936000 -32.069996 -92.773819 -0.054667439 -15.025443 -0.054119866 -15.016446 -32.342781 -107.28045
74935000 -31.947546 -93.092461 -0.053675883 -15.221796 -0.053612459 -15.219311 -32.192543 -107.02634
75934000 -31.83206 -93.418922 -0.054132707 -15.429212 -0.052616164 -15.423626 -32.104176 -106.91644
76933000 -31.702379 -93.723389 -0.055674169 -15.626778 -0.055299237 -15.619865 -31.935947 -107.39113
77932000 -31.611622 -94.525894 -0.056010321 -15.819335 -0.056384787 -15.813544 -31.836542 -107.36442
78931000 -31.538118 -95.415359 -0.054898128 -16.021315 -0.055414338 -16.013506 -31.73699 -107.30384
79930000 -31.432281 -96.162949 -0.058118556 -16.208183 -0.057994466 -16.210552 -31.632126 -107.62478
80929000 -31.296246 -97.155846 -0.059008002 -16.404343 -0.059515253 -16.401354 -31.531481 -107.91567
81928000 -31.220381 -97.960724 -0.059286945 -16.59767 -0.060392126 -16.59697 -31.416832 -108.04548
82927000 -31.13031 -98.67717 -0.060764343 -16.798084 -0.060877223 -16.794811 -31.309748 -108.30068
83926000 -31.020317 -99.424072 -0.062107537 -16.99408 -0.061343737 -16.997282 -31.200262 -108.54752
84925000 -30.912544 -99.827904 -0.063325591 -17.197392 -0.061638057 -17.188105 -31.101051 -108.65556
85924000 -30.824701 -100.29829 -0.063946307 -17.390907 -0.063760847 -17.38871 -31.023573 -108.68832
86923000 -30.717068 -100.8948 -0.064191937 -17.593542 -0.063555688 -17.588974 -30.915152 -108.61425
87922000 -30.616859 -101.20485 -0.064332232 -17.798172 -0.062838905 -17.788471 -30.835779 -108.66047
88921000 -30.545946 -101.52793 -0.065789275 -17.994417 -0.063893504 -17.994032 -30.733896 -108.59089
89920000 -30.440498 -102.09296 -0.066243172 -18.193449 -0.064724229 -18.183105 -30.691116 -108.771
90919000 -30.349323 -102.32201 -0.066461593 -18.390903 -0.065498874 -18.385233 -30.605598 -108.98083
91918000 -30.25762 -102.7158 -0.066962354 -18.587584 -0.065889142 -18.583088 -30.528788 -109.02173
92917000 -30.16717 -103.12552 -0.06790489 -18.787148 -0.067137435 -18.783117 -30.468588 -109.05107
93916000 -30.08798 -103.45753 -0.067877278 -18.979898 -0.066719458 -18.975677 -30.392105 -109.78304
94915000 -30.014116 -104.09476 -0.069331303 -19.180323 -0.068262234 -19.174131 -30.328949 -109.61893
95914000 -29.941959 -104.32099 -0.070270404 -19.376921 -0.068834476 -19.371346 -30.228176 -109.86161
96913000 -29.865517 -104.56682 -0.071494699 -19.573515 -0.069959715 -19.572292 -30.172682 -110.20013
97912000 -29.78985 -104.99231 -0.072632998 -19.77129 -0.070461407 -19.769987 -30.099503 -110.49038
98911000 -29.689844 -105.24843 -0.072792254 -19.970728 -0.070899218 -19.969894 -30.057795 -110.72433
99910000 -29.622429 -105.35979 -0.073312439 -20.170752 -0.071508907 -20.168671 -29.951736 -111.01398
100909000 -29.53908 -105.65803 -0.073080502 -20.378521 -0.071108669 -20.37134 -29.853609 -111.18952
101908000 -29.448208 -105.87554 -0.074814372 -20.576887 -0.072224759 -20.573809 -29.746403 -110.99081
102907000 -29.320129 -105.91509 -0.074502304 -20.778881 -0.07287728 -20.770792 -29.671154 -110.98456
103906000 -29.222727 -106.02643 -0.074873887 -20.980597 -0.071692601 -20.97995 -29.531509 -110.92515
104905000 -29.087528 -105.93324 -0.075211793 -21.18317 -0.072424792 -21.181129 -29.399975 -110.63658
105904000 -28.94449 -106.02866 -0.075994633 -21.384924 -0.072729081 -21.373825 -29.288469 -110.50098
106903000 -28.827291 -106.16839 -0.07563033 -21.58622 -0.073210552 -21.587517 -29.163286 -110.39307
107902000 -28.664442 -106.57005 -0.075848959 -21.790125 -0.073304802 -21.776335 -29.017548 -110.37983
108901000 -28.559629 -106.7879 -0.077030301 -21.989254 -0.074907601 -21.981403 -28.890364 -110.31405
109900000 -28.430851 -107.2737 -0.077936545 -22.18848 -0.075685643 -22.178944 -28.740084 -110.43277
110899000 -28.316517 -107.88181 -0.07955239 -22.387506 -0.076832682 -22.376423 -28.615025 -110.707
111898000 -28.226149 -108.58777 -0.080538265 -22.585987 -0.077324629 -22.579254 -28.501709 -110.86449
112897000 -28.105682 -109.11005 -0.082467437 -22.782837 -0.078711703 -22.772955 -28.35985 -111.01226
113896000 -28.001772 -109.70096 -0.083161339 -22.984901 -0.080137193 -22.972128 -28.249075 -111.17806
114895000 -27.901358 -110.38125 -0.08408127 -23.18347 -0.081617221 -23.167034 -28.143232 -111.21323
115894000 -27.772161 -110.73145 -0.085548647 -23.38039 -0.082680345 -23.371628 -28.064421 -111.49131
116893000 -27.686363 -111.2775 -0.086103365 -23.580084 -0.083076641 -23.562386 -27.941853 -111.56757
117892000 -27.611309 -111.78976 -0.086172551 -23.77339 -0.083978869 -23.761314 -27.872198 -111.78566
118891000 -27.550743 -112.19322 -0.08635395 -23.975056 -0.083964355 -23.959938 -27.768486 -111.92616
119890000 -27.462843 -112.59458 -0.086954728 -24.175243 -0.084290564 -24.160442 -27.760464 -112.06007
120889000 -27.409534 -113.04832 -0.088693343 -24.377779 -0.084930122 -24.362452 -27.688925 -112.01929
121888000 -27.370703 -113.44742 -0.08830446 -24.572227 -0.085687257 -24.560364 -27.634609 -112.34713
122887000 -27.323715 -113.59708 -0.089008018 -24.777349 -0.085845672 -24.764132 -27.586531 -112.36887
123886000 -27.27158 -114.01532 -0.090111807 -24.973707 -0.086409666 -24.961098 -27.569855 -112.54769
124885000 -27.235949 -114.51631 -0.090348616 -25.175135 -0.086717576 -25.1597 -27.548237 -112.55662
125884000 -27.180117 -114.76188 -0.091052242 -25.37184 -0.086937293 -25.36083 -27.513512 -112.76326
126883000 -27.160437 -115.12821 -0.091475479 -25.578457 -0.087454952 -25.560785 -27.476873 -112.80966
127882000 -27.114462 -115.39371 -0.091784269 -25.773958 -0.088440776 -25.75683 -27.431698 -112.97695
128881000 -27.083757 -115.71889 -0.091604754 -25.976448 -0.088350162 -25.958878 -27.396305 -113.08937
129880000 -27.028473 -116.0638 -0.092313871 -26.17845 -0.088389523 -26.158499 -27.352299 -113.09232
130879000 -26.971006 -116.21403 -0.092633307 -26.376503 -0.089775115 -26.357861 -27.270882 -113.16688
131878000 -26.907379 -116.41583 -0.092706822 -26.577219 -0.089814231 -26.561022 -27.208424 -113.07198
132877000 -26.833927 -116.52097 -0.091829747 -26.780579 -0.089902498 -26.762123 -27.122694 -113.05827
133876000 -26.753002 -116.66875 -0.092878714 -26.981731 -0.089543626 -26.961601 -27.041365 -112.9444
134875000 -26.654459 -116.81714 -0.092632778 -27.176714 -0.089979932 -27.162001 -26.935797 -112.82184
135874000 -26.577082 -116.7905 -0.092295103 -27.380487 -0.090196379 -27.365194 -26.834581 -112.80452
136873000 -26.463898 -116.74714 -0.092695713 -27.580126 -0.089583792 -27.559277 -26.749502 -112.78502
137872000 -26.388988 -116.88652 -0.092889823 -27.783142 -0.089583263 -27.766119 -26.638655 -112.78134
138871000 -26.314423 -117.0546 -0.093497053 -27.982582 -0.090420507 -27.966776 -26.545893 -112.92347
139870000 -26.214972 -117.32037 -0.094393775 -28.181719 -0.091368407 -28.166605 -26.467119 -113.10486
140869000 -26.128744 -117.78294 -0.09643048 -28.376175 -0.092880033 -28.359745 -26.356089 -113.20985
141868000 -26.035065 -118.27769 -0.096500881 -28.571732 -0.093309268 -28.554398 -26.285181 -113.58514
142867000 -25.958473 -118.52074 -0.094194315 -28.765625 -0.092563756 -28.75206 -26.211285 -113.75385
143866000 -25.885054 -119.05338 -0.095835805 -28.967133 -0.093442567 -28.949493 -26.140289 -114.25539
144865000 -25.832701 -119.55484 -0.097563423 -29.163244 -0.095106527 -29.146463 -26.081303 -114.60846
145864000 -25.775429 -119.87855 -0.098027535 -29.363253 -0.096633486 -29.350126 -26.049339 -114.84716
146863000 -25.72578 -120.24257 -0.09913335 -29.55863 -0.096121617 -29.548037 -25.996254 -115.11811
147862000 -25.689732 -120.63012 -0.099796288 -29.75934 -0.096793361 -29.745218 -25.958042 -115.47947
148861000 -25.656576 -121.13636 -0.099638693 -29.959984 -0.096938677 -29.942068 -25.937807 -115.70432
149860000 -25.641691 -121.33376 -0.10066491 -30.159945 -0.097163945 -30.141113 -25.914057 -115.89597
150859000 -25.626421 -121.70362 -0.10109729 -30.355581 -0.098149858 -30.341667 -25.89884 -116.12544
151858000 -25.597881 -121.99287 -0.10043071 -30.552799 -0.098744325 -30.540682 -25.893166 -116.42355
152857000 -25.585751 -122.32858 -0.10059391 -30.749538 -0.098718107 -30.737143 -25.873308 -116.50209
153856000 -25.577103 -122.51494 -0.10004819 -30.95048 -0.098314553 -30.93919 -25.885223 -116.81992
154855000 -25.5681 -122.74193 -0.10109571 -31.146111 -0.098152511 -31.136377 -25.878183 -117.05859
155854000 -25.583738 -122.95837 -0.10212068 -31.346344 -0.098657735 -31.335272 -25.865305 -117.32896
156853000 -25.569649 -123.65988 -0.099188969 -31.538334 -0.097820491 -31.531788 -25.864403 -117.60506
157852000 -25.572472 -123.89806 -0.10066438 -31.737564 -0.099011265 -31.727489 -25.853092 -117.94975
158851000 -25.572563 -124.12182 -0.1014709 -31.934229 -0.099370919 -31.92551 -25.839989 -118.22917
159850000 -25.552755 -124.26449 -0.10213234 -32.131786 -0.099732451 -32.12328 -25.837471 -118.37107
160849000 -25.537157 -124.36167 -0.10150535 -32.334583 -0.10083923 -32.323326 -25.808088 -118.69123
161848000 -25.519373 -124.46939 -0.10200089 -32.532429 -0.10037085 -32.525692 -25.764778 -118.78446
162847000 -25.475101 -124.67229 -0.10211802 -32.730583 -0.10113015 -32.722919 -25.741987 -119.0656
163846000 -25.432703 -124.89735 -0.1022606 -32.930706 -0.10051814 -32.922112 -25.660538 -119.02003
164845000 -25.374887 -124.93204 -0.1031101 -33.129154 -0.10136703 -33.120628 -25.594625 -119.13403
165844000 -25.320147 -124.99764 -0.1024835 -33.327484 -0.10122977 -33.319798 -25.516396 -119.29668
166843000 -25.259857 -125.05582 -0.10304967 -33.524616 -0.10173059 -33.522526 -25.440792 -119.48406
167842000 -25.201822 -125.20768 -0.103828 -33.726631 -0.10206608 -33.717857 -25.36404 -119.38206
168841000 -25.122231 -125.38969 -0.10338182 -33.923882 -0.10200407 -33.918903 -25.289547 -119.47255
169840000 -25.05525 -125.67036 -0.10371505 -34.116131 -0.10239312 -34.112713 -25.201361 -119.6612
170839000 -24.996628 -125.94788 -0.10501564 -34.31424 -0.10250656 -34.31414 -25.119835 -119.8502
171838000 -24.943832 -126.37301 -0.10444736 -34.516487 -0.10374396 -34.509777 -25.055834 -120.11398
172837000 -24.872194 -126.70174 -0.10584101 -34.709816 -0.10499974 -34.704269 -24.983665 -120.33227
173836000 -24.805014 -127.08757 -0.1075145 -34.910126 -0.10601661 -34.905357 -24.9417 -120.5488
174835000 -24.754459 -127.56587 -0.10755484 -35.104984 -0.10657209 -35.1068 -24.891979 -120.8748
175834000 -24.701418 -127.98621 -0.10746276 -35.305984 -0.10733619 -35.298344 -24.828209 -121.17996
176833000 -24.646875 -128.32431 -0.10921306 -35.500198 -0.10799428 -35.501202 -24.773821 -121.35754
177832000 -24.607067 -128.78874 -0.10973524 -35.694019 -0.10800065 -35.697166 -24.756575 -121.50393
178831000 -24.564899 -129.13815 -0.10968984 -35.894394 -0.10854948 -35.890232 -24.716627 -121.74828
179830000 -24.530186 -129.57614 -0.11104932 -36.091782 -0.1080999 -36.092457 -24.690363 -121.84491
180829000 -24.48567 -129.79718 -0.11089582 -36.288338 -0.10969913 -36.288761 -24.664743 -122.03677
181828000 -24.464539 -130.15042 -0.11092503 -36.486622 -0.1089739 -36.483307 -24.642241 -122.13956
182827000 -24.441423 -130.48633 -0.11090273 -36.680935 -0.10949923 -36.68187 -24.629292 -122.20185
183826000 -24.403929 -130.8091 -0.11164316 -36.874813 -0.11012578 -36.873974 -24.624189 -122.34914
184825000 -24.400623 -131.13585 -0.11205433 -37.071045 -0.110711 -37.073177 -24.606985 -122.43034
185824000 -24.372385 -131.48349 -0.11205193 -37.267365 -0.11082572 -37.2701 -24.599632 -122.48988
186823000 -24.360743 -131.84666 -0.11212764 -37.470264 -0.11058726 -37.463272 -24.599796 -122.48494
187822000 -24.339924 -132.16504 -0.11259305 -37.666168 -0.11175312 -37.660297 -24.566387 -122.53976
188821000 -24.322584 -132.36542 -0.1120453 -37.857857 -0.11166228 -37.863853 -24.550358 -122.62409
189820000 -24.302406 -132.67924 -0.11300696 -38.06115 -0.11217811 -38.058338 -24.544878 -122.77493
190819000 -24.275887 -132.92964 -0.11334254 -38.26152 -0.11296658 -38.257511 -24.50946 -122.76498
191818000 -24.240967 -133.1118 -0.11533179 -38.452072 -0.11480841 -38.452473 -24.479439 -122.67577
192817000 -24.16935 -133.38539 -0.115327 -38.637531 -0.11447246 -38.638783 -24.404707 -122.71806
193816000 -24.133869 -133.73991 -0.11410677 -38.830799 -0.11349744 -38.829563 -24.349224 -123.00723
194815000 -24.075834 -134.19337 -0.11476721 -39.026779 -0.11369992 -39.029789 -24.28734 -123.0722
195814000 -24.023552 -134.40714 -0.11440947 -39.227936 -0.11408444 -39.230904 -24.236162 -123.22784
196813000 -23.971224 -134.74622 -0.11490197 -39.420513 -0.11277476 -39.424465 -24.162287 -123.39133
197812000 -23.915827 -135.00481 -0.11505454 -39.620731 -0.1132777 -39.616123 -24.083771 -123.48177
198811000 -23.862616 -135.18724 -0.11475126 -39.814842 -0.11415832 -39.816925 -24.018101 -123.66641
199810000 -23.793415 -135.5372 -0.1153908 -40.010983 -0.11307976 -40.008915 -23.942858 -123.80838
200809000 -23.73394 -135.81163 -0.11557902 -40.205059 -0.11399063 -40.211029 -23.863586 -123.98886
201808000 -23.679813 -136.03386 -0.11647845 -40.412441 -0.11517336 -40.408157 -23.797506 -124.04763
202807000 -23.622715 -136.41939 -0.11696214 -40.606518 -0.11576404 -40.609077 -23.735224 -124.26662
203806000 -23.568855 -136.86031 -0.11838082 -40.808216 -0.11634869 -40.80658 -23.670927 -124.4351
