!Keysight Technologies,E5080B,MY59205177,A.15.75.32
!Date: Friday, February 23, 2024 03:40:20
!Correction: S11(Cdelta 2-Port  ) 
!S21(Cdelta 2-Port  ) 
!S12(Cdelta 2-Port  ) 
!S22(Cdelta 2-Port  ) 
!S2P File: Measurements: S11, S21, S12, S22:
# Hz S  dB   R 50
10000000 -46.089123 -2.7725527 -0.014343259 -2.0414174 -0.018165363 -2.0970907 -45.881523 -157.40175
10999000 -45.355106 -4.7375369 -0.01547421 -2.2602203 -0.017594822 -2.316195 -45.85236 -151.08435
11998000 -44.339325 -7.9651318 -0.015702046 -2.4862578 -0.01749138 -2.5299141 -46.074879 -147.11795
12997000 -43.599197 -13.495396 -0.014828436 -2.664736 -0.0175444 -2.699209 -45.640495 -141.4082
13996000 -43.300163 -17.64315 -0.014054465 -2.8449261 -0.017791839 -2.8651266 -45.358009 -136.10526
14995000 -42.919926 -21.71306 -0.016591424 -3.0586979 -0.017401973 -3.0791831 -45.053585 -132.79509
15994000 -42.729958 -26.219391 -0.017229663 -3.2758539 -0.020367654 -3.29669 -44.963501 -129.28409
16993000 -42.71698 -30.622433 -0.016172305 -3.47241 -0.019397937 -3.4846935 -44.149704 -129.16649
17992000 -42.71151 -36.729401 -0.016897019 -3.6700959 -0.019366995 -3.6746159 -43.577229 -129.20587
18991000 -42.969288 -41.476723 -0.017598981 -3.8821831 -0.020668313 -3.8820238 -42.903366 -127.99844
19990000 -42.702198 -47.425968 -0.020922432 -4.0914416 -0.022320747 -4.0857615 -42.214378 -128.67775
20989000 -42.562862 -50.813881 -0.023286954 -4.2933908 -0.025084101 -4.2802858 -41.712585 -128.17662
21988000 -42.365601 -56.144516 -0.023948563 -4.4891992 -0.025748849 -4.4741707 -41.464443 -127.33941
22987000 -42.02438 -61.027309 -0.02500391 -4.6874003 -0.02640849 -4.6809101 -41.165478 -127.03817
23986000 -41.930386 -65.045746 -0.024325481 -4.8849716 -0.025539752 -4.8851933 -41.020065 -126.79787
24985000 -41.543064 -67.631721 -0.025445234 -5.092802 -0.025347853 -5.0898771 -40.808487 -124.58303
25984000 -41.161613 -69.65799 -0.026144153 -5.3012137 -0.026008474 -5.3005939 -40.51881 -122.69653
26983000 -40.834827 -71.537453 -0.027368311 -5.4972343 -0.027053643 -5.5163693 -40.383789 -122.23554
27982000 -40.698177 -72.335068 -0.028057117 -5.6961226 -0.0288474 -5.7346544 -40.122948 -120.5502
28981000 -40.648418 -74.272133 -0.026414219 -5.894875 -0.028937563 -5.9187489 -39.882557 -120.04343
29980000 -40.262154 -75.431587 -0.026191289 -6.0905819 -0.029116591 -6.0996933 -39.620064 -119.18015
30979000 -39.860428 -74.30777 -0.024633182 -6.4412928 -0.023837419 -6.4357567 -39.114464 -119.70094
31978000 -39.650249 -75.20713 -0.023848351 -6.6399713 -0.024857594 -6.6273956 -38.870693 -118.81959
32977000 -39.467247 -76.763687 -0.022830496 -6.8474813 -0.024943769 -6.844501 -38.612331 -118.81299
33976000 -39.283829 -77.972565 -0.023676047 -7.0478487 -0.025632191 -7.0451236 -38.332958 -118.23003
34975000 -38.989231 -78.648506 -0.024107082 -7.248796 -0.027033066 -7.2484632 -38.123856 -117.8511
35974000 -38.804012 -79.200752 -0.023224493 -7.4429283 -0.026351973 -7.4486032 -37.851479 -117.01479
36973000 -38.531826 -79.846413 -0.023958974 -7.6454468 -0.026945285 -7.6508117 -37.584801 -116.16142
37972000 -38.394989 -79.683395 -0.023481105 -7.8544564 -0.026852299 -7.8649187 -37.378838 -115.22473
38971000 -38.06377 -79.194702 -0.024353074 -8.056551 -0.027086204 -8.0655317 -37.208683 -113.84795
39970000 -37.763184 -79.456978 -0.022136534 -8.249424 -0.025904309 -8.2636757 -36.934258 -113.12159
40969000 -37.460735 -79.149765 -0.022880198 -8.4436102 -0.025453046 -8.4649086 -36.715996 -111.73829
41968000 -37.118309 -78.989182 -0.022956967 -8.6539011 -0.026506675 -8.6703033 -36.512299 -110.47492
42967000 -36.857914 -79.198914 -0.023634663 -8.8628016 -0.025947798 -8.8809328 -36.335667 -108.65597
43966000 -36.56356 -79.754333 -0.023887394 -9.0642166 -0.027571764 -9.084527 -36.078133 -107.92561
44965000 -36.330803 -80.408363 -0.024786521 -9.2684574 -0.027949257 -9.2849998 -35.851215 -107.55512
45964000 -36.091133 -81.492126 -0.026331661 -9.4673634 -0.029239858 -9.48244 -35.623055 -107.36846
46963000 -35.893272 -83.412109 -0.026405104 -9.6615362 -0.029935738 -9.6830711 -35.447773 -107.5562
47962000 -35.717449 -84.792221 -0.027789032 -9.8627834 -0.031538773 -9.8777733 -35.259212 -107.52991
48961000 -35.535637 -86.181473 -0.029879438 -10.059834 -0.032353681 -10.081216 -35.031212 -107.67642
49960000 -35.291847 -87.368355 -0.030689605 -10.25772 -0.033530809 -10.280098 -34.875546 -107.8102
50959000 -35.057411 -88.753586 -0.03145742 -10.470976 -0.034300432 -10.483141 -34.714214 -108.11147
51958000 -34.849609 -89.795357 -0.0336002 -10.669714 -0.036102146 -10.680868 -34.532303 -108.61933
52957000 -34.642365 -90.852753 -0.035266437 -10.873363 -0.036830973 -10.88239 -34.379025 -108.3003
53956000 -34.469135 -91.455757 -0.03622587 -11.069126 -0.037749495 -11.077287 -34.234226 -108.32627
54955000 -34.291981 -91.9972 -0.03719648 -11.271585 -0.039262947 -11.269631 -34.094368 -108.33453
55954000 -34.144367 -92.759567 -0.038483042 -11.473316 -0.038994171 -11.473837 -33.978085 -107.99848
56953000 -34.02113 -92.834961 -0.037151575 -11.672007 -0.037480552 -11.660628 -33.905075 -108.21049
57952000 -33.844498 -93.486908 -0.038702164 -11.869149 -0.038596388 -11.861106 -33.797676 -108.315
58951000 -33.719414 -93.742043 -0.0395354 -12.078643 -0.039502222 -12.055037 -33.643578 -108.38022
59950000 -33.593658 -94.152351 -0.039835818 -12.272438 -0.040446132 -12.258409 -33.573296 -108.67768
60949000 -33.485798 -94.760002 -0.040109351 -12.478718 -0.041140672 -12.454402 -33.472775 -108.88741
61948000 -33.426792 -95.03743 -0.040876482 -12.679082 -0.040971339 -12.658249 -33.390301 -109.05723
62947000 -33.331154 -95.2164 -0.040967941 -12.884722 -0.041538164 -12.865629 -33.24892 -109.23528
63946000 -33.256603 -96.01532 -0.042112906 -13.085878 -0.042495064 -13.070067 -33.148766 -109.40961
64945000 -33.151611 -96.143761 -0.042851634 -13.286149 -0.043010846 -13.268282 -33.038425 -109.92541
65944000 -33.050739 -96.44886 -0.043675728 -13.489061 -0.043756265 -13.47005 -32.936596 -110.34182
66943000 -32.894245 -96.84581 -0.041417684 -13.689382 -0.041398868 -13.673448 -32.834118 -110.57458
67942000 -32.84388 -96.760719 -0.043515708 -13.885775 -0.043747634 -13.875562 -32.697891 -110.88869
68941000 -32.726517 -96.866699 -0.043050323 -14.076362 -0.042673346 -14.069804 -32.594234 -110.84239
69940000 -32.63586 -96.822548 -0.043470997 -14.27821 -0.043222614 -14.272076 -32.45348 -111.07976
70939000 -32.532997 -96.744118 -0.043256342 -14.473658 -0.043423671 -14.466054 -32.322117 -110.95937
71938000 -32.401466 -96.342957 -0.043110453 -14.671184 -0.042986009 -14.666808 -32.194286 -110.85185
72937000 -32.230568 -96.1203 -0.042275749 -14.870208 -0.042531136 -14.86311 -32.054153 -110.54736
73936000 -32.103134 -95.804039 -0.042513099 -15.068401 -0.042032402 -15.062567 -31.946819 -110.31731
74935000 -31.971989 -96.040169 -0.042209096 -15.264187 -0.040626418 -15.263308 -31.799433 -110.04165
75934000 -31.853573 -96.224304 -0.042300582 -15.474627 -0.041415073 -15.466504 -31.704556 -109.87489
76933000 -31.720995 -96.624123 -0.04305163 -15.663056 -0.043185227 -15.661644 -31.547138 -110.19864
77932000 -31.61919 -97.386978 -0.044219896 -15.861026 -0.044056192 -15.854053 -31.444647 -110.22598
78931000 -31.546507 -98.117096 -0.041943535 -16.063587 -0.043590751 -16.060024 -31.344341 -110.07066
79930000 -31.429384 -98.949837 -0.045228913 -16.256657 -0.046390176 -16.255913 -31.240368 -110.32561
80929000 -31.315451 -99.742386 -0.047125708 -16.452969 -0.047174379 -16.451927 -31.14711 -110.63321
81928000 -31.216303 -100.42932 -0.046976548 -16.647978 -0.047749083 -16.640156 -31.017767 -110.62073
82927000 -31.116306 -101.15829 -0.048872013 -16.846292 -0.049283303 -16.843647 -30.909725 -110.90695
83926000 -30.999622 -101.86086 -0.049709294 -17.040756 -0.050098669 -17.044722 -30.795111 -111.1095
84925000 -30.8964 -102.33215 -0.051089671 -17.242067 -0.050777469 -17.240471 -30.699018 -111.14212
85924000 -30.801395 -102.69513 -0.051970344 -17.444025 -0.052153733 -17.442602 -30.613726 -111.09444
86923000 -30.704908 -103.21619 -0.052167878 -17.643312 -0.051445115 -17.632833 -30.519812 -111.00208
87922000 -30.586334 -103.52806 -0.051656246 -17.848621 -0.051593117 -17.834293 -30.435839 -111.00741
88921000 -30.51293 -103.79652 -0.052585244 -18.042543 -0.053893674 -18.042215 -30.343925 -111.07275
89920000 -30.424091 -104.27994 -0.053411976 -18.244827 -0.052910939 -18.23941 -30.276449 -111.16619
90919000 -30.313082 -104.61502 -0.053953171 -18.43754 -0.053729609 -18.43815 -30.193233 -111.35228
91918000 -30.213129 -104.95546 -0.055318117 -18.640532 -0.054189064 -18.634968 -30.127218 -111.3877
92917000 -30.127052 -105.24757 -0.056557607 -18.838018 -0.055969413 -18.833548 -30.063004 -111.46348
93916000 -30.034851 -105.56393 -0.055453666 -19.03091 -0.055345643 -19.026417 -29.973501 -112.02897
94915000 -29.952494 -106.19581 -0.057290666 -19.237009 -0.056892779 -19.228056 -29.91021 -111.97404
95914000 -29.895603 -106.37555 -0.05807317 -19.427845 -0.057693049 -19.426603 -29.82118 -112.20381
96913000 -29.805861 -106.56149 -0.059052087 -19.632254 -0.058274917 -19.628695 -29.75539 -112.48569
97912000 -29.730133 -107.12926 -0.06025511 -19.822865 -0.058853976 -19.826149 -29.677755 -112.80692
98911000 -29.626507 -107.22169 -0.060651466 -20.029301 -0.059860628 -20.02483 -29.635458 -113.01115
99910000 -29.553667 -107.35778 -0.06143694 -20.225927 -0.060050383 -20.2276 -29.526915 -113.24995
100909000 -29.461794 -107.60194 -0.060724705 -20.432676 -0.059642535 -20.42815 -29.439001 -113.5078
101908000 -29.370497 -107.83221 -0.062020622 -20.633921 -0.061217979 -20.629202 -29.328049 -113.23222
102907000 -29.239304 -107.82957 -0.062554486 -20.833948 -0.061287291 -20.831308 -29.257421 -113.21684
103906000 -29.149302 -107.8776 -0.061930295 -21.039875 -0.060644116 -21.031813 -29.111408 -113.16341
104905000 -29.004244 -107.78017 -0.062654018 -21.238836 -0.061371304 -21.240993 -28.991329 -112.87661
105904000 -28.857037 -107.83971 -0.063333474 -21.439138 -0.061562963 -21.436602 -28.878834 -112.72734
106903000 -28.75367 -107.89059 -0.062658742 -21.645306 -0.0618615 -21.64225 -28.760241 -112.63085
107902000 -28.589336 -108.20537 -0.063905589 -21.84654 -0.062861755 -21.843002 -28.627079 -112.60526
108901000 -28.477568 -108.47583 -0.064674832 -22.049669 -0.063507885 -22.043182 -28.49485 -112.519
109900000 -28.351791 -108.96098 -0.065670744 -22.248711 -0.064648561 -22.239695 -28.345247 -112.6053
110899000 -28.231234 -109.54348 -0.066677399 -22.447813 -0.064919457 -22.437218 -28.223145 -112.85381
111898000 -28.145145 -110.20399 -0.068844467 -22.648294 -0.066096768 -22.640558 -28.109884 -113.00958
112897000 -28.022364 -110.71392 -0.069805562 -22.848528 -0.067280188 -22.836821 -27.973221 -113.13725
113896000 -27.916977 -111.28667 -0.070969999 -23.050093 -0.068899177 -23.036325 -27.867249 -113.31145
114895000 -27.812738 -111.92647 -0.071974196 -23.247808 -0.070014961 -23.23403 -27.756804 -113.35023
115894000 -27.694431 -112.32764 -0.073173434 -23.448723 -0.070724249 -23.435055 -27.683634 -113.59994
116893000 -27.613636 -112.7485 -0.073844269 -23.642986 -0.071987882 -23.629189 -27.564964 -113.58401
117892000 -27.530888 -113.27003 -0.073842689 -23.841009 -0.07226555 -23.826601 -27.487429 -113.87898
118891000 -27.467756 -113.70571 -0.074891008 -24.042709 -0.072634317 -24.024582 -27.394207 -113.94678
119890000 -27.386192 -114.03367 -0.075676687 -24.244621 -0.073345609 -24.227919 -27.375071 -114.12208
120889000 -27.332777 -114.53209 -0.076636136 -24.447866 -0.074038848 -24.427979 -27.308105 -114.0797
121888000 -27.292934 -114.8539 -0.075974353 -24.643301 -0.074500196 -24.625755 -27.245121 -114.31746
122887000 -27.253538 -115.07242 -0.076821357 -24.84436 -0.075117506 -24.829405 -27.201233 -114.37984
123886000 -27.195244 -115.47266 -0.077874608 -25.046488 -0.074771442 -25.026712 -27.184353 -114.52058
124885000 -27.161001 -115.98444 -0.0774303 -25.245539 -0.075496256 -25.230352 -27.150522 -114.51608
125884000 -27.111233 -116.19643 -0.078808442 -25.441671 -0.076064706 -25.429737 -27.119635 -114.68047
126883000 -27.092279 -116.52544 -0.079320915 -25.647388 -0.076588444 -25.63076 -27.083593 -114.68396
127882000 -27.043139 -116.81921 -0.079131626 -25.843372 -0.077119097 -25.828274 -27.042717 -114.85098
128881000 -27.014338 -117.15221 -0.079780973 -26.048311 -0.076898031 -26.028477 -27.002665 -114.89507
129880000 -26.954485 -117.49104 -0.080422238 -26.247328 -0.077117778 -26.231407 -26.96113 -114.88879
130879000 -26.896355 -117.63129 -0.080171734 -26.449158 -0.078080177 -26.433744 -26.891895 -114.90352
131878000 -26.836962 -117.86382 -0.080518752 -26.652569 -0.078816615 -26.634066 -26.828188 -114.76202
132877000 -26.773497 -117.93439 -0.08008261 -26.853903 -0.07801719 -26.834524 -26.749821 -114.74149
133876000 -26.683836 -118.04866 -0.080738686 -27.053514 -0.078441791 -27.033024 -26.6625 -114.60126
134875000 -26.589344 -118.21552 -0.080398507 -27.252832 -0.078858003 -27.23645 -26.564854 -114.45102
135874000 -26.50942 -118.26367 -0.080222622 -27.45396 -0.078367196 -27.438902 -26.472265 -114.39868
136873000 -26.398182 -118.17763 -0.081084959 -27.655485 -0.078433618 -27.63707 -26.392067 -114.37055
137872000 -26.320044 -118.28204 -0.081377722 -27.861984 -0.078358501 -27.845425 -26.291967 -114.31239
138871000 -26.24761 -118.51552 -0.082316533 -28.056316 -0.079223104 -28.042192 -26.198978 -114.39731
139870000 -26.14819 -118.78054 -0.082127646 -28.258154 -0.07999929 -28.239613 -26.115963 -114.58918
140869000 -26.072304 -119.31396 -0.083007507 -28.45676 -0.080460213 -28.434996 -26.018618 -114.82027
141868000 -25.985954 -119.69373 -0.084016345 -28.649839 -0.081977807 -28.639448 -25.969624 -115.03839
142867000 -25.914141 -119.91409 -0.082512021 -28.851183 -0.081140086 -28.834166 -25.887983 -115.16376
143866000 -25.843075 -120.39318 -0.084697828 -29.047432 -0.082871631 -29.030954 -25.817345 -115.6207
144865000 -25.784451 -120.89555 -0.086131357 -29.249397 -0.083842695 -29.232561 -25.764532 -115.94996
145864000 -25.723614 -121.22399 -0.086589232 -29.446726 -0.085702837 -29.43705 -25.731829 -116.18675
146863000 -25.683594 -121.60725 -0.087187402 -29.649326 -0.085893989 -29.634565 -25.685369 -116.47795
147862000 -25.64308 -121.92982 -0.088607483 -29.850096 -0.086962119 -29.831039 -25.654264 -116.8101
148861000 -25.611061 -122.39586 -0.089108162 -30.045645 -0.087609731 -30.026236 -25.63262 -116.95219
149860000 -25.584568 -122.56312 -0.090428963 -30.235359 -0.087739684 -30.227228 -25.575392 -117.04034
150859000 -25.564613 -123.01448 -0.089398816 -30.432947 -0.088453986 -30.419935 -25.561941 -117.4439
151858000 -25.548506 -123.37128 -0.089190602 -30.633837 -0.087329231 -30.618759 -25.55278 -117.77502
152857000 -25.53544 -123.71873 -0.090303682 -30.83452 -0.087879688 -30.820562 -25.536547 -117.92305
153856000 -25.528257 -123.90726 -0.089349672 -31.036507 -0.087238371 -31.018703 -25.552561 -118.26064
154855000 -25.533714 -124.06782 -0.089091517 -31.230619 -0.087693729 -31.219309 -25.542261 -118.50366
155854000 -25.546774 -124.34151 -0.089791499 -31.435957 -0.088158108 -31.418543 -25.532393 -118.75818
156853000 -25.529024 -125.01546 -0.087765045 -31.623268 -0.087020487 -31.610308 -25.525795 -119.08516
157852000 -25.541355 -125.23246 -0.088864818 -31.823248 -0.08885742 -31.809635 -25.514656 -119.43935
158851000 -25.536064 -125.45409 -0.090025648 -32.021152 -0.088803254 -32.01189 -25.499678 -119.70202
159850000 -25.525877 -125.54384 -0.090667374 -32.219578 -0.089144096 -32.211864 -25.500025 -119.86877
160849000 -25.511801 -125.64058 -0.090424731 -32.42038 -0.089666508 -32.414967 -25.469423 -120.17462
161848000 -25.494555 -125.70758 -0.090431608 -32.62096 -0.089879237 -32.616768 -25.426813 -120.30138
162847000 -25.451578 -125.87615 -0.090987742 -32.819912 -0.09037029 -32.811481 -25.400892 -120.54086
163846000 -25.418818 -126.08849 -0.090677947 -33.017822 -0.09081804 -33.010983 -25.328562 -120.54276
164845000 -25.355829 -126.05475 -0.09148103 -33.219883 -0.090609223 -33.213017 -25.26062 -120.60802
165844000 -25.307354 -126.09879 -0.091270596 -33.419411 -0.091442958 -33.409668 -25.182821 -120.7402
166843000 -25.241879 -126.16403 -0.091409385 -33.616055 -0.091752283 -33.613342 -25.120949 -120.8977
167842000 -25.183144 -126.26509 -0.091445602 -33.815483 -0.09176603 -33.809185 -25.04401 -120.83077
168841000 -25.110561 -126.42411 -0.092257023 -34.015785 -0.091395639 -34.01355 -24.972265 -120.85073
169840000 -25.042048 -126.65049 -0.092103668 -34.214424 -0.092203878 -34.205257 -24.886251 -121.09689
170839000 -24.983471 -126.90247 -0.093585923 -34.409466 -0.092276588 -34.402691 -24.799437 -121.22885
171838000 -24.922287 -127.25425 -0.093129955 -34.609661 -0.093206383 -34.603527 -24.73592 -121.47659
172837000 -24.858463 -127.62003 -0.094532669 -34.806149 -0.094009936 -34.802128 -24.67524 -121.67065
173836000 -24.788017 -128.01407 -0.09595383 -35.010075 -0.095081389 -35.004879 -24.633488 -121.89406
174835000 -24.734787 -128.41463 -0.095810398 -35.202301 -0.095836334 -35.205009 -24.588774 -122.20601
175834000 -24.688122 -128.78838 -0.096797593 -35.405331 -0.096641958 -35.400208 -24.529436 -122.47292
176833000 -24.63558 -129.13206 -0.097723059 -35.60535 -0.097496971 -35.601563 -24.483351 -122.57806
177832000 -24.590477 -129.52356 -0.098488256 -35.8004 -0.098852105 -35.801884 -24.466093 -122.71459
178831000 -24.546274 -129.77827 -0.10047204 -35.997318 -0.10013534 -35.995354 -24.423527 -122.82944
179830000 -24.471409 -130.15918 -0.10150773 -36.182598 -0.10116592 -36.186081 -24.359001 -122.88506
180829000 -24.429893 -130.52458 -0.10083129 -36.375538 -0.1003115 -36.371269 -24.314976 -123.2269
181828000 -24.399632 -130.94604 -0.099630214 -36.577538 -0.098983459 -36.571926 -24.300097 -123.40601
182827000 -24.37656 -131.33607 -0.10010197 -36.774406 -0.09920565 -36.772449 -24.285788 -123.52423
183826000 -24.338413 -131.64516 -0.10075551 -36.971249 -0.099896677 -36.971291 -24.278013 -123.70052
184825000 -24.338661 -131.99083 -0.10037879 -37.165028 -0.10023839 -37.166977 -24.256329 -123.81166
185824000 -24.306814 -132.36743 -0.10000767 -37.362656 -0.10080373 -37.367332 -24.247725 -123.88126
186823000 -24.290419 -132.71434 -0.10071577 -37.567432 -0.099943295 -37.564697 -24.241156 -123.89867
187822000 -24.272795 -133.05026 -0.10091183 -37.758217 -0.10089752 -37.760391 -24.206036 -123.97359
188821000 -24.246557 -133.29892 -0.10068505 -37.955791 -0.10094945 -37.958057 -24.184502 -124.12997
189820000 -24.228802 -133.61067 -0.10154324 -38.156242 -0.10118208 -38.153202 -24.168663 -124.32516
190819000 -24.196428 -133.90482 -0.1016813 -38.351906 -0.10156205 -38.352734 -24.134357 -124.33227
191818000 -24.163002 -134.20801 -0.1021599 -38.548641 -0.10143645 -38.549549 -24.099066 -124.37244
192817000 -24.118753 -134.49104 -0.10316604 -38.745865 -0.10194577 -38.747967 -24.060843 -124.48086
193816000 -24.087372 -134.72478 -0.10234674 -38.942513 -0.10166195 -38.942913 -24.012068 -124.58538
194815000 -24.028835 -135.13397 -0.10196326 -39.13559 -0.10272549 -39.143349 -23.942495 -124.66744
195814000 -23.969656 -135.32722 -0.10329115 -39.335094 -0.10269077 -39.337017 -23.886539 -124.73988
196813000 -23.913359 -135.64906 -0.10297015 -39.530773 -0.10347964 -39.53019 -23.808189 -124.89996
197812000 -23.857979 -135.87015 -0.1036562 -39.729557 -0.10265949 -39.729321 -23.735178 -125.00452
198811000 -23.808352 -136.0022 -0.10341151 -39.926991 -0.10257626 -39.92704 -23.668184 -125.17171
199810000 -23.73715 -136.33287 -0.10414483 -40.120026 -0.10273344 -40.117096 -23.592375 -125.21033
200809000 -23.680058 -136.59288 -0.10454229 -40.31876 -0.10370789 -40.321777 -23.519402 -125.39909
201808000 -23.621267 -136.79211 -0.10550442 -40.519497 -0.10450756 -40.521442 -23.449797 -125.46864
202807000 -23.565207 -137.15308 -0.10526016 -40.721069 -0.10552936 -40.723106 -23.399963 -125.64158
