!Keysight Technologies,E5080B,MY59205177,A.15.75.32
!Date: Friday, February 23, 2024 03:40:27
!Correction: S11(Cdelta 2-Port  ) 
!S21(Cdelta 2-Port  ) 
!S12(Cdelta 2-Port  ) 
!S22(Cdelta 2-Port  ) 
!S2P File: Measurements: S11, S21, S12, S22:
# Hz S  dB   R 50
10000000 -46.148552 -2.6907742 -0.015179366 -2.0401351 -0.018040072 -2.0961306 -45.921597 -157.87276
10999000 -45.327209 -4.8561521 -0.015514996 -2.2587996 -0.018571936 -2.3119533 -45.839977 -150.87807
11998000 -44.362183 -7.9144197 -0.016385106 -2.4880495 -0.017703727 -2.527801 -46.041752 -146.74791
12997000 -43.562351 -13.516363 -0.015535519 -2.6650422 -0.017576888 -2.6997004 -45.611465 -141.22029
13996000 -43.313915 -17.415682 -0.014708955 -2.8444042 -0.017969109 -2.8667064 -45.377632 -136.04236
14995000 -42.867886 -21.908129 -0.017527767 -3.0533993 -0.017914524 -3.0799768 -45.036587 -132.36946
15994000 -42.737682 -26.311302 -0.018106617 -3.2760754 -0.020528123 -3.2967038 -44.955479 -129.42906
16993000 -42.6782 -30.979782 -0.017104918 -3.4725523 -0.019144945 -3.4778652 -44.14399 -128.89095
17992000 -42.70174 -36.528725 -0.017292816 -3.6718581 -0.019834789 -3.6723013 -43.563774 -129.09525
18991000 -42.98251 -41.761917 -0.018872211 -3.8798754 -0.020893039 -3.8782165 -42.941387 -127.76588
19990000 -42.669563 -47.236153 -0.020903705 -4.0899739 -0.022708192 -4.0812325 -42.204456 -128.73033
20989000 -42.556488 -50.933605 -0.023013959 -4.2954512 -0.02482401 -4.2828445 -41.688869 -128.06371
21988000 -42.328571 -55.943272 -0.024031596 -4.4922371 -0.025563449 -4.4776516 -41.440079 -127.40752
22987000 -42.019897 -61.004288 -0.025735047 -4.6930127 -0.02635484 -4.6817884 -41.165527 -126.99909
23986000 -41.915939 -64.872513 -0.025070561 -4.8826723 -0.025605371 -4.8841166 -41.05125 -126.88438
24985000 -41.534966 -67.818687 -0.026218113 -5.0947142 -0.026548086 -5.0883074 -40.841503 -124.44945
25984000 -41.191872 -69.732422 -0.027044266 -5.3012643 -0.026394425 -5.2995677 -40.488377 -122.75432
26983000 -40.878834 -71.586998 -0.027613444 -5.4991107 -0.027337573 -5.5166397 -40.363686 -122.31156
27982000 -40.691151 -72.511215 -0.028739259 -5.6977496 -0.028842188 -5.7336597 -40.114651 -120.67612
28981000 -40.649899 -74.029045 -0.02711173 -5.8970113 -0.028920103 -5.9203711 -39.880852 -119.89508
29980000 -40.219784 -75.655991 -0.026513968 -6.0911322 -0.029536963 -6.0981245 -39.587822 -119.06975
30979000 -39.881001 -74.289986 -0.02489977 -6.4437952 -0.023887916 -6.4343553 -39.111759 -119.40836
31978000 -39.655735 -75.357719 -0.022977786 -6.6405506 -0.024524104 -6.6254144 -38.88316 -118.82085
32977000 -39.435947 -76.849266 -0.022966856 -6.8525939 -0.025097899 -6.8446703 -38.609528 -118.80074
33976000 -39.290165 -77.904335 -0.024378063 -7.0484037 -0.025825927 -7.042942 -38.339302 -118.20193
34975000 -38.997952 -78.684799 -0.024119837 -7.2490282 -0.026774941 -7.2490649 -38.110435 -117.86776
35974000 -38.797493 -79.176903 -0.023435039 -7.4455595 -0.026347807 -7.4455357 -37.856926 -116.9781
36973000 -38.544281 -79.930893 -0.024442103 -7.6471014 -0.027614487 -7.6479006 -37.596962 -116.06181
37972000 -38.390736 -79.695381 -0.023788746 -7.8538828 -0.027178675 -7.8633204 -37.364902 -115.29858
38971000 -38.089161 -79.198051 -0.02398162 -8.0588255 -0.026885379 -8.0669384 -37.198078 -113.79555
39970000 -37.728451 -79.409164 -0.023089167 -8.2499056 -0.026188945 -8.2683277 -36.932762 -113.13171
40969000 -37.459221 -79.090866 -0.022899717 -8.4468384 -0.0254356 -8.4672766 -36.712105 -111.78145
41968000 -37.111618 -78.996063 -0.022680089 -8.6482458 -0.026069151 -8.6687365 -36.52742 -110.54741
42967000 -36.853291 -79.096115 -0.023382986 -8.8589287 -0.026751239 -8.8781261 -36.341972 -108.60337
43966000 -36.560562 -79.86084 -0.02391004 -9.0628433 -0.027443074 -9.0828915 -36.067795 -107.91821
44965000 -36.328121 -80.487999 -0.024632661 -9.2644844 -0.027953165 -9.286231 -35.860699 -107.67917
45964000 -36.097824 -81.52623 -0.025755879 -9.4656067 -0.029026685 -9.4852533 -35.618744 -107.30553
46963000 -35.909962 -83.361206 -0.026203269 -9.6615839 -0.029422287 -9.6801643 -35.444782 -107.53636
47962000 -35.734798 -84.779083 -0.027656689 -9.8601379 -0.03072923 -9.8774529 -35.244034 -107.58749
48961000 -35.52039 -86.12767 -0.030314218 -10.058954 -0.032575101 -10.078692 -35.026226 -107.74918
49960000 -35.281269 -87.39978 -0.031195642 -10.254746 -0.033459853 -10.279351 -34.888096 -107.87016
50959000 -35.056519 -88.723274 -0.031405531 -10.472004 -0.034798283 -10.478948 -34.710865 -108.10775
51958000 -34.852993 -89.73613 -0.033343773 -10.668291 -0.035640944 -10.682299 -34.526272 -108.57288
52957000 -34.647293 -90.882256 -0.03469782 -10.871081 -0.037314232 -10.87873 -34.37492 -108.39096
53956000 -34.46151 -91.54493 -0.035730727 -11.073104 -0.03795265 -11.074386 -34.23629 -108.27542
54955000 -34.30526 -91.966705 -0.036704622 -11.272617 -0.039303437 -11.272923 -34.088116 -108.25812
55954000 -34.13884 -92.894608 -0.038621463 -11.474731 -0.038778428 -11.470272 -33.982788 -108.01957
56953000 -34.019104 -92.802483 -0.037095703 -11.671957 -0.037786838 -11.659931 -33.90765 -108.15819
57952000 -33.856987 -93.433922 -0.038846336 -11.867394 -0.038848165 -11.860394 -33.811665 -108.32427
58951000 -33.728294 -93.826088 -0.039411057 -12.078067 -0.040369313 -12.055034 -33.650688 -108.38092
59950000 -33.599583 -94.182144 -0.040385514 -12.274826 -0.040705591 -12.254087 -33.567284 -108.68279
60949000 -33.482128 -94.76757 -0.040906534 -12.473313 -0.041920271 -12.453675 -33.475536 -108.98772
61948000 -33.428452 -94.997574 -0.041093376 -12.674948 -0.040717348 -12.657796 -33.388081 -108.99238
62947000 -33.331665 -95.225792 -0.041242067 -12.885848 -0.042306855 -12.869907 -33.253254 -109.31146
63946000 -33.256878 -95.950409 -0.042402003 -13.086164 -0.042896338 -13.065067 -33.136719 -109.43587
64945000 -33.146687 -96.131996 -0.042912025 -13.287966 -0.043683048 -13.271886 -33.02932 -109.86819
65944000 -33.043694 -96.412804 -0.043674946 -13.485282 -0.043865304 -13.471429 -32.923908 -110.3816
66943000 -32.900379 -96.789627 -0.041379008 -13.688915 -0.04208912 -13.673647 -32.823963 -110.59892
67942000 -32.83865 -96.780411 -0.044080511 -13.881102 -0.044530578 -13.87508 -32.700321 -110.82508
68941000 -32.735458 -96.836716 -0.043035682 -14.074606 -0.043026272 -14.070161 -32.58913 -110.91516
69940000 -32.640297 -96.869888 -0.0438083 -14.278152 -0.043497406 -14.270693 -32.455338 -111.13313
70939000 -32.525978 -96.851768 -0.043468907 -14.47116 -0.043563817 -14.472816 -32.329388 -111.00732
71938000 -32.393261 -96.356087 -0.043251898 -14.672266 -0.043538716 -14.662637 -32.2048 -110.87009
72937000 -32.227676 -96.119209 -0.04260198 -14.873687 -0.043601468 -14.862123 -32.054276 -110.53506
73936000 -32.096855 -95.800583 -0.042530615 -15.068395 -0.041958954 -15.062204 -31.944426 -110.37915
74935000 -31.976788 -96.00045 -0.042151067 -15.264577 -0.041546788 -15.258836 -31.795332 -110.01045
75934000 -31.843483 -96.287636 -0.042544991 -15.470345 -0.041534245 -15.469453 -31.701582 -109.897
76933000 -31.718348 -96.65242 -0.042634916 -15.665394 -0.043117512 -15.657879 -31.532789 -110.25261
77932000 -31.606777 -97.400208 -0.044120785 -15.862293 -0.044611651 -15.854383 -31.435507 -110.22379
78931000 -31.541208 -98.137733 -0.042710729 -16.066349 -0.043498188 -16.06205 -31.338913 -110.08794
79930000 -31.423815 -98.935226 -0.045504615 -16.253649 -0.046299387 -16.25597 -31.235086 -110.38821
80929000 -31.314777 -99.797401 -0.047310721 -16.457224 -0.047753531 -16.451017 -31.135643 -110.59592
81928000 -31.211117 -100.40721 -0.047186941 -16.644737 -0.048585363 -16.639446 -31.012558 -110.62701
82927000 -31.120075 -101.18367 -0.049100298 -16.842384 -0.049576283 -16.840881 -30.900602 -110.90965
83926000 -30.998404 -101.88238 -0.050694708 -17.04109 -0.050193463 -17.0422 -30.785204 -111.10334
84925000 -30.893976 -102.29538 -0.05114546 -17.241041 -0.050624784 -17.240355 -30.703108 -111.15286
85924000 -30.802645 -102.72875 -0.05178225 -17.439859 -0.052085355 -17.44146 -30.60952 -111.0858
86923000 -30.696787 -103.22224 -0.051442232 -17.638241 -0.051956199 -17.634092 -30.507406 -110.99989
87922000 -30.588081 -103.55666 -0.052123867 -17.84819 -0.051531818 -17.8384 -30.41357 -111.05081
88921000 -30.506788 -103.83511 -0.052752938 -18.043974 -0.052995317 -18.042467 -30.330732 -110.9958
89920000 -30.409307 -104.30592 -0.053268891 -18.242544 -0.052901506 -18.236387 -30.279745 -111.19956
90919000 -30.311409 -104.59268 -0.054545809 -18.435743 -0.053872183 -18.435404 -30.199516 -111.36512
91918000 -30.20038 -104.95596 -0.055631168 -18.639681 -0.054883707 -18.637369 -30.127298 -111.41805
92917000 -30.123066 -105.21839 -0.056326307 -18.840933 -0.055722151 -18.840162 -30.055801 -111.50808
93916000 -30.027216 -105.61649 -0.055399917 -19.032316 -0.055694357 -19.028481 -29.970179 -112.063
94915000 -29.963064 -106.23447 -0.057302207 -19.233578 -0.056486014 -19.230278 -29.904556 -111.94815
95914000 -29.886398 -106.39959 -0.05846408 -19.429159 -0.057659209 -19.425817 -29.82127 -112.18427
96913000 -29.804041 -106.67281 -0.059247844 -19.628609 -0.05847536 -19.626829 -29.75843 -112.56743
97912000 -29.727158 -107.09035 -0.060474809 -19.821157 -0.058662958 -19.827301 -29.67317 -112.74539
98911000 -29.628904 -107.24966 -0.060860422 -20.028906 -0.059907869 -20.02714 -29.629894 -113.00135
99910000 -29.551767 -107.36462 -0.061325621 -20.229052 -0.059877161 -20.224577 -29.526285 -113.26352
100909000 -29.466728 -107.66718 -0.06117335 -20.432936 -0.059210319 -20.425091 -29.437073 -113.43168
101908000 -29.376236 -107.89379 -0.061975196 -20.635044 -0.061000343 -20.635317 -29.335287 -113.23959
102907000 -29.244711 -107.80672 -0.062670037 -20.836571 -0.060621019 -20.835043 -29.257376 -113.26447
103906000 -29.152561 -107.86558 -0.062940024 -21.040186 -0.060526256 -21.040279 -29.120852 -113.19292
104905000 -29.004786 -107.76273 -0.063799724 -21.237616 -0.061887756 -21.240952 -29.000282 -112.83733
105904000 -28.865641 -107.84085 -0.064321458 -21.440619 -0.06106519 -21.435028 -28.878849 -112.72368
106903000 -28.755585 -107.94663 -0.063499212 -21.648302 -0.062234633 -21.639606 -28.756256 -112.59077
107902000 -28.587729 -108.20789 -0.064312264 -21.848049 -0.062532425 -21.835958 -28.626274 -112.56767
108901000 -28.483019 -108.47479 -0.06555406 -22.047768 -0.062816061 -22.044569 -28.491226 -112.51128
109900000 -28.355408 -108.90299 -0.066242121 -22.249052 -0.064530849 -22.243395 -28.353222 -112.6103
110899000 -28.234776 -109.52417 -0.068102621 -22.446651 -0.064532168 -22.443523 -28.223289 -112.86227
111898000 -28.14724 -110.18167 -0.069098003 -22.648489 -0.066224247 -22.64094 -28.111231 -113.00418
112897000 -28.024305 -110.72997 -0.070736349 -22.845249 -0.067525223 -22.836702 -27.977448 -113.14823
113896000 -27.915453 -111.27644 -0.071678124 -23.047167 -0.068753473 -23.037874 -27.86553 -113.32215
114895000 -27.811377 -111.90206 -0.072789885 -23.243483 -0.069726124 -23.233389 -27.751419 -113.41491
115894000 -27.690092 -112.28484 -0.073929839 -23.448364 -0.070906319 -23.435389 -27.683147 -113.58272
116893000 -27.608936 -112.76197 -0.074743792 -23.644697 -0.072305299 -23.62747 -27.562576 -113.63142
117892000 -27.53129 -113.31616 -0.074205533 -23.840706 -0.071780235 -23.828299 -27.487747 -113.84681
118891000 -27.468334 -113.64636 -0.075330846 -24.045362 -0.072776988 -24.02866 -27.393417 -113.99245
119890000 -27.383556 -114.04113 -0.076478317 -24.239983 -0.072965994 -24.231867 -27.378414 -114.10942
120889000 -27.337286 -114.55363 -0.077283785 -24.442919 -0.073829524 -24.428413 -27.300247 -114.06821
121888000 -27.291353 -114.85736 -0.077830598 -24.639177 -0.073966444 -24.625132 -27.24832 -114.31163
122887000 -27.252428 -115.08439 -0.077839561 -24.842989 -0.075144365 -24.82917 -27.197123 -114.3476
123886000 -27.198893 -115.47176 -0.078722246 -25.04743 -0.0749982 -25.025665 -27.17934 -114.50914
124885000 -27.163599 -115.98075 -0.078887261 -25.244793 -0.075776257 -25.231138 -27.157717 -114.53508
125884000 -27.109444 -116.18978 -0.079276092 -25.443022 -0.07582736 -25.427855 -27.131905 -114.678
126883000 -27.095497 -116.56547 -0.079661012 -25.645742 -0.076159015 -25.632395 -27.087633 -114.67648
127882000 -27.046553 -116.86015 -0.080439113 -25.847071 -0.076970749 -25.828018 -27.037918 -114.85879
128881000 -27.015961 -117.22165 -0.080592066 -26.046732 -0.077127792 -26.031071 -27.004818 -114.94379
129880000 -26.959101 -117.51544 -0.080454409 -26.247923 -0.0771963 -26.232481 -26.965672 -114.86109
130879000 -26.900787 -117.63921 -0.08047498 -26.452036 -0.077972651 -26.430326 -26.896235 -114.90633
131878000 -26.833845 -117.86007 -0.08101771 -26.649492 -0.078721717 -26.634047 -26.832527 -114.75111
132877000 -26.766151 -117.95206 -0.080710731 -26.850866 -0.078616545 -26.835659 -26.750092 -114.73926
133876000 -26.683359 -118.11533 -0.081089444 -27.055668 -0.078337677 -27.032152 -26.665833 -114.61285
134875000 -26.590897 -118.21609 -0.081543893 -27.254864 -0.079057023 -27.239098 -26.573341 -114.48011
135874000 -26.510674 -118.249 -0.081063859 -27.455439 -0.078568578 -27.436867 -26.471739 -114.41897
136873000 -26.397783 -118.14192 -0.082008936 -27.65778 -0.078534573 -27.640959 -26.391884 -114.36617
137872000 -26.320724 -118.2771 -0.081277758 -27.859026 -0.078745708 -27.842255 -26.289209 -114.29647
138871000 -26.245157 -118.49703 -0.08195591 -28.056831 -0.079368368 -28.04265 -26.197201 -114.44785
139870000 -26.145645 -118.78371 -0.082165107 -28.254772 -0.080337331 -28.23877 -26.110622 -114.61855
140869000 -26.066936 -119.3047 -0.083749272 -28.452602 -0.080579139 -28.434975 -26.017399 -114.80543
141868000 -25.994226 -119.69682 -0.084384523 -28.654984 -0.082031623 -28.641666 -25.965588 -115.0681
142867000 -25.908962 -119.87949 -0.083011471 -28.849718 -0.081250325 -28.834433 -25.888044 -115.18721
143866000 -25.839819 -120.42085 -0.085021451 -29.046999 -0.082897745 -29.032406 -25.819263 -115.65053
144865000 -25.782623 -120.89446 -0.086521633 -29.246174 -0.084081531 -29.229696 -25.760483 -115.94765
145864000 -25.721874 -121.22529 -0.086445317 -29.446743 -0.085305765 -29.435789 -25.725451 -116.18147
146863000 -25.683672 -121.60402 -0.087578565 -29.648079 -0.085298643 -29.634968 -25.682833 -116.49608
147862000 -25.642157 -121.94673 -0.088131689 -29.845961 -0.085633926 -29.830425 -25.64749 -116.7958
148861000 -25.611301 -122.37687 -0.089417577 -30.044821 -0.087270066 -30.03253 -25.625372 -116.94291
149860000 -25.579109 -122.57534 -0.090532571 -30.234175 -0.088063538 -30.226728 -25.573801 -117.06039
150859000 -25.557772 -123.02978 -0.089866556 -30.431936 -0.087375186 -30.419386 -25.559143 -117.41943
151858000 -25.543106 -123.39468 -0.089308448 -30.634474 -0.08792565 -30.617649 -25.547421 -117.75542
152857000 -25.534037 -123.73127 -0.089481793 -30.832563 -0.08771459 -30.821007 -25.527588 -117.94842
153856000 -25.530024 -123.93515 -0.089654088 -31.032749 -0.087601013 -31.018625 -25.548862 -118.25761
154855000 -25.527897 -124.09006 -0.090492398 -31.232218 -0.087246031 -31.221994 -25.534285 -118.50774
155854000 -25.54533 -124.35561 -0.090331696 -31.43264 -0.087780893 -31.420063 -25.526628 -118.75204
156853000 -25.527412 -125.02158 -0.088154942 -31.621819 -0.086996719 -31.612589 -25.525881 -119.10395
157852000 -25.53949 -125.20979 -0.08888939 -31.823679 -0.088414885 -31.814049 -25.515867 -119.43356
158851000 -25.536562 -125.43561 -0.090219639 -32.020409 -0.088577367 -32.012592 -25.498713 -119.68989
159850000 -25.524982 -125.58945 -0.090523317 -32.216969 -0.089229181 -32.21096 -25.499685 -119.86966
160849000 -25.509773 -125.68352 -0.090088017 -32.419762 -0.089825593 -32.410748 -25.468647 -120.14761
161848000 -25.49284 -125.72273 -0.090598121 -32.620117 -0.090116031 -32.612488 -25.427046 -120.27008
162847000 -25.449492 -125.93195 -0.090769932 -32.817501 -0.090027764 -32.811409 -25.403776 -120.53825
163846000 -25.41378 -126.08528 -0.090350993 -33.015892 -0.08947809 -33.008915 -25.325684 -120.53136
164845000 -25.353888 -126.05297 -0.091556109 -33.220501 -0.089832202 -33.213337 -25.260658 -120.6098
165844000 -25.30047 -126.1232 -0.0907657 -33.417969 -0.091443755 -33.414066 -25.181484 -120.72491
166843000 -25.237432 -126.17068 -0.091708921 -33.617222 -0.090991445 -33.612373 -25.117142 -120.90435
167842000 -25.17893 -126.25574 -0.091907479 -33.817898 -0.090857163 -33.808403 -25.045862 -120.83215
168841000 -25.104946 -126.44405 -0.091941588 -34.012363 -0.091009416 -34.01387 -24.97254 -120.90919
169840000 -25.038542 -126.65762 -0.092315458 -34.208855 -0.091093741 -34.21299 -24.884218 -121.07773
170839000 -24.982719 -126.89197 -0.093217231 -34.409695 -0.091751225 -34.410671 -24.802017 -121.25307
171838000 -24.919922 -127.25533 -0.093577459 -34.61227 -0.093035273 -34.602814 -24.737993 -121.46833
172837000 -24.852509 -127.59929 -0.09503033 -34.809101 -0.094116539 -34.804672 -24.675688 -121.71429
173836000 -24.782137 -128.01274 -0.095776521 -35.007099 -0.095113672 -35.007256 -24.63398 -121.89995
174835000 -24.732231 -128.4015 -0.096447155 -35.202835 -0.095274813 -35.202702 -24.587711 -122.22768
175834000 -24.679066 -128.74768 -0.097547799 -35.405193 -0.096239656 -35.39925 -24.525372 -122.48546
176833000 -24.629137 -129.10786 -0.098047659 -35.602726 -0.097140916 -35.60323 -24.482895 -122.6274
177832000 -24.588799 -129.53508 -0.099018946 -35.799686 -0.097657673 -35.803974 -24.45929 -122.7581
178831000 -24.541323 -129.75702 -0.10092746 -35.99712 -0.099395551 -35.99744 -24.420076 -122.82173
179830000 -24.47179 -130.16112 -0.10157716 -36.179783 -0.10024846 -36.185349 -24.354454 -122.86462
180829000 -24.420828 -130.5213 -0.10097992 -36.375061 -0.099291198 -36.376835 -24.315683 -123.23193
181828000 -24.400404 -130.92265 -0.099640809 -36.572933 -0.098846808 -36.575275 -24.295311 -123.40736
182827000 -24.375053 -131.32707 -0.1002225 -36.771576 -0.099172547 -36.772392 -24.282446 -123.53968
183826000 -24.334583 -131.64565 -0.10094468 -36.974064 -0.099569298 -36.971645 -24.272194 -123.69694
184825000 -24.338131 -131.97455 -0.10038012 -37.167427 -0.099675238 -37.169025 -24.253725 -123.82117
185824000 -24.30946 -132.35057 -0.10041349 -37.360466 -0.099582009 -37.367332 -24.247202 -123.89417
186823000 -24.292366 -132.70657 -0.10010223 -37.562717 -0.099461235 -37.562366 -24.240078 -123.88634
187822000 -24.2675 -133.05472 -0.10126793 -37.757668 -0.10072372 -37.760639 -24.204374 -123.98291
188821000 -24.246197 -133.32262 -0.10087208 -37.952541 -0.10061616 -37.9585 -24.18388 -124.09045
189820000 -24.228125 -133.60472 -0.10179578 -38.155212 -0.10067233 -38.151443 -24.171778 -124.31173
190819000 -24.193499 -133.88942 -0.10195848 -38.35173 -0.10078625 -38.351032 -24.131317 -124.35156
191818000 -24.160772 -134.1987 -0.1017698 -38.552055 -0.10162618 -38.55048 -24.09893 -124.36279
192817000 -24.120882 -134.48618 -0.10282303 -38.746655 -0.10173217 -38.748688 -24.055864 -124.46154
193816000 -24.085833 -134.73891 -0.10237987 -38.942097 -0.10149395 -38.942623 -24.006142 -124.61496
194815000 -24.024748 -135.10172 -0.10304198 -39.136181 -0.10274564 -39.138096 -23.941133 -124.65868
195814000 -23.970457 -135.31021 -0.1037535 -39.331009 -0.10302925 -39.339058 -23.88582 -124.73869
196813000 -23.910944 -135.6368 -0.1040218 -39.528381 -0.10292163 -39.530846 -23.807291 -124.89306
197812000 -23.860275 -135.85452 -0.1033235 -39.728409 -0.10278301 -39.726631 -23.741013 -124.9772
198811000 -23.809309 -136.02063 -0.10420846 -39.924934 -0.10335292 -39.926311 -23.673609 -125.14638
199810000 -23.737495 -136.3389 -0.10424452 -40.120701 -0.10293224 -40.119202 -23.594816 -125.25227
200809000 -23.677994 -136.62244 -0.10466798 -40.313469 -0.10331873 -40.317516 -23.514894 -125.384
201808000 -23.620413 -136.79402 -0.10517424 -40.519524 -0.10400404 -40.518837 -23.45023 -125.48481
202807000 -23.560806 -137.14182 -0.10522648 -40.71656 -0.10528933 -40.722553 -23.395634 -125.6286
