!Keysight Technologies,E5080B,MY59205177,A.15.75.32
!Date: Friday, February 23, 2024 03:02:12
!Correction: S11(Cdelta 2-Port  ) 
!S21(Cdelta 2-Port  ) 
!S12(Cdelta 2-Port  ) 
!S22(Cdelta 2-Port  ) 
!S2P File: Measurements: S11, S21, S12, S22:
# Hz S  dB   R 50
10000000 -44.184258 -3.4833462 -0.026624659 -2.0339913 -0.030474015 -2.0967171 -48.112228 -150.13354
10999000 -43.497883 -5.1933837 -0.028286137 -2.2577839 -0.030190401 -2.3130295 -47.782593 -142.45238
11998000 -42.713806 -8.1045227 -0.027711138 -2.4762197 -0.030491481 -2.5231779 -47.936356 -137.52998
12997000 -42.093842 -12.765141 -0.02808265 -2.6577871 -0.029626878 -2.6947608 -47.267689 -130.90993
13996000 -41.863262 -15.92272 -0.027036972 -2.8413062 -0.030051468 -2.8599691 -46.863968 -125.24868
14995000 -41.554008 -19.945322 -0.028894566 -3.0464814 -0.029369382 -3.069248 -46.412235 -121.74541
15994000 -41.43948 -23.676363 -0.030119501 -3.2631228 -0.032239713 -3.2840049 -46.093292 -118.13988
16993000 -41.439831 -27.630442 -0.029038673 -3.4620628 -0.031438384 -3.4701486 -45.201035 -119.16279
17992000 -41.513638 -32.418343 -0.02922344 -3.6569901 -0.031756241 -3.6596994 -44.625069 -119.75241
18991000 -41.772293 -36.586479 -0.030310048 -3.8714037 -0.032643955 -3.8667576 -43.889072 -119.67985
19990000 -41.606327 -41.826008 -0.03321778 -4.0773234 -0.034843948 -4.0719676 -43.221912 -120.92282
20989000 -41.545708 -44.875332 -0.034926407 -4.2793584 -0.036807738 -4.2697339 -42.629696 -120.94695
21988000 -41.408302 -49.594791 -0.035230946 -4.4763193 -0.037509013 -4.4675589 -42.365978 -120.08365
22987000 -41.211044 -53.779263 -0.036782939 -4.6752849 -0.038396075 -4.6663518 -42.052319 -119.79883
23986000 -41.211597 -57.57909 -0.036206815 -4.8665028 -0.036953416 -4.8681316 -41.934128 -119.69485
24985000 -40.845055 -60.271194 -0.036634136 -5.0781627 -0.037916355 -5.071033 -41.690201 -117.34144
25984000 -40.593845 -62.523735 -0.037871964 -5.2849865 -0.037621289 -5.2855 -41.333477 -116.21262
26983000 -40.312176 -64.414749 -0.038836673 -5.4824362 -0.038615715 -5.5013361 -41.231422 -115.31435
27982000 -40.188313 -65.224342 -0.039558388 -5.6780653 -0.040520858 -5.7147188 -40.902256 -113.89345
28981000 -40.215015 -66.415916 -0.037872486 -5.8762417 -0.040344756 -5.900692 -40.678535 -113.02461
29980000 -39.842766 -68.198685 -0.03808609 -6.069942 -0.04083363 -6.0744114 -40.330036 -112.53874
30979000 -39.412598 -67.582413 -0.035904817 -6.4254785 -0.035924133 -6.4170365 -39.821243 -113.17892
31978000 -39.265244 -68.473175 -0.035969809 -6.616961 -0.037094917 -6.6103039 -39.574387 -112.4377
32977000 -39.101311 -69.888359 -0.034715302 -6.8301969 -0.037274286 -6.8246274 -39.304672 -112.7283
33976000 -38.949665 -71.28878 -0.035505492 -7.0304313 -0.037354961 -7.023726 -38.990601 -112.13574
34975000 -38.675236 -72.185562 -0.035088457 -7.2294464 -0.03862799 -7.2272391 -38.767967 -112.09856
35974000 -38.484398 -72.903786 -0.034625281 -7.426383 -0.038452487 -7.4291258 -38.464848 -111.46594
36973000 -38.278385 -73.803528 -0.035689492 -7.6216178 -0.038306762 -7.6269598 -38.174507 -110.4531
37972000 -38.089485 -73.576042 -0.035030786 -7.8297081 -0.038355857 -7.8383822 -37.929523 -109.94062
38971000 -37.774384 -73.444229 -0.035735164 -8.0343943 -0.038713656 -8.0411882 -37.742683 -108.3076
39970000 -37.47892 -74.004326 -0.034206506 -8.2301321 -0.038028382 -8.2418709 -37.451115 -108.00803
40969000 -37.17453 -73.866135 -0.035217375 -8.4214821 -0.038210135 -8.4394302 -37.197914 -106.55956
41968000 -36.841877 -74.212425 -0.034169197 -8.6186256 -0.03809236 -8.6428232 -36.981503 -105.62991
42967000 -36.59623 -74.34536 -0.03453787 -8.8393021 -0.038470507 -8.8560019 -36.762974 -103.79452
43966000 -36.306801 -75.216385 -0.035605971 -9.0351954 -0.040027838 -9.0521021 -36.466991 -103.16467
44965000 -36.087193 -76.228897 -0.036974039 -9.2388916 -0.040111966 -9.2552633 -36.246544 -103.1005
45964000 -35.869583 -77.243774 -0.03781138 -9.4362268 -0.04061649 -9.4551105 -36.007656 -102.94121
46963000 -35.691574 -79.345032 -0.037628338 -9.6316156 -0.04119163 -9.653512 -35.836681 -103.41585
47962000 -35.529736 -80.764236 -0.039320938 -9.8364258 -0.04260616 -9.8501396 -35.64455 -103.51965
48961000 -35.351608 -82.259956 -0.041235011 -10.031373 -0.044156086 -10.046101 -35.406544 -103.83714
49960000 -35.126682 -83.616158 -0.04283255 -10.230934 -0.045460671 -10.251566 -35.253006 -104.00539
50959000 -34.923958 -85.012238 -0.043524336 -10.442017 -0.046384159 -10.450122 -35.079994 -104.3359
51958000 -34.729774 -86.147835 -0.045398936 -10.643543 -0.047356781 -10.650784 -34.91016 -104.99168
52957000 -34.527092 -87.349754 -0.046821903 -10.840084 -0.048846617 -10.84682 -34.73354 -104.76315
53956000 -34.366879 -88.041344 -0.047645964 -11.043251 -0.049794655 -11.042808 -34.607533 -104.81615
54955000 -34.200474 -88.525658 -0.048664156 -11.243816 -0.050239816 -11.235341 -34.450718 -104.8298
55954000 -34.045937 -89.467163 -0.049776848 -11.443212 -0.0509925 -11.43978 -34.338104 -104.5905
56953000 -33.935112 -89.445457 -0.049498521 -11.63925 -0.049295608 -11.626168 -34.27832 -104.84456
57952000 -33.777344 -90.102806 -0.050216772 -11.836684 -0.050391179 -11.825105 -34.171783 -104.87782
58951000 -33.656189 -90.433777 -0.051080503 -12.038636 -0.052069899 -12.022649 -34.018307 -105.04366
59950000 -33.53709 -90.798218 -0.052226301 -12.241115 -0.052338175 -12.215309 -33.960876 -105.28474
60949000 -33.42989 -91.295464 -0.052038196 -12.44275 -0.052673284 -12.418849 -33.850574 -105.5323
61948000 -33.367054 -91.680511 -0.05347959 -12.642056 -0.053160403 -12.623543 -33.760166 -105.69425
62947000 -33.286438 -91.896805 -0.052488301 -12.852398 -0.053599093 -12.831801 -33.633274 -105.91549
63946000 -33.232971 -92.731941 -0.05391831 -13.049812 -0.05466377 -13.028852 -33.53875 -106.0708
64945000 -33.116863 -92.84684 -0.05417281 -13.250125 -0.055156618 -13.229832 -33.409725 -106.70512
65944000 -33.018681 -93.177376 -0.055629071 -13.450122 -0.055753615 -13.433938 -33.323784 -107.11301
66943000 -32.887329 -93.557526 -0.052851196 -13.650578 -0.054575693 -13.63335 -33.219505 -107.3813
67942000 -32.832069 -93.455978 -0.055428233 -13.846597 -0.05601399 -13.835164 -33.090195 -107.66355
68941000 -32.721447 -93.694138 -0.055182833 -14.040659 -0.054185916 -14.030442 -32.993359 -107.64585
69940000 -32.623959 -93.703445 -0.055289537 -14.236082 -0.055753089 -14.228992 -32.845196 -107.93195
70939000 -32.526245 -93.612679 -0.054985948 -14.433881 -0.054848056 -14.42625 -32.721138 -107.86364
71938000 -32.38805 -93.336868 -0.055253357 -14.633307 -0.055271447 -14.622882 -32.591385 -107.7601
72937000 -32.218349 -93.120506 -0.054327719 -14.827207 -0.054707546 -14.82157 -32.450012 -107.48724
73936000 -32.080654 -92.837898 -0.053717814 -15.027035 -0.054243319 -15.017626 -32.331032 -107.30971
74935000 -31.965971 -93.118423 -0.053772327 -15.224728 -0.05308729 -15.218764 -32.185223 -107.01055
75934000 -31.832655 -93.417397 -0.053283043 -15.42922 -0.053492166 -15.42379 -32.104012 -106.9627
76933000 -31.709976 -93.827454 -0.054718558 -15.620643 -0.054416578 -15.617607 -31.927935 -107.366
77932000 -31.603428 -94.530167 -0.056128845 -15.819671 -0.056577276 -15.813145 -31.837646 -107.37474
78931000 -31.531519 -95.412376 -0.054332439 -16.020237 -0.055088192 -16.014875 -31.744551 -107.31637
79930000 -31.420692 -96.169876 -0.056930285 -16.211609 -0.057722431 -16.209196 -31.641214 -107.60838
80929000 -31.303299 -97.149147 -0.058787066 -16.405794 -0.059196934 -16.4042 -31.535866 -107.98521
81928000 -31.227707 -97.999168 -0.058643281 -16.599926 -0.059717067 -16.594471 -31.424212 -108.04208
82927000 -31.133387 -98.712509 -0.060325716 -16.795805 -0.06078377 -16.796051 -31.317059 -108.30771
83926000 -31.02305 -99.458191 -0.062080491 -16.99571 -0.061307769 -16.992136 -31.201666 -108.5733
84925000 -30.907934 -99.882195 -0.062536888 -17.194103 -0.061977033 -17.186417 -31.111942 -108.66475
85924000 -30.831556 -100.29823 -0.063331105 -17.391087 -0.063243121 -17.390083 -31.016319 -108.70012
86923000 -30.712069 -100.87022 -0.063242853 -17.590954 -0.064152271 -17.583532 -30.920603 -108.57265
87922000 -30.613802 -101.21503 -0.063755594 -17.794407 -0.063852787 -17.788095 -30.831285 -108.63777
88921000 -30.546673 -101.49305 -0.064806469 -17.995663 -0.064020649 -17.994081 -30.735344 -108.6211
89920000 -30.454468 -102.09983 -0.064970955 -18.194393 -0.064497225 -18.179729 -30.683893 -108.81817
90919000 -30.350342 -102.35685 -0.066397198 -18.389565 -0.064513251 -18.380493 -30.60672 -108.95266
91918000 -30.259907 -102.76021 -0.066822506 -18.58922 -0.065870218 -18.583963 -30.532492 -109.01092
92917000 -30.170013 -103.09079 -0.067873076 -18.786486 -0.066798843 -18.783337 -30.46899 -109.1331
93916000 -30.084343 -103.48841 -0.067682445 -18.978891 -0.066617206 -18.974878 -30.388899 -109.78622
94915000 -30.010448 -104.08331 -0.068873927 -19.181984 -0.067762643 -19.174234 -30.314198 -109.63921
95914000 -29.939621 -104.31375 -0.069990762 -19.374519 -0.068811595 -19.374073 -30.232862 -109.91357
96913000 -29.864326 -104.5772 -0.070737928 -19.574762 -0.069834501 -19.571657 -30.169565 -110.23691
97912000 -29.796144 -105.04144 -0.072457694 -19.768021 -0.070370115 -19.771399 -30.091101 -110.51191
98911000 -29.682749 -105.20141 -0.072566934 -19.973185 -0.071466543 -19.966721 -30.051153 -110.70763
99910000 -29.630329 -105.38622 -0.073040232 -20.168709 -0.071499966 -20.166189 -29.934446 -111.00586
100909000 -29.530924 -105.73158 -0.072189748 -20.376745 -0.071014464 -20.371599 -29.852505 -111.25874
101908000 -29.451406 -105.90427 -0.0733077 -20.580147 -0.072806731 -20.573965 -29.74262 -110.99755
102907000 -29.317907 -105.94052 -0.073916413 -20.778542 -0.072684325 -20.774332 -29.669754 -110.96999
103906000 -29.222849 -106.02106 -0.073988035 -20.981993 -0.071576014 -20.975443 -29.521385 -110.92998
104905000 -29.07576 -105.93453 -0.074755378 -21.180223 -0.072032884 -21.181213 -29.396378 -110.62424
105904000 -28.941795 -106.06322 -0.074549966 -21.38044 -0.07221844 -21.374981 -29.276901 -110.49257
106903000 -28.830976 -106.15572 -0.074579984 -21.587294 -0.072704859 -21.58243 -29.151695 -110.36775
107902000 -28.661146 -106.51927 -0.075336903 -21.785528 -0.073022589 -21.778608 -29.016476 -110.40273
108901000 -28.556248 -106.78341 -0.076899342 -21.986288 -0.074686117 -21.978453 -28.894432 -110.30987
109900000 -28.42919 -107.29686 -0.076910146 -22.193077 -0.075705662 -22.174383 -28.738735 -110.38274
110899000 -28.311932 -107.91051 -0.07872963 -22.385897 -0.076138467 -22.376711 -28.611881 -110.69511
111898000 -28.229095 -108.59562 -0.079802066 -22.586855 -0.076932542 -22.579378 -28.490269 -110.83739
112897000 -28.09845 -109.15069 -0.081369542 -22.783915 -0.07867796 -22.774073 -28.361074 -111.02298
113896000 -27.993095 -109.77525 -0.082126327 -22.986589 -0.079615928 -22.973175 -28.259104 -111.15858
114895000 -27.894884 -110.34779 -0.08340621 -23.184252 -0.081108436 -23.169104 -28.144474 -111.27652
115894000 -27.771204 -110.7082 -0.084546849 -23.383825 -0.082204148 -23.370195 -28.076523 -111.42575
116893000 -27.686207 -111.31227 -0.085038088 -23.579597 -0.083169259 -23.563133 -27.946442 -111.53959
117892000 -27.609093 -111.7794 -0.085516706 -23.775806 -0.083119385 -23.76256 -27.875641 -111.80376
118891000 -27.550861 -112.20721 -0.085817948 -23.97286 -0.084022149 -23.960831 -27.782038 -111.93618
119890000 -27.464487 -112.58381 -0.086637825 -24.174051 -0.084398247 -24.160645 -27.766171 -112.08
120889000 -27.409122 -113.02972 -0.088158637 -24.377373 -0.085104607 -24.359615 -27.694965 -112.01885
121888000 -27.368181 -113.43953 -0.088289402 -24.573221 -0.08597663 -24.560104 -27.636215 -112.30717
122887000 -27.329618 -113.59978 -0.088835225 -24.774223 -0.085496902 -24.757963 -27.582327 -112.36083
123886000 -27.275034 -114.0007 -0.089461975 -24.976011 -0.086194202 -24.955566 -27.574011 -112.53041
124885000 -27.24073 -114.48708 -0.089645892 -25.176172 -0.0869954 -25.160076 -27.544806 -112.58461
125884000 -27.184925 -114.74296 -0.090236552 -25.370783 -0.086784385 -25.36232 -27.51045 -112.76053
126883000 -27.164011 -115.11406 -0.090676099 -25.576279 -0.087570906 -25.558659 -27.466572 -112.80402
127882000 -27.113825 -115.38663 -0.090399891 -25.774439 -0.087977953 -25.758137 -27.431711 -112.95422
128881000 -27.08156 -115.7345 -0.090870373 -25.979181 -0.088174485 -25.958115 -27.387388 -113.10371
129880000 -27.027401 -116.06454 -0.091468871 -26.178768 -0.088605635 -26.155701 -27.342924 -113.09854
130879000 -26.973063 -116.2216 -0.091177277 -26.375944 -0.08910393 -26.358147 -27.264763 -113.1433
131878000 -26.905014 -116.44996 -0.092296422 -26.577717 -0.088952273 -26.561232 -27.205597 -113.03389
132877000 -26.8358 -116.51942 -0.091456443 -26.780287 -0.08945854 -26.761599 -27.126225 -113.05059
133876000 -26.75226 -116.67511 -0.09201932 -26.979055 -0.089274891 -26.959049 -27.02972 -112.9446
134875000 -26.655134 -116.79464 -0.092206255 -27.179451 -0.089356802 -27.161106 -26.928427 -112.84836
135874000 -26.574301 -116.78474 -0.092173733 -27.378859 -0.090128191 -27.366571 -26.83172 -112.79568
136873000 -26.464588 -116.76285 -0.092426516 -27.580505 -0.090063706 -27.562672 -26.743221 -112.79681
137872000 -26.382198 -116.84528 -0.092701003 -27.783051 -0.089995518 -27.767431 -26.63722 -112.71302
138871000 -26.309494 -117.08135 -0.092632249 -27.983253 -0.090297073 -27.965593 -26.543447 -112.91484
139870000 -26.2146 -117.35967 -0.093129426 -28.188025 -0.091220632 -28.165253 -26.463581 -113.07953
140869000 -26.127604 -117.8325 -0.095040113 -28.377439 -0.092188008 -28.359547 -26.355812 -113.23408
141868000 -26.033409 -118.28243 -0.095254175 -28.570227 -0.093204007 -28.554098 -26.291224 -113.51889
142867000 -25.950607 -118.55289 -0.093927935 -28.770386 -0.092430487 -28.751272 -26.212318 -113.74174
143866000 -25.884031 -119.05651 -0.095706664 -28.963066 -0.093520068 -28.946188 -26.142357 -114.18702
144865000 -25.830175 -119.55107 -0.097387634 -29.16234 -0.094404891 -29.14716 -26.085272 -114.57501
145864000 -25.774492 -119.81142 -0.097520798 -29.361092 -0.095896937 -29.349924 -26.051979 -114.805
146863000 -25.726023 -120.26218 -0.098371752 -29.564034 -0.096147291 -29.550489 -25.997795 -115.13579
147862000 -25.689405 -120.62259 -0.09911111 -29.760979 -0.096185662 -29.745447 -25.969484 -115.43934
148861000 -25.652098 -121.13035 -0.099071644 -29.956053 -0.096879117 -29.941879 -25.942089 -115.70016
149860000 -25.637205 -121.32324 -0.10026223 -30.153828 -0.09712027 -30.145823 -25.90774 -115.87257
150859000 -25.617712 -121.72229 -0.099772185 -30.357475 -0.098016948 -30.339571 -25.905502 -116.15999
151858000 -25.603447 -122.00025 -0.1001462 -30.55341 -0.097449847 -30.537338 -25.886265 -116.41616
152857000 -25.587646 -122.32224 -0.10027442 -30.750959 -0.098366983 -30.740513 -25.872246 -116.54206
153856000 -25.575665 -122.52474 -0.099890321 -30.951727 -0.097505443 -30.937828 -25.887102 -116.86309
154855000 -25.568678 -122.71249 -0.10068398 -31.147209 -0.097942814 -31.136793 -25.878298 -117.08824
155854000 -25.587303 -122.95678 -0.1005637 -31.350401 -0.098376513 -31.333179 -25.863792 -117.34471
156853000 -25.568975 -123.63387 -0.098457545 -31.537397 -0.098320909 -31.523624 -25.860777 -117.64088
157852000 -25.573689 -123.88 -0.1005078 -31.740307 -0.099387072 -31.724167 -25.850878 -117.97836
158851000 -25.566204 -124.11421 -0.10059682 -31.935001 -0.099689014 -31.924543 -25.833881 -118.2402
159850000 -25.558079 -124.27956 -0.10180637 -32.134514 -0.099974021 -32.1245 -25.833811 -118.38728
160849000 -25.534811 -124.3759 -0.10194312 -32.33271 -0.1007065 -32.326847 -25.80254 -118.67777
161848000 -25.51503 -124.47685 -0.10221078 -32.53196 -0.10043575 -32.526527 -25.762213 -118.81287
162847000 -25.472311 -124.716 -0.10231891 -32.729092 -0.1011948 -32.723686 -25.731939 -119.04359
163846000 -25.431742 -124.88707 -0.10199453 -32.930458 -0.1009203 -32.923271 -25.655306 -119.04684
164845000 -25.371849 -124.91012 -0.10232793 -33.128937 -0.10112061 -33.121532 -25.588697 -119.19452
165844000 -25.326046 -125.00999 -0.10202898 -33.327461 -0.10212306 -33.322063 -25.50876 -119.28629
166843000 -25.256294 -125.09763 -0.1023857 -33.527428 -0.10152204 -33.52676 -25.442244 -119.47787
167842000 -25.201385 -125.22293 -0.10252564 -33.723419 -0.10186096 -33.716385 -25.364202 -119.39926
168841000 -25.124668 -125.40093 -0.10373282 -33.923058 -0.101941 -33.918831 -25.282249 -119.46778
169840000 -25.057014 -125.69629 -0.10331501 -34.119347 -0.10238199 -34.114601 -25.198788 -119.66735
170839000 -24.997128 -125.94116 -0.10432593 -34.317036 -0.10304622 -34.31303 -25.116245 -119.83996
171838000 -24.943754 -126.34126 -0.10423074 -34.519146 -0.10364639 -34.508579 -25.053011 -120.07896
172837000 -24.870224 -126.71442 -0.10577496 -34.710922 -0.10464014 -34.70546 -24.987835 -120.31448
173836000 -24.805794 -127.14729 -0.10679016 -34.910511 -0.10565428 -34.905701 -24.940294 -120.53139
174835000 -24.75193 -127.56684 -0.10714622 -35.107841 -0.10622988 -35.103859 -24.896614 -120.87857
175834000 -24.697407 -127.93705 -0.10797464 -35.303188 -0.10737307 -35.299938 -24.838512 -121.18153
176833000 -24.649858 -128.34413 -0.10889533 -35.500118 -0.10758907 -35.499081 -24.777332 -121.31845
177832000 -24.605165 -128.79341 -0.10937526 -35.696453 -0.10798393 -35.694885 -24.75782 -121.4956
178831000 -24.561607 -129.16309 -0.1094387 -35.89278 -0.10874058 -35.891903 -24.721659 -121.75871
179830000 -24.524628 -129.61015 -0.1101226 -36.092426 -0.10866945 -36.093765 -24.692099 -121.86116
180829000 -24.487408 -129.81219 -0.11095053 -36.28516 -0.10960462 -36.291908 -24.664059 -122.04283
181828000 -24.457075 -130.16306 -0.11029093 -36.488064 -0.10996064 -36.484585 -24.647692 -122.11791
182827000 -24.436083 -130.51341 -0.10989586 -36.680267 -0.11002542 -36.678135 -24.631275 -122.22535
183826000 -24.397673 -130.81763 -0.11154011 -36.879524 -0.11036528 -36.876038 -24.622 -122.33858
184825000 -24.404278 -131.15704 -0.11132658 -37.074921 -0.10970577 -37.073547 -24.606087 -122.43227
185824000 -24.376144 -131.48975 -0.11102594 -37.267666 -0.11070622 -37.267242 -24.606096 -122.47867
186823000 -24.360302 -131.82054 -0.11090007 -37.467884 -0.11100709 -37.4669 -24.599697 -122.48047
187822000 -24.338676 -132.16951 -0.1124055 -37.664154 -0.11122804 -37.661098 -24.567867 -122.54388
188821000 -24.319101 -132.39738 -0.11201236 -37.85857 -0.11198314 -37.859898 -24.54591 -122.63679
189820000 -24.304457 -132.67075 -0.11207771 -38.06041 -0.11157569 -38.059113 -24.539173 -122.821
190819000 -24.275486 -132.92548 -0.11368823 -38.259167 -0.11278061 -38.256371 -24.505117 -122.76553
191818000 -24.233217 -133.09894 -0.11487167 -38.453407 -0.11408684 -38.4534 -24.475607 -122.65421
192817000 -24.17119 -133.37584 -0.11567339 -38.637299 -0.11453491 -38.641182 -24.403139 -122.76508
193816000 -24.136635 -133.74591 -0.11440469 -38.831348 -0.11347353 -38.830734 -24.348557 -122.99689
194815000 -24.075094 -134.17244 -0.11446767 -39.026772 -0.11384688 -39.031239 -24.282122 -123.10666
195814000 -24.024134 -134.3947 -0.11481 -39.226048 -0.11358168 -39.227749 -24.229248 -123.25944
196813000 -23.973949 -134.74678 -0.11427791 -39.416954 -0.11341773 -39.423286 -24.152311 -123.38535
197812000 -23.91403 -134.99704 -0.11413388 -39.619999 -0.11369195 -39.613735 -24.082886 -123.49538
198811000 -23.862303 -135.16631 -0.11425532 -39.818176 -0.11392845 -39.81805 -24.015226 -123.67027
199810000 -23.791664 -135.54576 -0.11457053 -40.009888 -0.11401933 -40.008957 -23.934387 -123.78255
200809000 -23.732565 -135.80457 -0.11444349 -40.207443 -0.11404937 -40.207432 -23.862047 -123.9768
201808000 -23.676428 -136.05884 -0.11511249 -40.406788 -0.11471804 -40.41357 -23.794413 -124.05659
202807000 -23.617878 -136.42285 -0.11615859 -40.607796 -0.11585337 -40.610077 -23.73702 -124.25669
203806000 -23.567926 -136.86415 -0.11760333 -40.808887 -0.1160977 -40.809185 -23.672506 -124.43303
