!Keysight Technologies,E5080B,MY59205177,A.15.75.32
!Date: Friday, February 23, 2024 03:40:33
!Correction: S11(Cdelta 2-Port  ) 
!S21(Cdelta 2-Port  ) 
!S12(Cdelta 2-Port  ) 
!S22(Cdelta 2-Port  ) 
!S2P File: Measurements: S11, S21, S12, S22:
# Hz S  dB   R 50
10000000 -46.10556 -3.0671947 -0.014788955 -2.0421245 -0.017881773 -2.0986216 -45.874981 -157.44019
10999000 -45.320492 -4.8517718 -0.016257789 -2.2585597 -0.017381702 -2.3179207 -45.827663 -151.16724
11998000 -44.353085 -8.2518663 -0.016484886 -2.4848981 -0.017002527 -2.5311151 -46.016129 -146.94604
12997000 -43.581436 -13.467485 -0.015730625 -2.6671364 -0.017527247 -2.6953104 -45.630661 -140.9464
13996000 -43.279179 -17.310167 -0.015039873 -2.8462441 -0.017063597 -2.8680108 -45.398335 -136.11597
14995000 -42.901157 -21.823668 -0.016953411 -3.0548265 -0.016581289 -3.0768342 -45.090092 -132.65219
15994000 -42.739738 -26.47929 -0.018064506 -3.273814 -0.019942189 -3.2954807 -44.977623 -129.24849
16993000 -42.683186 -30.881428 -0.017038129 -3.4721801 -0.018927328 -3.482691 -44.092514 -129.10025
17992000 -42.729454 -36.28265 -0.01772478 -3.6733902 -0.018921349 -3.6735952 -43.536949 -128.86778
18991000 -42.974857 -41.729362 -0.018289359 -3.8819864 -0.020025667 -3.8789725 -42.944191 -127.99698
19990000 -42.695107 -47.356091 -0.021152114 -4.0907741 -0.02211754 -4.0876632 -42.227795 -128.76006
20989000 -42.533665 -50.661602 -0.022809157 -4.2946539 -0.024080792 -4.2816596 -41.716545 -128.21701
21988000 -42.31279 -55.891037 -0.023351496 -4.490839 -0.024590747 -4.481699 -41.44836 -127.49992
22987000 -42.047134 -60.838894 -0.025413208 -4.6899896 -0.025811344 -4.6841154 -41.200104 -127.12778
23986000 -41.962234 -64.862816 -0.024385873 -4.8861289 -0.024654789 -4.8819981 -41.027767 -126.78848
24985000 -41.530258 -67.630707 -0.025965506 -5.0936131 -0.024675095 -5.0879974 -40.866673 -124.41785
25984000 -41.206886 -69.802361 -0.026698368 -5.2988024 -0.025580633 -5.3016272 -40.458782 -123.12914
26983000 -40.87925 -71.794174 -0.027760897 -5.498776 -0.026384789 -5.5138955 -40.381042 -122.12817
27982000 -40.705746 -72.523994 -0.028439865 -5.6937404 -0.027700977 -5.7338367 -40.104904 -120.54719
28981000 -40.654408 -74.124954 -0.026894495 -5.8957357 -0.028137624 -5.9187326 -39.866936 -120.04578
29980000 -40.23531 -75.530678 -0.026790049 -6.0877175 -0.02869913 -6.0977998 -39.620632 -119.28436
30979000 -39.8591 -74.347061 -0.024821406 -6.444376 -0.023471216 -6.435122 -39.099293 -119.55389
31978000 -39.639854 -75.185257 -0.02342541 -6.6366229 -0.024042789 -6.6280398 -38.885136 -118.83524
32977000 -39.451031 -76.669777 -0.023336662 -6.8477378 -0.024614958 -6.8449497 -38.610626 -118.70881
33976000 -39.27898 -77.904869 -0.024146648 -7.0486693 -0.024666505 -7.0456481 -38.331505 -118.12896
34975000 -38.992077 -78.762466 -0.024302833 -7.2489381 -0.025804834 -7.2487774 -38.099827 -117.93701
35974000 -38.78616 -79.249008 -0.023259627 -7.4437647 -0.025294736 -7.4499435 -37.837555 -116.82652
36973000 -38.565407 -80.15905 -0.024408521 -7.6413274 -0.026347287 -7.6483512 -37.576649 -115.95861
37972000 -38.387833 -79.68026 -0.023823105 -7.8558497 -0.026553035 -7.8657885 -37.374992 -115.27465
38971000 -38.050484 -79.105804 -0.024902634 -8.055624 -0.026330879 -8.066287 -37.200176 -113.67744
39970000 -37.748146 -79.407913 -0.022948379 -8.2529287 -0.025922278 -8.2637405 -36.956188 -113.0861
40969000 -37.453171 -79.05088 -0.023164377 -8.4423056 -0.025919152 -8.462121 -36.725758 -111.719
41968000 -37.117374 -79.005127 -0.023722375 -8.654088 -0.025420759 -8.6669178 -36.521049 -110.58816
42967000 -36.862911 -78.989517 -0.023914725 -8.8610592 -0.026597051 -8.882309 -36.32592 -108.56947
43966000 -36.563671 -79.746902 -0.025132008 -9.0603571 -0.026653569 -9.0848522 -36.067352 -107.92648
44965000 -36.332592 -80.414574 -0.024835465 -9.2632475 -0.027250048 -9.2832346 -35.871052 -107.7743
45964000 -36.116394 -81.547409 -0.026885899 -9.4653072 -0.028491456 -9.4847031 -35.615788 -107.32891
46963000 -35.902634 -83.438469 -0.026684823 -9.6576195 -0.029121023 -9.6825876 -35.466232 -107.54697
47962000 -35.744087 -84.833946 -0.027942482 -9.8610382 -0.030098386 -9.8782549 -35.248756 -107.61237
48961000 -35.535629 -86.128525 -0.030096041 -10.058496 -0.031308018 -10.081546 -35.022678 -107.89101
49960000 -35.298122 -87.383263 -0.031389367 -10.258559 -0.032831743 -10.280355 -34.884182 -107.92239
50959000 -35.071522 -88.703476 -0.03159431 -10.474797 -0.034095623 -10.484169 -34.720726 -108.13159
51958000 -34.866257 -89.89048 -0.033759855 -10.669777 -0.035296708 -10.682347 -34.521301 -108.59209
52957000 -34.651947 -90.760246 -0.03491623 -10.870013 -0.036100838 -10.87658 -34.376945 -108.39957
53956000 -34.482868 -91.431244 -0.036322713 -11.069435 -0.03656261 -11.075043 -34.231846 -108.40054
54955000 -34.313255 -91.972595 -0.037374284 -11.275177 -0.037339818 -11.268028 -34.089279 -108.32887
55954000 -34.126213 -92.747284 -0.038013756 -11.47541 -0.038590644 -11.472322 -33.977428 -108.08193
56953000 -34.009068 -92.866722 -0.037640609 -11.673066 -0.037180554 -11.661974 -33.909061 -108.2306
57952000 -33.855179 -93.486732 -0.039012194 -11.871639 -0.038613889 -11.861074 -33.797863 -108.28943
58951000 -33.723408 -93.755211 -0.039995443 -12.077102 -0.039010365 -12.054934 -33.640877 -108.38755
59950000 -33.600582 -94.15686 -0.040191129 -12.272916 -0.040557962 -12.250124 -33.570469 -108.67699
60949000 -33.469059 -94.692741 -0.041157659 -12.476877 -0.040602643 -12.453345 -33.467945 -108.91721
61948000 -33.418243 -95.062546 -0.041343465 -12.67495 -0.040603425 -12.659746 -33.377865 -109.00613
62947000 -33.320557 -95.218391 -0.041297469 -12.885921 -0.041156352 -12.86798 -33.249306 -109.31543
63946000 -33.248199 -95.985229 -0.042080235 -13.086031 -0.042151067 -13.066835 -33.139297 -109.38004
64945000 -33.148018 -96.209976 -0.043006141 -13.2905 -0.042500552 -13.26903 -33.037399 -109.93219
65944000 -33.036018 -96.428764 -0.043727502 -13.485726 -0.043152809 -13.469893 -32.929348 -110.35941
66943000 -32.895706 -96.857819 -0.041381359 -13.68887 -0.041365419 -13.669744 -32.831173 -110.56307
67942000 -32.84333 -96.799843 -0.043595716 -13.886759 -0.043360922 -13.872149 -32.707863 -110.82954
68941000 -32.740826 -96.837036 -0.043320399 -14.080293 -0.041995287 -14.068142 -32.589958 -110.83808
69940000 -32.635498 -96.838722 -0.043422367 -14.276937 -0.043093462 -14.27008 -32.455631 -111.11118
70939000 -32.53627 -96.806473 -0.043348372 -14.475861 -0.043173984 -14.469588 -32.320068 -111.02574
71938000 -32.391327 -96.354019 -0.044135429 -14.67284 -0.042941041 -14.664364 -32.199162 -110.87556
72937000 -32.227951 -96.121315 -0.042874116 -14.871039 -0.042613219 -14.863217 -32.047073 -110.50848
73936000 -32.091534 -95.811356 -0.042328291 -15.067939 -0.041955035 -15.064515 -31.944517 -110.3835
74935000 -31.973177 -96.029015 -0.041435979 -15.263286 -0.041024126 -15.262124 -31.791555 -110.08257
75934000 -31.85273 -96.270569 -0.041347645 -15.474298 -0.041676681 -15.471057 -31.693651 -109.90463
76933000 -31.71575 -96.65184 -0.042824708 -15.668623 -0.042632565 -15.657621 -31.537762 -110.19748
77932000 -31.619398 -97.373001 -0.044050701 -15.864453 -0.044063516 -15.85744 -31.431446 -110.21577
78931000 -31.548958 -98.122375 -0.043063134 -16.064119 -0.043152284 -16.059311 -31.337782 -110.14037
79930000 -31.433088 -98.950699 -0.045470871 -16.256613 -0.045290381 -16.255144 -31.238043 -110.38451
80929000 -31.310835 -99.774513 -0.046883918 -16.454559 -0.047056362 -16.451174 -31.137054 -110.61856
81928000 -31.21213 -100.4609 -0.047219653 -16.645029 -0.047567975 -16.641308 -31.010992 -110.59893
82927000 -31.118734 -101.19502 -0.04889505 -16.843256 -0.048461284 -16.841915 -30.899246 -110.91423
83926000 -30.996719 -101.86656 -0.050036605 -17.041656 -0.049229894 -17.043358 -30.787325 -111.08132
84925000 -30.884239 -102.25754 -0.05110722 -17.242748 -0.049880803 -17.23815 -30.692064 -111.16824
85924000 -30.802332 -102.66534 -0.051228493 -17.438667 -0.050983332 -17.437052 -30.615042 -111.14466
86923000 -30.689817 -103.21099 -0.051235825 -17.642218 -0.051489383 -17.633751 -30.508539 -110.9611
87922000 -30.579712 -103.54822 -0.052064657 -17.845346 -0.051184751 -17.836571 -30.422262 -111.03024
88921000 -30.508539 -103.86556 -0.053348295 -18.043711 -0.052485421 -18.044769 -30.326603 -110.99429
89920000 -30.418764 -104.26833 -0.053895772 -18.239151 -0.052280013 -18.241039 -30.272564 -111.19472
90919000 -30.314672 -104.63047 -0.054688409 -18.442026 -0.053185035 -18.435627 -30.184469 -111.38063
91918000 -30.208452 -104.90917 -0.055436622 -18.642387 -0.053554539 -18.639347 -30.114845 -111.37525
92917000 -30.123972 -105.24833 -0.056302968 -18.838495 -0.05546179 -18.836979 -30.056923 -111.47128
93916000 -30.030396 -105.62956 -0.055227403 -19.033258 -0.055102874 -19.030144 -29.967451 -112.09359
94915000 -29.956564 -106.17565 -0.05672624 -19.236233 -0.055913039 -19.226379 -29.899389 -111.89024
95914000 -29.890142 -106.41528 -0.058230579 -19.431553 -0.056731485 -19.42543 -29.823473 -112.22717
96913000 -29.805691 -106.63033 -0.058756106 -19.628122 -0.057823688 -19.627726 -29.758341 -112.55977
97912000 -29.725075 -107.06363 -0.059863776 -19.825415 -0.058387995 -19.827147 -29.685043 -112.77177
98911000 -29.6168 -107.3009 -0.059916791 -20.026352 -0.059265949 -20.025972 -29.630007 -112.96179
99910000 -29.558575 -107.42564 -0.060767494 -20.221796 -0.059764046 -20.22488 -29.524956 -113.25624
100909000 -29.468994 -107.6249 -0.060473759 -20.433435 -0.058175746 -20.424971 -29.445381 -113.4931
101908000 -29.379478 -107.87208 -0.061972044 -20.632368 -0.060588207 -20.632013 -29.337849 -113.27419
102907000 -29.249834 -107.84258 -0.062462047 -20.835041 -0.060117312 -20.835054 -29.256475 -113.26676
103906000 -29.147272 -107.89217 -0.06226562 -21.039904 -0.059806038 -21.036318 -29.116983 -113.18608
104905000 -29.003279 -107.74833 -0.063064516 -21.239851 -0.061058886 -21.235413 -28.988598 -112.856
105904000 -28.868931 -107.84025 -0.063253358 -21.440298 -0.060969368 -21.433588 -28.880018 -112.74219
106903000 -28.755663 -107.90186 -0.063503943 -21.64539 -0.060731795 -21.638609 -28.753698 -112.67059
107902000 -28.586758 -108.20132 -0.064246319 -21.848255 -0.061037887 -21.838842 -28.624519 -112.57151
108901000 -28.478611 -108.4649 -0.065177225 -22.046803 -0.062893532 -22.042675 -28.494881 -112.51494
109900000 -28.354088 -108.93573 -0.066376954 -22.249086 -0.064071618 -22.236801 -28.339945 -112.63783
110899000 -28.233501 -109.51304 -0.067721359 -22.445772 -0.064392917 -22.44096 -28.219147 -112.87582
111898000 -28.145134 -110.16987 -0.068536252 -22.649061 -0.065664172 -22.644876 -28.104025 -112.98914
112897000 -28.014851 -110.71666 -0.070097566 -22.846796 -0.06645292 -22.837803 -27.970499 -113.17233
113896000 -27.913691 -111.25621 -0.071766287 -23.047613 -0.06789884 -23.037121 -27.86352 -113.30914
114895000 -27.812637 -111.9377 -0.071975775 -23.244188 -0.069275543 -23.233232 -27.760466 -113.3875
115894000 -27.68915 -112.26933 -0.073127098 -23.448046 -0.070129924 -23.436283 -27.683256 -113.5826
116893000 -27.611019 -112.76603 -0.073844008 -23.642742 -0.071691543 -23.628304 -27.56251 -113.6574
117892000 -27.530901 -113.27757 -0.074629761 -23.841608 -0.071713649 -23.828955 -27.484272 -113.8625
118891000 -27.46987 -113.64642 -0.075126193 -24.040747 -0.071629435 -24.026577 -27.387751 -113.9724
119890000 -27.388491 -114.02792 -0.075743333 -24.241453 -0.073365092 -24.229057 -27.374399 -114.1216
120889000 -27.328339 -114.51302 -0.076969959 -24.443403 -0.073215559 -24.432926 -27.302229 -114.05775
121888000 -27.294395 -114.84673 -0.076941766 -24.639301 -0.073438808 -24.629782 -27.24444 -114.30248
122887000 -27.25762 -115.04311 -0.077435568 -24.839939 -0.07419131 -24.830698 -27.196709 -114.33041
123886000 -27.199537 -115.46341 -0.077823743 -25.04578 -0.074086249 -25.026276 -27.182035 -114.47364
124885000 -27.163574 -115.96358 -0.078351647 -25.24131 -0.074378274 -25.229006 -27.153833 -114.50687
125884000 -27.114117 -116.17543 -0.078840867 -25.442896 -0.075233132 -25.430557 -27.124073 -114.70323
126883000 -27.092674 -116.56535 -0.079360723 -25.647142 -0.076134257 -25.632414 -27.0826 -114.70532
127882000 -27.048166 -116.83328 -0.079543687 -25.842371 -0.076461717 -25.827696 -27.041628 -114.81573
128881000 -27.016844 -117.1522 -0.080135345 -26.047623 -0.075502314 -26.029322 -27.006073 -114.9407
129880000 -26.961407 -117.49738 -0.080537736 -26.248207 -0.07624279 -26.229439 -26.967909 -114.88578
130879000 -26.904461 -117.64783 -0.080241874 -26.451021 -0.076986298 -26.431587 -26.891991 -114.90952
131878000 -26.833109 -117.86083 -0.081046194 -26.652205 -0.077547036 -26.633043 -26.836483 -114.74655
132877000 -26.770029 -117.94387 -0.080759257 -26.851698 -0.078300513 -26.834547 -26.752285 -114.72066
133876000 -26.684526 -118.08362 -0.081278287 -27.054852 -0.07787092 -27.037291 -26.671535 -114.64333
134875000 -26.590668 -118.20068 -0.0814339 -27.254454 -0.078399882 -27.235378 -26.567083 -114.47195
135874000 -26.510401 -118.23647 -0.081119776 -27.45318 -0.077532806 -27.436924 -26.475172 -114.40559
136873000 -26.39724 -118.17897 -0.081337631 -27.660681 -0.077135436 -27.639124 -26.391336 -114.35413
137872000 -26.324663 -118.31702 -0.081214987 -27.860838 -0.077644281 -27.844395 -26.293482 -114.31105
138871000 -26.246784 -118.47824 -0.081860155 -28.057043 -0.078029051 -28.046179 -26.198032 -114.47623
139870000 -26.151453 -118.77919 -0.082782716 -28.257227 -0.079698451 -28.240911 -26.112827 -114.58645
140869000 -26.073166 -119.33209 -0.083582222 -28.454838 -0.079919659 -28.436871 -26.015339 -114.81863
141868000 -25.986378 -119.72241 -0.084033497 -28.652168 -0.081758864 -28.637825 -25.968395 -115.06895
142867000 -25.913027 -119.9167 -0.08325211 -28.85063 -0.080612108 -28.832514 -25.893301 -115.19544
143866000 -25.84095 -120.40488 -0.085292041 -29.049368 -0.081960663 -29.03302 -25.817619 -115.6216
144865000 -25.783594 -120.91505 -0.086075641 -29.248642 -0.083090365 -29.230341 -25.760845 -115.94031
145864000 -25.72579 -121.22524 -0.086665548 -29.448259 -0.084698357 -29.435045 -25.723215 -116.1879
146863000 -25.683102 -121.58778 -0.087103151 -29.645678 -0.084966019 -29.634142 -25.6856 -116.47282
147862000 -25.647291 -121.91381 -0.088544078 -29.845245 -0.08570943 -29.833788 -25.650215 -116.79348
148861000 -25.612925 -122.38038 -0.089136697 -30.0438 -0.086891077 -30.029095 -25.621958 -116.96555
149860000 -25.58065 -122.53689 -0.090023004 -30.234827 -0.087547921 -30.224438 -25.573423 -117.05956
150859000 -25.559443 -123.02081 -0.089358129 -30.433462 -0.087659918 -30.420317 -25.561068 -117.4327
151858000 -25.545507 -123.34416 -0.089130886 -30.63513 -0.086933069 -30.621149 -25.544821 -117.7701
152857000 -25.527863 -123.69537 -0.089264318 -30.831808 -0.087748669 -30.822367 -25.529427 -117.93215
153856000 -25.532495 -123.91196 -0.089756884 -31.03356 -0.086065874 -31.019053 -25.548395 -118.26593
154855000 -25.527298 -124.09702 -0.089529358 -31.230743 -0.086674005 -31.222462 -25.53821 -118.5013
155854000 -25.543982 -124.33579 -0.090081945 -31.433119 -0.087511741 -31.417105 -25.526018 -118.76208
156853000 -25.526443 -125.01299 -0.087791197 -31.621143 -0.085955769 -31.615347 -25.52249 -119.06299
157852000 -25.535793 -125.21783 -0.089308977 -31.822176 -0.088083088 -31.81119 -25.5105 -119.4473
158851000 -25.537813 -125.45147 -0.089732833 -32.018471 -0.088203549 -32.010529 -25.498739 -119.70088
159850000 -25.524212 -125.55471 -0.090185806 -32.218365 -0.088661641 -32.210854 -25.494818 -119.87889
160849000 -25.508762 -125.64938 -0.090338044 -32.417469 -0.089752652 -32.414333 -25.464329 -120.14069
161848000 -25.492214 -125.74768 -0.090788431 -32.617966 -0.08895544 -32.611443 -25.430864 -120.2942
162847000 -25.452488 -125.89455 -0.091007829 -32.816635 -0.089174218 -32.815105 -25.40225 -120.52216
163846000 -25.410557 -126.10036 -0.091099292 -33.016857 -0.089271717 -33.014019 -25.322889 -120.5388
164845000 -25.358921 -126.07823 -0.09195745 -33.215248 -0.090258755 -33.215248 -25.260584 -120.62852
165844000 -25.301607 -126.0896 -0.090984836 -33.415752 -0.090653628 -33.408848 -25.18228 -120.76026
166843000 -25.236975 -126.16141 -0.091558486 -33.615849 -0.089772478 -33.610928 -25.11364 -120.90779
167842000 -25.180105 -126.26367 -0.091945291 -33.815891 -0.090403058 -33.811153 -25.036455 -120.84109
168841000 -25.108099 -126.41939 -0.092104986 -34.016586 -0.090635389 -34.011559 -24.966879 -120.8982
169840000 -25.041658 -126.6771 -0.09228532 -34.212593 -0.091118328 -34.213123 -24.882658 -121.08665
170839000 -24.980169 -126.8872 -0.093657605 -34.408161 -0.091644414 -34.405315 -24.800344 -121.27634
171838000 -24.92613 -127.26743 -0.093237333 -34.61235 -0.092441589 -34.601505 -24.737288 -121.47123
172837000 -24.85154 -127.60664 -0.094681084 -34.807083 -0.093731135 -34.799026 -24.666855 -121.67872
173836000 -24.786121 -128.02112 -0.095890582 -35.008049 -0.094319709 -35.006264 -24.62923 -121.91186
174835000 -24.727787 -128.42143 -0.096224301 -35.202072 -0.095079802 -35.203094 -24.581383 -122.23964
175834000 -24.67667 -128.7612 -0.096870653 -35.40078 -0.096132204 -35.397266 -24.524446 -122.49486
176833000 -24.629583 -129.11382 -0.098526388 -35.602127 -0.096542701 -35.601307 -24.47258 -122.62492
177832000 -24.58371 -129.52315 -0.098679446 -35.79826 -0.096919887 -35.802299 -24.459148 -122.74263
178831000 -24.542274 -129.76381 -0.10070994 -35.996769 -0.099730335 -35.995213 -24.414429 -122.80635
179830000 -24.467833 -130.15912 -0.10184242 -36.17738 -0.10026012 -36.181637 -24.352324 -122.90923
180829000 -24.41757 -130.5459 -0.10091235 -36.374001 -0.099838935 -36.372272 -24.312761 -123.22533
181828000 -24.400541 -130.96317 -0.099882372 -36.574501 -0.099390782 -36.571339 -24.294184 -123.41669
182827000 -24.376385 -131.33282 -0.099419914 -36.770565 -0.099128053 -36.770947 -24.28293 -123.54542
183826000 -24.330559 -131.65271 -0.10071471 -36.97102 -0.098837279 -36.967972 -24.268133 -123.70605
184825000 -24.337513 -131.99394 -0.10043813 -37.164299 -0.10024157 -37.164764 -24.254965 -123.83364
185824000 -24.307299 -132.38658 -0.10026276 -37.363678 -0.098970219 -37.367592 -24.243629 -123.87488
186823000 -24.291986 -132.74983 -0.10049244 -37.563587 -0.099912308 -37.564186 -24.237928 -123.92051
187822000 -24.271183 -133.07961 -0.10136067 -37.757191 -0.10002091 -37.755112 -24.205303 -123.98786
188821000 -24.244669 -133.31235 -0.10109518 -37.949051 -0.10030038 -37.95763 -24.18532 -124.12368
189820000 -24.227173 -133.64528 -0.10106656 -38.15377 -0.10039151 -38.154346 -24.171408 -124.30823
190819000 -24.191166 -133.89568 -0.10168077 -38.352493 -0.10067233 -38.350094 -24.127466 -124.3229
191818000 -24.163225 -134.21083 -0.10182811 -38.549175 -0.10124991 -38.548485 -24.104094 -124.35013
192817000 -24.117542 -134.47482 -0.10235469 -38.745865 -0.10157557 -38.746845 -24.05463 -124.48888
193816000 -24.086067 -134.74602 -0.10257494 -38.941067 -0.10107769 -38.940437 -24.007982 -124.59675
194815000 -24.025385 -135.12117 -0.10241247 -39.135525 -0.10151912 -39.137539 -23.938845 -124.67218
195814000 -23.97032 -135.32782 -0.10298684 -39.333839 -0.10193676 -39.336189 -23.885416 -124.759
196813000 -23.914869 -135.62659 -0.10347884 -39.52533 -0.10227704 -39.528824 -23.804754 -124.88833
197812000 -23.856983 -135.84937 -0.1035438 -39.724072 -0.10249278 -39.722214 -23.739166 -124.97314
198811000 -23.806549 -135.98688 -0.10347752 -39.923031 -0.10218772 -39.927559 -23.669779 -125.1478
199810000 -23.737574 -136.3499 -0.10350429 -40.120628 -0.10218057 -40.116203 -23.594095 -125.22879
200809000 -23.681585 -136.59219 -0.10493768 -40.315617 -0.10207536 -40.316853 -23.514997 -125.40556
201808000 -23.621286 -136.78758 -0.10505304 -40.523373 -0.10344942 -40.518726 -23.44862 -125.46889
202807000 -23.561165 -137.1293 -0.10582615 -40.71603 -0.10409498 -40.721031 -23.398392 -125.69507
