!Keysight Technologies,E5080B,MY59205177,A.15.75.32
!Date: Friday, February 23, 2024 03:02:19
!Correction: S11(Cdelta 2-Port  ) 
!S21(Cdelta 2-Port  ) 
!S12(Cdelta 2-Port  ) 
!S22(Cdelta 2-Port  ) 
!S2P File: Measurements: S11, S21, S12, S22:
# Hz S  dB   R 50
10000000 -44.155647 -3.6041048 -0.027150281 -2.0393214 -0.030199002 -2.0906103 -48.072838 -149.89316
10999000 -43.5284 -5.6382771 -0.028175402 -2.2563937 -0.030269643 -2.3113718 -47.737068 -142.9482
11998000 -42.761822 -8.0194321 -0.028831504 -2.4770253 -0.02974234 -2.5216119 -47.881969 -137.67458
12997000 -42.143539 -12.560522 -0.02752904 -2.6567826 -0.02912024 -2.6904666 -47.206264 -131.2672
13996000 -41.875019 -15.941288 -0.026541315 -2.8387604 -0.029250544 -2.8596947 -46.817535 -125.2598
14995000 -41.562305 -19.951111 -0.02857249 -3.0441053 -0.029755633 -3.0704057 -46.307838 -122.15376
15994000 -41.406254 -23.747797 -0.029609937 -3.268084 -0.031598743 -3.287889 -46.140842 -118.79533
16993000 -41.451637 -27.547922 -0.029313872 -3.4594035 -0.030952653 -3.4689393 -45.180508 -119.23623
17992000 -41.48761 -32.406178 -0.029979266 -3.6570392 -0.031438384 -3.6621737 -44.586185 -120.3437
18991000 -41.776577 -36.86105 -0.030742787 -3.8711605 -0.032596748 -3.8655977 -43.870316 -119.31424
19990000 -41.569443 -41.965027 -0.033106923 -4.075799 -0.034921709 -4.0698352 -43.19297 -121.15424
20989000 -41.523094 -44.961552 -0.035042532 -4.2807155 -0.036826015 -4.2693939 -42.607887 -120.67488
21988000 -41.409798 -49.534584 -0.035905339 -4.4770927 -0.037628859 -4.4685216 -42.290897 -120.31274
22987000 -41.212662 -54.029461 -0.036607247 -4.6760039 -0.038004879 -4.6680322 -42.054379 -119.9349
23986000 -41.191795 -57.7901 -0.035829648 -4.8688221 -0.037644528 -4.8680363 -41.964844 -119.71249
24985000 -40.873478 -60.266018 -0.037544001 -5.0755582 -0.036697835 -5.0721388 -41.681458 -117.48752
25984000 -40.626144 -62.482407 -0.038513076 -5.2815247 -0.037546087 -5.2874451 -41.330536 -115.98078
26983000 -40.333717 -64.205605 -0.039685346 -5.4787602 -0.038562175 -5.5006371 -41.208763 -115.2498
27982000 -40.199154 -65.248688 -0.040815338 -5.6788311 -0.040874392 -5.7133312 -40.909622 -113.53534
28981000 -40.166439 -66.832169 -0.038992863 -5.8791027 -0.040604994 -5.9057074 -40.608662 -112.77644
29980000 -39.844296 -68.216179 -0.038356643 -6.0669346 -0.040845387 -6.0781903 -40.367878 -112.32761
30979000 -39.445454 -67.303841 -0.035942402 -6.4290643 -0.035255477 -6.417048 -39.841328 -113.10288
31978000 -39.265312 -68.601784 -0.035427198 -6.6179681 -0.036502045 -6.6082711 -39.562656 -112.45627
32977000 -39.086487 -70.203163 -0.035386745 -6.8292913 -0.03691791 -6.8263693 -39.323071 -112.55113
33976000 -38.918159 -71.230469 -0.035988081 -7.029911 -0.037161496 -7.0252409 -39.005745 -112.15165
34975000 -38.683041 -72.230339 -0.03586958 -7.2297244 -0.038182978 -7.2286649 -38.766323 -111.98276
35974000 -38.483082 -72.936966 -0.035550382 -7.4249649 -0.037697796 -7.4265032 -38.467495 -111.285
36973000 -38.252815 -73.711853 -0.036283035 -7.6230283 -0.038858872 -7.6283841 -38.186783 -110.52555
37972000 -38.100082 -73.650406 -0.035541248 -7.8340034 -0.038652018 -7.8399405 -37.946144 -109.92018
38971000 -37.774174 -73.468246 -0.036679298 -8.0312643 -0.03863661 -8.0454016 -37.741894 -108.36478
39970000 -37.457912 -74.136261 -0.035190497 -8.2285776 -0.037601966 -8.2436409 -37.459801 -107.99469
40969000 -37.17886 -74.031944 -0.035005998 -8.4224701 -0.037706152 -8.4420986 -37.196331 -106.68736
41968000 -36.842705 -74.19194 -0.035263304 -8.6271057 -0.037685782 -8.6427135 -36.99921 -105.50388
42967000 -36.574131 -74.321632 -0.035793368 -8.8342934 -0.038354293 -8.8577709 -36.776623 -103.66381
43966000 -36.294392 -75.333115 -0.035834607 -9.0340557 -0.040155072 -9.0524683 -36.469494 -103.21349
44965000 -36.092335 -76.139191 -0.037274286 -9.2388926 -0.039282016 -9.2590189 -36.264324 -103.14214
45964000 -35.862453 -77.282661 -0.038874023 -9.4383802 -0.040974736 -9.4546394 -36.00507 -103.02329
46963000 -35.682934 -79.262665 -0.038026813 -9.6321459 -0.040244427 -9.6543999 -35.839329 -103.43939
47962000 -35.547371 -80.746696 -0.039509274 -9.8335543 -0.04273504 -9.8502989 -35.61343 -103.53011
48961000 -35.35014 -82.240997 -0.041901454 -10.030214 -0.043725148 -10.050577 -35.400394 -103.77412
49960000 -35.133133 -83.700676 -0.042721968 -10.228903 -0.044481672 -10.252677 -35.262638 -104.10052
50959000 -34.935078 -84.989563 -0.043493744 -10.441942 -0.046028081 -10.450703 -35.066776 -104.33836
51958000 -34.739063 -86.167686 -0.045114871 -10.641099 -0.047010306 -10.649098 -34.901993 -105.00767
52957000 -34.523697 -87.258125 -0.046982568 -10.843058 -0.04840108 -10.848437 -34.743984 -104.74523
53956000 -34.369267 -87.999626 -0.048044838 -11.041604 -0.048864946 -11.039391 -34.602558 -104.79127
54955000 -34.198505 -88.500671 -0.048223872 -11.241961 -0.050046556 -11.240513 -34.441811 -104.8583
55954000 -34.050255 -89.488411 -0.050035559 -11.439333 -0.050377037 -11.438972 -34.329643 -104.61143
56953000 -33.934315 -89.495796 -0.050098144 -11.640498 -0.049215492 -11.629606 -34.265629 -104.83498
57952000 -33.781361 -90.078636 -0.050651494 -11.836297 -0.050007015 -11.825814 -34.171391 -104.92524
58951000 -33.661461 -90.435791 -0.052009117 -12.040128 -0.05085028 -12.019248 -34.004318 -105.06115
59950000 -33.545631 -90.761642 -0.052295469 -12.242336 -0.051811852 -12.221319 -33.944401 -105.30309
60949000 -33.431068 -91.434486 -0.052603848 -12.444385 -0.052532844 -12.418863 -33.847473 -105.60809
61948000 -33.370056 -91.729675 -0.053140488 -12.641306 -0.052373808 -12.623373 -33.773125 -105.69504
62947000 -33.295448 -91.923317 -0.052980643 -12.852711 -0.053672735 -12.832033 -33.627506 -106.01889
63946000 -33.217388 -92.660057 -0.054571498 -13.050547 -0.053875066 -13.026521 -33.532417 -106.06976
64945000 -33.116467 -92.890175 -0.054989882 -13.251565 -0.055116244 -13.23047 -33.420002 -106.63481
65944000 -33.012356 -93.145561 -0.055487748 -13.450009 -0.055560637 -13.433991 -33.314335 -107.05997
66943000 -32.884621 -93.577301 -0.053381316 -13.651045 -0.053646527 -13.631453 -33.229183 -107.34003
67942000 -32.822632 -93.515793 -0.055507414 -13.847932 -0.055269875 -13.833216 -33.100933 -107.64264
68941000 -32.717514 -93.663017 -0.054779898 -14.041348 -0.054497838 -14.030348 -32.999527 -107.65959
69940000 -32.621082 -93.665199 -0.055533368 -14.238787 -0.055311035 -14.229927 -32.853764 -107.99561
70939000 -32.505466 -93.60154 -0.055141937 -14.43472 -0.054072425 -14.427269 -32.726334 -107.92956
71938000 -32.368874 -93.240875 -0.054991454 -14.632586 -0.054915693 -14.622894 -32.593075 -107.77219
72937000 -32.215164 -93.125198 -0.054628644 -14.831527 -0.055204857 -14.821629 -32.454178 -107.47713
73936000 -32.082561 -92.834412 -0.053403851 -15.030617 -0.053251598 -15.016042 -32.339645 -107.27026
74935000 -31.954573 -93.0924 -0.053915691 -15.225484 -0.053611409 -15.220373 -32.18959 -107.01456
75934000 -31.829802 -93.375717 -0.053663038 -15.433383 -0.05316145 -15.425114 -32.101856 -107.04191
76933000 -31.699814 -93.792961 -0.055119388 -15.620349 -0.054458782 -15.617146 -31.932907 -107.39001
77932000 -31.603317 -94.602821 -0.055652931 -15.817422 -0.056426484 -15.812161 -31.838392 -107.39539
78931000 -31.542597 -95.374741 -0.05474215 -16.019457 -0.054789335 -16.014763 -31.73649 -107.28392
79930000 -31.427734 -96.171989 -0.057452768 -16.209234 -0.057890583 -16.212137 -31.637403 -107.62184
80929000 -31.307423 -97.12455 -0.05898596 -16.404984 -0.059213992 -16.402784 -31.531717 -107.96526
81928000 -31.229349 -97.963295 -0.058919311 -16.598492 -0.059400834 -16.59584 -31.411781 -108.02224
82927000 -31.133326 -98.659317 -0.060320992 -16.799042 -0.060935766 -16.795259 -31.307848 -108.33879
83926000 -31.011845 -99.408249 -0.062439986 -16.995447 -0.061973095 -16.991024 -31.193899 -108.59366
84925000 -30.914001 -99.89994 -0.062892221 -17.192709 -0.062189993 -17.192301 -31.09297 -108.71492
85924000 -30.830826 -100.33706 -0.063511297 -17.393503 -0.062643774 -17.391378 -31.018179 -108.60552
86923000 -30.723251 -100.83939 -0.06374114 -17.589523 -0.064097889 -17.582735 -30.917339 -108.58178
87922000 -30.607063 -101.21347 -0.063531525 -17.798695 -0.062820263 -17.789165 -30.831564 -108.65405
88921000 -30.538118 -101.52435 -0.06390506 -17.99754 -0.064314626 -17.986126 -30.739614 -108.65447
89920000 -30.442379 -102.12295 -0.06486769 -18.194988 -0.065066598 -18.187113 -30.68405 -108.77518
90919000 -30.348963 -102.39915 -0.066676088 -18.386822 -0.065664172 -18.383951 -30.596752 -109.00654
91918000 -30.257006 -102.75565 -0.067023084 -18.588755 -0.065455779 -18.581888 -30.535288 -108.99181
92917000 -30.16954 -103.154 -0.067980878 -18.787777 -0.066539139 -18.785248 -30.468109 -109.16074
93916000 -30.084452 -103.48367 -0.067446612 -18.98225 -0.067012563 -18.974285 -30.375544 -109.7544
94915000 -30.01539 -104.13104 -0.068850785 -19.178358 -0.067817859 -19.175861 -30.322937 -109.61614
95914000 -29.944426 -104.26242 -0.069937356 -19.377356 -0.068841055 -19.371843 -30.229782 -109.91064
96913000 -29.864931 -104.576 -0.071136557 -19.575455 -0.069510952 -19.570091 -30.166763 -110.30842
97912000 -29.784485 -105.08253 -0.072076574 -19.768574 -0.069214523 -19.770622 -30.080038 -110.5173
98911000 -29.68149 -105.25064 -0.072447427 -19.974335 -0.07130944 -19.967587 -30.047569 -110.73293
99910000 -29.618553 -105.39307 -0.073159218 -20.167162 -0.071406014 -20.165207 -29.941433 -111.03115
100909000 -29.538107 -105.70363 -0.072171852 -20.377579 -0.071002096 -20.372421 -29.849026 -111.23646
101908000 -29.443914 -105.95228 -0.073501468 -20.579685 -0.072151326 -20.57325 -29.739895 -110.99062
102907000 -29.313515 -105.98808 -0.074536011 -20.773373 -0.071691021 -20.778648 -29.6644 -110.98685
103906000 -29.218958 -106.00207 -0.07367155 -20.982424 -0.071457595 -20.975773 -29.521978 -110.94162
104905000 -29.067362 -105.9196 -0.074969754 -21.176622 -0.072323985 -21.177288 -29.391569 -110.62968
105904000 -28.941652 -106.05801 -0.073792927 -21.384932 -0.072249763 -21.373585 -29.27607 -110.54486
106903000 -28.828457 -106.14171 -0.075308457 -21.585178 -0.073066026 -21.581688 -29.153877 -110.42056
107902000 -28.668411 -106.52148 -0.075840533 -21.78631 -0.073206082 -21.779993 -29.016083 -110.39242
108901000 -28.560505 -106.75092 -0.076766811 -21.991232 -0.07419315 -21.978071 -28.890617 -110.32348
109900000 -28.428333 -107.29006 -0.076924905 -22.188396 -0.075276852 -22.178682 -28.737177 -110.4424
110899000 -28.314005 -107.91695 -0.078781821 -22.38439 -0.07515227 -22.378401 -28.610531 -110.72756
111898000 -28.22365 -108.6115 -0.079568997 -22.584908 -0.077528857 -22.58 -28.492212 -110.86242
112897000 -28.101866 -109.17845 -0.081605874 -22.783052 -0.078049339 -22.773722 -28.356779 -111.01589
113896000 -27.995825 -109.7324 -0.082116567 -22.984346 -0.079546325 -22.973671 -28.255617 -111.18163
114895000 -27.896671 -110.38251 -0.083660074 -23.182446 -0.081116609 -23.169476 -28.14666 -111.29014
115894000 -27.767864 -110.75809 -0.084886827 -23.38496 -0.082631007 -23.370234 -28.071732 -111.45706
116893000 -27.69331 -111.30779 -0.084706277 -23.578413 -0.082979806 -23.559092 -27.94232 -111.56474
117892000 -27.614073 -111.77944 -0.084964432 -23.777081 -0.08336927 -23.76367 -27.87122 -111.79673
118891000 -27.547964 -112.2035 -0.08635316 -23.9795 -0.083783314 -23.961548 -27.771433 -111.94486
119890000 -27.464788 -112.59345 -0.086010955 -24.176846 -0.084166519 -24.156633 -27.771069 -112.06034
120889000 -27.410168 -113.07645 -0.087258711 -24.376545 -0.084253877 -24.360409 -27.688353 -112.03886
121888000 -27.370657 -113.41416 -0.087814443 -24.569534 -0.084690966 -24.560062 -27.633516 -112.33395
122887000 -27.320902 -113.58094 -0.088081501 -24.776602 -0.085856229 -24.762922 -27.585411 -112.36362
123886000 -27.27273 -114.0516 -0.089677341 -24.97681 -0.086318836 -24.954952 -27.56743 -112.4967
124885000 -27.235695 -114.52467 -0.089358918 -25.173353 -0.086286351 -25.162001 -27.544064 -112.59339
125884000 -27.190388 -114.70639 -0.090757772 -25.372299 -0.08634682 -25.355759 -27.512938 -112.74962
126883000 -27.161358 -115.10807 -0.090914786 -25.57513 -0.087048478 -25.56082 -27.468584 -112.82858
127882000 -27.118259 -115.42946 -0.090665258 -25.774004 -0.0879061 -25.758989 -27.433493 -112.94178
128881000 -27.08477 -115.73355 -0.091296501 -25.976831 -0.087688707 -25.960117 -27.386919 -113.08131
129880000 -27.026808 -116.02794 -0.091397755 -26.177549 -0.087841645 -26.157162 -27.347204 -113.06954
130879000 -26.962845 -116.20444 -0.091354661 -26.377274 -0.088938795 -26.360365 -27.275623 -113.16943
131878000 -26.902 -116.45222 -0.092146233 -26.579626 -0.088843942 -26.55829 -27.205803 -113.03513
132877000 -26.83189 -116.47723 -0.090992764 -26.777807 -0.089057431 -26.761652 -27.126326 -113.05836
133876000 -26.748508 -116.67005 -0.092192769 -26.983725 -0.088898368 -26.960951 -27.034914 -112.93536
134875000 -26.654285 -116.84396 -0.092788003 -27.179359 -0.089719623 -27.163448 -26.928492 -112.81187
135874000 -26.579226 -116.83035 -0.091640711 -27.379404 -0.089538872 -27.361746 -26.834539 -112.83502
136873000 -26.46019 -116.77829 -0.092985027 -27.577412 -0.089164704 -27.56506 -26.753958 -112.82468
137872000 -26.380272 -116.88075 -0.092454016 -27.78355 -0.089720681 -27.769821 -26.646122 -112.7343
138871000 -26.31381 -117.0922 -0.092349835 -27.985075 -0.089969091 -27.968481 -26.543137 -112.92624
139870000 -26.218678 -117.34861 -0.09335079 -28.18644 -0.090810105 -28.165287 -26.468765 -113.11806
140869000 -26.131371 -117.80534 -0.095575146 -28.373592 -0.092805199 -28.359802 -26.361389 -113.22553
141868000 -26.033228 -118.30456 -0.095826007 -28.569254 -0.093220405 -28.555359 -26.288263 -113.59067
142867000 -25.951729 -118.5503 -0.094037183 -28.768263 -0.091736943 -28.74799 -26.210987 -113.77795
143866000 -25.88484 -119.0305 -0.096267447 -28.963036 -0.093072563 -28.950871 -26.138464 -114.28346
144865000 -25.831707 -119.55525 -0.09698315 -29.163761 -0.094166011 -29.149263 -26.078842 -114.60532
145864000 -25.774279 -119.8666 -0.097465999 -29.36097 -0.095912546 -29.352318 -26.04483 -114.85966
146863000 -25.728481 -120.23353 -0.098794907 -29.562897 -0.095858298 -29.547417 -25.995708 -115.12019
147862000 -25.68379 -120.62672 -0.099534601 -29.761509 -0.096776947 -29.745668 -25.959686 -115.47458
148861000 -25.655378 -121.12667 -0.099615909 -29.956139 -0.097421788 -29.941071 -25.937853 -115.73242
149860000 -25.642094 -121.31282 -0.10044979 -30.15797 -0.09749274 -30.145193 -25.904743 -115.86594
150859000 -25.622295 -121.71254 -0.10053059 -30.355465 -0.097763307 -30.340548 -25.892466 -116.13789
151858000 -25.607405 -122.00602 -0.10111054 -30.555832 -0.098042361 -30.536785 -25.885439 -116.42606
152857000 -25.588671 -122.31241 -0.10092614 -30.750216 -0.09817104 -30.737528 -25.867113 -116.54837
153856000 -25.577526 -122.53846 -0.10045376 -30.947113 -0.097355075 -30.93807 -25.884914 -116.83536
154855000 -25.572931 -122.72376 -0.10106232 -31.154591 -0.098055601 -31.139854 -25.875973 -117.09576
155854000 -25.580828 -122.98517 -0.10134663 -31.348867 -0.098598942 -31.335224 -25.865032 -117.32378
156853000 -25.565086 -123.6834 -0.099288285 -31.535551 -0.098156214 -31.526665 -25.863268 -117.63942
157852000 -25.573126 -123.91167 -0.10093991 -31.736071 -0.099016823 -31.728807 -25.852871 -117.96889
158851000 -25.566877 -124.14017 -0.1009566 -31.933067 -0.099478446 -31.927481 -25.834694 -118.20844
159850000 -25.550535 -124.26276 -0.10173906 -32.131908 -0.099479772 -32.122124 -25.835047 -118.39115
160849000 -25.533701 -124.38789 -0.10184957 -32.331062 -0.10111531 -32.32592 -25.807447 -118.6682
161848000 -25.521177 -124.48575 -0.10202527 -32.530998 -0.10048741 -32.524967 -25.763922 -118.78517
162847000 -25.47403 -124.6945 -0.10192192 -32.730881 -0.10132781 -32.723396 -25.734198 -119.04449
163846000 -25.433052 -124.91801 -0.10227068 -32.931473 -0.10063391 -32.917675 -25.653893 -119.07834
164845000 -25.370556 -124.9143 -0.10260463 -33.126263 -0.10159624 -33.121403 -25.592007 -119.16963
165844000 -25.319164 -125.01271 -0.10246203 -33.327442 -0.10221025 -33.321449 -25.510717 -119.29781
166843000 -25.255928 -125.08281 -0.10211538 -33.524994 -0.10149316 -33.519791 -25.440519 -119.4693
167842000 -25.199871 -125.2285 -0.10315437 -33.725109 -0.10178756 -33.718002 -25.365116 -119.40851
168841000 -25.123245 -125.38626 -0.10358091 -33.922363 -0.1021387 -33.917038 -25.285099 -119.45819
169840000 -25.057127 -125.645 -0.10272204 -34.11911 -0.10321746 -34.11607 -25.197348 -119.69138
170839000 -24.994671 -125.90992 -0.10419308 -34.312618 -0.10267592 -34.311626 -25.111561 -119.89266
171838000 -24.935923 -126.35009 -0.10463325 -34.517357 -0.1042766 -34.509632 -25.052486 -120.10893
172837000 -24.86343 -126.73338 -0.10581396 -34.709641 -0.10516787 -34.706299 -24.976849 -120.30723
173836000 -24.800344 -127.13903 -0.10691486 -34.909374 -0.10603093 -34.90934 -24.940222 -120.56718
174835000 -24.750486 -127.56224 -0.1068809 -35.103577 -0.10629567 -35.104305 -24.892656 -120.92275
175834000 -24.699118 -127.97054 -0.10796217 -35.305031 -0.10712287 -35.300461 -24.827913 -121.18932
176833000 -24.645117 -128.30679 -0.10839767 -35.499214 -0.10718071 -35.49958 -24.774731 -121.36108
177832000 -24.601685 -128.81471 -0.10926721 -35.696522 -0.10841838 -35.696228 -24.75654 -121.5069
178831000 -24.559626 -129.17502 -0.10921174 -35.890457 -0.10904052 -35.891388 -24.718548 -121.72482
179830000 -24.52594 -129.58157 -0.109624 -36.094532 -0.10898956 -36.092167 -24.691414 -121.85149
180829000 -24.484072 -129.80611 -0.11053149 -36.288979 -0.10983852 -36.287605 -24.658943 -122.03111
181828000 -24.46311 -130.16272 -0.11084324 -36.483639 -0.11001799 -36.482086 -24.641901 -122.13438
182827000 -24.433701 -130.51993 -0.11084536 -36.677681 -0.11082625 -36.682808 -24.631617 -122.25048
183826000 -24.397442 -130.82755 -0.1118259 -36.879318 -0.11027447 -36.87405 -24.61705 -122.34679
184825000 -24.40255 -131.15523 -0.11148433 -37.073257 -0.11101905 -37.07029 -24.607122 -122.4411
185824000 -24.374897 -131.52249 -0.11109977 -37.268082 -0.1110703 -37.270988 -24.603439 -122.49443
186823000 -24.355103 -131.85797 -0.11155391 -37.470314 -0.11070117 -37.463577 -24.60017 -122.4706
187822000 -24.336353 -132.16911 -0.11132392 -37.660698 -0.11143334 -37.661671 -24.562897 -122.5326
188821000 -24.315428 -132.40642 -0.11163944 -37.857933 -0.11181474 -37.863781 -24.546104 -122.64203
189820000 -24.299686 -132.71004 -0.11269825 -38.060104 -0.11191248 -38.061008 -24.539528 -122.81202
190819000 -24.272713 -132.91798 -0.11373235 -38.260464 -0.11289909 -38.257202 -24.505653 -122.76595
191818000 -24.240343 -133.11542 -0.11477758 -38.453316 -0.11448521 -38.453262 -24.476194 -122.66316
192817000 -24.168858 -133.37602 -0.11526906 -38.640175 -0.11483499 -38.640308 -24.402113 -122.75253
193816000 -24.132784 -133.76697 -0.11396885 -38.831581 -0.11364545 -38.830742 -24.347466 -122.99554
194815000 -24.075874 -134.18027 -0.11377752 -39.026791 -0.11410996 -39.028877 -24.284658 -123.10789
195814000 -24.022915 -134.40468 -0.1148629 -39.225922 -0.11352455 -39.225582 -24.229729 -123.20873
196813000 -23.969339 -134.78072 -0.11450462 -39.420128 -0.11394706 -39.421989 -24.155354 -123.41688
197812000 -23.912851 -134.99426 -0.11454661 -39.619987 -0.11392421 -39.615891 -24.085464 -123.50429
198811000 -23.859957 -135.16771 -0.11428881 -39.819263 -0.11440681 -39.816528 -24.014023 -123.68482
199810000 -23.78661 -135.5289 -0.11543227 -40.009098 -0.11431991 -40.006332 -23.94171 -123.77319
200809000 -23.733221 -135.80077 -0.11580446 -40.208038 -0.11360373 -40.209145 -23.864983 -123.98068
201808000 -23.676933 -136.05376 -0.11622825 -40.405704 -0.11513162 -40.411469 -23.786888 -124.05798
202807000 -23.616135 -136.40381 -0.11622718 -40.604588 -0.11587251 -40.608212 -23.738518 -124.26788
203806000 -23.568392 -136.84502 -0.11743338 -40.810646 -0.11604479 -40.80851 -23.673128 -124.4528
