!Keysight Technologies,E5080B,MY59205177,A.15.75.32
!Date: Friday, February 23, 2024 03:40:40
!Correction: S11(Cdelta 2-Port  ) 
!S21(Cdelta 2-Port  ) 
!S12(Cdelta 2-Port  ) 
!S22(Cdelta 2-Port  ) 
!S2P File: Measurements: S11, S21, S12, S22:
# Hz S  dB   R 50
10000000 -46.076565 -2.7297394 -0.014668955 -2.0420227 -0.018222291 -2.0948424 -45.937817 -157.16653
10999000 -45.303356 -4.9809041 -0.015078058 -2.2605176 -0.018329132 -2.3127964 -45.797871 -151.1825
11998000 -44.352745 -7.9120231 -0.015470833 -2.4842036 -0.017739335 -2.5284784 -46.0317 -146.87317
12997000 -43.609917 -13.411603 -0.015394977 -2.6671524 -0.017881773 -2.6960278 -45.619926 -140.96994
13996000 -43.257256 -17.327606 -0.014822462 -2.8458834 -0.018315094 -2.8647561 -45.371006 -135.96333
14995000 -42.909233 -21.863478 -0.016317289 -3.0575423 -0.017738555 -3.0771229 -45.105801 -132.55342
15994000 -42.711941 -26.384424 -0.018200455 -3.2750123 -0.020562975 -3.2967539 -44.966965 -128.88275
16993000 -42.665836 -30.98761 -0.016707838 -3.4708722 -0.019535229 -3.4769685 -44.088001 -128.82727
17992000 -42.69796 -36.227173 -0.017561294 -3.6695025 -0.019679544 -3.6733966 -43.560905 -129.41304
18991000 -42.978939 -41.69109 -0.018840753 -3.8812692 -0.020992663 -3.8827641 -42.930378 -127.79102
19990000 -42.701126 -47.074787 -0.021273594 -4.0905604 -0.022879418 -4.0856023 -42.24337 -128.81891
20989000 -42.561954 -50.496689 -0.023469392 -4.2954817 -0.024624331 -4.2845054 -41.72398 -128.06133
21988000 -42.31488 -56.439686 -0.023745801 -4.4906034 -0.025541576 -4.4783411 -41.465862 -127.31071
22987000 -42.025475 -60.914646 -0.025386387 -4.689661 -0.026451202 -4.6819124 -41.180313 -127.05502
23986000 -41.924461 -65.029808 -0.024622768 -4.8849325 -0.025525171 -4.8805718 -41.044151 -126.79333
24985000 -41.503597 -67.626823 -0.025465803 -5.0925007 -0.026159517 -5.0889912 -40.83514 -124.57896
25984000 -41.153854 -69.716003 -0.026263688 -5.3013315 -0.026499644 -5.29913 -40.498379 -122.72437
26983000 -40.87862 -71.672157 -0.02745636 -5.4967618 -0.027204722 -5.5174708 -40.371132 -122.30887
27982000 -40.691643 -72.335403 -0.028460449 -5.6982441 -0.028956847 -5.7296495 -40.123997 -120.64957
28981000 -40.641464 -74.216148 -0.026593404 -5.8943872 -0.028751506 -5.9199743 -39.896103 -119.85117
29980000 -40.250641 -75.257568 -0.026507197 -6.0887771 -0.029270871 -6.0960679 -39.611145 -119.09116
30979000 -39.866776 -74.300331 -0.024653228 -6.4462295 -0.023805404 -6.4364133 -39.116066 -119.60032
31978000 -39.635284 -75.344383 -0.023500104 -6.6393485 -0.024221877 -6.6317544 -38.857403 -118.79527
32977000 -39.452877 -76.920624 -0.023017861 -6.849617 -0.024758404 -6.8479347 -38.601688 -118.76109
33976000 -39.294735 -77.887573 -0.023987086 -7.0512543 -0.025458252 -7.0455275 -38.335445 -118.24262
34975000 -39.006313 -78.741531 -0.02422422 -7.2486305 -0.026041547 -7.2490206 -38.124683 -117.83755
35974000 -38.782421 -79.230576 -0.023003548 -7.4460416 -0.026410572 -7.448935 -37.856239 -116.92038
36973000 -38.57402 -79.97496 -0.023358522 -7.6449299 -0.026958831 -7.650692 -37.567348 -116.04244
37972000 -38.372437 -79.612122 -0.023492817 -7.8558908 -0.02696925 -7.861443 -37.358486 -115.14933
38971000 -38.069424 -79.12722 -0.024274198 -8.0566492 -0.02691403 -8.0678806 -37.202232 -113.75078
39970000 -37.749081 -79.510216 -0.022550764 -8.2513027 -0.025906652 -8.2664061 -36.953541 -113.16066
40969000 -37.436405 -79.106972 -0.023054294 -8.443346 -0.025796242 -8.4674149 -36.723774 -111.71912
41968000 -37.139332 -78.929474 -0.022907263 -8.6502542 -0.025807178 -8.6655598 -36.528683 -110.54293
42967000 -36.843338 -79.058159 -0.023275763 -8.8638649 -0.026258999 -8.8765869 -36.343807 -108.56949
43966000 -36.569477 -79.674454 -0.024519419 -9.0613546 -0.027127881 -9.0823097 -36.071869 -107.86652
44965000 -36.348949 -80.396172 -0.024433512 -9.2651596 -0.027328456 -9.2834234 -35.847851 -107.7718
45964000 -36.099018 -81.545769 -0.025417373 -9.4656181 -0.028445596 -9.4797964 -35.62994 -107.3371
46963000 -35.910805 -83.311035 -0.026347548 -9.6576061 -0.029651118 -9.6803856 -35.447475 -107.62386
47962000 -35.746243 -84.769043 -0.028075095 -9.8604441 -0.031098915 -9.8777933 -35.268505 -107.64287
48961000 -35.530712 -86.150681 -0.029502559 -10.057017 -0.032062642 -10.080357 -35.017406 -107.85867
49960000 -35.298512 -87.455994 -0.030555347 -10.256835 -0.033273343 -10.281132 -34.899509 -107.80717
50959000 -35.062946 -88.778496 -0.031344783 -10.471816 -0.034470811 -10.478577 -34.722919 -108.21651
51958000 -34.852455 -89.766663 -0.033301514 -10.670548 -0.035780057 -10.680363 -34.535164 -108.51785
52957000 -34.642723 -90.717979 -0.035027396 -10.871038 -0.037059151 -10.877104 -34.376781 -108.32319
53956000 -34.489544 -91.483551 -0.036032714 -11.071634 -0.037776131 -11.073301 -34.232273 -108.37849
54955000 -34.322971 -91.953796 -0.037097529 -11.270399 -0.038240168 -11.271253 -34.092388 -108.33751
55954000 -34.141781 -92.899124 -0.038120303 -11.473772 -0.0388688 -11.468592 -33.980385 -108.01214
56953000 -34.020927 -92.890884 -0.037269063 -11.668536 -0.037805375 -11.658181 -33.901402 -108.28767
57952000 -33.852722 -93.449829 -0.038666382 -11.870605 -0.039120588 -11.858959 -33.805454 -108.4146
58951000 -33.733299 -93.746635 -0.039864559 -12.075742 -0.039523382 -12.0533 -33.643303 -108.39375
59950000 -33.60297 -94.193176 -0.040003803 -12.274444 -0.041058879 -12.256447 -33.576622 -108.68218
60949000 -33.481632 -94.707344 -0.040710557 -12.476583 -0.040892161 -12.457001 -33.476349 -108.96017
61948000 -33.420788 -94.970863 -0.04100557 -12.675029 -0.040725712 -12.660018 -33.390316 -109.08218
62947000 -33.335999 -95.183655 -0.041076649 -12.884537 -0.041755613 -12.864001 -33.244675 -109.33066
63946000 -33.253132 -95.951752 -0.041569002 -13.084923 -0.042920914 -13.067247 -33.132652 -109.40033
64945000 -33.136673 -96.150848 -0.042701054 -13.290196 -0.043373995 -13.268194 -33.015392 -109.96096
65944000 -33.051132 -96.3927 -0.043480411 -13.485864 -0.043980621 -13.470069 -32.921143 -110.34473
66943000 -32.901676 -96.87265 -0.041062016 -13.69146 -0.042449579 -13.669529 -32.822796 -110.64268
67942000 -32.844913 -96.760338 -0.044162624 -13.8874 -0.043901388 -13.872414 -32.706348 -110.88135
68941000 -32.726681 -96.913841 -0.042322539 -14.074014 -0.042681187 -14.071284 -32.592037 -110.81391
69940000 -32.628323 -96.81295 -0.042953592 -14.27962 -0.044089664 -14.269238 -32.457211 -111.10137
70939000 -32.534595 -96.720078 -0.043380272 -14.475917 -0.043551266 -14.465788 -32.324223 -111.02077
71938000 -32.381752 -96.314636 -0.04230947 -14.673082 -0.043831311 -14.663289 -32.192352 -110.83307
72937000 -32.238266 -96.180534 -0.04229065 -14.872218 -0.04294993 -14.862804 -32.061066 -110.54276
73936000 -32.098602 -95.797569 -0.042138781 -15.067883 -0.042625766 -15.059523 -31.937601 -110.31297
74935000 -31.976313 -95.979248 -0.041544437 -15.264366 -0.041721895 -15.264174 -31.788193 -110.01266
75934000 -31.845018 -96.277458 -0.042008094 -15.474816 -0.041502621 -15.466885 -31.700338 -109.91326
76933000 -31.714806 -96.636391 -0.042666286 -15.665985 -0.043722793 -15.662177 -31.531183 -110.25024
77932000 -31.616016 -97.415199 -0.043925706 -15.865032 -0.044610869 -15.855176 -31.438658 -110.17465
78931000 -31.54332 -98.088226 -0.043138951 -16.063795 -0.043081172 -16.060114 -31.327591 -110.08785
79930000 -31.421497 -98.987282 -0.044651929 -16.25432 -0.04626799 -16.255243 -31.241421 -110.40195
80929000 -31.313375 -99.731895 -0.046697352 -16.454704 -0.047482658 -16.455273 -31.14926 -110.62809
81928000 -31.220148 -100.47038 -0.046539314 -16.645901 -0.048009764 -16.640455 -31.01343 -110.58469
82927000 -31.121637 -101.21494 -0.048177805 -16.845688 -0.049244553 -16.843096 -30.909561 -110.93904
83926000 -30.996248 -101.87604 -0.049890753 -17.038313 -0.049984496 -17.044279 -30.785294 -111.1264
84925000 -30.8951 -102.2816 -0.051041476 -17.241489 -0.050743163 -17.236912 -30.69482 -111.16989
85924000 -30.809668 -102.701 -0.051368102 -17.443359 -0.051685326 -17.441179 -30.606709 -111.08259
86923000 -30.694088 -103.22234 -0.051739287 -17.642792 -0.051454023 -17.633249 -30.505787 -111.01711
87922000 -30.590694 -103.5454 -0.051091503 -17.846773 -0.051631622 -17.839838 -30.423609 -111.08462
88921000 -30.515434 -103.83341 -0.052617211 -18.043859 -0.053050343 -18.039936 -30.337593 -111.00659
89920000 -30.412943 -104.36189 -0.054203741 -18.245724 -0.053137343 -18.236792 -30.272541 -111.21161
90919000 -30.319525 -104.60328 -0.053986982 -18.442806 -0.053871136 -18.433413 -30.191765 -111.32641
91918000 -30.209066 -104.95789 -0.055101562 -18.642683 -0.054313041 -18.63336 -30.118313 -111.36891
92917000 -30.124247 -105.30035 -0.055046771 -18.837124 -0.055105757 -18.838015 -30.061266 -111.4603
93916000 -30.03491 -105.61844 -0.055360064 -19.031801 -0.055614386 -19.028221 -29.965357 -112.10118
94915000 -29.965841 -106.24183 -0.057124637 -19.235109 -0.056541871 -19.227114 -29.909801 -111.92911
95914000 -29.888567 -106.4385 -0.05793649 -19.42923 -0.057330538 -19.426073 -29.813786 -112.23764
96913000 -29.797657 -106.61674 -0.058396127 -19.630045 -0.0584751 -19.627659 -29.750113 -112.52114
97912000 -29.724405 -107.10693 -0.059807613 -19.824709 -0.058856338 -19.826584 -29.672855 -112.79013
98911000 -29.619104 -107.25853 -0.060247499 -20.027397 -0.059947498 -20.026167 -29.633736 -112.98128
99910000 -29.550404 -107.37549 -0.060969103 -20.228098 -0.060614716 -20.222528 -29.524405 -113.28578
100909000 -29.463255 -107.66386 -0.06067903 -20.43388 -0.059292454 -20.427588 -29.440033 -113.47768
101908000 -29.375095 -107.85663 -0.062283475 -20.632828 -0.061140269 -20.634562 -29.328629 -113.25618
102907000 -29.24114 -107.84341 -0.062569983 -20.833296 -0.061466608 -20.832222 -29.259666 -113.24706
103906000 -29.14616 -107.87176 -0.062602542 -21.041964 -0.060907152 -21.034231 -29.111858 -113.14034
104905000 -28.998283 -107.75452 -0.063318498 -21.236536 -0.061293591 -21.23877 -29.000401 -112.87282
105904000 -28.857775 -107.81973 -0.062966809 -21.437544 -0.061582655 -21.435293 -28.877642 -112.72501
106903000 -28.75313 -107.93951 -0.063208446 -21.645487 -0.061430112 -21.638958 -28.755049 -112.63464
107902000 -28.588678 -108.2373 -0.064125732 -21.848354 -0.062172659 -21.84104 -28.62187 -112.53935
108901000 -28.47904 -108.44706 -0.064966753 -22.048784 -0.063985452 -22.044081 -28.492294 -112.53481
109900000 -28.354872 -108.95341 -0.065140441 -22.248877 -0.064572893 -22.240253 -28.341526 -112.61324
110899000 -28.236792 -109.52219 -0.0668898 -22.446892 -0.064941786 -22.437059 -28.223545 -112.87582
111898000 -28.143122 -110.16994 -0.06834849 -22.645502 -0.066477366 -22.639162 -28.103035 -112.97318
112897000 -28.017702 -110.75336 -0.069977075 -22.846233 -0.06730254 -22.836941 -27.972414 -113.18873
113896000 -27.912989 -111.26942 -0.070830278 -23.046909 -0.068618827 -23.036827 -27.863777 -113.29716
114895000 -27.816069 -111.89557 -0.072083682 -23.246271 -0.069896579 -23.232519 -27.75209 -113.37138
115894000 -27.688532 -112.2826 -0.072963096 -23.447824 -0.07175339 -23.43784 -27.688322 -113.58142
116893000 -27.609095 -112.74949 -0.07386744 -23.644606 -0.072163165 -23.625963 -27.559961 -113.65965
117892000 -27.529654 -113.26078 -0.073760539 -23.840931 -0.073039964 -23.82753 -27.479441 -113.87646
118891000 -27.469334 -113.68295 -0.073855594 -24.04423 -0.072454013 -24.028864 -27.38776 -113.97755
119890000 -27.382448 -114.06127 -0.075143576 -24.24379 -0.073464081 -24.227568 -27.376398 -114.09316
120889000 -27.331091 -114.52355 -0.075243928 -24.442175 -0.072849639 -24.42655 -27.308729 -114.0331
121888000 -27.291893 -114.89799 -0.075868458 -24.641001 -0.074604213 -24.625925 -27.242203 -114.32972
122887000 -27.255922 -115.08807 -0.076836638 -24.841864 -0.074600004 -24.825823 -27.204584 -114.37744
123886000 -27.195129 -115.50388 -0.077713855 -25.044102 -0.075032964 -25.025892 -27.177902 -114.47423
124885000 -27.162132 -115.99152 -0.078080967 -25.243168 -0.075336643 -25.231918 -27.153122 -114.52425
125884000 -27.116331 -116.16517 -0.07840015 -25.439938 -0.07532189 -25.428448 -27.118282 -114.68094
126883000 -27.090969 -116.54901 -0.078657933 -25.643248 -0.076017551 -25.633471 -27.082373 -114.73143
127882000 -27.037943 -116.84469 -0.079259753 -25.844149 -0.076856136 -25.828569 -27.042643 -114.82829
128881000 -27.014114 -117.16222 -0.079744324 -26.046696 -0.076940715 -26.03157 -27.000776 -114.90607
129880000 -26.9564 -117.51816 -0.080553561 -26.248705 -0.077212639 -26.230738 -26.966087 -114.89857
130879000 -26.89838 -117.66131 -0.080034882 -26.448069 -0.077788956 -26.430573 -26.892668 -114.90881
131878000 -26.832043 -117.8472 -0.080340229 -26.651657 -0.077993207 -26.630541 -26.832291 -114.78201
132877000 -26.774828 -117.93285 -0.079995066 -26.852871 -0.077917039 -26.836426 -26.751896 -114.74707
133876000 -26.680645 -118.08806 -0.080172263 -27.056173 -0.078190349 -27.037697 -26.668524 -114.63416
134875000 -26.589714 -118.22473 -0.080983423 -27.256428 -0.078757308 -27.235182 -26.570719 -114.47527
135874000 -26.51 -118.23073 -0.080572285 -27.453941 -0.078559615 -27.433067 -26.473307 -114.41038
136873000 -26.40296 -118.19032 -0.081096828 -27.656738 -0.078680336 -27.638592 -26.39399 -114.37103
137872000 -26.319326 -118.29678 -0.080556728 -27.857166 -0.078232519 -27.846495 -26.294947 -114.30627
138871000 -26.24991 -118.49801 -0.080854721 -28.055466 -0.079051226 -28.038984 -26.197496 -114.45056
139870000 -26.145754 -118.78793 -0.081300177 -28.25795 -0.080299094 -28.240002 -26.11554 -114.60886
140869000 -26.073347 -119.33038 -0.083092205 -28.456383 -0.080640852 -28.435125 -26.017651 -114.80786
141868000 -25.989735 -119.70423 -0.083792023 -28.650663 -0.082339481 -28.638521 -25.969824 -115.06416
142867000 -25.915499 -119.91805 -0.081917666 -28.850483 -0.081075996 -28.833975 -25.886915 -115.19871
143866000 -25.838341 -120.39897 -0.083981775 -29.047344 -0.082870044 -29.029398 -25.822229 -115.67149
144865000 -25.782927 -120.9288 -0.085533597 -29.246502 -0.084170476 -29.233231 -25.764597 -115.92841
145864000 -25.728083 -121.20122 -0.086067721 -29.444813 -0.085258514 -29.433752 -25.727428 -116.19059
146863000 -25.684692 -121.61333 -0.086722858 -29.646328 -0.085737951 -29.63415 -25.682339 -116.49643
147862000 -25.647505 -121.95105 -0.08788655 -29.846062 -0.086025737 -29.834625 -25.653454 -116.78099
148861000 -25.615427 -122.36771 -0.088857681 -30.042427 -0.087220944 -30.0268 -25.630047 -116.93472
149860000 -25.580605 -122.57048 -0.089442685 -30.2365 -0.087869383 -30.22229 -25.579304 -117.06996
150859000 -25.559237 -123.02899 -0.0893206 -30.434496 -0.087472379 -30.415262 -25.555143 -117.42176
151858000 -25.545399 -123.37133 -0.089664653 -30.631332 -0.087576449 -30.618177 -25.548265 -117.81471
152857000 -25.531548 -123.71257 -0.089646161 -30.834011 -0.087258443 -30.822908 -25.532986 -117.95123
153856000 -25.529455 -123.91182 -0.089354426 -31.033573 -0.086968988 -31.015732 -25.551617 -118.27723
154855000 -25.529688 -124.09623 -0.08967258 -31.229446 -0.087062478 -31.219013 -25.533722 -118.48659
155854000 -25.547754 -124.3176 -0.089540459 -31.433041 -0.087868594 -31.418772 -25.529627 -118.77612
156853000 -25.528584 -125.04439 -0.087571695 -31.618443 -0.086774088 -31.609552 -25.526131 -119.09251
157852000 -25.536774 -125.22186 -0.088916339 -31.821627 -0.088944875 -31.812685 -25.509523 -119.45126
158851000 -25.532347 -125.47212 -0.089364201 -32.018192 -0.088974461 -32.009972 -25.497524 -119.69303
159850000 -25.526493 -125.5276 -0.089980721 -32.218128 -0.088558078 -32.209091 -25.492455 -119.87624
160849000 -25.502407 -125.65105 -0.090387732 -32.414528 -0.089478619 -32.414345 -25.467072 -120.1633
161848000 -25.489256 -125.7377 -0.09026245 -32.617943 -0.089120314 -32.614544 -25.428228 -120.28993
162847000 -25.449434 -125.894 -0.090312138 -32.816795 -0.089508221 -32.813824 -25.397137 -120.53091
163846000 -25.406576 -126.09573 -0.090573803 -33.017563 -0.089664124 -33.010242 -25.323397 -120.54861
164845000 -25.352751 -126.06192 -0.09075883 -33.21854 -0.089792296 -33.211823 -25.260675 -120.6337
165844000 -25.299614 -126.1134 -0.091195516 -33.417004 -0.090199284 -33.409615 -25.183243 -120.75304
166843000 -25.23432 -126.16389 -0.091120444 -33.618572 -0.089639284 -33.60952 -25.113819 -120.91584
167842000 -25.181225 -126.2626 -0.091336682 -33.816223 -0.09041971 -33.810337 -25.042322 -120.87032
168841000 -25.104916 -126.4427 -0.091564573 -34.014908 -0.090761475 -34.010086 -24.964787 -120.90888
169840000 -25.038626 -126.6472 -0.092017204 -34.209362 -0.091662392 -34.208328 -24.883615 -121.10104
170839000 -24.977201 -126.91022 -0.092145175 -34.409447 -0.091243103 -34.406425 -24.8032 -121.28629
171838000 -24.922716 -127.25561 -0.092821591 -34.609936 -0.09291283 -34.602501 -24.735962 -121.49385
172837000 -24.848793 -127.63359 -0.093914442 -34.806847 -0.093653902 -34.799095 -24.667208 -121.6908
173836000 -24.782824 -127.99535 -0.095330909 -35.006798 -0.094841942 -35.002998 -24.626743 -121.91669
174835000 -24.73386 -128.39697 -0.095909372 -35.203365 -0.095191725 -35.203178 -24.582989 -122.23249
175834000 -24.675705 -128.75809 -0.096308999 -35.403931 -0.096544027 -35.398552 -24.527798 -122.49498
176833000 -24.634497 -129.13449 -0.097866826 -35.602646 -0.096826978 -35.601021 -24.479687 -122.63798
177832000 -24.590183 -129.53572 -0.098662496 -35.797779 -0.097857557 -35.803543 -24.454313 -122.75466
178831000 -24.542591 -129.77959 -0.10029799 -35.996346 -0.099447988 -35.992561 -24.413767 -122.8168
179830000 -24.469393 -130.16011 -0.10188349 -36.181484 -0.099621475 -36.182465 -24.348976 -122.88683
180829000 -24.41993 -130.51938 -0.1004233 -36.37508 -0.10023151 -36.374294 -24.307108 -123.23634
181828000 -24.394121 -130.97606 -0.099777482 -36.578163 -0.098718636 -36.572182 -24.294235 -123.41565
182827000 -24.371695 -131.32764 -0.099027418 -36.768734 -0.099401377 -36.770725 -24.28413 -123.54644
183826000 -24.328814 -131.6718 -0.10025428 -36.971123 -0.098973393 -36.963596 -24.273077 -123.71369
184825000 -24.334089 -131.98184 -0.10026223 -37.167614 -0.09937118 -37.166077 -24.2523 -123.80589
185824000 -24.308111 -132.36569 -0.10014779 -37.36327 -0.10010674 -37.365135 -24.245987 -123.89477
186823000 -24.288956 -132.72328 -0.10064186 -37.565838 -0.099751525 -37.561005 -24.244383 -123.92812
187822000 -24.266459 -133.07454 -0.10095819 -37.753841 -0.10038462 -37.757275 -24.207796 -123.99956
188821000 -24.247578 -133.31848 -0.10077724 -37.949898 -0.10026356 -37.955956 -24.183098 -124.11827
189820000 -24.225319 -133.62698 -0.10085248 -38.154499 -0.10017323 -38.151928 -24.167063 -124.30917
190819000 -24.196199 -133.92375 -0.10181856 -38.353004 -0.1010496 -38.34938 -24.126738 -124.33746
191818000 -24.160875 -134.21675 -0.1012976 -38.549419 -0.10121573 -38.551266 -24.098074 -124.37749
192817000 -24.11375 -134.52129 -0.10219754 -38.744949 -0.10171892 -38.748211 -24.059269 -124.47192
193816000 -24.084604 -134.7245 -0.10193145 -38.941952 -0.10119215 -38.940567 -24.007441 -124.59113
194815000 -24.020294 -135.14461 -0.10250974 -39.137783 -0.10272708 -39.142532 -23.940334 -124.66609
195814000 -23.968973 -135.31702 -0.10338791 -39.33437 -0.10297836 -39.333595 -23.885763 -124.76032
196813000 -23.911743 -135.64638 -0.10324291 -39.526638 -0.10210716 -39.534286 -23.804323 -124.87888
197812000 -23.858574 -135.85931 -0.10352603 -39.729256 -0.10302395 -39.722652 -23.738625 -124.99516
198811000 -23.806166 -136.00012 -0.10314324 -39.924084 -0.10346453 -39.924999 -23.670307 -125.1548
199810000 -23.733768 -136.33102 -0.1037132 -40.113285 -0.10247343 -40.118412 -23.591211 -125.2329
200809000 -23.680807 -136.58937 -0.10357428 -40.319099 -0.10368934 -40.319881 -23.519148 -125.41912
201808000 -23.619734 -136.78206 -0.10475788 -40.517998 -0.10470193 -40.519493 -23.453411 -125.46343
202807000 -23.565336 -137.12959 -0.10548454 -40.717369 -0.10521667 -40.720783 -23.396599 -125.67944
