!Keysight Technologies,E5080B,MY59205177,A.15.75.32
!Date: Friday, February 23, 2024 03:02:25
!Correction: S11(Cdelta 2-Port  ) 
!S21(Cdelta 2-Port  ) 
!S12(Cdelta 2-Port  ) 
!S22(Cdelta 2-Port  ) 
!S2P File: Measurements: S11, S21, S12, S22:
# Hz S  dB   R 50
10000000 -44.183609 -3.9593441 -0.026736394 -2.0400741 -0.030293103 -2.0942593 -48.038342 -150.47711
10999000 -43.514645 -5.6363764 -0.027884906 -2.2558794 -0.029673792 -2.3074732 -47.744629 -142.9272
11998000 -42.749416 -8.1520138 -0.028792156 -2.4761019 -0.029786127 -2.5226607 -47.863514 -137.47115
12997000 -42.128479 -12.831028 -0.027361277 -2.6545653 -0.029924791 -2.6902142 -47.247921 -130.89819
13996000 -41.922779 -16.061687 -0.027148718 -2.8348927 -0.029850507 -2.8570123 -46.821636 -125.49271
14995000 -41.55402 -19.917198 -0.029178094 -3.0466237 -0.02939414 -3.0686512 -46.378933 -122.1424
15994000 -41.43631 -23.772297 -0.030337941 -3.2662754 -0.031912178 -3.2852852 -46.172028 -118.67542
16993000 -41.405811 -27.804174 -0.029810106 -3.4615321 -0.031462897 -3.4711483 -45.185913 -119.13406
17992000 -41.474834 -32.236015 -0.029582571 -3.6583257 -0.032303609 -3.6645262 -44.627274 -119.73959
18991000 -41.771095 -36.922279 -0.030492261 -3.8688574 -0.032511987 -3.866276 -43.871639 -119.51556
19990000 -41.608929 -41.880325 -0.032832004 -4.0758963 -0.034147803 -4.0737476 -43.185715 -121.16707
20989000 -41.504375 -45.04034 -0.034973636 -4.283628 -0.03672133 -4.2720113 -42.625999 -120.68936
21988000 -41.406868 -49.488918 -0.035941359 -4.4750762 -0.037904341 -4.463479 -42.322159 -120.38446
22987000 -41.212204 -53.969494 -0.036805391 -4.6725202 -0.038345672 -4.6671524 -42.051743 -119.77756
23986000 -41.207211 -57.887863 -0.036108147 -4.8673935 -0.037838798 -4.8675051 -41.925411 -119.67665
24985000 -40.886028 -60.282875 -0.037784487 -5.0761461 -0.037448436 -5.0770998 -41.658104 -117.28899
25984000 -40.578178 -62.499184 -0.038157906 -5.2822862 -0.03788032 -5.2840877 -41.319874 -115.7009
26983000 -40.335091 -64.407829 -0.039496478 -5.4824934 -0.039004356 -5.5004129 -41.186699 -115.2429
27982000 -40.214455 -65.289276 -0.040697232 -5.6803861 -0.04170334 -5.7150874 -40.872612 -113.77185
28981000 -40.145634 -66.772415 -0.039231341 -5.8770041 -0.040087406 -5.9016595 -40.644264 -113.08156
29980000 -39.818665 -68.053955 -0.038055539 -6.0676174 -0.041068286 -6.0771198 -40.305923 -112.21007
30979000 -39.44149 -67.330872 -0.036828365 -6.4229856 -0.03548044 -6.4147992 -39.845047 -113.21467
31978000 -39.263317 -68.670532 -0.035722896 -6.6176353 -0.036476724 -6.6109257 -39.57235 -112.54627
32977000 -39.089287 -70.049492 -0.035630506 -6.8275399 -0.037325196 -6.8243275 -39.320324 -112.69985
33976000 -38.933056 -71.277336 -0.035322286 -7.0293226 -0.037549745 -7.025228 -39.002617 -112.08881
34975000 -38.682941 -72.151779 -0.036128767 -7.2277431 -0.038228154 -7.2280803 -38.755424 -112.04503
35974000 -38.48127 -73.053108 -0.035020087 -7.4224272 -0.037697271 -7.424839 -38.482502 -111.22947
36973000 -38.269344 -73.750641 -0.035835911 -7.6217871 -0.038322952 -7.6281576 -38.203121 -110.53351
37972000 -38.073322 -73.703453 -0.035428762 -7.8345156 -0.038574189 -7.8414183 -37.974178 -109.84332
38971000 -37.775925 -73.459549 -0.036416948 -8.0324183 -0.038709998 -8.0447712 -37.752178 -108.43895
39970000 -37.453499 -74.059113 -0.034411322 -8.2254019 -0.037633821 -8.2458744 -37.461754 -108.02413
40969000 -37.17477 -73.878525 -0.034986947 -8.4273453 -0.03721815 -8.4412861 -37.211964 -106.64823
41968000 -36.829025 -74.130997 -0.034539174 -8.6291742 -0.03766124 -8.6446152 -36.99229 -105.63412
42967000 -36.59259 -74.411774 -0.034323394 -8.8371096 -0.038285606 -8.8604202 -36.753811 -103.84597
43966000 -36.325161 -75.387123 -0.03523773 -9.0361252 -0.039085068 -9.0573196 -36.461498 -103.22207
44965000 -36.081528 -76.230728 -0.037093613 -9.2404623 -0.039732106 -9.2558212 -36.269032 -103.16974
45964000 -35.860516 -77.252441 -0.038179841 -9.4402132 -0.040586703 -9.455719 -36.024105 -103.05485
46963000 -35.687859 -79.337196 -0.037841149 -9.6310873 -0.040912542 -9.6528492 -35.835419 -103.39328
47962000 -35.544365 -80.893097 -0.039638322 -9.8349085 -0.042639099 -9.8487682 -35.625626 -103.59786
48961000 -35.338451 -82.322197 -0.041528493 -10.026622 -0.043720178 -10.050436 -35.394623 -103.81728
49960000 -35.127277 -83.677818 -0.04233247 -10.229706 -0.044957936 -10.251771 -35.247017 -103.99998
50959000 -34.924362 -85.064903 -0.043327458 -10.441971 -0.046650253 -10.45242 -35.075981 -104.35884
51958000 -34.728146 -86.225769 -0.044564839 -10.641029 -0.047293711 -10.651188 -34.90575 -105.0166
52957000 -34.527596 -87.250931 -0.046384942 -10.841993 -0.048646096 -10.849584 -34.718838 -104.7706
53956000 -34.351639 -88.056572 -0.047782581 -11.03971 -0.049632575 -11.043872 -34.590233 -104.83749
54955000 -34.209576 -88.612206 -0.048907615 -11.243371 -0.050540455 -11.236897 -34.455311 -104.75934
55954000 -34.044422 -89.457848 -0.049730506 -11.44212 -0.050603047 -11.435204 -34.343304 -104.57841
56953000 -33.927811 -89.526039 -0.049438037 -11.640307 -0.049624462 -11.631866 -34.260822 -104.71785
57952000 -33.777004 -90.111908 -0.050514527 -11.839106 -0.051764436 -11.827008 -34.15744 -104.94043
58951000 -33.654999 -90.417557 -0.051203869 -12.040753 -0.051798753 -12.019668 -34.01207 -104.98882
59950000 -33.534168 -90.817314 -0.052387692 -12.241154 -0.052171547 -12.214065 -33.932022 -105.24064
60949000 -33.433147 -91.447266 -0.052450575 -12.439843 -0.052701842 -12.418469 -33.839516 -105.57857
61948000 -33.366081 -91.661789 -0.052993745 -12.64391 -0.052787788 -12.623158 -33.772877 -105.69349
62947000 -33.285465 -91.888573 -0.053209666 -12.850476 -0.053367425 -12.828853 -33.627476 -105.95947
63946000 -33.210102 -92.681709 -0.054346591 -13.046585 -0.054195877 -13.030356 -33.529984 -106.07407
64945000 -33.121548 -92.903313 -0.054794315 -13.251756 -0.054933257 -13.231764 -33.422577 -106.56779
65944000 -33.023312 -93.107346 -0.05572661 -13.44873 -0.055620417 -13.431334 -33.333057 -107.11208
66943000 -32.887943 -93.616905 -0.053492956 -13.6511 -0.054050669 -13.632559 -33.232372 -107.28622
67942000 -32.816292 -93.545433 -0.055636935 -13.848642 -0.055868726 -13.832944 -33.100487 -107.68916
68941000 -32.717911 -93.60495 -0.055272236 -14.040685 -0.054412648 -14.029049 -33.003654 -107.60651
69940000 -32.612003 -93.746307 -0.055344332 -14.238671 -0.055408567 -14.226769 -32.855988 -107.97812
70939000 -32.510666 -93.598061 -0.055514492 -14.432982 -0.055132762 -14.424438 -32.730755 -107.8215
71938000 -32.370541 -93.245872 -0.054661408 -14.633307 -0.054909661 -14.623343 -32.604366 -107.8413
72937000 -32.217678 -93.139961 -0.054390367 -14.830846 -0.054470051 -14.823309 -32.446339 -107.51484
73936000 -32.068596 -92.861259 -0.054256164 -15.026746 -0.05404805 -15.019678 -32.344711 -107.35538
74935000 -31.94701 -93.128883 -0.053815834 -15.21856 -0.052755296 -15.219627 -32.179462 -107.04704
75934000 -31.826481 -93.414665 -0.053603023 -15.429959 -0.053324711 -15.42732 -32.08807 -106.99036
76933000 -31.701748 -93.827972 -0.054655641 -15.624678 -0.054676089 -15.617431 -31.93429 -107.37789
77932000 -31.603846 -94.631653 -0.056045197 -15.818782 -0.056664608 -15.810865 -31.833616 -107.44121
78931000 -31.537594 -95.407959 -0.05486457 -16.020241 -0.055022389 -16.016178 -31.725561 -107.34071
79930000 -31.421272 -96.212097 -0.057818703 -16.212345 -0.05766708 -16.209272 -31.632463 -107.64032
80929000 -31.298473 -97.095818 -0.058784444 -16.404037 -0.058937155 -16.403753 -31.529209 -107.95761
81928000 -31.225691 -98.086609 -0.058960248 -16.600346 -0.059392698 -16.593971 -31.41482 -108.01201
82927000 -31.127018 -98.637756 -0.060550142 -16.795864 -0.060864359 -16.796377 -31.31081 -108.39841
83926000 -31.012793 -99.453056 -0.062208898 -16.993034 -0.061617576 -16.992247 -31.187872 -108.56949
84925000 -30.919865 -99.900017 -0.063194528 -17.190624 -0.061457682 -17.186876 -31.093796 -108.69304
85924000 -30.824881 -100.36426 -0.063683875 -17.390076 -0.063397035 -17.388937 -31.010956 -108.6627
86923000 -30.715189 -100.84937 -0.063419625 -17.594006 -0.064107344 -17.582743 -30.907026 -108.52978
87922000 -30.610033 -101.19987 -0.063178502 -17.798687 -0.062877774 -17.788038 -30.83185 -108.66879
88921000 -30.546419 -101.49403 -0.065088674 -17.994707 -0.064603105 -17.99197 -30.730497 -108.61548
89920000 -30.447306 -102.04754 -0.064637788 -18.192394 -0.064792804 -18.181763 -30.680683 -108.80651
90919000 -30.347343 -102.38998 -0.066497341 -18.389978 -0.065341726 -18.385212 -30.597837 -109.03092
91918000 -30.248598 -102.76289 -0.066671357 -18.587587 -0.066359609 -18.582825 -30.528671 -109.02595
92917000 -30.169769 -103.11796 -0.067596473 -18.787745 -0.067368791 -18.783251 -30.467386 -109.13136
93916000 -30.079895 -103.44193 -0.067091167 -18.97732 -0.066920556 -18.971828 -30.378325 -109.75987
94915000 -30.009771 -104.14574 -0.069488592 -19.179371 -0.067868337 -19.174198 -30.314049 -109.61761
95914000 -29.941446 -104.3224 -0.070116766 -19.374622 -0.068767674 -19.371826 -30.231104 -109.85241
96913000 -29.862871 -104.58656 -0.071219973 -19.57633 -0.070271455 -19.573774 -30.171951 -110.2669
97912000 -29.783491 -105.05556 -0.072300822 -19.768595 -0.070395373 -19.769808 -30.089779 -110.48473
98911000 -29.681097 -105.28279 -0.072709076 -19.96781 -0.071616806 -19.966263 -30.048065 -110.69214
99910000 -29.619722 -105.38671 -0.073673129 -20.170282 -0.07200288 -20.166777 -29.937778 -111.01403
100909000 -29.533173 -105.67611 -0.072578251 -20.380239 -0.071274176 -20.368736 -29.857143 -111.20226
101908000 -29.443798 -105.92771 -0.074181043 -20.575214 -0.073202923 -20.575172 -29.742889 -111.01942
102907000 -29.310215 -105.94083 -0.073798716 -20.780037 -0.072831213 -20.772705 -29.669577 -111.00333
103906000 -29.222404 -106.02454 -0.074497037 -20.982054 -0.072250813 -20.978506 -29.521883 -110.95213
104905000 -29.070229 -105.96667 -0.074967645 -21.179106 -0.072147116 -21.176451 -29.394541 -110.65041
105904000 -28.935862 -106.08447 -0.074692965 -21.38283 -0.072658531 -21.375809 -29.278559 -110.52462
106903000 -28.823185 -106.17876 -0.074748002 -21.586401 -0.073091298 -21.579828 -29.149725 -110.42307
107902000 -28.662695 -106.56723 -0.07582894 -21.78742 -0.073469609 -21.777636 -29.020983 -110.37072
108901000 -28.551901 -106.80621 -0.07711383 -21.988316 -0.074924454 -21.978363 -28.881535 -110.33677
109900000 -28.430159 -107.26795 -0.077946819 -22.188288 -0.075393796 -22.177889 -28.732605 -110.43074
110899000 -28.313616 -107.92534 -0.079355977 -22.384184 -0.076045476 -22.375763 -28.610327 -110.68839
111898000 -28.222191 -108.62252 -0.080213398 -22.586481 -0.077232137 -22.577967 -28.487772 -110.85925
112897000 -28.100639 -109.1355 -0.082175128 -22.784731 -0.07855276 -22.772408 -28.353523 -111.04306
113896000 -27.998175 -109.74615 -0.082471125 -22.986252 -0.08031597 -22.972427 -28.245714 -111.13742
114895000 -27.896286 -110.44144 -0.083887555 -23.180849 -0.081428625 -23.168713 -28.138268 -111.30897
115894000 -27.765125 -110.71513 -0.085373878 -23.383469 -0.082732581 -23.370188 -28.067041 -111.4661
116893000 -27.678741 -111.30661 -0.085255347 -23.576178 -0.083508864 -23.559965 -27.933969 -111.58562
117892000 -27.60342 -111.79721 -0.085534394 -23.773954 -0.083876468 -23.761982 -27.867472 -111.75705
118891000 -27.550446 -112.24144 -0.086746097 -23.973701 -0.084045373 -23.957794 -27.772898 -111.91127
119890000 -27.46007 -112.58717 -0.086384319 -24.177156 -0.085295998 -24.159443 -27.768154 -112.10676
120889000 -27.409931 -113.09998 -0.088779211 -24.376083 -0.084844328 -24.361338 -27.687304 -112.03777
121888000 -27.371243 -113.41758 -0.088445008 -24.572218 -0.085625477 -24.5555 -27.626963 -112.34102
122887000 -27.327091 -113.6217 -0.089119524 -24.77076 -0.086518988 -24.759068 -27.579876 -112.34846
123886000 -27.268171 -114.00426 -0.090192154 -24.974897 -0.086276054 -24.959398 -27.572117 -112.52982
124885000 -27.231733 -114.5319 -0.089482851 -25.174397 -0.086409666 -25.160107 -27.538582 -112.60622
125884000 -27.187294 -114.74284 -0.091023162 -25.372656 -0.086946011 -25.357447 -27.507118 -112.77765
126883000 -27.161798 -115.14127 -0.091037437 -25.575808 -0.08814384 -25.561281 -27.467754 -112.80777
127882000 -27.114574 -115.41169 -0.091250502 -25.774952 -0.088330351 -25.756393 -27.430191 -112.97725
128881000 -27.086403 -115.69582 -0.091355979 -25.974672 -0.087657802 -25.959936 -27.382982 -113.10046
129880000 -27.026661 -116.06489 -0.092021964 -26.17837 -0.088396393 -26.157177 -27.343142 -113.1012
130879000 -26.963285 -116.20004 -0.092144646 -26.376102 -0.089217551 -26.359648 -27.272352 -113.13799
131878000 -26.903917 -116.44246 -0.092353009 -26.579399 -0.089385346 -26.559381 -27.208359 -113.07973
132877000 -26.834795 -116.53487 -0.091702044 -26.779608 -0.089687914 -26.760775 -27.124331 -113.01551
133876000 -26.751873 -116.6631 -0.092260726 -26.982635 -0.089449815 -26.958487 -27.035982 -112.97404
134875000 -26.65955 -116.81261 -0.09221445 -27.177736 -0.089589611 -27.163324 -26.928028 -112.82723
135874000 -26.574888 -116.83102 -0.092470147 -27.37817 -0.089861795 -27.36186 -26.828325 -112.83155
136873000 -26.460402 -116.76184 -0.093078122 -27.580658 -0.089016743 -27.565613 -26.75131 -112.83595
137872000 -26.387554 -116.8976 -0.093062513 -27.784826 -0.090403326 -27.768414 -26.645515 -112.76391
138871000 -26.31016 -117.12676 -0.093042947 -27.979448 -0.089886114 -27.971815 -26.550299 -112.95673
139870000 -26.20953 -117.34303 -0.093516365 -28.182224 -0.09134303 -28.167336 -26.464062 -113.10947
140869000 -26.134897 -117.82538 -0.095895082 -28.383223 -0.092238516 -28.359575 -26.359425 -113.24569
141868000 -26.03293 -118.31129 -0.09561193 -28.568991 -0.093643323 -28.553879 -26.288389 -113.57146
142867000 -25.957581 -118.56216 -0.094459385 -28.769348 -0.092243008 -28.750711 -26.203636 -113.76205
143866000 -25.886238 -119.04305 -0.09609542 -28.963593 -0.093383588 -28.948347 -26.13954 -114.30145
144865000 -25.832664 -119.55857 -0.097517885 -29.166454 -0.094949365 -29.148832 -26.082666 -114.57462
145864000 -25.769739 -119.88933 -0.097583808 -29.36447 -0.096179314 -29.351604 -26.042788 -114.82219
146863000 -25.725582 -120.23969 -0.098163098 -29.561199 -0.096321173 -29.549717 -25.993906 -115.14266
147862000 -25.691139 -120.63837 -0.099392369 -29.761395 -0.096443973 -29.745283 -25.959894 -115.47024
148861000 -25.65205 -121.12653 -0.098735057 -29.958645 -0.096949004 -29.941153 -25.938295 -115.71297
149860000 -25.63673 -121.35148 -0.099814303 -30.154896 -0.096883886 -30.140047 -25.903547 -115.85465
150859000 -25.621065 -121.69628 -0.10000714 -30.354023 -0.097832404 -30.341002 -25.898239 -116.12961
151858000 -25.604992 -122.02677 -0.099928729 -30.554316 -0.098016419 -30.539852 -25.88464 -116.42953
152857000 -25.579588 -122.33443 -0.09997005 -30.74736 -0.098513946 -30.741346 -25.867136 -116.5602
153856000 -25.580721 -122.51347 -0.10032952 -30.950298 -0.097498298 -30.936071 -25.889288 -116.85589
154855000 -25.568491 -122.71286 -0.10093196 -31.147955 -0.098154098 -31.133089 -25.870178 -117.07909
155854000 -25.585669 -122.97674 -0.10174993 -31.347317 -0.098151453 -31.337837 -25.8666 -117.31276
156853000 -25.569218 -123.70763 -0.099338606 -31.537306 -0.098070428 -31.52729 -25.861811 -117.64218
157852000 -25.573696 -123.86943 -0.10007839 -31.73671 -0.098944262 -31.725576 -25.855225 -117.97829
158851000 -25.566071 -124.17171 -0.10181061 -31.93486 -0.099187382 -31.92721 -25.838261 -118.21933
159850000 -25.557413 -124.23981 -0.10168978 -32.134132 -0.099554196 -32.12426 -25.836468 -118.38666
160849000 -25.534777 -124.38639 -0.10201414 -32.331802 -0.10026541 -32.325375 -25.806028 -118.71891
161848000 -25.519041 -124.47556 -0.10249755 -32.531715 -0.10056423 -32.524109 -25.764309 -118.80641
162847000 -25.474831 -124.68118 -0.10200619 -32.727161 -0.1006204 -32.726612 -25.73448 -119.0314
163846000 -25.433357 -124.90176 -0.10260966 -32.931599 -0.10101012 -32.921661 -25.656561 -119.06994
164845000 -25.372929 -124.89966 -0.10298155 -33.128963 -0.10123295 -33.120674 -25.594395 -119.16395
165844000 -25.315962 -124.98655 -0.10325246 -33.328213 -0.10160339 -33.320751 -25.510559 -119.30026
166843000 -25.261147 -125.05959 -0.10271383 -33.52655 -0.10119639 -33.521683 -25.442139 -119.47057
167842000 -25.196325 -125.22852 -0.10287366 -33.722961 -0.10202262 -33.716976 -25.35644 -119.41004
168841000 -25.124397 -125.40478 -0.10333198 -33.923923 -0.10182387 -33.916489 -25.284056 -119.4872
169840000 -25.056345 -125.66678 -0.10337757 -34.120567 -0.10233349 -34.115139 -25.197878 -119.71349
170839000 -24.997486 -125.93574 -0.10475735 -34.314079 -0.10259668 -34.313541 -25.107529 -119.86688
171838000 -24.937103 -126.35416 -0.10440256 -34.516624 -0.10347725 -34.507694 -25.044283 -120.12729
172837000 -24.871675 -126.73505 -0.10591077 -34.714569 -0.10426813 -34.705318 -24.973101 -120.33775
173836000 -24.801117 -127.14543 -0.1068273 -34.909801 -0.10568611 -34.909336 -24.935474 -120.57938
174835000 -24.746986 -127.59399 -0.1072688 -35.103191 -0.1059731 -35.101444 -24.885288 -120.92686
175834000 -24.694231 -127.97992 -0.10817049 -35.303577 -0.10688727 -35.298607 -24.829453 -121.22054
176833000 -24.646641 -128.32317 -0.10895744 -35.498848 -0.10750442 -35.497742 -24.773424 -121.36301
177832000 -24.600809 -128.80923 -0.1088303 -35.69696 -0.1076976 -35.694084 -24.750528 -121.53143
178831000 -24.558645 -129.18965 -0.10932509 -35.892605 -0.10841811 -35.891239 -24.712416 -121.74555
179830000 -24.523092 -129.60301 -0.10989055 -36.090141 -0.10831778 -36.093369 -24.686075 -121.85423
180829000 -24.482361 -129.80554 -0.1101757 -36.289074 -0.10941508 -36.28426 -24.657639 -122.034
181828000 -24.460171 -130.16768 -0.11055195 -36.487816 -0.10943843 -36.486256 -24.634964 -122.13583
182827000 -24.434721 -130.5074 -0.11032067 -36.676311 -0.11027925 -36.677841 -24.625378 -122.22552
183826000 -24.394888 -130.83508 -0.111419 -36.874645 -0.11032545 -36.872574 -24.618145 -122.31876
184825000 -24.400293 -131.13847 -0.11106817 -37.070583 -0.11033554 -37.075439 -24.603546 -122.43408
185824000 -24.371517 -131.48235 -0.11094867 -37.264164 -0.11068126 -37.270199 -24.598475 -122.46822
186823000 -24.359983 -131.83408 -0.11141209 -37.469154 -0.11099753 -37.465462 -24.59343 -122.4882
187822000 -24.33692 -132.14911 -0.11195499 -37.663437 -0.11125328 -37.663094 -24.56267 -122.52863
188821000 -24.31621 -132.41882 -0.11157888 -37.857727 -0.11186361 -37.862213 -24.549471 -122.64773
189820000 -24.301006 -132.70854 -0.11212365 -38.061317 -0.11220149 -38.058559 -24.535456 -122.81248
190819000 -24.275658 -132.92662 -0.11360399 -38.256977 -0.11300378 -38.256939 -24.507154 -122.77836
191818000 -24.237612 -133.11694 -0.11442648 -38.453068 -0.11376901 -38.453438 -24.476482 -122.64569
192817000 -24.170235 -133.40608 -0.11528315 -38.640175 -0.11442994 -38.639465 -24.401638 -122.72122
193816000 -24.128572 -133.76265 -0.11454821 -38.832165 -0.11279362 -38.831417 -24.345154 -122.99865
194815000 -24.073349 -134.19394 -0.1137722 -39.027828 -0.1134932 -39.032646 -24.281654 -123.1236
195814000 -24.022549 -134.4079 -0.11470289 -39.225647 -0.11324874 -39.226307 -24.23395 -123.23358
196813000 -23.973339 -134.76587 -0.11364731 -39.417759 -0.113697 -39.421543 -24.152748 -123.42179
197812000 -23.916208 -134.99715 -0.1146205 -39.621033 -0.114098 -39.620296 -24.085506 -123.53396
198811000 -23.864056 -135.18941 -0.11439459 -39.815876 -0.11321473 -39.814396 -24.014097 -123.68993
199810000 -23.790318 -135.56627 -0.11498836 -40.005424 -0.11382747 -40.004631 -23.938705 -123.77567
200809000 -23.73085 -135.84761 -0.11463724 -40.205627 -0.11385458 -40.205513 -23.859192 -123.99744
201808000 -23.673645 -136.04494 -0.11565239 -40.40778 -0.11498198 -40.411678 -23.789391 -124.05547
202807000 -23.620337 -136.42462 -0.1161756 -40.609253 -0.11547799 -40.610699 -23.735634 -124.271
