!Keysight Technologies,E5080B,MY59205177,A.15.75.32
!Date: Friday, February 23, 2024 03:02:32
!Correction: S11(Cdelta 2-Port  ) 
!S21(Cdelta 2-Port  ) 
!S12(Cdelta 2-Port  ) 
!S22(Cdelta 2-Port  ) 
!S2P File: Measurements: S11, S21, S12, S22:
# Hz S  dB   R 50
10000000 -44.121811 -4.1545076 -0.027112251 -2.0379858 -0.031113775 -2.0955493 -48.042492 -150.17899
10999000 -43.514553 -5.3410888 -0.02839114 -2.2577872 -0.030466193 -2.3103745 -47.761932 -142.84082
11998000 -42.753883 -7.9227071 -0.028936259 -2.4799755 -0.030595755 -2.5228016 -47.88868 -136.63287
12997000 -42.105633 -12.978528 -0.027960198 -2.6605246 -0.029852852 -2.6881754 -47.219704 -130.8907
13996000 -41.89246 -16.194696 -0.026847871 -2.8394282 -0.030330902 -2.8582375 -46.86412 -125.60342
14995000 -41.558685 -20.063559 -0.029225264 -3.0448146 -0.029323254 -3.0689025 -46.348106 -122.15187
15994000 -41.463081 -23.865416 -0.030007157 -3.2649188 -0.032412883 -3.2863479 -46.070103 -118.37955
16993000 -41.419128 -27.761179 -0.029757978 -3.4626563 -0.030954218 -3.4667401 -45.222694 -119.12289
17992000 -41.49752 -32.429169 -0.029854678 -3.6607156 -0.031598743 -3.661098 -44.596561 -120.23354
18991000 -41.774826 -37.094826 -0.030523805 -3.8711812 -0.032420967 -3.8689995 -43.891254 -119.58237
19990000 -41.614315 -41.972301 -0.033124398 -4.079596 -0.034877609 -4.0727897 -43.212856 -120.98699
20989000 -41.538399 -45.03606 -0.035027396 -4.2822437 -0.036888409 -4.2703767 -42.623631 -120.76131
21988000 -41.41087 -49.718822 -0.035477828 -4.4775977 -0.037496217 -4.4653225 -42.356709 -120.19624
22987000 -41.209042 -54.035652 -0.037410837 -4.6751747 -0.039249625 -4.6673932 -42.07513 -119.84956
23986000 -41.186451 -57.893299 -0.036525279 -4.8703675 -0.037570894 -4.8685765 -41.939217 -119.9458
24985000 -40.878479 -60.232052 -0.038263671 -5.0797286 -0.038026553 -5.073576 -41.673813 -117.12462
25984000 -40.635487 -62.550163 -0.038328435 -5.2850947 -0.038425587 -5.2857447 -41.341808 -116.27212
26983000 -40.360348 -64.467133 -0.039216191 -5.4837894 -0.039056856 -5.5016026 -41.236797 -115.44262
27982000 -40.191906 -65.201736 -0.040677372 -5.6832523 -0.040077217 -5.7174258 -40.894321 -113.76565
28981000 -40.187489 -66.49807 -0.038381189 -5.8751211 -0.04086969 -5.9044437 -40.633106 -113.12466
29980000 -39.811142 -68.241821 -0.038366564 -6.0706911 -0.041414287 -6.0792041 -40.359959 -112.31794
30979000 -39.453102 -67.454636 -0.036255628 -6.4222951 -0.035644598 -6.414824 -39.81699 -113.20331
31978000 -39.264793 -68.519646 -0.035500795 -6.6193795 -0.03628147 -6.6094699 -39.544205 -112.54952
32977000 -39.114525 -70.140686 -0.035444424 -6.831192 -0.03710014 -6.822094 -39.314915 -112.7421
33976000 -38.945629 -71.345276 -0.036483511 -7.0289397 -0.036928091 -7.0224247 -38.995159 -112.30748
34975000 -38.662933 -72.369095 -0.036458973 -7.228343 -0.038723841 -7.2304487 -38.7551 -112.18629
35974000 -38.510315 -72.952606 -0.035545945 -7.4250236 -0.038629819 -7.4238811 -38.467205 -111.23618
36973000 -38.280975 -73.819809 -0.03591891 -7.6247869 -0.039382063 -7.6268225 -38.179749 -110.40729
37972000 -38.103291 -73.620056 -0.035314977 -7.831543 -0.039191116 -7.8392515 -37.914585 -109.93201
38971000 -37.772015 -73.405624 -0.037096485 -8.032342 -0.039615333 -8.044158 -37.744408 -108.3327
39970000 -37.44104 -74.062302 -0.034804024 -8.22262 -0.03773148 -8.2440586 -37.464844 -107.83263
40969000 -37.181904 -74.043945 -0.034953546 -8.4213209 -0.037252352 -8.4373713 -37.188759 -106.58724
41968000 -36.826977 -74.100548 -0.034727044 -8.6264915 -0.037607972 -8.6414881 -37.003529 -105.6731
42967000 -36.591953 -74.452744 -0.0352192 -8.8337727 -0.037940379 -8.8538713 -36.767971 -103.77177
43966000 -36.29924 -75.269524 -0.03537735 -9.0373173 -0.040149849 -9.0559149 -36.456802 -103.19933
44965000 -36.07645 -76.172081 -0.036585581 -9.237133 -0.039699715 -9.2577095 -36.249329 -103.13551
45964000 -35.854809 -77.314377 -0.038024202 -9.4371691 -0.040763337 -9.4542427 -36.000633 -102.98329
46963000 -35.69418 -79.291954 -0.037781354 -9.6317949 -0.041641138 -9.653512 -35.837288 -103.34135
47962000 -35.548885 -80.867226 -0.039729755 -9.8325596 -0.042939737 -9.8492947 -35.650604 -103.56963
48961000 -35.344437 -82.344124 -0.041520916 -10.031485 -0.04392989 -10.050886 -35.397278 -103.9496
49960000 -35.12851 -83.759361 -0.043090586 -10.2313 -0.04486613 -10.251484 -35.253109 -103.97476
50959000 -34.923466 -85.091629 -0.043800194 -10.442268 -0.046192382 -10.45316 -35.076942 -104.37997
51958000 -34.725109 -86.163368 -0.045604806 -10.637204 -0.047671352 -10.648621 -34.905708 -104.95409
52957000 -34.527603 -87.304634 -0.047123875 -10.841731 -0.049006313 -10.846776 -34.735683 -104.76916
53956000 -34.351204 -88.013428 -0.048029132 -11.039321 -0.048918087 -11.042231 -34.604218 -104.83604
54955000 -34.202751 -88.52552 -0.049395099 -11.241204 -0.050203938 -11.236585 -34.471642 -104.88131
55954000 -34.031868 -89.429451 -0.050943781 -11.441536 -0.050474983 -11.443619 -34.336567 -104.56207
56953000 -33.930069 -89.528725 -0.049382009 -11.639581 -0.049663212 -11.624641 -34.271465 -104.83891
57952000 -33.768711 -90.095795 -0.05082304 -11.835876 -0.050390132 -11.825443 -34.178051 -104.93367
58951000 -33.660458 -90.45372 -0.051826522 -12.040354 -0.051588923 -12.018582 -34.0187 -105.02482
59950000 -33.535538 -90.775452 -0.052875828 -12.243873 -0.051784348 -12.21868 -33.951778 -105.31953
60949000 -33.43309 -91.382805 -0.052613806 -12.441924 -0.053007107 -12.420828 -33.84705 -105.63527
61948000 -33.359486 -91.681747 -0.053666707 -12.64153 -0.05202955 -12.62482 -33.758236 -105.64136
62947000 -33.291611 -91.938484 -0.053420361 -12.849063 -0.05321648 -12.831481 -33.627476 -105.93452
63946000 -33.223125 -92.649048 -0.05477754 -13.044609 -0.054091033 -13.02835 -33.522327 -106.07511
64945000 -33.108101 -92.804108 -0.054722227 -13.252193 -0.054540042 -13.231408 -33.41523 -106.64754
65944000 -33.017296 -93.137344 -0.055517901 -13.450748 -0.055024486 -13.43102 -33.318226 -107.08163
66943000 -32.871723 -93.498322 -0.053446308 -13.654114 -0.053795129 -13.631845 -33.213581 -107.32418
67942000 -32.824226 -93.516312 -0.055303171 -13.844223 -0.055184405 -13.833161 -33.10461 -107.70887
68941000 -32.716084 -93.672516 -0.054994602 -14.040322 -0.054338466 -14.030253 -32.995857 -107.70892
69940000 -32.612774 -93.656433 -0.055009805 -14.236381 -0.055319428 -14.227221 -32.849617 -108.03519
70939000 -32.513168 -93.700592 -0.054805849 -14.433644 -0.054942168 -14.428266 -32.730522 -107.90495
71938000 -32.377701 -93.320427 -0.054451179 -14.631966 -0.055320736 -14.62246 -32.587681 -107.81783
72937000 -32.218208 -93.169716 -0.054165471 -14.829316 -0.05387323 -14.819057 -32.449139 -107.49354
73936000 -32.077492 -92.870766 -0.054314353 -15.030009 -0.053762369 -15.022434 -32.338974 -107.32874
74935000 -31.953285 -93.151619 -0.053978331 -15.223911 -0.052945007 -15.220023 -32.177895 -107.07923
75934000 -31.835108 -93.428146 -0.054010045 -15.430197 -0.052688744 -15.42662 -32.092262 -107.00723
76933000 -31.702442 -93.864151 -0.054808997 -15.622034 -0.054227591 -15.617085 -31.93721 -107.35177
77932000 -31.597574 -94.61087 -0.056896191 -15.818042 -0.05597125 -15.813566 -31.825569 -107.38178
78931000 -31.53952 -95.421844 -0.054866407 -16.018217 -0.054944791 -16.013762 -31.726698 -107.29711
79930000 -31.419796 -96.204544 -0.057692785 -16.211771 -0.058008369 -16.205351 -31.629959 -107.60484
80929000 -31.296438 -97.194603 -0.058887564 -16.405729 -0.059006691 -16.404369 -31.530869 -107.92461
81928000 -31.214708 -97.9814 -0.059353072 -16.600149 -0.058983076 -16.59663 -31.416561 -108.07068
82927000 -31.117571 -98.708214 -0.060595032 -16.796112 -0.0604189 -16.792877 -31.306498 -108.38988
83926000 -31.007641 -99.479248 -0.061759621 -16.993607 -0.061456893 -16.997768 -31.19626 -108.57565
84925000 -30.909599 -99.907875 -0.062720463 -17.192293 -0.061215881 -17.189661 -31.092485 -108.63614
85924000 -30.824524 -100.3557 -0.064237386 -17.394325 -0.063479513 -17.388697 -31.023035 -108.65839
86923000 -30.718777 -100.87266 -0.064071618 -17.587088 -0.064086854 -17.588146 -30.916204 -108.63844
87922000 -30.603292 -101.26421 -0.063847534 -17.799749 -0.06328357 -17.785608 -30.823214 -108.65134
88921000 -30.534958 -101.51069 -0.064716347 -17.994207 -0.064043768 -17.990623 -30.733885 -108.62556
89920000 -30.4373 -102.09618 -0.065156467 -18.191328 -0.065091565 -18.188993 -30.677658 -108.85466
90919000 -30.340096 -102.36929 -0.066612475 -18.386906 -0.06636145 -18.382858 -30.594305 -108.99832
91918000 -30.250399 -102.78158 -0.066746533 -18.588326 -0.066022918 -18.583378 -30.523277 -109.06398
92917000 -30.161707 -103.07504 -0.067904629 -18.786259 -0.067122981 -18.783205 -30.46944 -109.15359
93916000 -30.078609 -103.50553 -0.067403227 -18.979298 -0.067297801 -18.978268 -30.377428 -109.79493
94915000 -30.007246 -104.0859 -0.069021471 -19.179689 -0.068367422 -19.177076 -30.315111 -109.68947
95914000 -29.945683 -104.33088 -0.070244096 -19.374153 -0.068997011 -19.371292 -30.234474 -109.894
96913000 -29.86046 -104.5768 -0.070703983 -19.574976 -0.069871858 -19.573215 -30.15597 -110.26112
97912000 -29.789465 -105.03731 -0.071773656 -19.765785 -0.070533231 -19.772791 -30.084316 -110.52503
98911000 -29.689165 -105.24232 -0.072131582 -19.971565 -0.071739443 -19.969522 -30.037907 -110.76771
99910000 -29.620066 -105.3966 -0.072881758 -20.168016 -0.071839713 -20.169127 -29.936543 -110.9809
100909000 -29.529121 -105.70802 -0.072495595 -20.377182 -0.071329966 -20.371151 -29.844931 -111.27467
101908000 -29.442547 -105.93884 -0.073746853 -20.578106 -0.072459541 -20.575624 -29.740578 -111.00865
102907000 -29.31657 -105.96926 -0.074184991 -20.777176 -0.072448485 -20.774876 -29.65995 -110.9733
103906000 -29.219555 -106.01015 -0.074323498 -20.981836 -0.072593518 -20.975004 -29.518801 -110.94494
104905000 -29.074089 -105.95046 -0.07495711 -21.181812 -0.07250718 -21.17828 -29.392677 -110.64548
105904000 -28.933767 -106.1139 -0.074553914 -21.382303 -0.072744079 -21.372515 -29.274635 -110.51421
106903000 -28.828228 -106.1962 -0.074966066 -21.585585 -0.072094738 -21.58283 -29.146082 -110.40769
107902000 -28.66164 -106.58032 -0.075950906 -21.787434 -0.07327953 -21.774855 -29.018074 -110.37743
108901000 -28.553829 -106.81287 -0.077528328 -21.987486 -0.074861772 -21.981581 -28.883526 -110.32689
109900000 -28.426996 -107.31946 -0.077696986 -22.187572 -0.076076038 -22.17907 -28.735626 -110.41553
110899000 -28.30872 -107.97111 -0.079043843 -22.384197 -0.076336846 -22.376816 -28.604691 -110.71024
111898000 -28.222178 -108.62185 -0.079921238 -22.58592 -0.077426344 -22.58102 -28.489435 -110.81456
112897000 -28.092564 -109.22803 -0.081063069 -22.784794 -0.077988721 -22.773657 -28.349934 -111.0401
113896000 -27.989122 -109.75629 -0.081915028 -22.98365 -0.080183074 -22.973274 -28.249422 -111.18669
114895000 -27.887268 -110.41257 -0.083369799 -23.181221 -0.081160657 -23.168531 -28.140104 -111.28263
115894000 -27.765633 -110.77147 -0.085025147 -23.382973 -0.082563996 -23.371117 -28.067804 -111.47109
116893000 -27.686375 -111.31106 -0.085521191 -23.579615 -0.082977697 -23.562639 -27.941273 -111.58014
117892000 -27.602512 -111.82543 -0.085067384 -23.773762 -0.083533406 -23.766079 -27.868031 -111.7473
118891000 -27.543442 -112.22298 -0.086372174 -23.97397 -0.083715491 -23.962168 -27.77783 -111.94068
119890000 -27.457222 -112.6173 -0.087069876 -24.176193 -0.08501301 -24.158655 -27.759098 -112.09129
120889000 -27.407133 -113.09228 -0.088172376 -24.376259 -0.08473637 -24.363455 -27.686636 -112.07774
121888000 -27.363819 -113.43749 -0.08827699 -24.574448 -0.085265376 -24.557158 -27.632059 -112.29581
122887000 -27.321804 -113.592 -0.088717125 -24.77244 -0.086357385 -24.758957 -27.579676 -112.35561
123886000 -27.2731 -114.03908 -0.089948483 -24.973047 -0.086697504 -24.960741 -27.566 -112.52272
124885000 -27.239523 -114.55937 -0.089846469 -25.174412 -0.086512916 -25.160868 -27.536026 -112.61179
125884000 -27.182131 -114.74619 -0.090676889 -25.369368 -0.086890288 -25.356142 -27.506645 -112.80956
126883000 -27.163662 -115.0935 -0.09046755 -25.577427 -0.087999344 -25.561863 -27.467493 -112.8221
127882000 -27.113728 -115.36833 -0.090801649 -25.7742 -0.088248193 -25.756002 -27.431377 -113.01456
128881000 -27.081089 -115.76781 -0.090902627 -25.974255 -0.087813385 -25.956179 -27.384735 -113.08254
129880000 -27.02981 -116.08338 -0.092182986 -26.178503 -0.088121653 -26.158674 -27.344824 -113.07113
130879000 -26.97579 -116.22596 -0.091180183 -26.376518 -0.089236051 -26.362446 -27.267353 -113.14143
131878000 -26.901581 -116.45763 -0.091523327 -26.578096 -0.08945854 -26.561676 -27.206533 -113.06609
132877000 -26.839628 -116.54046 -0.091399871 -26.777767 -0.089394063 -26.759893 -27.123024 -113.06329
133876000 -26.752861 -116.74093 -0.092032805 -26.977827 -0.089478619 -26.963881 -27.036375 -112.98373
134875000 -26.657829 -116.80397 -0.092104457 -27.177162 -0.090507463 -27.162996 -26.933432 -112.87012
135874000 -26.573853 -116.85432 -0.09175545 -27.376442 -0.09001746 -27.366859 -26.831314 -112.81665
136873000 -26.464668 -116.78899 -0.092817359 -27.582167 -0.090174176 -27.559954 -26.750242 -112.82263
137872000 -26.390982 -116.89964 -0.09272401 -27.785769 -0.089924961 -27.766827 -26.643023 -112.77178
138871000 -26.314688 -117.07115 -0.093131542 -27.981812 -0.09014722 -27.969315 -26.542805 -112.96033
139870000 -26.217556 -117.33208 -0.094172619 -28.182915 -0.091887116 -28.16815 -26.469206 -113.0867
140869000 -26.125523 -117.83948 -0.095576994 -28.378418 -0.092205197 -28.3571 -26.360783 -113.2616
141868000 -26.032455 -118.32243 -0.095625684 -28.569475 -0.093288109 -28.553038 -26.291349 -113.55116
142867000 -25.960949 -118.53713 -0.094357006 -28.76873 -0.092240632 -28.752399 -26.210506 -113.77888
143866000 -25.886728 -119.02217 -0.096861914 -28.963533 -0.093685381 -28.946102 -26.13726 -114.23735
144865000 -25.827858 -119.5862 -0.097567655 -29.162331 -0.094689816 -29.147284 -26.079399 -114.58688
145864000 -25.776886 -119.90911 -0.098169722 -29.366249 -0.096270882 -29.353651 -26.045376 -114.8308
146863000 -25.725653 -120.24167 -0.098271392 -29.56246 -0.096577637 -29.548136 -25.994852 -115.15311
147862000 -25.682175 -120.65077 -0.09976583 -29.760054 -0.097016238 -29.747301 -25.953878 -115.48409
148861000 -25.657547 -121.14652 -0.09952718 -29.953979 -0.096891828 -29.943344 -25.93634 -115.71854
149860000 -25.640413 -121.32455 -0.10045085 -30.152428 -0.097686 -30.146444 -25.904016 -115.90573
150859000 -25.617701 -121.73302 -0.10061404 -30.357496 -0.098316677 -30.338745 -25.896744 -116.09881
151858000 -25.601418 -121.99648 -0.10013296 -30.554134 -0.098322496 -30.540789 -25.881159 -116.40235
152857000 -25.586897 -122.34734 -0.10074863 -30.749538 -0.098835155 -30.739021 -25.866642 -116.54179
153856000 -25.580816 -122.53463 -0.10041933 -30.94981 -0.097574279 -30.93763 -25.885094 -116.85879
154855000 -25.570116 -122.73265 -0.10145129 -31.150595 -0.0986294 -31.132986 -25.87253 -117.09885
155854000 -25.585012 -122.99236 -0.10120805 -31.346983 -0.098304495 -31.336525 -25.862164 -117.34512
156853000 -25.567692 -123.68273 -0.099583596 -31.536947 -0.097882181 -31.525951 -25.858467 -117.67024
157852000 -25.57089 -123.88139 -0.10027839 -31.735935 -0.099652201 -31.728487 -25.851954 -117.97919
158851000 -25.567585 -124.12759 -0.10086467 -31.935015 -0.10049164 -31.926258 -25.831457 -118.23944
159850000 -25.554531 -124.26497 -0.1014346 -32.131981 -0.099683717 -32.125599 -25.833141 -118.41486
160849000 -25.535614 -124.37476 -0.10195848 -32.329178 -0.10107981 -32.325321 -25.806221 -118.68916
161848000 -25.517879 -124.50905 -0.10192854 -32.527931 -0.10037773 -32.525013 -25.765059 -118.78088
162847000 -25.471283 -124.68002 -0.10189303 -32.727486 -0.10118844 -32.726578 -25.730814 -119.08416
163846000 -25.433729 -124.94882 -0.10159173 -32.929447 -0.10109942 -32.925198 -25.647312 -119.0463
164845000 -25.371582 -124.91072 -0.10255109 -33.127831 -0.10196432 -33.121372 -25.587568 -119.17475
165844000 -25.318424 -125.01774 -0.10253359 -33.326389 -0.10235761 -33.318008 -25.510002 -119.2914
166843000 -25.254438 -125.08517 -0.10318644 -33.522537 -0.10111955 -33.52142 -25.436466 -119.44742
167842000 -25.197643 -125.21969 -0.10267539 -33.72271 -0.10165957 -33.71859 -25.359753 -119.4052
168841000 -25.118744 -125.41152 -0.10316551 -33.921276 -0.10111531 -33.920025 -25.282661 -119.49643
169840000 -25.057568 -125.69443 -0.10363101 -34.116734 -0.10260674 -34.115532 -25.193644 -119.68759
170839000 -24.994705 -125.9502 -0.1044593 -34.314289 -0.10286757 -34.3092 -25.109724 -119.88174
171838000 -24.937628 -126.38499 -0.10427024 -34.515816 -0.10345498 -34.51054 -25.046925 -120.09333
172837000 -24.868587 -126.74639 -0.10593066 -34.711906 -0.10463219 -34.702404 -24.974813 -120.31879
173836000 -24.798351 -127.15343 -0.10688302 -34.906918 -0.10534503 -34.907635 -24.932045 -120.56962
174835000 -24.743937 -127.58307 -0.10713242 -35.103359 -0.1062564 -35.106369 -24.88957 -120.89974
175834000 -24.691439 -127.9752 -0.10802082 -35.302444 -0.10726031 -35.297211 -24.826632 -121.16218
176833000 -24.639439 -128.35284 -0.10868219 -35.501347 -0.10766628 -35.499058 -24.775114 -121.31659
177832000 -24.594446 -128.82246 -0.10904583 -35.695599 -0.10797384 -35.698597 -24.75177 -121.53804
178831000 -24.560499 -129.19405 -0.10940234 -35.89489 -0.10856806 -35.887291 -24.715237 -121.73656
179830000 -24.522886 -129.61148 -0.11026704 -36.088692 -0.10943074 -36.093105 -24.690754 -121.84481
180829000 -24.48246 -129.81589 -0.11106419 -36.288155 -0.1094472 -36.289764 -24.657536 -122.03242
181828000 -24.461315 -130.1572 -0.1105145 -36.483322 -0.11007534 -36.480713 -24.638565 -122.14845
182827000 -24.432978 -130.51068 -0.11046512 -36.678211 -0.10899752 -36.676514 -24.626951 -122.209
183826000 -24.394215 -130.82729 -0.11171594 -36.876614 -0.11052433 -36.874897 -24.61466 -122.34113
184825000 -24.398117 -131.16183 -0.11181819 -37.0746 -0.11082519 -37.073864 -24.600758 -122.4706
185824000 -24.370625 -131.52583 -0.11149442 -37.267185 -0.11094841 -37.270336 -24.59831 -122.48614
186823000 -24.359726 -131.86125 -0.11234546 -37.470654 -0.11114705 -37.464371 -24.595913 -122.48029
187822000 -24.337158 -132.17563 -0.11243233 -37.66153 -0.11120281 -37.661064 -24.563478 -122.55087
188821000 -24.320251 -132.41885 -0.11210188 -37.856544 -0.1118413 -37.864071 -24.542152 -122.64657
189820000 -24.300611 -132.68146 -0.11246049 -38.059231 -0.11156082 -38.059254 -24.538193 -122.81268
190819000 -24.274429 -132.96214 -0.11409481 -38.260616 -0.11313104 -38.258598 -24.505869 -122.75887
191818000 -24.242176 -133.11629 -0.11488735 -38.451389 -0.11413307 -38.451527 -24.474138 -122.67242
192817000 -24.168077 -133.40643 -0.11512551 -38.637539 -0.11480124 -38.638912 -24.400627 -122.75404
193816000 -24.131643 -133.75078 -0.11428775 -38.830933 -0.11412086 -38.831516 -24.341761 -122.9872
194815000 -24.0711 -134.19725 -0.11490914 -39.026302 -0.11435605 -39.028339 -24.279976 -123.13017
195814000 -24.023247 -134.44823 -0.11512711 -39.22456 -0.11366645 -39.228065 -24.231775 -123.22385
196813000 -23.97135 -134.78204 -0.11448841 -39.419472 -0.11371268 -39.419319 -24.150402 -123.41472
197812000 -23.913414 -134.98602 -0.11474223 -39.619862 -0.1144318 -39.621719 -24.081602 -123.47757
198811000 -23.860876 -135.1927 -0.11489479 -39.816334 -0.11387318 -39.813686 -24.013607 -123.68816
199810000 -23.792484 -135.5713 -0.11508192 -40.009369 -0.11409747 -40.00629 -23.939735 -123.78387
200809000 -23.737368 -135.83546 -0.11476509 -40.208839 -0.11427712 -40.207359 -23.857513 -123.98344
201808000 -23.672396 -136.06628 -0.11568003 -40.405296 -0.11527171 -40.406979 -23.786837 -124.0464
202807000 -23.616274 -136.43918 -0.11658667 -40.605736 -0.11555137 -40.609753 -23.735409 -124.27679
203806000 -23.559994 -136.87798 -0.11820073 -40.807884 -0.11604958 -40.804596 -23.67251 -124.4472
