!Keysight Technologies,E5080B,MY59205177,A.15.75.32
!Date: Friday, February 23, 2024 03:40:46
!Correction: S11(Cdelta 2-Port  ) 
!S21(Cdelta 2-Port  ) 
!S12(Cdelta 2-Port  ) 
!S22(Cdelta 2-Port  ) 
!S2P File: Measurements: S11, S21, S12, S22:
# Hz S  dB   R 50
10000000 -46.108994 -2.8088722 -0.014302484 -2.0420649 -0.017910365 -2.0994623 -45.929653 -157.62137
10999000 -45.324623 -4.4817877 -0.015657362 -2.2586088 -0.017852141 -2.3149641 -45.82991 -151.04089
11998000 -44.410152 -7.8135095 -0.015713478 -2.4860473 -0.017933758 -2.5284383 -45.986771 -146.63687
12997000 -43.601376 -13.434054 -0.015267427 -2.6672716 -0.017723219 -2.6986866 -45.615818 -141.28282
13996000 -43.283146 -17.35268 -0.013887222 -2.8461845 -0.017704505 -2.868017 -45.385517 -136.11732
14995000 -42.886307 -21.701349 -0.017201595 -3.054991 -0.017339857 -3.0798705 -45.083782 -132.80345
15994000 -42.707253 -26.403057 -0.017807433 -3.2746677 -0.019645741 -3.2969215 -44.995884 -129.47696
16993000 -42.717865 -30.952402 -0.016872332 -3.4698389 -0.019083066 -3.480962 -44.151497 -128.71425
17992000 -42.675949 -36.360516 -0.017733356 -3.6699853 -0.020289632 -3.6712246 -43.534771 -129.0173
18991000 -42.978878 -41.875111 -0.01846171 -3.8808558 -0.020647764 -3.8767719 -42.912018 -127.96224
19990000 -42.716209 -47.369469 -0.019843891 -4.0900836 -0.022979608 -4.0861969 -42.230263 -129.10977
20989000 -42.568214 -50.793377 -0.022332976 -4.2932734 -0.024476204 -4.2857194 -41.700218 -128.19998
21988000 -42.338398 -56.238949 -0.023308294 -4.4922853 -0.025074728 -4.4807243 -41.423424 -127.33926
22987000 -42.030762 -60.698349 -0.024289558 -4.6875105 -0.026014725 -4.677793 -41.189907 -127.05197
23986000 -41.932228 -64.936508 -0.024107864 -4.8839788 -0.024920337 -4.8816376 -41.05843 -126.89375
24985000 -41.525394 -67.563179 -0.024240358 -5.0942235 -0.025444973 -5.0912218 -40.84021 -124.41742
25984000 -41.148106 -69.781021 -0.025663178 -5.2987552 -0.026465787 -5.3017545 -40.494404 -122.84226
26983000 -40.894333 -71.789337 -0.027382638 -5.5001035 -0.026645755 -5.5142293 -40.403233 -122.27435
27982000 -40.670494 -72.666763 -0.028094895 -5.6967692 -0.028453153 -5.7338114 -40.13694 -120.72305
28981000 -40.693718 -74.004707 -0.025971755 -5.8945432 -0.0284099 -5.9216909 -39.89872 -120.05776
29980000 -40.24469 -75.489586 -0.025979048 -6.0897322 -0.029444441 -6.0966711 -39.587933 -119.22844
30979000 -39.858955 -74.318123 -0.02415628 -6.4432755 -0.023681773 -6.4285469 -39.103363 -119.45451
31978000 -39.672302 -75.330589 -0.023130285 -6.6332011 -0.024774024 -6.6278968 -38.868805 -118.74664
32977000 -39.45401 -76.831871 -0.023160733 -6.8461246 -0.025424143 -6.8431635 -38.633175 -118.70917
33976000 -39.276512 -78.080994 -0.023604471 -7.0512075 -0.025608495 -7.0440722 -38.338715 -118.26153
34975000 -38.96994 -78.675819 -0.024046173 -7.2496166 -0.026687948 -7.2502494 -38.108036 -117.83341
35974000 -38.775463 -79.110764 -0.022829715 -7.4445834 -0.026226446 -7.4433641 -37.835716 -116.95195
36973000 -38.557465 -79.914955 -0.023214603 -7.6451368 -0.026933566 -7.6481385 -37.591854 -116.03261
37972000 -38.421104 -79.670876 -0.023107383 -7.8566794 -0.02676296 -7.8653145 -37.359673 -115.15106
38971000 -38.080208 -79.086571 -0.024557685 -8.0538301 -0.027599638 -8.0656271 -37.206284 -113.79266
39970000 -37.747345 -79.548553 -0.021940881 -8.2464828 -0.025770722 -8.2673578 -36.938297 -113.03197
40969000 -37.460545 -79.154427 -0.022516677 -8.447896 -0.025765775 -8.4686785 -36.698315 -111.62157
41968000 -37.113037 -78.875595 -0.022692319 -8.6524963 -0.02613035 -8.6657658 -36.535088 -110.45747
42967000 -36.868843 -79.024002 -0.021924751 -8.8610687 -0.026568402 -8.8831434 -36.335281 -108.71956
43966000 -36.571327 -79.742172 -0.023877503 -9.058568 -0.027257862 -9.0803537 -36.066063 -107.86553
44965000 -36.333931 -80.484604 -0.023965221 -9.2629843 -0.027700977 -9.2890015 -35.846443 -107.64773
45964000 -36.120163 -81.558601 -0.02483182 -9.4645128 -0.028549822 -9.4850435 -35.638298 -107.38664
46963000 -35.898048 -83.458282 -0.025503298 -9.6619835 -0.029164804 -9.6812611 -35.458462 -107.5808
47962000 -35.738293 -84.820694 -0.026824169 -9.8629971 -0.030265212 -9.8768082 -35.262047 -107.71116
48961000 -35.522007 -86.120872 -0.028943036 -10.059799 -0.031779185 -10.079202 -35.019142 -107.75771
49960000 -35.296188 -87.471474 -0.029866146 -10.257488 -0.032658301 -10.280984 -34.899933 -107.81138
50959000 -35.075565 -88.736687 -0.030577507 -10.469744 -0.034425151 -10.48078 -34.722919 -108.13833
51958000 -34.854652 -89.792145 -0.03275454 -10.669959 -0.035444945 -10.680554 -34.525646 -108.6076
52957000 -34.644089 -90.81308 -0.033925258 -10.870093 -0.03676362 -10.877512 -34.387581 -108.37701
53956000 -34.481976 -91.568871 -0.035161529 -11.073468 -0.037255485 -11.073468 -34.248043 -108.33059
54955000 -34.309849 -91.949875 -0.036595762 -11.274934 -0.038323998 -11.270765 -34.081711 -108.27982
55954000 -34.131046 -92.773491 -0.037618939 -11.472836 -0.03865489 -11.470393 -33.985466 -108.01728
56953000 -34.004486 -92.840172 -0.037212666 -11.67109 -0.037578728 -11.660986 -33.914631 -108.21674
57952000 -33.847672 -93.514908 -0.038071208 -11.868417 -0.039283846 -11.857154 -33.80798 -108.347
58951000 -33.71965 -93.781143 -0.03828587 -12.075191 -0.039888591 -12.057032 -33.648369 -108.45986
59950000 -33.598862 -94.152534 -0.039441098 -12.275972 -0.040196352 -12.254645 -33.580524 -108.71026
60949000 -33.482334 -94.649109 -0.040203407 -12.478579 -0.040881187 -12.456621 -33.471363 -108.90871
61948000 -33.411629 -95.042702 -0.04050675 -12.673581 -0.040828925 -12.658805 -33.38665 -108.98448
62947000 -33.324074 -95.249931 -0.040990938 -12.887267 -0.041082922 -12.868129 -33.245361 -109.27393
63946000 -33.247639 -95.976669 -0.041871395 -13.086869 -0.042916991 -13.065469 -33.139832 -109.45429
64945000 -33.148232 -96.172859 -0.042421609 -13.286446 -0.043180261 -13.267851 -33.021732 -109.87328
65944000 -33.039181 -96.3629 -0.042937383 -13.485352 -0.043393344 -13.469751 -32.925434 -110.28394
66943000 -32.896431 -96.863312 -0.041703079 -13.688457 -0.042472322 -13.668606 -32.824829 -110.6065
67942000 -32.838196 -96.738304 -0.042728767 -13.887321 -0.04354604 -13.872974 -32.69809 -110.91365
68941000 -32.719528 -96.852524 -0.042850066 -14.07706 -0.043266799 -14.069505 -32.593292 -110.81728
69940000 -32.625217 -96.814667 -0.042949408 -14.27632 -0.043759402 -14.269393 -32.441547 -111.15707
70939000 -32.5257 -96.801132 -0.04310235 -14.470426 -0.043030191 -14.467957 -32.314247 -111.02058
71938000 -32.384205 -96.360115 -0.041911907 -14.671595 -0.043449298 -14.663226 -32.182137 -110.85835
72937000 -32.234215 -96.200653 -0.042403311 -14.868216 -0.042797521 -14.863444 -32.044525 -110.53922
73936000 -32.096439 -95.800491 -0.04182069 -15.068384 -0.042668115 -15.061684 -31.937923 -110.37264
74935000 -31.972616 -96.00531 -0.041444864 -15.262722 -0.041469954 -15.260748 -31.78233 -110.06746
75934000 -31.847542 -96.303719 -0.041092589 -15.473727 -0.040898956 -15.46864 -31.697029 -109.94139
76933000 -31.714823 -96.67466 -0.042293262 -15.662329 -0.042327765 -15.657578 -31.52825 -110.25957
77932000 -31.605967 -97.409027 -0.043470997 -15.863367 -0.044583667 -15.857455 -31.438351 -110.23749
78931000 -31.533525 -98.121841 -0.04192942 -16.064791 -0.043561205 -16.058256 -31.337328 -110.05424
79930000 -31.430521 -98.9189 -0.044766221 -16.256359 -0.045796555 -16.254576 -31.230377 -110.40848
80929000 -31.313807 -99.778404 -0.046145286 -16.453117 -0.047548085 -16.450384 -31.140051 -110.65544
81928000 -31.206493 -100.50719 -0.046456371 -16.646709 -0.048086453 -16.643559 -31.017754 -110.58133
82927000 -31.111607 -101.24278 -0.048768345 -16.842686 -0.048831172 -16.8398 -30.900089 -110.92789
83926000 -30.995489 -101.87868 -0.049581256 -17.039957 -0.049747787 -17.042095 -30.788921 -111.069
84925000 -30.884583 -102.32249 -0.050466862 -17.241613 -0.050397728 -17.23723 -30.695915 -111.15076
85924000 -30.804094 -102.71297 -0.051583163 -17.441618 -0.051864509 -17.437872 -30.605495 -111.123
86923000 -30.693832 -103.1689 -0.051296856 -17.635443 -0.051606476 -17.633329 -30.509916 -111.00682
87922000 -30.58408 -103.58771 -0.051157508 -17.842646 -0.051449567 -17.835627 -30.420713 -111.04237
88921000 -30.519268 -103.8243 -0.052945007 -18.041454 -0.052253552 -18.04191 -30.327091 -110.9777
89920000 -30.409016 -104.36103 -0.05339573 -18.239349 -0.051571637 -18.237963 -30.280378 -111.15469
90919000 -30.310387 -104.63094 -0.05420243 -18.437777 -0.054284472 -18.434433 -30.19059 -111.35863
91918000 -30.207552 -104.94762 -0.054031014 -18.637835 -0.053945567 -18.63472 -30.122076 -111.34446
92917000 -30.124313 -105.26525 -0.055292424 -18.84127 -0.055414338 -18.833616 -30.055754 -111.4324
93916000 -30.033045 -105.52744 -0.055091076 -19.031918 -0.05523422 -19.028765 -29.964409 -112.08173
94915000 -29.952614 -106.2373 -0.056821443 -19.232143 -0.056280155 -19.227316 -29.909935 -111.94502
95914000 -29.884413 -106.39658 -0.057575006 -19.42909 -0.057122275 -19.425531 -29.817604 -112.18665
96913000 -29.805561 -106.6809 -0.058737215 -19.627993 -0.058461718 -19.628601 -29.752405 -112.54311
97912000 -29.727812 -107.11605 -0.059733339 -19.823307 -0.058106225 -19.823439 -29.672848 -112.81371
98911000 -29.620871 -107.27073 -0.059945401 -20.026566 -0.059647784 -20.024824 -29.628162 -112.94679
99910000 -29.549314 -107.40344 -0.060719982 -20.2248 -0.059748825 -20.223213 -29.519188 -113.28155
100909000 -29.468321 -107.64399 -0.059827033 -20.433205 -0.059156001 -20.429766 -29.440145 -113.44627
101908000 -29.365108 -107.87652 -0.061568741 -20.634296 -0.060304455 -20.631096 -29.328411 -113.26865
102907000 -29.240408 -107.85748 -0.061828416 -20.837099 -0.060819209 -20.833212 -29.253632 -113.24586
103906000 -29.143757 -107.87856 -0.061418299 -21.042938 -0.060356166 -21.032112 -29.113194 -113.21824
104905000 -28.995628 -107.80376 -0.062684745 -21.236752 -0.060411286 -21.239012 -28.984852 -112.89339
105904000 -28.858421 -107.84622 -0.062977582 -21.438738 -0.060561955 -21.434601 -28.875025 -112.76797
106903000 -28.751564 -107.93451 -0.06280949 -21.644842 -0.061692931 -21.639204 -28.75392 -112.61507
107902000 -28.581188 -108.26532 -0.06328252 -21.847563 -0.061410159 -21.839306 -28.615814 -112.62718
108901000 -28.475866 -108.46849 -0.064524025 -22.045368 -0.063253097 -22.039368 -28.491236 -112.55177
109900000 -28.350077 -108.92279 -0.065884672 -22.248318 -0.06379132 -22.239304 -28.34244 -112.62505
110899000 -28.2363 -109.55785 -0.067006253 -22.446129 -0.064660385 -22.440634 -28.22654 -112.88667
111898000 -28.147127 -110.18279 -0.068200707 -22.647497 -0.066217937 -22.641392 -28.095547 -113.022
112897000 -28.016081 -110.72272 -0.069781363 -22.845591 -0.067726359 -22.834068 -27.968817 -113.17023
113896000 -27.916548 -111.32154 -0.070791073 -23.046873 -0.068524942 -23.034857 -27.860029 -113.33365
114895000 -27.808979 -111.96035 -0.072010778 -23.244329 -0.070159651 -23.231668 -27.754091 -113.42485
115894000 -27.688745 -112.29322 -0.072756454 -23.448063 -0.071010783 -23.434383 -27.68685 -113.59476
116893000 -27.611139 -112.78041 -0.073381148 -23.64344 -0.071401544 -23.628819 -27.552715 -113.66755
117892000 -27.52384 -113.25394 -0.07378608 -23.84144 -0.072336622 -23.827909 -27.481905 -113.86221
118891000 -27.476011 -113.68783 -0.073773175 -24.039579 -0.072401367 -24.027809 -27.385439 -113.94308
119890000 -27.382511 -114.07574 -0.074174725 -24.23999 -0.073875077 -24.226326 -27.379366 -114.12878
120889000 -27.332201 -114.55128 -0.075772837 -24.439819 -0.073985137 -24.427536 -27.30337 -114.08723
121888000 -27.290226 -114.86601 -0.07603547 -24.637127 -0.074105203 -24.628895 -27.244667 -114.31579
122887000 -27.25165 -115.08054 -0.077204995 -24.84058 -0.074499935 -24.830038 -27.198027 -114.3111
123886000 -27.200748 -115.47848 -0.077186286 -25.04524 -0.074937098 -25.027121 -27.185226 -114.50637
124885000 -27.165257 -115.99485 -0.077812411 -25.240656 -0.075470708 -25.230976 -27.15464 -114.52757
125884000 -27.113871 -116.13834 -0.078546166 -25.441391 -0.075654827 -25.428268 -27.126217 -114.71082
126883000 -27.090557 -116.54691 -0.079198062 -25.648325 -0.076009914 -25.630781 -27.088972 -114.70273
127882000 -27.043552 -116.86559 -0.079276882 -25.84433 -0.076727033 -25.828413 -27.04088 -114.8507
128881000 -27.019245 -117.14512 -0.078924432 -26.047644 -0.077026613 -26.028244 -27.002235 -114.90956
129880000 -26.960968 -117.52261 -0.080096059 -26.246593 -0.076755218 -26.229528 -26.961306 -114.8698
130879000 -26.898762 -117.64806 -0.079891972 -26.447552 -0.077916779 -26.432911 -26.900793 -114.90056
131878000 -26.836535 -117.8926 -0.080210231 -26.649027 -0.077917829 -26.631784 -26.83321 -114.78851
132877000 -26.766748 -117.9314 -0.079471186 -26.85391 -0.078383543 -26.834526 -26.755152 -114.7476
133876000 -26.686394 -118.09773 -0.080606036 -27.052355 -0.077549413 -27.035866 -26.666885 -114.62646
134875000 -26.590803 -118.22543 -0.080969974 -27.248657 -0.07849846 -27.235584 -26.567842 -114.47236
135874000 -26.50675 -118.24952 -0.080357373 -27.450733 -0.078314483 -27.43586 -26.477205 -114.41222
136873000 -26.401432 -118.19055 -0.081068344 -27.658077 -0.078074381 -27.641499 -26.395313 -114.35115
137872000 -26.320076 -118.33689 -0.080608152 -27.856253 -0.078324236 -27.845932 -26.296434 -114.29844
138871000 -26.250566 -118.51419 -0.081478216 -28.053949 -0.079037257 -28.040319 -26.196737 -114.43509
139870000 -26.15114 -118.77729 -0.08189366 -28.254103 -0.079630427 -28.237228 -26.118282 -114.60342
140869000 -26.072304 -119.33595 -0.082680874 -28.452236 -0.080238178 -28.434828 -26.020203 -114.81754
141868000 -25.9942 -119.73465 -0.083669044 -28.654119 -0.08175306 -28.63792 -25.972717 -115.06131
142867000 -25.915319 -119.91884 -0.082502522 -28.852102 -0.081043027 -28.834787 -25.894941 -115.1516
143866000 -25.840481 -120.4132 -0.084258892 -29.045799 -0.081975698 -29.030436 -25.825224 -115.63902
144865000 -25.787365 -120.89371 -0.0860532 -29.24633 -0.083190896 -29.231567 -25.765368 -115.97301
145864000 -25.731979 -121.20796 -0.086240411 -29.445391 -0.084952556 -29.43495 -25.733047 -116.18238
146863000 -25.68598 -121.60595 -0.087291457 -29.647274 -0.084600694 -29.638506 -25.68239 -116.50823
147862000 -25.647415 -121.93771 -0.087896854 -29.843321 -0.086165681 -29.831865 -25.655899 -116.80501
148861000 -25.614159 -122.36726 -0.08822415 -30.043558 -0.086893983 -30.027916 -25.626013 -116.97018
149860000 -25.577991 -122.54892 -0.088830471 -30.235909 -0.087418504 -30.226093 -25.579985 -117.07998
150859000 -25.558788 -123.0174 -0.089511387 -30.43166 -0.087301232 -30.422083 -25.557726 -117.39636
151858000 -25.545147 -123.37169 -0.088814877 -30.635086 -0.087178156 -30.618851 -25.547258 -117.78271
152857000 -25.532064 -123.68095 -0.089047916 -30.831867 -0.087377295 -30.81848 -25.525549 -117.93733
153856000 -25.525694 -123.91972 -0.088199317 -31.033108 -0.086741343 -31.016249 -25.54882 -118.26086
154855000 -25.525066 -124.08485 -0.08903259 -31.23119 -0.087530494 -31.219536 -25.534382 -118.53387
155854000 -25.542597 -124.33644 -0.089543097 -31.431759 -0.087622412 -31.418007 -25.525858 -118.79882
156853000 -25.529848 -125.03018 -0.086726025 -31.618332 -0.086919077 -31.609037 -25.526386 -119.11224
157852000 -25.535414 -125.23439 -0.088943288 -31.821138 -0.088319786 -31.810299 -25.506083 -119.46375
158851000 -25.532137 -125.43653 -0.089919411 -32.018959 -0.088506825 -32.009468 -25.492193 -119.70782
159850000 -25.520399 -125.54986 -0.090311609 -32.216595 -0.08879295 -32.208324 -25.49555 -119.86932
160849000 -25.50281 -125.62772 -0.09014035 -32.417435 -0.089278854 -32.412338 -25.462839 -120.18912
161848000 -25.484783 -125.71271 -0.090623759 -32.620659 -0.089378469 -32.611729 -25.422043 -120.29358
162847000 -25.445608 -125.89542 -0.089950591 -32.817982 -0.089967772 -32.8092 -25.396023 -120.54159
163846000 -25.405277 -126.12629 -0.090199023 -33.022743 -0.089753978 -33.007771 -25.316898 -120.56571
164845000 -25.349737 -126.06178 -0.090963423 -33.215828 -0.09059231 -33.211739 -25.260132 -120.65353
165844000 -25.302191 -126.07504 -0.09112414 -33.416527 -0.090919539 -33.409828 -25.180714 -120.78354
166843000 -25.238817 -126.15858 -0.090901569 -33.614147 -0.090868264 -33.612606 -25.11352 -120.93632
167842000 -25.177717 -126.22379 -0.091448247 -33.815159 -0.091159038 -33.80801 -25.039574 -120.81819
168841000 -25.100239 -126.41403 -0.091364175 -34.014496 -0.091077618 -34.016186 -24.965218 -120.94354
169840000 -25.036991 -126.66601 -0.091879979 -34.210148 -0.092093617 -34.206661 -24.876551 -121.09789
170839000 -24.973946 -126.88627 -0.092204936 -34.408306 -0.091660276 -34.401993 -24.79426 -121.28009
171838000 -24.916542 -127.2607 -0.092661604 -34.608654 -0.092904367 -34.604797 -24.734846 -121.50676
172837000 -24.845901 -127.62495 -0.093522444 -34.806801 -0.093919203 -34.800194 -24.66781 -121.6928
173836000 -24.781975 -127.98379 -0.095150977 -35.003101 -0.094805434 -35.004414 -24.623711 -121.92702
174835000 -24.73027 -128.40642 -0.095302328 -35.200623 -0.095801927 -35.203648 -24.583933 -122.215
175834000 -24.679697 -128.76653 -0.096610725 -35.404667 -0.096540317 -35.399227 -24.527075 -122.5054
176833000 -24.627306 -129.10658 -0.097563423 -35.601826 -0.097154416 -35.601704 -24.478081 -122.6093
177832000 -24.585186 -129.52786 -0.098761007 -35.797852 -0.098279074 -35.799633 -24.459597 -122.74751
178831000 -24.536207 -129.76173 -0.099906743 -35.997211 -0.099318743 -35.994568 -24.415443 -122.78741
179830000 -24.466063 -130.17082 -0.10087394 -36.181671 -0.10022806 -36.18354 -24.355946 -122.89526
180829000 -24.417816 -130.52316 -0.099676564 -36.373291 -0.099357411 -36.376518 -24.310717 -123.22826
181828000 -24.391209 -130.96959 -0.098539367 -36.57185 -0.099240348 -36.569881 -24.294317 -123.43584
182827000 -24.372631 -131.33115 -0.09868183 -36.770077 -0.099928461 -36.77129 -24.279737 -123.5312
183826000 -24.328218 -131.65503 -0.10058808 -36.972172 -0.099268951 -36.9692 -24.270134 -123.69768
184825000 -24.333004 -131.97449 -0.09979973 -37.164318 -0.09865164 -37.166698 -24.251116 -123.81268
185824000 -24.303465 -132.35144 -0.099688485 -37.362999 -0.099724509 -37.362286 -24.245611 -123.86257
186823000 -24.287781 -132.72218 -0.10015971 -37.563065 -0.099453285 -37.562157 -24.240761 -123.88567
187822000 -24.269211 -133.06079 -0.10075022 -37.755177 -0.10062782 -37.75613 -24.199898 -123.99826
188821000 -24.245626 -133.306 -0.10048211 -37.955601 -0.10025852 -37.959995 -24.179401 -124.11138
189820000 -24.225681 -133.62712 -0.10062305 -38.154144 -0.10046303 -38.153027 -24.162998 -124.33283
190819000 -24.191633 -133.92435 -0.10133682 -38.351402 -0.10110259 -38.350048 -24.12804 -124.34861
191818000 -24.164381 -134.21616 -0.10167388 -38.550133 -0.10151064 -38.548492 -24.099474 -124.38432
192817000 -24.11684 -134.46045 -0.1016495 -38.746033 -0.10190389 -38.745857 -24.055731 -124.48171
193816000 -24.086386 -134.73595 -0.10208304 -38.938557 -0.10130715 -38.941711 -24.005026 -124.62229
194815000 -24.023869 -135.13641 -0.10194842 -39.135414 -0.102369 -39.137333 -23.939884 -124.68476
195814000 -23.972221 -135.33549 -0.10264306 -39.334042 -0.10226034 -39.338081 -23.882929 -124.74578
196813000 -23.917212 -135.65842 -0.10251133 -39.529285 -0.1019887 -39.533772 -23.80575 -124.91644
197812000 -23.85874 -135.86644 -0.10255056 -39.728439 -0.10231069 -39.722919 -23.736059 -124.99805
198811000 -23.803619 -136.02333 -0.10318326 -39.918419 -0.10238623 -39.927776 -23.671053 -125.13528
199810000 -23.735197 -136.36063 -0.10348415 -40.119694 -0.10237139 -40.112602 -23.590567 -125.22672
200809000 -23.677402 -136.61029 -0.10269898 -40.314091 -0.10266241 -40.314037 -23.514462 -125.42081
201808000 -23.620792 -136.80191 -0.10473216 -40.51556 -0.1040934 -40.517635 -23.447308 -125.48492
202807000 -23.565727 -137.1768 -0.10455529 -40.716228 -0.10470325 -40.720856 -23.396666 -125.67824
