!Keysight Technologies,E5080B,MY59205177,A.15.75.32
!Date: Friday, February 23, 2024 03:02:38
!Correction: S11(Cdelta 2-Port  ) 
!S21(Cdelta 2-Port  ) 
!S12(Cdelta 2-Port  ) 
!S22(Cdelta 2-Port  ) 
!S2P File: Measurements: S11, S21, S12, S22:
# Hz S  dB   R 50
10000000 -44.178875 -3.6024642 -0.027662681 -2.0406537 -0.030564733 -2.0911903 -48.025429 -150.71405
10999000 -43.529495 -5.8534622 -0.029171318 -2.2538116 -0.029845815 -2.310446 -47.783237 -142.59532
11998000 -42.758144 -8.0002232 -0.02927921 -2.4784961 -0.029767102 -2.5212264 -47.892696 -136.85199
12997000 -42.088741 -12.917601 -0.028573012 -2.6583714 -0.029141871 -2.6895616 -47.225655 -131.01984
13996000 -41.857189 -16.023138 -0.027439687 -2.8354766 -0.029403001 -2.8600194 -46.805283 -125.42163
14995000 -41.553993 -19.873238 -0.029021213 -3.0493412 -0.029987607 -3.0720408 -46.345711 -122.21043
15994000 -41.417957 -23.84532 -0.030566037 -3.2625914 -0.03219486 -3.2834282 -46.123566 -118.20032
16993000 -41.466408 -27.880049 -0.029790036 -3.4645526 -0.031068932 -3.4700427 -45.215565 -119.50549
17992000 -41.503696 -32.595604 -0.030251658 -3.6585805 -0.032201901 -3.664341 -44.591759 -120.04633
18991000 -41.766735 -37.054806 -0.031286638 -3.8677449 -0.032245453 -3.8682325 -43.893051 -119.41101
19990000 -41.613853 -41.901909 -0.033648983 -4.0771313 -0.034283213 -4.0702281 -43.164028 -120.7067
20989000 -41.538059 -44.613224 -0.036071606 -4.2821698 -0.035997737 -4.2712002 -42.613998 -121.10815
21988000 -41.441673 -49.341576 -0.036720023 -4.4735603 -0.036909815 -4.4647131 -42.310078 -120.18956
22987000 -41.199272 -53.885799 -0.038038567 -4.6746669 -0.038046136 -4.6696067 -42.039673 -119.83443
23986000 -41.202351 -57.778271 -0.037246346 -4.8700585 -0.037302744 -4.8685274 -41.932629 -119.61388
24985000 -40.868771 -60.516903 -0.03802342 -5.0771289 -0.03797067 -5.0720525 -41.646965 -117.27833
25984000 -40.627483 -62.50753 -0.038821522 -5.2844596 -0.037740096 -5.2890053 -41.337433 -116.06247
26983000 -40.325085 -64.505623 -0.040077217 -5.485815 -0.039357245 -5.4966273 -41.187813 -115.17871
27982000 -40.187016 -65.278786 -0.04113806 -5.6788135 -0.040625896 -5.7115812 -40.936489 -113.6298
28981000 -40.194988 -66.877136 -0.039320152 -5.8800316 -0.040246777 -5.9043846 -40.64547 -112.93399
29980000 -39.793583 -68.36853 -0.039214622 -6.07125 -0.040804885 -6.0773916 -40.321159 -112.33127
30979000 -39.460819 -67.329536 -0.036950022 -6.4268799 -0.035141956 -6.4124088 -39.827583 -113.10043
31978000 -39.27203 -68.815636 -0.036289822 -6.6164575 -0.03608257 -6.6119695 -39.571648 -112.62983
32977000 -39.108768 -69.964737 -0.036340464 -6.8252063 -0.037075076 -6.8260665 -39.328999 -112.76378
33976000 -38.97097 -71.262711 -0.036376748 -7.0283165 -0.037824437 -7.0244908 -39.014748 -112.308
34975000 -38.678242 -72.324203 -0.036681648 -7.2268543 -0.038770072 -7.2257504 -38.757748 -112.14118
35974000 -38.489716 -72.88343 -0.035766225 -7.4232759 -0.038405478 -7.4291635 -38.480278 -111.28811
36973000 -38.268509 -73.809532 -0.036543813 -7.622508 -0.03931519 -7.6267028 -38.198742 -110.53474
37972000 -38.095547 -73.835358 -0.035794672 -7.8294001 -0.039057117 -7.8422313 -37.935734 -109.87392
38971000 -37.791687 -73.464912 -0.03699806 -8.032402 -0.03922664 -8.0426645 -37.747952 -108.55259
39970000 -37.473969 -74.099525 -0.03505297 -8.2260189 -0.037961792 -8.2448149 -37.475277 -107.97884
40969000 -37.179943 -74.009514 -0.034946498 -8.420186 -0.037309792 -8.4387732 -37.20335 -106.7398
41968000 -36.824066 -74.018669 -0.035678789 -8.6299067 -0.037935939 -8.6431856 -36.990871 -105.61024
42967000 -36.587654 -74.463669 -0.035311583 -8.8371916 -0.038039871 -8.8563433 -36.759708 -103.78335
43966000 -36.302856 -75.264984 -0.036183063 -9.0399246 -0.038646534 -9.0512409 -36.464584 -103.27742
44965000 -36.07563 -76.132294 -0.037927322 -9.2337751 -0.038891785 -9.2533722 -36.264347 -103.13956
45964000 -35.864552 -77.349602 -0.037798848 -9.4341888 -0.040648628 -9.4590025 -36.010288 -102.95764
46963000 -35.680187 -79.37326 -0.03857654 -9.6334991 -0.041325957 -9.6525574 -35.834232 -103.2505
47962000 -35.530224 -80.891205 -0.039860375 -9.8319588 -0.042562246 -9.8491592 -35.626316 -103.56017
48961000 -35.342659 -82.343628 -0.041869827 -10.029034 -0.043737698 -10.052923 -35.394733 -103.82455
49960000 -35.12759 -83.621277 -0.043373473 -10.225597 -0.045286458 -10.251855 -35.247414 -104.10527
50959000 -34.917931 -85.147804 -0.043633632 -10.442907 -0.046282906 -10.450778 -35.075417 -104.35462
51958000 -34.732853 -86.197029 -0.045886286 -10.64108 -0.047556721 -10.650704 -34.900787 -105.05805
52957000 -34.512566 -87.364182 -0.047336631 -10.838655 -0.049022544 -10.846437 -34.738522 -104.79594
53956000 -34.376911 -88.042168 -0.048915468 -11.039857 -0.050057817 -11.042428 -34.597481 -104.84182
54955000 -34.196716 -88.599045 -0.049047939 -11.239331 -0.050082169 -11.238465 -34.450657 -104.80471
55954000 -34.059425 -89.395317 -0.049767684 -11.442784 -0.050845042 -11.439043 -34.337883 -104.52576
56953000 -33.931385 -89.479767 -0.049190361 -11.639472 -0.050364204 -11.629451 -34.252441 -104.84179
57952000 -33.773071 -90.138672 -0.051272497 -11.831889 -0.051312834 -11.825992 -34.170498 -104.87462
58951000 -33.655468 -90.425781 -0.052002568 -12.041036 -0.051928427 -12.022748 -34.006763 -105.01303
59950000 -33.541637 -90.829834 -0.052643675 -12.239902 -0.052273724 -12.216738 -33.953606 -105.34657
60949000 -33.420635 -91.414078 -0.052908845 -12.443961 -0.052364897 -12.421075 -33.853691 -105.63649
61948000 -33.373455 -91.792221 -0.053574458 -12.640607 -0.052483585 -12.623533 -33.763798 -105.66721
62947000 -33.288525 -91.924057 -0.053206 -12.851632 -0.053391274 -12.829831 -33.635338 -105.95603
63946000 -33.220306 -92.660507 -0.054578312 -13.051039 -0.05392801 -13.028875 -33.522243 -106.09835
64945000 -33.109901 -92.840782 -0.05517628 -13.249498 -0.054696273 -13.233003 -33.409359 -106.64417
65944000 -33.015526 -93.188004 -0.055546477 -13.448178 -0.054961305 -13.433974 -33.321617 -107.06687
66943000 -32.880127 -93.574013 -0.053682171 -13.65129 -0.053673524 -13.633198 -33.225971 -107.41119
67942000 -32.81868 -93.518715 -0.055537041 -13.84833 -0.055423513 -13.836071 -33.102024 -107.64156
68941000 -32.71241 -93.723915 -0.055148751 -14.037664 -0.054032322 -14.029845 -33.007996 -107.61644
69940000 -32.61853 -93.645012 -0.054904681 -14.240735 -0.055351414 -14.228786 -32.861454 -107.9845
70939000 -32.519489 -93.676544 -0.055253096 -14.433775 -0.055308416 -14.42858 -32.721359 -107.86132
71938000 -32.370586 -93.291946 -0.055329651 -14.627617 -0.055254668 -14.622098 -32.595959 -107.75989
72937000 -32.205078 -93.144615 -0.054650661 -14.827917 -0.054801393 -14.82593 -32.458153 -107.4991
73936000 -32.067307 -92.834885 -0.054257475 -15.023776 -0.053602237 -15.017632 -32.334545 -107.3791
74935000 -31.94504 -93.119812 -0.053975973 -15.223966 -0.053002916 -15.217649 -32.180653 -107.10809
75934000 -31.825466 -93.508797 -0.054403998 -15.426512 -0.052655466 -15.423885 -32.0905 -106.97202
76933000 -31.698498 -93.811829 -0.054887641 -15.621695 -0.054821316 -15.616089 -31.919096 -107.43536
77932000 -31.595081 -94.665398 -0.056463722 -15.820272 -0.056355152 -15.810667 -31.823608 -107.40061
78931000 -31.530647 -95.344849 -0.055028681 -16.019262 -0.055498235 -16.012213 -31.726597 -107.25375
79930000 -31.427088 -96.210228 -0.058090746 -16.213541 -0.057761252 -16.208366 -31.630941 -107.62414
80929000 -31.304541 -97.14328 -0.059054449 -16.404779 -0.059124772 -16.403408 -31.534325 -107.98501
81928000 -31.211592 -97.962852 -0.059201133 -16.598986 -0.059479039 -16.593576 -31.404205 -108.06359
82927000 -31.127987 -98.739098 -0.061454531 -16.797726 -0.060704231 -16.79533 -31.304333 -108.41301
83926000 -31.009567 -99.445732 -0.062339671 -16.993176 -0.061626241 -16.997007 -31.190039 -108.61293
84925000 -30.908161 -99.911133 -0.063748233 -17.193224 -0.062304221 -17.188866 -31.088366 -108.67143
85924000 -30.817219 -100.34249 -0.063923977 -17.393288 -0.063117042 -17.390337 -31.009256 -108.74287
86923000 -30.720854 -100.89693 -0.064687446 -17.589939 -0.064252101 -17.585789 -30.906424 -108.64744
87922000 -30.609604 -101.21201 -0.064243428 -17.795658 -0.062739372 -17.786957 -30.815655 -108.61463
88921000 -30.541494 -101.50661 -0.065387979 -17.993059 -0.06374114 -17.993538 -30.718935 -108.6539
89920000 -30.444981 -102.0997 -0.065390341 -18.192213 -0.064513512 -18.189465 -30.680103 -108.81754
90919000 -30.347235 -102.38837 -0.066213734 -18.389286 -0.065410055 -18.382076 -30.590502 -108.99277
91918000 -30.248766 -102.77505 -0.068029523 -18.586344 -0.065503344 -18.582905 -30.522936 -109.00616
92917000 -30.162149 -103.10668 -0.06866958 -18.784737 -0.066956311 -18.782299 -30.460003 -109.15722
93916000 -30.08123 -103.49743 -0.067854144 -18.980009 -0.066959463 -18.975161 -30.370504 -109.79062
94915000 -30.003395 -104.13683 -0.068467349 -19.181334 -0.06773556 -19.17396 -30.316132 -109.6434
95914000 -29.943874 -104.3679 -0.070379585 -19.374912 -0.068907589 -19.374256 -30.225925 -109.92915
96913000 -29.859798 -104.55714 -0.071350493 -19.574396 -0.069954455 -19.573675 -30.167646 -110.24989
97912000 -29.788189 -105.06162 -0.072191596 -19.768991 -0.070027851 -19.77087 -30.085947 -110.47497
98911000 -29.674166 -105.26197 -0.072524287 -19.973482 -0.07109867 -19.969912 -30.046099 -110.7789
99910000 -29.620016 -105.41779 -0.073739737 -20.169422 -0.071314968 -20.170559 -29.937801 -110.9866
100909000 -29.530552 -105.65886 -0.072857797 -20.379213 -0.070535339 -20.371754 -29.848085 -111.21385
101908000 -29.444122 -105.98935 -0.073967494 -20.575262 -0.072413474 -20.576965 -29.738052 -111.00876
102907000 -29.311159 -105.96275 -0.074569978 -20.7752 -0.071819447 -20.776327 -29.659687 -111.00182
103906000 -29.216398 -106.07494 -0.074835435 -20.981716 -0.071531013 -20.972702 -29.523064 -110.9229
104905000 -29.073095 -105.94318 -0.075261049 -21.181093 -0.072179489 -21.176058 -29.392513 -110.63749
105904000 -28.933498 -106.11028 -0.07526236 -21.382366 -0.072178699 -21.375404 -29.280119 -110.52554
106903000 -28.82045 -106.18343 -0.074870199 -21.586496 -0.072108947 -21.578711 -29.148495 -110.40199
107902000 -28.664692 -106.52664 -0.076015972 -21.789558 -0.072683804 -21.777842 -29.011503 -110.37706
108901000 -28.557961 -106.84846 -0.076986559 -21.989265 -0.074089408 -21.982664 -28.875895 -110.33083
109900000 -28.430063 -107.3056 -0.077861957 -22.187973 -0.075277641 -22.176161 -28.728495 -110.42928
110899000 -28.312401 -107.91221 -0.079386555 -22.383478 -0.075986996 -22.375219 -28.608597 -110.70069
111898000 -28.223358 -108.63423 -0.080547236 -22.58708 -0.077047423 -22.580276 -28.483416 -110.8915
112897000 -28.093058 -109.1703 -0.082388021 -22.785669 -0.078641586 -22.773821 -28.355062 -111.06687
113896000 -27.990353 -109.80972 -0.082947619 -22.98337 -0.07966312 -22.973057 -28.251003 -111.22163
114895000 -27.898558 -110.39883 -0.083704934 -23.182152 -0.081467927 -23.168304 -28.134062 -111.25607
115894000 -27.769262 -110.76125 -0.085271448 -23.383022 -0.082645252 -23.371798 -28.065548 -111.44033
116893000 -27.684401 -111.33258 -0.085507989 -23.581171 -0.083312802 -23.559893 -27.940702 -111.57974
117892000 -27.604393 -111.76969 -0.085727386 -23.771576 -0.08365532 -23.763132 -27.86433 -111.8377
118891000 -27.544466 -112.24047 -0.086371377 -23.972589 -0.083130732 -23.965876 -27.768339 -111.90408
119890000 -27.461517 -112.62192 -0.08716812 -24.17919 -0.084202938 -24.15976 -27.758579 -112.13307
120889000 -27.406015 -113.07633 -0.088420436 -24.376217 -0.084624976 -24.361614 -27.682011 -112.03757
121888000 -27.365215 -113.44276 -0.088200904 -24.574188 -0.084771208 -24.557888 -27.625626 -112.32826
122887000 -27.325645 -113.62045 -0.088760719 -24.773836 -0.085167699 -24.761965 -27.582952 -112.36292
123886000 -27.273098 -114.07311 -0.089670472 -24.976034 -0.08583194 -24.957874 -27.568069 -112.5231
124885000 -27.236212 -114.56534 -0.089584321 -25.176689 -0.086066931 -25.159006 -27.53981 -112.57638
125884000 -27.181345 -114.75545 -0.090490282 -25.37318 -0.086432904 -25.358915 -27.509853 -112.78152
126883000 -27.162357 -115.15533 -0.091017351 -25.573654 -0.087355115 -25.562906 -27.47077 -112.81119
127882000 -27.117464 -115.43017 -0.091340385 -25.773985 -0.08763852 -25.757212 -27.427662 -112.97247
128881000 -27.085371 -115.75128 -0.091121502 -25.977049 -0.087417975 -25.958372 -27.384932 -113.07426
129880000 -27.027117 -116.09432 -0.091895849 -26.177088 -0.08774735 -26.157663 -27.34564 -113.10242
130879000 -26.963343 -116.25935 -0.091776073 -26.376074 -0.088347785 -26.356665 -27.273041 -113.1847
131878000 -26.903883 -116.45896 -0.092004776 -26.578421 -0.08873377 -26.560158 -27.207537 -113.06136
132877000 -26.834764 -116.51704 -0.091962472 -26.778698 -0.089338042 -26.756277 -27.123068 -113.07834
133876000 -26.756254 -116.71373 -0.092104197 -26.980013 -0.088837601 -26.95805 -27.035681 -112.99316
134875000 -26.657902 -116.83267 -0.092214718 -27.181786 -0.089250579 -27.161121 -26.930632 -112.82643
135874000 -26.579454 -116.83798 -0.092747808 -27.38262 -0.089628719 -27.367353 -26.833937 -112.82974
136873000 -26.463686 -116.81503 -0.092841953 -27.583138 -0.088923208 -27.562365 -26.748205 -112.83372
137872000 -26.383736 -116.91046 -0.093050875 -27.78418 -0.089583263 -27.771935 -26.643732 -112.75027
138871000 -26.310362 -117.07323 -0.092896961 -27.983683 -0.089495271 -27.966127 -26.54495 -112.94289
139870000 -26.218891 -117.37431 -0.094167069 -28.183992 -0.090896018 -28.165604 -26.459911 -113.10602
140869000 -26.131508 -117.83327 -0.095538892 -28.37855 -0.092596814 -28.358387 -26.359076 -113.25044
141868000 -26.03232 -118.32216 -0.095564291 -28.570515 -0.093421936 -28.555803 -26.283787 -113.55687
142867000 -25.957111 -118.57561 -0.09385255 -28.768761 -0.09229219 -28.749773 -26.209478 -113.77657
143866000 -25.885191 -119.06242 -0.096278027 -28.963722 -0.093416646 -28.948814 -26.136967 -114.26189
144865000 -25.830669 -119.58076 -0.097541183 -29.162436 -0.094653569 -29.147333 -26.076126 -114.58208
145864000 -25.769964 -119.89569 -0.097751126 -29.361942 -0.095624097 -29.353315 -26.041567 -114.85433
146863000 -25.725559 -120.26643 -0.098812915 -29.561588 -0.096296027 -29.549786 -25.994854 -115.16368
147862000 -25.683361 -120.63039 -0.09944243 -29.76008 -0.096827239 -29.744148 -25.960619 -115.47807
148861000 -25.652325 -121.14915 -0.099795491 -29.957535 -0.097246006 -29.944925 -25.929895 -115.73769
149860000 -25.644226 -121.33298 -0.10055576 -30.153223 -0.097357459 -30.144722 -25.903765 -115.87601
150859000 -25.614716 -121.75315 -0.10002542 -30.355974 -0.098231681 -30.343761 -25.892826 -116.12633
151858000 -25.601042 -122.01919 -0.10052343 -30.552675 -0.097882442 -30.536573 -25.887201 -116.44089
152857000 -25.583632 -122.37676 -0.10106921 -30.750324 -0.098726057 -30.738567 -25.868736 -116.56403
153856000 -25.576578 -122.53658 -0.10121123 -30.948732 -0.097761184 -30.934282 -25.883463 -116.87244
154855000 -25.569422 -122.70357 -0.10059284 -31.149488 -0.097883508 -31.136564 -25.870443 -117.06557
155854000 -25.583364 -122.9769 -0.10090547 -31.349329 -0.098794378 -31.335514 -25.862782 -117.34303
156853000 -25.56653 -123.67957 -0.098928109 -31.535275 -0.097991794 -31.524734 -25.857615 -117.64313
157852000 -25.569441 -123.89456 -0.10018224 -31.734333 -0.099087805 -31.726324 -25.850885 -117.99277
158851000 -25.568291 -124.12968 -0.10083076 -31.935059 -0.099587038 -31.923697 -25.831963 -118.24424
159850000 -25.552681 -124.26133 -0.1016487 -32.130714 -0.099743582 -32.124222 -25.830849 -118.43345
160849000 -25.531847 -124.38937 -0.10146136 -32.332466 -0.10053112 -32.324913 -25.803659 -118.71193
161848000 -25.515453 -124.47867 -0.1022341 -32.531391 -0.099641867 -32.524921 -25.75931 -118.8039
162847000 -25.473005 -124.68431 -0.10200115 -32.726032 -0.10078306 -32.726234 -25.732409 -119.05886
163846000 -25.429039 -124.92508 -0.10236397 -32.928474 -0.10055788 -32.922649 -25.650597 -119.05721
164845000 -25.365284 -124.92213 -0.10281932 -33.129105 -0.10131297 -33.124477 -25.588425 -119.15029
165844000 -25.319103 -125.00205 -0.10312415 -33.32563 -0.1012727 -33.320564 -25.508022 -119.31796
166843000 -25.249012 -125.08687 -0.10271754 -33.523251 -0.10081274 -33.517235 -25.437534 -119.50222
167842000 -25.195553 -125.23888 -0.10298419 -33.719688 -0.1011116 -33.717571 -25.357355 -119.4137
168841000 -25.114798 -125.41 -0.10349051 -33.923393 -0.10246044 -33.91441 -25.279873 -119.48874
169840000 -25.054348 -125.68243 -0.10392318 -34.117294 -0.10243076 -34.116673 -25.194386 -119.72148
170839000 -24.991253 -125.97667 -0.10454442 -34.315449 -0.10279361 -34.312588 -25.109385 -119.87801
171838000 -24.930967 -126.35913 -0.1043254 -34.516487 -0.10411036 -34.508762 -25.048382 -120.1059
172837000 -24.858227 -126.76435 -0.1055901 -34.707268 -0.10445029 -34.70602 -24.978065 -120.33967
173836000 -24.798336 -127.17686 -0.10717646 -34.912289 -0.1054246 -34.904091 -24.929464 -120.55965
174835000 -24.750961 -127.6058 -0.10726827 -35.104862 -0.10614022 -35.103138 -24.889736 -120.87878
175834000 -24.695675 -127.97513 -0.10799136 -35.303341 -0.10680555 -35.299072 -24.820862 -121.18806
176833000 -24.64188 -128.35301 -0.10882871 -35.498753 -0.10733514 -35.496647 -24.770468 -121.34167
177832000 -24.599447 -128.79951 -0.10916156 -35.69421 -0.10745294 -35.694267 -24.74683 -121.53329
178831000 -24.555534 -129.18776 -0.10962029 -35.892803 -0.10833424 -35.890736 -24.711926 -121.75624
179830000 -24.519367 -129.61058 -0.11016003 -36.092358 -0.1084396 -36.092487 -24.68647 -121.85542
180829000 -24.48044 -129.82161 -0.10996807 -36.286015 -0.10882074 -36.285229 -24.653919 -122.02637
181828000 -24.45661 -130.15674 -0.11026119 -36.484371 -0.10893223 -36.482048 -24.629904 -122.13298
182827000 -24.431255 -130.50279 -0.11096779 -36.67939 -0.1101911 -36.68045 -24.621405 -122.24532
183826000 -24.392696 -130.85846 -0.11206123 -36.875809 -0.10995639 -36.877571 -24.614748 -122.34975
184825000 -24.399221 -131.15891 -0.11092238 -37.074776 -0.11017013 -37.076122 -24.599062 -122.44863
185824000 -24.372738 -131.49939 -0.11089052 -37.265251 -0.11077686 -37.265472 -24.598969 -122.4888
186823000 -24.354105 -131.85277 -0.11145884 -37.467075 -0.11035518 -37.464664 -24.595179 -122.4574
187822000 -24.336138 -132.21898 -0.11222167 -37.663456 -0.11122353 -37.661934 -24.558508 -122.5284
188821000 -24.317833 -132.42891 -0.11212923 -37.855957 -0.11138553 -37.864017 -24.548733 -122.63467
189820000 -24.303814 -132.68506 -0.11320517 -38.061386 -0.11110774 -38.05759 -24.538187 -122.78205
190819000 -24.275082 -132.94194 -0.11396566 -38.259445 -0.11273279 -38.256744 -24.500937 -122.76067
191818000 -24.23527 -133.12631 -0.11507554 -38.452682 -0.11395157 -38.450005 -24.470436 -122.65887
192817000 -24.170803 -133.4101 -0.1152733 -38.638477 -0.11375679 -38.637066 -24.398613 -122.74623
193816000 -24.131975 -133.76801 -0.11435472 -38.831997 -0.11293257 -38.82917 -24.345299 -123.02601
194815000 -24.07654 -134.21414 -0.11399011 -39.029099 -0.11348682 -39.029575 -24.281445 -123.13156
195814000 -24.021069 -134.44159 -0.11508857 -39.226284 -0.11311909 -39.225845 -24.23085 -123.23953
196813000 -23.966206 -134.78511 -0.11476429 -39.422245 -0.11317275 -39.420456 -24.152754 -123.41536
197812000 -23.913874 -135.01004 -0.11449 -39.617458 -0.11395715 -39.617424 -24.082777 -123.53679
198811000 -23.858303 -135.19817 -0.11383146 -39.812401 -0.11297615 -39.815845 -24.012566 -123.70496
199810000 -23.786268 -135.54726 -0.11482409 -40.010212 -0.11371959 -40.007927 -23.936842 -123.79655
200809000 -23.735264 -135.83496 -0.11562527 -40.207653 -0.11327531 -40.211098 -23.8545 -123.99512
201808000 -23.669645 -136.07182 -0.11604851 -40.403419 -0.11443791 -40.406872 -23.786701 -124.08636
202807000 -23.616692 -136.43819 -0.11634603 -40.608379 -0.11536688 -40.612568 -23.734289 -124.24319
