!Keysight Technologies,E5080B,MY59205177,A.15.75.32
!Date: Friday, February 23, 2024 03:40:52
!Correction: S11(Cdelta 2-Port  ) 
!S21(Cdelta 2-Port  ) 
!S12(Cdelta 2-Port  ) 
!S22(Cdelta 2-Port  ) 
!S2P File: Measurements: S11, S21, S12, S22:
# Hz S  dB   R 50
10000000 -46.111507 -2.9084406 -0.014748176 -2.0402205 -0.018148728 -2.0995574 -45.937405 -157.46014
10999000 -45.306934 -4.7101483 -0.01592184 -2.256192 -0.017862279 -2.3108516 -45.774193 -151.16051
11998000 -44.358906 -7.7576156 -0.016804246 -2.4820423 -0.017074512 -2.5291915 -45.989845 -146.58665
12997000 -43.595142 -13.661266 -0.01581428 -2.6666827 -0.01757611 -2.6965117 -45.618904 -140.99591
13996000 -43.31419 -17.596535 -0.014845839 -2.8451939 -0.017249675 -2.8668644 -45.350681 -135.87189
14995000 -42.910706 -21.918129 -0.017586766 -3.0571039 -0.017647585 -3.0778241 -45.01791 -132.71494
15994000 -42.717731 -26.450623 -0.01834031 -3.2738633 -0.019514166 -3.2973394 -44.933586 -129.05022
16993000 -42.686783 -30.689625 -0.017238239 -3.4722345 -0.019363614 -3.4836841 -44.135838 -128.93239
17992000 -42.7416 -36.46146 -0.017623413 -3.6715434 -0.019660303 -3.6735015 -43.521656 -129.26158
18991000 -42.907272 -41.894646 -0.019011306 -3.8794866 -0.020408485 -3.877799 -42.896908 -127.84636
19990000 -42.688202 -47.223209 -0.02179727 -4.0871162 -0.02280031 -4.0849233 -42.191826 -128.76649
20989000 -42.547001 -50.978317 -0.023670319 -4.2950454 -0.024727944 -4.2836046 -41.71669 -128.25401
21988000 -42.349739 -56.342045 -0.023313759 -4.4941082 -0.024973189 -4.482429 -41.459415 -127.43151
22987000 -42.050213 -61.007088 -0.025626203 -4.6883402 -0.026085557 -4.682579 -41.179161 -126.86178
23986000 -41.932404 -64.743591 -0.02488441 -4.8811255 -0.024938302 -4.8818707 -41.022911 -126.84675
24985000 -41.5382 -67.579369 -0.025918633 -5.0937991 -0.02571057 -5.0919561 -40.841862 -124.54333
25984000 -41.166069 -69.822388 -0.027120326 -5.2986856 -0.025764992 -5.2979565 -40.498856 -122.84931
26983000 -40.872898 -71.586449 -0.027741097 -5.4984517 -0.026851518 -5.5154848 -40.398396 -122.31573
27982000 -40.703178 -72.699005 -0.028951894 -5.6946974 -0.028431786 -5.7346463 -40.125431 -120.75198
28981000 -40.682655 -74.175842 -0.027247442 -5.8967981 -0.028312452 -5.9195523 -39.861446 -120.13081
29980000 -40.239182 -75.550797 -0.02709011 -6.0871215 -0.028588125 -6.097291 -39.629253 -119.2699
30979000 -39.857738 -74.240417 -0.024103958 -6.4415054 -0.022807596 -6.4328074 -39.104267 -119.50095
31978000 -39.652557 -75.574738 -0.023607595 -6.6396246 -0.024812294 -6.6286817 -38.858723 -118.7903
32977000 -39.439518 -76.971817 -0.023761937 -6.8459611 -0.024855772 -6.8476057 -38.613037 -118.84341
33976000 -39.27668 -77.902275 -0.024589706 -7.0500517 -0.025712654 -7.0457268 -38.328621 -118.21011
34975000 -38.993 -78.635696 -0.024229687 -7.2479286 -0.026870271 -7.247139 -38.103088 -117.91905
35974000 -38.778927 -79.257988 -0.0233148 -7.4432302 -0.025767338 -7.4464216 -37.853889 -116.93658
36973000 -38.555607 -79.967293 -0.024114631 -7.6445332 -0.02658507 -7.6477108 -37.576542 -115.9686
37972000 -38.380764 -79.632782 -0.02343634 -7.8502421 -0.026522042 -7.8639255 -37.359051 -115.35079
38971000 -38.063297 -79.142937 -0.02457617 -8.0536079 -0.027344866 -8.0655756 -37.19957 -113.64434
39970000 -37.720516 -79.483047 -0.022609832 -8.2493725 -0.025809262 -8.2630501 -36.945244 -113.13576
40969000 -37.4701 -79.040009 -0.023031393 -8.4489689 -0.025659533 -8.4630461 -36.721104 -111.61636
41968000 -37.109512 -79.029366 -0.023547994 -8.6494036 -0.025673853 -8.6650124 -36.526932 -110.44445
42967000 -36.861435 -79.184738 -0.023856159 -8.8612194 -0.025956651 -8.8872395 -36.337994 -108.57242
43966000 -36.573803 -79.756355 -0.02401806 -9.0637255 -0.027110167 -9.0800009 -36.064072 -107.85754
44965000 -36.337719 -80.537094 -0.02499532 -9.2632418 -0.027839053 -9.2834053 -35.859367 -107.68038
45964000 -36.116703 -81.413284 -0.025707705 -9.4676142 -0.028779387 -9.4832544 -35.640709 -107.36291
46963000 -35.910179 -83.439476 -0.02575562 -9.6584949 -0.028960755 -9.6815615 -35.448849 -107.62656
47962000 -35.724472 -84.902924 -0.027326893 -9.8608704 -0.030921889 -9.8782635 -35.250835 -107.69983
48961000 -35.534645 -86.247108 -0.029413948 -10.058351 -0.0319333 -10.079515 -35.027378 -107.80855
49960000 -35.289848 -87.45224 -0.031059807 -10.25777 -0.032861739 -10.281899 -34.891899 -107.89899
50959000 -35.068287 -88.791122 -0.031439949 -10.473884 -0.033985522 -10.484543 -34.715771 -108.20689
51958000 -34.855701 -89.884178 -0.033185959 -10.668486 -0.036017314 -10.679617 -34.542633 -108.54842
52957000 -34.652855 -90.860298 -0.034421496 -10.870825 -0.036707494 -10.877764 -34.381203 -108.39744
53956000 -34.47617 -91.537071 -0.035844002 -11.070313 -0.037683696 -11.071233 -34.250137 -108.34985
54955000 -34.297165 -91.938606 -0.036680084 -11.275514 -0.038610753 -11.2672 -34.08469 -108.29168
55954000 -34.138878 -92.90226 -0.037500396 -11.47069 -0.038981892 -11.471822 -33.986256 -107.98019
56953000 -34.016632 -92.848076 -0.037728347 -11.670516 -0.03829553 -11.662806 -33.913296 -108.3136
57952000 -33.847576 -93.338516 -0.038383279 -11.869302 -0.038997043 -11.858739 -33.803867 -108.32886
58951000 -33.737225 -93.725769 -0.039510321 -12.076956 -0.04015011 -12.056085 -33.64753 -108.40079
59950000 -33.605995 -94.176971 -0.040893991 -12.273242 -0.040654376 -12.253921 -33.578682 -108.73836
60949000 -33.477024 -94.740761 -0.040449526 -12.475215 -0.040786073 -12.454046 -33.478844 -108.97411
61948000 -33.420742 -94.98716 -0.040873088 -12.675643 -0.040852703 -12.65821 -33.386513 -109.10281
62947000 -33.328796 -95.254097 -0.041330136 -12.887198 -0.041787498 -12.867364 -33.243301 -109.34562
63946000 -33.251766 -95.998291 -0.041515429 -13.082565 -0.042787064 -13.065351 -33.138462 -109.45397
64945000 -33.1409 -96.126717 -0.042410631 -13.286304 -0.043305755 -13.272059 -33.019039 -109.88637
65944000 -33.037235 -96.355553 -0.043609053 -13.485697 -0.043435961 -13.469199 -32.928139 -110.32416
66943000 -32.892471 -96.836189 -0.041538425 -13.688151 -0.042196289 -13.669857 -32.81572 -110.54028
67942000 -32.832176 -96.839622 -0.043751296 -13.883776 -0.043798361 -13.876053 -32.688168 -110.8066
68941000 -32.726276 -96.871437 -0.04308797 -14.079123 -0.042648509 -14.067988 -32.584 -110.82484
69940000 -32.620811 -96.856003 -0.043543946 -14.278287 -0.043243006 -14.269499 -32.437012 -111.14074
70939000 -32.511379 -96.833344 -0.043290854 -14.47423 -0.042757783 -14.469163 -32.312855 -110.99519
71938000 -32.38184 -96.380592 -0.043098167 -14.666896 -0.043215554 -14.664153 -32.178665 -110.88971
72937000 -32.22427 -96.245033 -0.042223472 -14.869192 -0.041623887 -14.860463 -32.05212 -110.54729
73936000 -32.0956 -95.815651 -0.042219289 -15.066135 -0.042282809 -15.058359 -31.931164 -110.33237
74935000 -31.972021 -96.053223 -0.041928634 -15.266277 -0.041191109 -15.259499 -31.788122 -110.00104
75934000 -31.847727 -96.283707 -0.041618399 -15.473905 -0.041817032 -15.474883 -31.696634 -109.90913
76933000 -31.715231 -96.664909 -0.043218955 -15.668538 -0.04240305 -15.659414 -31.525122 -110.24123
77932000 -31.605881 -97.3918 -0.044865347 -15.863449 -0.044456568 -15.857167 -31.436098 -110.17626
78931000 -31.539412 -98.094398 -0.042994898 -16.061628 -0.043452434 -16.060051 -31.330416 -110.05576
79930000 -31.421467 -99.037064 -0.045085836 -16.257383 -0.04557969 -16.253876 -31.23431 -110.36073
80929000 -31.306686 -99.731033 -0.047268327 -16.456326 -0.047659576 -16.451805 -31.142601 -110.63853
81928000 -31.213892 -100.4724 -0.047397867 -16.646116 -0.047660097 -16.642118 -31.013687 -110.65572
82927000 -31.107895 -101.243 -0.049017832 -16.842949 -0.048918087 -16.845303 -30.899817 -110.89291
83926000 -30.995464 -101.89481 -0.049862474 -17.038647 -0.050079815 -17.04245 -30.783985 -111.10014
84925000 -30.893538 -102.34769 -0.051589709 -17.240473 -0.04992165 -17.237732 -30.699209 -111.1513
85924000 -30.804873 -102.73384 -0.051659916 -17.44068 -0.051445901 -17.439352 -30.60462 -111.12881
86923000 -30.684704 -103.20177 -0.052663587 -17.637596 -0.051949911 -17.636543 -30.505671 -111.07027
87922000 -30.583681 -103.54635 -0.051421277 -17.846287 -0.050853424 -17.837086 -30.422047 -111.06069
88921000 -30.517921 -103.77674 -0.052942384 -18.043388 -0.0527042 -18.036936 -30.327389 -110.98159
89920000 -30.410542 -104.37985 -0.053533576 -18.242579 -0.053621631 -18.234743 -30.276169 -111.18019
90919000 -30.300587 -104.59564 -0.053621631 -18.440262 -0.053261817 -18.432785 -30.191864 -111.34718
91918000 -30.202909 -104.91396 -0.054773346 -18.641054 -0.053864319 -18.636921 -30.1175 -111.3519
92917000 -30.124989 -105.24468 -0.056161363 -18.838438 -0.055109952 -18.833294 -30.055159 -111.45319
93916000 -30.033924 -105.60989 -0.055747062 -19.031813 -0.054807425 -19.027582 -29.965441 -112.11711
94915000 -29.957193 -106.22088 -0.05719021 -19.234165 -0.056893043 -19.228512 -29.90061 -111.94711
95914000 -29.883234 -106.43102 -0.057865661 -19.429548 -0.057557955 -19.423376 -29.813799 -112.17716
96913000 -29.801205 -106.64111 -0.059240233 -19.628403 -0.058386683 -19.625645 -29.746872 -112.53912
97912000 -29.723497 -107.08463 -0.059994217 -19.8248 -0.058434434 -19.824348 -29.671024 -112.83871
98911000 -29.61372 -107.27612 -0.060674042 -20.026819 -0.059505019 -20.022367 -29.621637 -113.0121
99910000 -29.550463 -107.42587 -0.06155929 -20.225744 -0.059889495 -20.224884 -29.511639 -113.2884
100909000 -29.453836 -107.67305 -0.060687169 -20.432985 -0.059290878 -20.428679 -29.426847 -113.48603
101908000 -29.366493 -107.8699 -0.062461257 -20.633797 -0.060785346 -20.632221 -29.320908 -113.25204
102907000 -29.236341 -107.89454 -0.062484369 -20.837086 -0.060622066 -20.832973 -29.250769 -113.25402
103906000 -29.144558 -107.90247 -0.062673189 -21.040585 -0.059724152 -21.03377 -29.109953 -113.18962
104905000 -28.998203 -107.7871 -0.063213699 -21.235533 -0.060922377 -21.236441 -28.983366 -112.8709
105904000 -28.855406 -107.85098 -0.06376531 -21.442656 -0.060711317 -21.43738 -28.883675 -112.73264
106903000 -28.748993 -107.95789 -0.062926628 -21.649984 -0.061461095 -21.636261 -28.755674 -112.63086
107902000 -28.585951 -108.25549 -0.06407214 -21.844378 -0.062143777 -21.834972 -28.612637 -112.56014
108901000 -28.477459 -108.48782 -0.065091036 -22.045464 -0.062834971 -22.038578 -28.491154 -112.52129
109900000 -28.352026 -108.94867 -0.06580662 -22.247902 -0.063557267 -22.240484 -28.345545 -112.61491
110899000 -28.22508 -109.55101 -0.067396916 -22.442883 -0.064962812 -22.43858 -28.222605 -112.84517
111898000 -28.140644 -110.16663 -0.068288535 -22.644238 -0.065541185 -22.644194 -28.10322 -113.00352
112897000 -28.015713 -110.73328 -0.069977865 -22.846912 -0.066891901 -22.835609 -27.968731 -113.16568
113896000 -27.911402 -111.28046 -0.07096684 -23.046236 -0.068197809 -23.034012 -27.861004 -113.31583
114895000 -27.80895 -111.97312 -0.07258641 -23.24345 -0.069631688 -23.233391 -27.749176 -113.36882
115894000 -27.687315 -112.27019 -0.073204234 -23.446583 -0.07063584 -23.43363 -27.685194 -113.60076
116893000 -27.610237 -112.80187 -0.073794506 -23.647884 -0.07118313 -23.624775 -27.557379 -113.63071
117892000 -27.528269 -113.24301 -0.073721573 -23.837513 -0.071724966 -23.828911 -27.481251 -113.84072
118891000 -27.471577 -113.66576 -0.074480705 -24.042208 -0.071749441 -24.029337 -27.384199 -113.97536
119890000 -27.380985 -114.0441 -0.075269736 -24.242426 -0.073150001 -24.227196 -27.379644 -114.12964
120889000 -27.332371 -114.54454 -0.075646393 -24.44059 -0.072716177 -24.423634 -27.305502 -114.04349
121888000 -27.293041 -114.85091 -0.076617688 -24.637209 -0.073551491 -24.625141 -27.244089 -114.30772
122887000 -27.252457 -115.05647 -0.077454016 -24.84273 -0.073305063 -24.826736 -27.194815 -114.3475
123886000 -27.198265 -115.48192 -0.078584656 -25.048796 -0.074409604 -25.02462 -27.177904 -114.50281
124885000 -27.162472 -115.98197 -0.078319229 -25.245338 -0.074818321 -25.231203 -27.149633 -114.55592
125884000 -27.11062 -116.16322 -0.078667946 -25.443796 -0.075311087 -25.432858 -27.122349 -114.68979
126883000 -27.091774 -116.5398 -0.079325922 -25.64426 -0.075339012 -25.632437 -27.081951 -114.70164
127882000 -27.045216 -116.85744 -0.079688959 -25.843397 -0.075963818 -25.825817 -27.041733 -114.84932
128881000 -27.015085 -117.23192 -0.079829484 -26.043552 -0.076522842 -26.026651 -27.004631 -114.93483
129880000 -26.95705 -117.49158 -0.080435425 -26.251434 -0.076414034 -26.230059 -26.962751 -114.87934
130879000 -26.899094 -117.64742 -0.080368184 -26.447212 -0.076964691 -26.434166 -26.887741 -114.88276
131878000 -26.836788 -117.86821 -0.080546707 -26.654505 -0.077729397 -26.631096 -26.831757 -114.75365
132877000 -26.765724 -117.89208 -0.080199152 -26.849741 -0.077533334 -26.832064 -26.748823 -114.71075
133876000 -26.682833 -118.10347 -0.081020609 -27.05266 -0.077227131 -27.034439 -26.669609 -114.60613
134875000 -26.589237 -118.21756 -0.080684625 -27.25116 -0.078795001 -27.236263 -26.57683 -114.47691
135874000 -26.512745 -118.24959 -0.080719702 -27.450808 -0.077819526 -27.434252 -26.47385 -114.39369
136873000 -26.400585 -118.18501 -0.081568159 -27.656715 -0.077740729 -27.633398 -26.396435 -114.36807
137872000 -26.324535 -118.31319 -0.08128725 -27.858952 -0.078498721 -27.843094 -26.291279 -114.2712
138871000 -26.254431 -118.48199 -0.082008407 -28.060575 -0.078149758 -28.043709 -26.20273 -114.43295
139870000 -26.157253 -118.79861 -0.082254007 -28.25783 -0.079118714 -28.241009 -26.122026 -114.62674
140869000 -26.072922 -119.32876 -0.083462417 -28.453466 -0.079994805 -28.435505 -26.022747 -114.82065
141868000 -25.996721 -119.74342 -0.083686464 -28.654324 -0.081183597 -28.635706 -25.973217 -115.06607
142867000 -25.917089 -119.92889 -0.082622036 -28.848106 -0.080388486 -28.834753 -25.893604 -115.19957
143866000 -25.839373 -120.40091 -0.084498808 -29.047026 -0.081694506 -29.031157 -25.82037 -115.6525
144865000 -25.786501 -120.91436 -0.086035244 -29.242912 -0.083245777 -29.231369 -25.763784 -115.92844
145864000 -25.730791 -121.22963 -0.086283974 -29.447309 -0.084684893 -29.434786 -25.732155 -116.19769
146863000 -25.678511 -121.61305 -0.087220944 -29.648775 -0.08464504 -29.634884 -25.681604 -116.49523
147862000 -25.647123 -121.95772 -0.088500217 -29.843348 -0.085783884 -29.829838 -25.653913 -116.79321
148861000 -25.611521 -122.39728 -0.089590929 -30.041468 -0.086912736 -30.027536 -25.631905 -116.97652
149860000 -25.580626 -122.57738 -0.090648867 -30.237644 -0.087275088 -30.223738 -25.57604 -117.08712
150859000 -25.556101 -123.00992 -0.089217022 -30.434059 -0.087586224 -30.419361 -25.560032 -117.46358
151858000 -25.544256 -123.37936 -0.089616559 -30.632097 -0.08656811 -30.618837 -25.542715 -117.80851
152857000 -25.532249 -123.69132 -0.089806832 -30.833698 -0.08630193 -30.817844 -25.532885 -117.92975
153856000 -25.531912 -123.90817 -0.089769043 -31.03236 -0.086092807 -31.017092 -25.548058 -118.28389
154855000 -25.526672 -124.10999 -0.089843303 -31.232164 -0.086465389 -31.218426 -25.534464 -118.49493
155854000 -25.539671 -124.32928 -0.089971207 -31.43334 -0.087639838 -31.417542 -25.524836 -118.78631
156853000 -25.525146 -124.98906 -0.087727271 -31.618855 -0.086180471 -31.612486 -25.515726 -119.09412
157852000 -25.531115 -125.23064 -0.088703647 -31.818508 -0.087902665 -31.807993 -25.511337 -119.45276
158851000 -25.530548 -125.41457 -0.089144625 -32.018658 -0.088029198 -32.00983 -25.49169 -119.74432
159850000 -25.516842 -125.54627 -0.090011381 -32.218369 -0.087743647 -32.211269 -25.490088 -119.88223
160849000 -25.504301 -125.6601 -0.09046068 -32.418724 -0.088991374 -32.412983 -25.463003 -120.17166
161848000 -25.48572 -125.73151 -0.090872489 -32.619259 -0.089049503 -32.613804 -25.419344 -120.29256
162847000 -25.448055 -125.90137 -0.09106493 -32.816887 -0.089285195 -32.813957 -25.394882 -120.55888
163846000 -25.404387 -126.09766 -0.090931699 -33.021538 -0.089688443 -33.013294 -25.31501 -120.53435
164845000 -25.347712 -126.06028 -0.091699407 -33.217129 -0.089442156 -33.211254 -25.251337 -120.62777
165844000 -25.291988 -126.08634 -0.091813616 -33.419632 -0.090400949 -33.410217 -25.17705 -120.76389
166843000 -25.235193 -126.19153 -0.09162353 -33.614216 -0.089983895 -33.609653 -25.107208 -120.94807
167842000 -25.176928 -126.28177 -0.091550291 -33.820076 -0.090413898 -33.81142 -25.036108 -120.82915
168841000 -25.102385 -126.42976 -0.091993935 -34.015301 -0.09078896 -34.010731 -24.962324 -120.93462
169840000 -25.03257 -126.65337 -0.091992348 -34.209824 -0.090990916 -34.208965 -24.877247 -121.08682
170839000 -24.975714 -126.89342 -0.093135245 -34.40921 -0.092012443 -34.406162 -24.792341 -121.27967
171838000 -24.915424 -127.26521 -0.092786685 -34.609325 -0.092840366 -34.605698 -24.735451 -121.49876
172837000 -24.848791 -127.6187 -0.094144054 -34.806629 -0.093554184 -34.80135 -24.669302 -121.70661
173836000 -24.780693 -128.01401 -0.095417172 -35.003159 -0.094720244 -35.002956 -24.630117 -121.90977
174835000 -24.720968 -128.42244 -0.096203133 -35.199047 -0.095189609 -35.203812 -24.5858 -122.2493
175834000 -24.672724 -128.77348 -0.096634544 -35.40197 -0.096130878 -35.39922 -24.523306 -122.50504
176833000 -24.623674 -129.12975 -0.098084725 -35.601177 -0.096551172 -35.600391 -24.471062 -122.62172
177832000 -24.580061 -129.53102 -0.098834626 -35.800037 -0.097522914 -35.799839 -24.456099 -122.72242
178831000 -24.536768 -129.77435 -0.10032899 -35.996555 -0.099263653 -35.994324 -24.413534 -122.841
179830000 -24.461559 -130.19081 -0.10159014 -36.180313 -0.09994065 -36.17979 -24.354649 -122.91943
180829000 -24.416143 -130.48343 -0.10016475 -36.370811 -0.099208035 -36.371422 -24.312359 -123.23367
181828000 -24.395172 -130.94614 -0.099675775 -36.574688 -0.098561876 -36.573483 -24.290724 -123.44727
182827000 -24.372559 -131.31416 -0.099609554 -36.771561 -0.0991752 -36.767094 -24.282043 -123.53401
183826000 -24.334051 -131.64063 -0.10116247 -36.969032 -0.099149242 -36.970341 -24.270805 -123.70948
184825000 -24.335468 -131.99507 -0.10079525 -37.162441 -0.099274777 -37.164215 -24.251211 -123.84396
185824000 -24.304556 -132.35793 -0.10082519 -37.3582 -0.09943819 -37.363663 -24.246788 -123.90387
186823000 -24.288486 -132.71356 -0.10081963 -37.562695 -0.099139974 -37.559055 -24.243324 -123.9347
187822000 -24.265417 -133.06601 -0.1012462 -37.757751 -0.099739872 -37.756027 -24.201124 -124.0116
188821000 -24.242413 -133.32895 -0.10106073 -37.955006 -0.099638157 -37.953236 -24.180227 -124.13111
189820000 -24.224443 -133.61636 -0.10115399 -38.155369 -0.099906743 -38.153919 -24.166746 -124.32549
190819000 -24.189264 -133.91832 -0.10196538 -38.353031 -0.10080506 -38.34938 -24.123665 -124.3558
191818000 -24.162975 -134.23199 -0.10189992 -38.546211 -0.10059444 -38.549755 -24.096615 -124.36619
192817000 -24.11834 -134.49539 -0.10227598 -38.74482 -0.10093011 -38.745667 -24.054327 -124.46132
193816000 -24.082176 -134.75125 -0.10263962 -38.942638 -0.10034435 -38.938251 -24.003496 -124.60683
194815000 -24.022598 -135.12425 -0.10303906 -39.138264 -0.10215672 -39.136131 -23.940187 -124.66983
195814000 -23.966778 -135.31143 -0.10395712 -39.33577 -0.10195319 -39.32869 -23.880222 -124.75279
196813000 -23.918077 -135.6371 -0.1028877 -39.528275 -0.10233667 -39.531857 -23.804991 -124.91643
197812000 -23.858139 -135.86241 -0.1027345 -39.725395 -0.10251557 -39.723125 -23.735298 -125.00362
198811000 -23.805683 -136.03564 -0.10333304 -39.925686 -0.10136067 -39.923744 -23.66729 -125.16475
199810000 -23.737204 -136.34247 -0.10398628 -40.120865 -0.10185646 -40.115627 -23.589159 -125.22488
200809000 -23.673895 -136.64709 -0.10323655 -40.31382 -0.10251663 -40.318317 -23.513483 -125.41814
201808000 -23.618612 -136.79608 -0.10503659 -40.518909 -0.10406715 -40.516651 -23.445446 -125.44769
202807000 -23.567154 -137.12968 -0.10562086 -40.71685 -0.10378902 -40.72044 -23.392275 -125.65131
