!Keysight Technologies,E5080B,MY59205177,A.15.75.32
!Date: Friday, February 23, 2024 03:40:59
!Correction: S11(Cdelta 2-Port  ) 
!S21(Cdelta 2-Port  ) 
!S12(Cdelta 2-Port  ) 
!S22(Cdelta 2-Port  ) 
!S2P File: Measurements: S11, S21, S12, S22:
# Hz S  dB   R 50
10000000 -46.083412 -2.5099025 -0.014479872 -2.044157 -0.018427655 -2.0964761 -45.912373 -157.37094
10999000 -45.315044 -4.7897782 -0.015518893 -2.2586706 -0.018195776 -2.3129389 -45.809296 -151.1171
11998000 -44.367847 -7.9874401 -0.016430318 -2.4852824 -0.017672017 -2.5290692 -46.014629 -146.74449
12997000 -43.578262 -13.18394 -0.014936751 -2.6669679 -0.017339079 -2.6972055 -45.620049 -141.03365
13996000 -43.31992 -17.522581 -0.014415202 -2.8464758 -0.017567012 -2.8660185 -45.382717 -135.83841
14995000 -42.923283 -21.873795 -0.016475013 -3.0562906 -0.017119471 -3.0790725 -45.071865 -132.60419
15994000 -42.716465 -26.146011 -0.017553236 -3.2749922 -0.019727131 -3.2961011 -44.884579 -129.43179
16993000 -42.719151 -30.629324 -0.016465658 -3.4726081 -0.018765617 -3.4815657 -44.124439 -129.12605
17992000 -42.709881 -36.380234 -0.016642615 -3.6708796 -0.01978226 -3.6719034 -43.537689 -128.89743
18991000 -42.976055 -41.643505 -0.017949875 -3.8791881 -0.020070396 -3.8805845 -42.908825 -127.94337
19990000 -42.727604 -47.253941 -0.02120674 -4.0887957 -0.022171659 -4.0850115 -42.227512 -128.72289
20989000 -42.54763 -50.851795 -0.022719903 -4.2917876 -0.024339277 -4.2805076 -41.689079 -128.25092
21988000 -42.329788 -56.058502 -0.023244012 -4.4920044 -0.025268959 -4.4776921 -41.440865 -127.52158
22987000 -42.025791 -60.6833 -0.024244264 -4.6888952 -0.025962641 -4.6811471 -41.193565 -126.96586
23986000 -41.926243 -65.064751 -0.024362966 -4.8846521 -0.025268178 -4.8835673 -41.034992 -126.81961
24985000 -41.508198 -67.903183 -0.02586004 -5.0921926 -0.025529338 -5.0920267 -40.793819 -124.33598
25984000 -41.159813 -69.991081 -0.026146235 -5.2970729 -0.026752021 -5.296802 -40.463017 -122.77203
26983000 -40.878822 -71.613808 -0.027422495 -5.4954839 -0.027720517 -5.5155997 -40.386818 -122.21533
27982000 -40.70211 -72.483749 -0.028738216 -5.6951919 -0.028395308 -5.7342157 -40.104019 -120.36275
28981000 -40.609077 -74.443008 -0.026423855 -5.8949928 -0.028654311 -5.9207792 -39.8391 -119.97013
29980000 -40.195049 -75.187843 -0.026737956 -6.0891657 -0.028384104 -6.0984001 -39.621571 -119.09297
30979000 -39.840889 -74.227737 -0.023796555 -6.443954 -0.023513118 -6.4345589 -39.112926 -119.45078
31978000 -39.644379 -75.193619 -0.022958267 -6.6384568 -0.024435855 -6.6286669 -38.848206 -118.74579
32977000 -39.446785 -76.758011 -0.02353524 -6.8516846 -0.02524084 -6.8438344 -38.619015 -118.73101
33976000 -39.312519 -78.077126 -0.024179187 -7.0492439 -0.02536712 -7.0438318 -38.348209 -118.19366
34975000 -38.993397 -78.723717 -0.024765173 -7.2480006 -0.026594706 -7.2483435 -38.11895 -117.94606
35974000 -38.786434 -79.220459 -0.023576884 -7.4431124 -0.026311867 -7.4471903 -37.849602 -116.97462
36973000 -38.555511 -79.969505 -0.023923054 -7.6411972 -0.026558504 -7.6464634 -37.586178 -115.98669
37972000 -38.393456 -79.679268 -0.023593539 -7.8524952 -0.026557723 -7.8652806 -37.381054 -115.23539
38971000 -38.083321 -79.074356 -0.024243742 -8.0521412 -0.027117722 -8.0628633 -37.182854 -113.60394
39970000 -37.750835 -79.458565 -0.022220574 -8.2485838 -0.0258728 -8.2670069 -36.948551 -113.24038
40969000 -37.47324 -79.12558 -0.022490397 -8.4450941 -0.025714997 -8.4641123 -36.702263 -111.71075
41968000 -37.124771 -78.986633 -0.023209399 -8.6491833 -0.025993109 -8.6665716 -36.542404 -110.50294
42967000 -36.86731 -79.128227 -0.022865627 -8.8625984 -0.026069671 -8.87708 -36.33284 -108.69603
43966000 -36.561218 -79.651123 -0.023589116 -9.0568914 -0.027561083 -9.0836639 -36.072754 -107.79587
44965000 -36.335384 -80.497604 -0.024593873 -9.2677879 -0.027603285 -9.2863121 -35.847717 -107.63053
45964000 -36.118694 -81.591629 -0.025239278 -9.4684277 -0.028129809 -9.4846249 -35.632385 -107.36234
46963000 -35.919674 -83.519653 -0.025305672 -9.6558437 -0.029208846 -9.6785336 -35.449043 -107.49347
47962000 -35.724571 -84.84182 -0.026980711 -9.8584032 -0.030194832 -9.8800945 -35.253929 -107.75468
48961000 -35.543037 -86.09597 -0.029764233 -10.060472 -0.031876974 -10.07973 -35.028584 -107.81738
49960000 -35.283119 -87.459084 -0.030972468 -10.257092 -0.032746196 -10.282397 -34.899178 -107.9046
50959000 -35.067577 -88.69046 -0.031274121 -10.470226 -0.034520909 -10.483006 -34.716961 -108.16743
51958000 -34.848415 -89.812805 -0.03275454 -10.667255 -0.035902467 -10.679849 -34.532436 -108.60225
52957000 -34.646099 -90.837784 -0.034558482 -10.867982 -0.037248176 -10.877272 -34.380367 -108.39363
53956000 -34.464279 -91.622879 -0.035551425 -11.07088 -0.038209353 -11.071057 -34.236992 -108.38219
54955000 -34.296947 -91.984261 -0.036391366 -11.27082 -0.038546767 -11.268939 -34.097477 -108.28606
55954000 -34.130131 -92.814766 -0.037983205 -11.471728 -0.039123464 -11.468364 -33.985294 -108.03158
56953000 -34.008018 -92.947479 -0.03755549 -11.672772 -0.037270106 -11.654519 -33.908821 -108.21935
57952000 -33.85125 -93.400497 -0.038816039 -11.865892 -0.038531359 -11.861829 -33.787685 -108.3092
58951000 -33.726311 -93.660004 -0.039320413 -12.075759 -0.039063908 -12.05251 -33.653961 -108.34343
59950000 -33.597569 -94.086601 -0.040050309 -12.275065 -0.040575467 -12.252434 -33.5797 -108.68194
60949000 -33.480522 -94.66246 -0.04023267 -12.476377 -0.040805407 -12.45251 -33.476524 -109.00827
61948000 -33.419365 -95.024025 -0.04118719 -12.672491 -0.040718917 -12.661654 -33.382137 -109.03355
62947000 -33.330448 -95.186417 -0.040764906 -12.887941 -0.041392598 -12.866802 -33.234905 -109.3158
63946000 -33.252697 -95.998108 -0.042094085 -13.085637 -0.042641975 -13.063979 -33.144382 -109.39235
64945000 -33.134041 -96.12291 -0.04267047 -13.285364 -0.04336432 -13.27057 -33.025253 -109.96844
65944000 -33.036129 -96.445007 -0.043411124 -13.484654 -0.043401711 -13.467506 -32.925426 -110.3297
66943000 -32.892113 -96.783524 -0.040706374 -13.687288 -0.041916613 -13.671329 -32.824982 -110.59907
67942000 -32.839256 -96.845474 -0.043414261 -13.881499 -0.043335821 -13.872805 -32.698338 -110.9433
68941000 -32.7327 -96.947029 -0.042123623 -14.078017 -0.042707067 -14.068285 -32.584232 -110.86433
69940000 -32.627983 -96.887123 -0.042772423 -14.276258 -0.043353863 -14.26899 -32.44165 -111.15646
70939000 -32.525024 -96.769432 -0.042986795 -14.474885 -0.042649295 -14.467309 -32.312622 -111.06198
71938000 -32.385765 -96.422585 -0.043680958 -14.668391 -0.043556236 -14.662522 -32.188736 -110.81567
72937000 -32.230469 -96.175789 -0.042177208 -14.868192 -0.04313843 -14.862766 -32.04887 -110.54108
73936000 -32.086266 -95.8358 -0.042140089 -15.06769 -0.04150001 -15.057787 -31.92436 -110.39719
74935000 -31.969885 -96.040871 -0.040850874 -15.264383 -0.040889289 -15.260637 -31.787735 -110.06042
75934000 -31.838802 -96.251816 -0.041743588 -15.473609 -0.040970556 -15.46902 -31.694841 -109.98499
76933000 -31.710466 -96.681015 -0.042810589 -15.665281 -0.042379264 -15.661877 -31.529829 -110.27344
77932000 -31.611708 -97.461823 -0.043557543 -15.864555 -0.044005986 -15.856273 -31.421539 -110.25525
78931000 -31.525673 -98.115288 -0.042750984 -16.061981 -0.043500543 -16.060511 -31.337351 -110.13821
79930000 -31.425396 -98.971359 -0.04506648 -16.255259 -0.046146072 -16.255058 -31.225569 -110.39679
80929000 -31.307056 -99.757889 -0.046977859 -16.448702 -0.04712937 -16.449802 -31.131897 -110.64873
81928000 -31.210888 -100.51726 -0.047347881 -16.64542 -0.047548346 -16.640774 -31.011126 -110.67297
82927000 -31.107157 -101.21362 -0.048878558 -16.844856 -0.048878297 -16.841652 -30.897205 -110.88786
83926000 -30.98712 -101.90828 -0.049578376 -17.039665 -0.048986416 -17.040443 -30.783777 -111.05872
84925000 -30.886608 -102.31919 -0.05056088 -17.242916 -0.04962891 -17.238016 -30.685654 -111.18917
85924000 -30.792658 -102.72945 -0.051260449 -17.443888 -0.050607234 -17.438681 -30.604534 -111.144
86923000 -30.688784 -103.1658 -0.051764961 -17.637032 -0.051365484 -17.633091 -30.507895 -110.97124
87922000 -30.587515 -103.54792 -0.051061384 -17.843964 -0.050457437 -17.834438 -30.418518 -111.02157
88921000 -30.504173 -103.83183 -0.052182287 -18.045113 -0.051213302 -18.037491 -30.33279 -110.97248
89920000 -30.40543 -104.34074 -0.05325605 -18.241787 -0.051805303 -18.235201 -30.267313 -111.15763
90919000 -30.29954 -104.54514 -0.054022886 -18.437378 -0.052945267 -18.434168 -30.186754 -111.35683
91918000 -30.205368 -104.93873 -0.054678448 -18.641966 -0.054017909 -18.631798 -30.115154 -111.31498
92917000 -30.114265 -105.2354 -0.055508986 -18.838438 -0.055081639 -18.837118 -30.051279 -111.42935
93916000 -30.025002 -105.56302 -0.054856971 -19.031662 -0.055005349 -19.029724 -29.959171 -112.08901
94915000 -29.945179 -106.22832 -0.056208041 -19.233522 -0.05596653 -19.224667 -29.905033 -111.95166
95914000 -29.887363 -106.43076 -0.057879563 -19.427143 -0.056562066 -19.425198 -29.814999 -112.2017
96913000 -29.797346 -106.61634 -0.059040539 -19.627584 -0.05766708 -19.625885 -29.744513 -112.55126
97912000 -29.718443 -107.09606 -0.059606582 -19.822689 -0.058035392 -19.826256 -29.663717 -112.82616
98911000 -29.610321 -107.23134 -0.060336743 -20.026928 -0.059347037 -20.025658 -29.630007 -112.97939
99910000 -29.551733 -107.40276 -0.061184637 -20.223372 -0.059594247 -20.222399 -29.514179 -113.27659
100909000 -29.461571 -107.63309 -0.060171645 -20.4338 -0.059100892 -20.429522 -29.43351 -113.48939
101908000 -29.3703 -107.86932 -0.061994363 -20.633444 -0.060513921 -20.634005 -29.320673 -113.29888
102907000 -29.235615 -107.88266 -0.062080491 -20.831669 -0.06098827 -20.83584 -29.255535 -113.23116
103906000 -29.146975 -107.91568 -0.062163733 -21.040157 -0.060115475 -21.03586 -29.104204 -113.22084
104905000 -28.995146 -107.77664 -0.063107587 -21.235823 -0.060326505 -21.233976 -28.987152 -112.87991
105904000 -28.858786 -107.8668 -0.063166156 -21.443552 -0.060497645 -21.433819 -28.875971 -112.76421
106903000 -28.744385 -107.99609 -0.062456008 -21.647266 -0.060909249 -21.638422 -28.745651 -112.66114
107902000 -28.584673 -108.31242 -0.063882209 -21.847292 -0.061801109 -21.836458 -28.609179 -112.62318
108901000 -28.481546 -108.522 -0.064303853 -22.046764 -0.062784545 -22.040882 -28.487024 -112.57783
109900000 -28.348356 -108.93081 -0.06580478 -22.24968 -0.064169347 -22.241863 -28.337484 -112.62704
110899000 -28.230871 -109.54716 -0.067574911 -22.446388 -0.064277843 -22.438705 -28.217253 -112.87084
111898000 -28.13802 -110.23444 -0.06834165 -22.646296 -0.065480217 -22.643005 -28.09753 -113.0396
112897000 -28.011786 -110.74332 -0.07043957 -22.844248 -0.066710256 -22.834463 -27.961451 -113.19394
113896000 -27.91614 -111.30793 -0.071206555 -23.048981 -0.068155475 -23.036507 -27.861008 -113.30922
114895000 -27.809364 -111.93138 -0.071986303 -23.246733 -0.069606699 -23.231243 -27.745508 -113.37666
115894000 -27.681799 -112.31711 -0.072961256 -23.445604 -0.070857383 -23.433584 -27.682228 -113.61056
116893000 -27.609692 -112.78742 -0.073989615 -23.642609 -0.071683384 -23.627802 -27.556288 -113.67207
117892000 -27.526049 -113.28738 -0.074120216 -23.836706 -0.071520485 -23.826578 -27.485252 -113.84254
118891000 -27.466499 -113.69708 -0.074483871 -24.041111 -0.072228178 -24.026833 -27.382702 -113.96695
119890000 -27.380487 -114.085 -0.075183615 -24.243256 -0.072897546 -24.229778 -27.379066 -114.12648
120889000 -27.327261 -114.52599 -0.075784691 -24.443836 -0.072420321 -24.425615 -27.303701 -114.01254
121888000 -27.293905 -114.90582 -0.076132409 -24.636129 -0.073076032 -24.625898 -27.237892 -114.3018
122887000 -27.249353 -115.01508 -0.076742046 -24.842846 -0.074326925 -24.830767 -27.19384 -114.35616
123886000 -27.196882 -115.49306 -0.078022458 -25.04459 -0.074613959 -25.029528 -27.174656 -114.49784
124885000 -27.159056 -116.01762 -0.078258343 -25.242714 -0.074388281 -25.226807 -27.150764 -114.53741
125884000 -27.112331 -116.21249 -0.078811869 -25.439306 -0.074918136 -25.427757 -27.123629 -114.69691
126883000 -27.097878 -116.54125 -0.078935236 -25.64576 -0.07552655 -25.629118 -27.082005 -114.69509
127882000 -27.040741 -116.85358 -0.079522856 -25.84313 -0.076661423 -25.829025 -27.040741 -114.83465
128881000 -27.011055 -117.20397 -0.079677358 -26.049097 -0.076082885 -26.031097 -27.001352 -114.91325
129880000 -26.960024 -117.52808 -0.080737635 -26.249035 -0.076583967 -26.230335 -26.964193 -114.90621
130879000 -26.902689 -117.65784 -0.080050968 -26.445444 -0.077894114 -26.431589 -26.889769 -114.90639
131878000 -26.835018 -117.86593 -0.08023528 -26.650412 -0.077701204 -26.631435 -26.829556 -114.76171
132877000 -26.770451 -117.98669 -0.080782466 -26.853334 -0.077827439 -26.833878 -26.753826 -114.75616
133876000 -26.683149 -118.12041 -0.080627926 -27.050753 -0.077517524 -27.034075 -26.670351 -114.6275
134875000 -26.593557 -118.24982 -0.080514006 -27.253 -0.078583598 -27.229694 -26.576056 -114.43594
135874000 -26.511982 -118.25742 -0.081262991 -27.456369 -0.077880144 -27.433064 -26.4729 -114.43541
136873000 -26.402958 -118.21601 -0.081314422 -27.658236 -0.077440836 -27.639311 -26.39444 -114.37129
137872000 -26.324524 -118.30768 -0.08107309 -27.855997 -0.077793173 -27.839611 -26.289793 -114.32327
138871000 -26.251007 -118.48669 -0.081374556 -28.058922 -0.078716449 -28.04217 -26.200085 -114.44775
139870000 -26.148539 -118.77663 -0.082814634 -28.253063 -0.079720333 -28.241219 -26.115362 -114.61015
140869000 -26.075003 -119.35497 -0.082659498 -28.45525 -0.079813927 -28.438721 -26.022018 -114.82197
141868000 -25.992399 -119.74006 -0.083380878 -28.654516 -0.081696615 -28.63833 -25.971703 -115.08794
142867000 -25.910816 -119.94717 -0.08246585 -28.847319 -0.080840223 -28.833254 -25.893511 -115.18555
143866000 -25.837852 -120.41502 -0.084273405 -29.044201 -0.082140833 -29.033474 -25.822918 -115.63807
144865000 -25.783092 -120.93088 -0.085672997 -29.2474 -0.083822638 -29.231024 -25.763977 -115.92694
145864000 -25.729992 -121.24957 -0.086078018 -29.448809 -0.085379422 -29.435455 -25.728735 -116.18854
146863000 -25.677567 -121.61846 -0.086817399 -29.648144 -0.085456245 -29.637478 -25.682169 -116.46437
147862000 -25.643976 -121.94302 -0.087989047 -29.84498 -0.086267866 -29.833895 -25.651613 -116.79289
148861000 -25.608027 -122.38271 -0.089491837 -30.044083 -0.087932512 -30.02766 -25.624655 -116.98184
149860000 -25.576374 -122.56796 -0.089792825 -30.234188 -0.087877043 -30.220339 -25.576717 -117.10497
150859000 -25.558683 -123.04873 -0.089082792 -30.431396 -0.087676823 -30.42308 -25.55629 -117.41994
151858000 -25.544399 -123.38078 -0.089155719 -30.632986 -0.086988263 -30.620777 -25.541346 -117.77589
152857000 -25.527695 -123.68681 -0.089538604 -30.832851 -0.087673649 -30.816259 -25.529509 -117.95856
153856000 -25.525417 -123.91751 -0.089227065 -31.030554 -0.086816609 -31.018337 -25.544756 -118.27032
154855000 -25.525076 -124.06606 -0.0894152 -31.232447 -0.086982191 -31.219597 -25.533922 -118.51946
155854000 -25.542418 -124.3172 -0.090185016 -31.435328 -0.087718822 -31.420237 -25.524862 -118.81306
156853000 -25.524334 -125.02987 -0.087853797 -31.617384 -0.086986683 -31.61112 -25.519356 -119.1172
157852000 -25.530029 -125.21944 -0.088352807 -31.823914 -0.088287555 -31.810736 -25.505405 -119.46685
158851000 -25.525726 -125.46851 -0.089860745 -32.018158 -0.088539056 -32.011845 -25.487642 -119.71256
159850000 -25.512302 -125.56206 -0.089667298 -32.21661 -0.08874619 -32.210968 -25.489285 -119.91316
160849000 -25.497679 -125.6455 -0.09030474 -32.417492 -0.089873426 -32.413704 -25.456066 -120.20968
161848000 -25.486208 -125.72866 -0.090145633 -32.615429 -0.089643516 -32.612518 -25.421221 -120.30367
162847000 -25.442593 -125.87651 -0.090331696 -32.81702 -0.089939229 -32.812183 -25.39118 -120.52702
163846000 -25.407387 -126.09026 -0.090755925 -33.018253 -0.089519314 -33.012356 -25.318264 -120.5644
164845000 -25.348646 -126.09078 -0.091245219 -33.216175 -0.089887694 -33.209297 -25.253075 -120.64938
165844000 -25.293633 -126.11425 -0.091361269 -33.417061 -0.090237081 -33.413292 -25.175905 -120.77898
166843000 -25.228161 -126.15479 -0.090937518 -33.614552 -0.090443499 -33.613758 -25.106476 -120.93423
167842000 -25.173788 -126.25854 -0.091731131 -33.813015 -0.090797946 -33.810287 -25.035194 -120.87028
168841000 -25.099287 -126.45558 -0.091639653 -34.018353 -0.091332987 -34.008778 -24.962032 -120.93584
169840000 -25.033939 -126.67862 -0.092082776 -34.211094 -0.091185473 -34.20491 -24.871542 -121.11566
170839000 -24.972404 -126.92406 -0.093486212 -34.406002 -0.092166856 -34.406395 -24.793224 -121.28659
171838000 -24.916307 -127.2866 -0.092550799 -34.612694 -0.092946418 -34.59938 -24.729979 -121.48765
172837000 -24.846281 -127.58384 -0.094240077 -34.805397 -0.09391021 -34.800034 -24.660744 -121.69678
173836000 -24.772831 -128.0475 -0.095475383 -35.007671 -0.094502248 -35.002647 -24.62101 -121.93146
174835000 -24.727053 -128.40477 -0.095922075 -35.20163 -0.095576733 -35.202034 -24.579922 -122.25556
175834000 -24.671692 -128.78908 -0.096595109 -35.402489 -0.09614782 -35.399841 -24.516493 -122.51839
176833000 -24.622137 -129.13939 -0.097824462 -35.600471 -0.097063884 -35.600891 -24.473425 -122.65559
177832000 -24.582901 -129.51373 -0.098737173 -35.801292 -0.098535128 -35.803051 -24.452118 -122.76135
178831000 -24.535713 -129.77582 -0.10017931 -35.992603 -0.099793904 -35.991299 -24.414242 -122.81896
179830000 -24.466198 -130.16676 -0.10112591 -36.177917 -0.10044847 -36.183022 -24.34964 -122.89333
180829000 -24.41296 -130.51807 -0.10025004 -36.376141 -0.10008793 -36.371952 -24.305759 -123.20734
181828000 -24.389566 -130.96324 -0.099910453 -36.575481 -0.099825688 -36.567951 -24.292196 -123.42165
182827000 -24.372246 -131.30688 -0.098998286 -36.769348 -0.09943369 -36.770348 -24.281755 -123.55563
183826000 -24.326843 -131.64209 -0.10052211 -36.971153 -0.099214129 -36.969254 -24.264759 -123.69152
184825000 -24.332705 -131.98366 -0.10004502 -37.166061 -0.099556051 -37.167366 -24.254639 -123.81873
185824000 -24.302444 -132.38535 -0.099906214 -37.358166 -0.10013375 -37.363876 -24.245201 -123.88726
186823000 -24.287615 -132.7502 -0.099808738 -37.562618 -0.099963956 -37.561924 -24.237774 -123.91929
187822000 -24.26527 -133.06209 -0.10017216 -37.758759 -0.10053138 -37.758247 -24.199598 -124.02
188821000 -24.242907 -133.33658 -0.10060292 -37.95253 -0.10038488 -37.95623 -24.180513 -124.13026
189820000 -24.221453 -133.61607 -0.10044237 -38.153515 -0.10009322 -38.155025 -24.160709 -124.2848
190819000 -24.1922 -133.92171 -0.10115135 -38.349426 -0.10117573 -38.349949 -24.124943 -124.34693
191818000 -24.160103 -134.22755 -0.10147884 -38.547935 -0.10127217 -38.549488 -24.098127 -124.36417
192817000 -24.111248 -134.5123 -0.10193834 -38.741978 -0.10146507 -38.748039 -24.051298 -124.46442
193816000 -24.079704 -134.74231 -0.10244984 -38.939152 -0.10111876 -38.938919 -24.000122 -124.61249
194815000 -24.019533 -135.12163 -0.1029614 -39.133408 -0.1022728 -39.136894 -23.939341 -124.67439
195814000 -23.964449 -135.31837 -0.10255612 -39.333126 -0.10251743 -39.333836 -23.88089 -124.76477
196813000 -23.914032 -135.62723 -0.10289301 -39.530136 -0.10253943 -39.527813 -23.804689 -124.90818
197812000 -23.853193 -135.84993 -0.1031443 -39.727295 -0.10320845 -39.721863 -23.736557 -124.98819
198811000 -23.800966 -136.01514 -0.10271065 -39.922668 -0.10200619 -39.922222 -23.667852 -125.15509
199810000 -23.735189 -136.37981 -0.1028999 -40.117035 -0.10279971 -40.117809 -23.586418 -125.24461
200809000 -23.677338 -136.62178 -0.10382084 -40.314014 -0.10344438 -40.315247 -23.511324 -125.40121
201808000 -23.618048 -136.82133 -0.10502148 -40.511997 -0.10398389 -40.51506 -23.444643 -125.48093
202807000 -23.561266 -137.15068 -0.10465897 -40.714283 -0.1051806 -40.718769 -23.393095 -125.66937
