!Keysight Technologies,E5080B,MY59205177,A.15.75.32
!Date: Friday, February 23, 2024 03:02:44
!Correction: S11(Cdelta 2-Port  ) 
!S21(Cdelta 2-Port  ) 
!S12(Cdelta 2-Port  ) 
!S22(Cdelta 2-Port  ) 
!S2P File: Measurements: S11, S21, S12, S22:
# Hz S  dB   R 50
10000000 -44.15456 -3.8733752 -0.027852861 -2.038691 -0.030987328 -2.0923417 -47.989765 -150.19516
10999000 -43.523468 -5.4507766 -0.029289896 -2.2602243 -0.029894294 -2.3075471 -47.760754 -142.91791
11998000 -42.724636 -7.9100757 -0.02878095 -2.4833713 -0.029954504 -2.5227687 -47.842693 -137.69373
12997000 -42.142216 -12.659259 -0.028498491 -2.6580794 -0.029622449 -2.687582 -47.181526 -131.1076
13996000 -41.880829 -16.254669 -0.027184144 -2.8374288 -0.029791601 -2.8583479 -46.867832 -125.46122
14995000 -41.547768 -19.961554 -0.029295368 -3.0423687 -0.029797075 -3.0738881 -46.300472 -121.89256
15994000 -41.464451 -23.753424 -0.030475838 -3.265363 -0.031845681 -3.2862189 -46.172455 -118.17831
16993000 -41.382809 -27.983265 -0.02952341 -3.4608788 -0.031563282 -3.4702518 -45.186905 -119.23923
17992000 -41.520294 -32.125957 -0.030371046 -3.6604342 -0.03178414 -3.661097 -44.592632 -120.12905
18991000 -41.744236 -36.865326 -0.030855931 -3.8701377 -0.032636914 -3.8659487 -43.854992 -119.604
19990000 -41.629353 -42.016739 -0.033160135 -4.0781007 -0.034640152 -4.0714645 -43.225384 -120.97425
20989000 -41.551731 -44.808746 -0.035319414 -4.2792416 -0.0371098 -4.2716441 -42.592735 -120.9593
21988000 -41.438328 -49.550686 -0.036354821 -4.473352 -0.037732001 -4.4638958 -42.32489 -120.40469
22987000 -41.184868 -54.088657 -0.037509795 -4.6743989 -0.038477559 -4.6696396 -42.046772 -120.21435
23986000 -41.199799 -57.748383 -0.036620561 -4.8718925 -0.037347391 -4.8692632 -41.911964 -119.90018
24985000 -40.894829 -60.350048 -0.038251396 -5.0764737 -0.037654709 -5.0762835 -41.667233 -117.41708
25984000 -40.657177 -62.42905 -0.03849845 -5.2829022 -0.037973281 -5.283216 -41.304855 -115.98303
26983000 -40.34787 -64.409302 -0.039689265 -5.4803963 -0.039167345 -5.4973783 -41.201073 -115.4474
27982000 -40.194557 -65.363632 -0.041070115 -5.6828675 -0.040267158 -5.7136478 -40.881668 -113.80109
28981000 -40.198093 -66.806534 -0.038813166 -5.8783112 -0.04058383 -5.9017825 -40.687679 -113.10043
29980000 -39.86171 -68.537842 -0.038365781 -6.0662808 -0.0404558 -6.07586 -40.308739 -112.32836
30979000 -39.459969 -67.449066 -0.036866218 -6.4255528 -0.035839304 -6.416316 -39.817314 -113.13018
31978000 -39.281265 -68.718422 -0.035444163 -6.618259 -0.037100662 -6.6079502 -39.565208 -112.72724
32977000 -39.09837 -70.197685 -0.035703324 -6.8294439 -0.037592042 -6.8231277 -39.317535 -112.69824
33976000 -38.949497 -71.28569 -0.036317751 -7.0305696 -0.0374064 -7.0230603 -38.986553 -112.33688
34975000 -38.676361 -72.260551 -0.036183324 -7.2279148 -0.038980588 -7.2285199 -38.75713 -112.16528
35974000 -38.481354 -72.935417 -0.035331421 -7.424263 -0.038390853 -7.4286675 -38.464725 -111.3196
36973000 -38.281693 -73.822998 -0.036292695 -7.6225209 -0.039425686 -7.6293221 -38.16851 -110.53803
37972000 -38.100258 -73.791473 -0.036476463 -7.8306327 -0.038746826 -7.8411112 -37.941429 -109.91604
38971000 -37.775856 -73.448784 -0.036867786 -8.0345764 -0.039077491 -8.0441418 -37.745823 -108.41091
39970000 -37.456047 -74.02095 -0.035201456 -8.2253599 -0.037643746 -8.2425022 -37.428139 -108.00139
40969000 -37.183491 -73.935959 -0.034970768 -8.4216833 -0.038348544 -8.4438334 -37.191681 -106.67111
41968000 -36.8437 -74.138832 -0.035046183 -8.6292257 -0.037600398 -8.6402807 -36.988804 -105.54823
42967000 -36.585915 -74.508339 -0.034929015 -8.83389 -0.037959442 -8.8533249 -36.74815 -103.90197
43966000 -36.298882 -75.368668 -0.035942923 -9.0365009 -0.039428819 -9.0551376 -36.477859 -103.24986
44965000 -36.080791 -76.114693 -0.036351167 -9.236351 -0.039752223 -9.2594748 -36.239586 -103.1893
45964000 -35.872295 -77.335297 -0.037781615 -9.4352837 -0.040172055 -9.456605 -36.004845 -103.04475
46963000 -35.693401 -79.343811 -0.038573407 -9.6281433 -0.041286234 -9.6545238 -35.826427 -103.40223
47962000 -35.536713 -80.806 -0.039376315 -9.8359642 -0.04286366 -9.8489819 -35.624737 -103.64922
48961000 -35.349644 -82.275368 -0.042097747 -10.03056 -0.044531886 -10.050465 -35.395393 -103.81891
49960000 -35.132618 -83.692253 -0.043105487 -10.227233 -0.045118008 -10.250529 -35.258797 -104.05412
50959000 -34.914665 -85.073227 -0.043473352 -10.442099 -0.046044562 -10.452157 -35.082142 -104.45586
51958000 -34.72081 -86.230797 -0.044769358 -10.637552 -0.047417495 -10.651499 -34.906948 -104.97042
52957000 -34.532764 -87.366043 -0.046498757 -10.839185 -0.049242724 -10.844595 -34.740452 -104.84575
53956000 -34.351948 -88.079689 -0.047831524 -11.040183 -0.049567644 -11.042147 -34.595421 -104.83765
54955000 -34.200695 -88.57943 -0.04925555 -11.238221 -0.050792921 -11.237253 -34.451973 -104.89148
55954000 -34.036453 -89.457275 -0.049978476 -11.444984 -0.05103755 -11.437131 -34.33865 -104.59977
56953000 -33.927418 -89.612709 -0.050111499 -11.639681 -0.049349803 -11.627051 -34.263996 -104.79898
57952000 -33.772415 -90.154045 -0.051349245 -11.832993 -0.050780088 -11.829987 -34.162579 -104.9523
58951000 -33.656914 -90.516586 -0.051438827 -12.038398 -0.052225254 -12.023396 -34.019829 -105.00522
59950000 -33.529415 -90.870132 -0.052917231 -12.238956 -0.052786216 -12.217501 -33.948059 -105.35014
60949000 -33.430893 -91.482704 -0.05290072 -12.441703 -0.052899148 -12.420613 -33.849819 -105.54629
61948000 -33.374668 -91.720726 -0.053007368 -12.641029 -0.052614853 -12.621758 -33.7687 -105.7499
62947000 -33.292686 -91.968857 -0.053669069 -12.849255 -0.053537767 -12.830946 -33.620998 -105.99749
63946000 -33.22224 -92.670738 -0.053826317 -13.050783 -0.054059319 -13.033339 -33.51667 -106.08088
64945000 -33.118118 -92.881104 -0.054306749 -13.247463 -0.05536662 -13.230021 -33.415112 -106.68727
65944000 -33.019657 -93.121414 -0.055422463 -13.44768 -0.055404373 -13.43004 -33.326389 -107.13051
66943000 -32.885925 -93.622345 -0.053242423 -13.650291 -0.054024197 -13.633761 -33.219505 -107.33254
67942000 -32.822117 -93.580254 -0.055382613 -13.845841 -0.055934802 -13.834609 -33.095715 -107.76541
68941000 -32.714748 -93.668228 -0.054536633 -14.038621 -0.054757878 -14.028665 -32.990829 -107.63535
69940000 -32.617199 -93.687393 -0.055179164 -14.236324 -0.055172347 -14.22933 -32.851391 -107.95473
70939000 -32.513741 -93.710175 -0.054999318 -14.429693 -0.054942433 -14.429233 -32.71574 -107.9073
71938000 -32.369492 -93.332375 -0.054893147 -14.62851 -0.055473853 -14.622599 -32.586514 -107.85188
72937000 -32.202904 -93.172882 -0.053142846 -14.825476 -0.054423656 -14.821672 -32.44751 -107.54504
73936000 -32.067554 -92.878265 -0.054103877 -15.024311 -0.053817146 -15.020411 -32.329494 -107.32877
74935000 -31.952841 -93.074478 -0.054317497 -15.221609 -0.053950023 -15.218213 -32.172997 -106.98946
75934000 -31.821404 -93.427498 -0.053765774 -15.433444 -0.053164594 -15.425547 -32.098816 -106.97011
76933000 -31.693666 -93.781799 -0.055223472 -15.624249 -0.054598495 -15.615534 -31.921131 -107.41224
77932000 -31.595293 -94.610878 -0.056996379 -15.820234 -0.05596181 -15.814002 -31.823212 -107.42142
78931000 -31.525761 -95.418953 -0.054694962 -16.017466 -0.055772495 -16.013201 -31.73217 -107.27637
79930000 -31.436033 -96.148666 -0.056801248 -16.211927 -0.057561629 -16.21002 -31.625875 -107.64635
80929000 -31.296616 -97.132896 -0.059106141 -16.404289 -0.059444923 -16.402979 -31.525169 -107.9588
81928000 -31.218533 -98.005325 -0.059184603 -16.596924 -0.059099846 -16.59326 -31.404476 -108.02991
82927000 -31.128311 -98.722099 -0.061202489 -16.797081 -0.06109643 -16.79508 -31.302921 -108.36884
83926000 -31.014763 -99.492653 -0.061604973 -16.988987 -0.06200723 -16.994678 -31.185923 -108.60854
84925000 -30.907656 -99.856285 -0.063006736 -17.190203 -0.062056597 -17.189873 -31.089853 -108.73365
85924000 -30.820208 -100.35198 -0.062908508 -17.392076 -0.063187696 -17.388788 -31.011766 -108.63483
86923000 -30.710026 -100.85753 -0.063425928 -17.588327 -0.063849106 -17.581688 -30.907118 -108.62688
87922000 -30.603531 -101.25796 -0.063254148 -17.794273 -0.062977843 -17.788307 -30.826485 -108.61674
88921000 -30.547499 -101.5967 -0.064747088 -17.995277 -0.064206652 -17.986652 -30.735647 -108.69672
89920000 -30.444378 -102.1077 -0.065127298 -18.1898 -0.064816982 -18.185181 -30.678486 -108.84272
90919000 -30.340633 -102.38647 -0.066482097 -18.388023 -0.065389551 -18.38242 -30.598841 -108.95869
91918000 -30.251287 -102.81609 -0.067269675 -18.58812 -0.065554589 -18.582129 -30.525595 -109.11406
92917000 -30.156721 -103.1525 -0.068512581 -18.784458 -0.066824079 -18.782661 -30.463301 -109.11412
93916000 -30.077105 -103.49564 -0.067972198 -18.977743 -0.066755205 -18.975313 -30.369066 -109.79398
94915000 -30.002728 -104.22462 -0.069300264 -19.180208 -0.067867287 -19.176538 -30.305035 -109.68533
95914000 -29.937778 -104.34676 -0.069983654 -19.375118 -0.068876028 -19.373375 -30.223314 -109.95689
96913000 -29.858517 -104.62306 -0.071257599 -19.574091 -0.069285534 -19.5728 -30.156155 -110.33086
97912000 -29.786053 -105.09185 -0.07194788 -19.769798 -0.069739014 -19.768227 -30.080702 -110.52504
98911000 -29.686483 -105.26156 -0.07225766 -19.971537 -0.070977367 -19.970201 -30.038551 -110.71188
99910000 -29.618212 -105.45496 -0.073531479 -20.16777 -0.07118471 -20.16773 -29.931728 -111.01559
100909000 -29.529699 -105.73006 -0.072521918 -20.376553 -0.069957614 -20.371037 -29.841934 -111.27396
101908000 -29.444847 -105.97309 -0.073825836 -20.575909 -0.071810499 -20.575865 -29.734905 -111.00543
102907000 -29.311836 -105.99566 -0.07465741 -20.775949 -0.072051048 -20.775002 -29.664232 -110.96866
103906000 -29.219154 -106.1008 -0.074990295 -20.980864 -0.071476802 -20.976721 -29.522646 -110.92986
104905000 -29.072266 -105.95793 -0.075330846 -21.180687 -0.071671806 -21.180653 -29.383987 -110.64176
105904000 -28.930595 -106.09132 -0.074826218 -21.381193 -0.072475068 -21.375498 -29.27269 -110.49699
106903000 -28.818153 -106.234 -0.075542614 -21.58503 -0.072637998 -21.579792 -29.146915 -110.45006
107902000 -28.665794 -106.55315 -0.076285735 -21.786137 -0.072738558 -21.773577 -29.009678 -110.41726
108901000 -28.556704 -106.80123 -0.07686878 -21.989071 -0.074210793 -21.981207 -28.8759 -110.33318
109900000 -28.429113 -107.29869 -0.077735461 -22.189014 -0.075873196 -22.180061 -28.734587 -110.43755
110899000 -28.307926 -107.97432 -0.078939721 -22.380461 -0.076590024 -22.377142 -28.60689 -110.75373
111898000 -28.217175 -108.56562 -0.080501609 -22.582449 -0.07740026 -22.579535 -28.483337 -110.898
112897000 -28.096722 -109.19113 -0.082414404 -22.78368 -0.078272842 -22.775692 -28.354645 -111.05731
113896000 -27.992107 -109.76982 -0.083051048 -22.983553 -0.079814456 -22.97271 -28.249929 -111.19729
114895000 -27.898108 -110.40234 -0.084208742 -23.179079 -0.081052259 -23.168591 -28.136002 -111.26695
115894000 -27.76511 -110.75084 -0.085105136 -23.380812 -0.082120255 -23.371635 -28.065516 -111.46134
116893000 -27.684299 -111.31397 -0.085429318 -23.579453 -0.08248537 -23.562635 -27.935839 -111.5694
117892000 -27.607204 -111.84929 -0.085561588 -23.77519 -0.083263457 -23.761559 -27.869829 -111.7979
118891000 -27.548525 -112.24277 -0.085994057 -23.978069 -0.083544485 -23.963154 -27.773214 -111.95978
119890000 -27.455864 -112.64668 -0.087080963 -24.172575 -0.0847691 -24.161343 -27.762579 -112.0837
120889000 -27.409796 -113.11778 -0.087922744 -24.375628 -0.084506996 -24.359642 -27.689062 -112.05168
121888000 -27.366257 -113.42303 -0.087690555 -24.571911 -0.085139714 -24.559849 -27.622429 -112.34964
122887000 -27.322603 -113.64609 -0.088529281 -24.772141 -0.085478686 -24.757704 -27.583101 -112.37641
123886000 -27.267931 -114.05953 -0.089053728 -24.976742 -0.086160928 -24.956505 -27.566391 -112.54327
124885000 -27.236801 -114.55234 -0.090181582 -25.172728 -0.08638458 -25.160627 -27.534941 -112.61253
125884000 -27.181341 -114.72842 -0.090322182 -25.376059 -0.087335303 -25.360243 -27.507458 -112.78412
126883000 -27.16399 -115.1187 -0.090784207 -25.576164 -0.087126128 -25.566338 -27.46669 -112.83135
127882000 -27.11459 -115.41138 -0.090616092 -25.773071 -0.087915875 -25.757151 -27.428696 -112.99684
128881000 -27.086102 -115.75924 -0.090789229 -25.975946 -0.088145427 -25.958082 -27.387779 -113.11227
129880000 -27.025352 -116.07558 -0.091488697 -26.177172 -0.08833088 -26.159332 -27.343786 -113.08976
130879000 -26.968145 -116.23668 -0.091759682 -26.375935 -0.089118466 -26.363514 -27.269667 -113.14639
131878000 -26.902925 -116.44474 -0.091682218 -26.577738 -0.089575335 -26.556198 -27.198359 -113.11043
132877000 -26.833483 -116.53517 -0.091163002 -26.780725 -0.089597009 -26.759047 -27.119207 -113.10587
133876000 -26.755867 -116.70587 -0.092401132 -26.980885 -0.089657255 -26.961735 -27.031605 -112.95821
134875000 -26.650555 -116.83547 -0.092459306 -27.178038 -0.089289427 -27.159769 -26.925758 -112.84144
135874000 -26.575809 -116.8392 -0.092541814 -27.380526 -0.089909367 -27.361549 -26.829674 -112.84277
136873000 -26.465528 -116.76848 -0.092558205 -27.580782 -0.089449026 -27.564556 -26.747328 -112.81712
137872000 -26.386646 -116.89122 -0.093194753 -27.784245 -0.09003067 -27.768421 -26.635412 -112.72185
138871000 -26.317028 -117.12818 -0.094017342 -27.981226 -0.090240516 -27.966633 -26.543022 -112.91888
139870000 -26.212831 -117.37479 -0.094436109 -28.181471 -0.091706805 -28.162657 -26.461023 -113.08677
140869000 -26.126265 -117.82152 -0.095285922 -28.376656 -0.092528589 -28.36096 -26.35619 -113.27688
141868000 -26.030987 -118.31 -0.095911488 -28.569731 -0.094248809 -28.550325 -26.285797 -113.54971
142867000 -25.954971 -118.60151 -0.094381347 -28.768364 -0.092162631 -28.750343 -26.208858 -113.75863
143866000 -25.890299 -119.10027 -0.096219011 -28.963251 -0.093606554 -28.946598 -26.135149 -114.26666
144865000 -25.827623 -119.59361 -0.097746626 -29.1619 -0.095361866 -29.147293 -26.081934 -114.58857
145864000 -25.769939 -119.92138 -0.097636752 -29.360672 -0.096117385 -29.352936 -26.045399 -114.85951
146863000 -25.724228 -120.27141 -0.098620392 -29.56233 -0.096337318 -29.545671 -25.998068 -115.12829
147862000 -25.684048 -120.63667 -0.099062905 -29.754883 -0.096995853 -29.745163 -25.958157 -115.51115
148861000 -25.653244 -121.17487 -0.099767946 -29.959099 -0.097745828 -29.944225 -25.931732 -115.75679
149860000 -25.641285 -121.34584 -0.10026647 -30.156853 -0.097138003 -30.146208 -25.89871 -115.91651
150859000 -25.61652 -121.73587 -0.10090627 -30.35191 -0.098272987 -30.339886 -25.895962 -116.14445
151858000 -25.603369 -122.02657 -0.10035972 -30.553345 -0.098204933 -30.538784 -25.886942 -116.43735
152857000 -25.584864 -122.33399 -0.10089275 -30.750673 -0.098549165 -30.739273 -25.86887 -116.58929
153856000 -25.576748 -122.55135 -0.1006612 -30.955507 -0.097664289 -30.937298 -25.882744 -116.86207
154855000 -25.576143 -122.73054 -0.1004127 -31.14551 -0.09811385 -31.136009 -25.868261 -117.08716
155854000 -25.587114 -122.98935 -0.10123746 -31.348591 -0.098563462 -31.334497 -25.864141 -117.34685
156853000 -25.564259 -123.67702 -0.099021859 -31.535521 -0.097977757 -31.527744 -25.852678 -117.6652
157852000 -25.568258 -123.9277 -0.10027071 -31.736164 -0.099088863 -31.725693 -25.850588 -118.0119
158851000 -25.563934 -124.12225 -0.100977 -31.936954 -0.099710204 -31.925346 -25.832563 -118.29963
159850000 -25.550776 -124.23972 -0.10150508 -32.132835 -0.099689543 -32.122936 -25.824894 -118.41866
160849000 -25.532385 -124.38277 -0.10174437 -32.327995 -0.1006861 -32.324497 -25.798214 -118.73834
161848000 -25.516153 -124.4903 -0.10248695 -32.532349 -0.10085778 -32.520969 -25.758448 -118.84826
162847000 -25.469517 -124.69319 -0.10180955 -32.726929 -0.10142267 -32.724659 -25.72805 -119.06457
163846000 -25.431229 -124.9204 -0.10199824 -32.93195 -0.10151435 -32.921162 -25.65156 -119.10179
164845000 -25.373001 -124.9101 -0.10322488 -33.129292 -0.10189223 -33.118931 -25.58474 -119.17978
165844000 -25.319439 -124.99238 -0.10214055 -33.327808 -0.1017184 -33.319279 -25.51005 -119.32703
166843000 -25.253469 -125.08325 -0.10272549 -33.527618 -0.10123561 -33.520912 -25.434795 -119.49289
167842000 -25.192612 -125.19513 -0.10322462 -33.722401 -0.10204912 -33.718105 -25.359375 -119.40732
168841000 -25.118866 -125.41897 -0.10328108 -33.920971 -0.10197015 -33.921223 -25.277737 -119.49677
169840000 -25.050428 -125.6637 -0.10395207 -34.115372 -0.10302925 -34.111012 -25.188524 -119.68655
170839000 -24.992807 -125.93002 -0.10493078 -34.313965 -0.1032954 -34.313808 -25.106737 -119.88087
171838000 -24.934555 -126.36971 -0.10405521 -34.513382 -0.10379751 -34.507816 -25.041822 -120.11021
172837000 -24.863676 -126.74754 -0.10565747 -34.711422 -0.10493343 -34.704018 -24.97311 -120.32401
173836000 -24.797886 -127.13755 -0.10672756 -34.908115 -0.10597735 -34.906452 -24.932671 -120.55404
174835000 -24.745131 -127.57092 -0.10724757 -35.103004 -0.10642459 -35.105904 -24.883669 -120.89568
175834000 -24.694811 -127.97467 -0.10789874 -35.301899 -0.1071693 -35.297699 -24.821354 -121.18304
176833000 -24.642399 -128.34314 -0.10894284 -35.499481 -0.10739616 -35.499184 -24.771925 -121.3516
177832000 -24.595552 -128.84155 -0.1095056 -35.698177 -0.10821508 -35.693802 -24.753702 -121.5173
178831000 -24.556988 -129.19656 -0.1100002 -35.891605 -0.10867263 -35.888184 -24.71209 -121.75122
179830000 -24.523092 -129.61356 -0.11082147 -36.089355 -0.10902566 -36.091969 -24.686752 -121.86816
180829000 -24.483473 -129.85912 -0.11074446 -36.286022 -0.10929854 -36.285847 -24.653917 -122.04079
181828000 -24.455744 -130.2039 -0.11048609 -36.485325 -0.10922023 -36.482182 -24.637236 -122.12778
182827000 -24.43071 -130.56532 -0.11065073 -36.677708 -0.11022827 -36.677643 -24.625631 -122.2282
183826000 -24.391613 -130.86676 -0.11148167 -36.877483 -0.11007693 -36.874275 -24.61665 -122.3693
184825000 -24.395716 -131.19737 -0.11182935 -37.071274 -0.110001 -37.07304 -24.600924 -122.44177
185824000 -24.374004 -131.49944 -0.11074764 -37.264599 -0.11080288 -37.266617 -24.596582 -122.48991
186823000 -24.35531 -131.87985 -0.11137704 -37.468761 -0.11025535 -37.465706 -24.591808 -122.47499
187822000 -24.335562 -132.19313 -0.11256967 -37.661121 -0.11134038 -37.662277 -24.565128 -122.57511
188821000 -24.313534 -132.43144 -0.11203706 -37.857086 -0.11149496 -37.861835 -24.542747 -122.64847
189820000 -24.300299 -132.74208 -0.11242463 -38.060371 -0.11140094 -38.060326 -24.530514 -122.8285
190819000 -24.272833 -132.94885 -0.11367654 -38.259209 -0.1127575 -38.259483 -24.501213 -122.79173
191818000 -24.23691 -133.12231 -0.11467365 -38.449799 -0.11401402 -38.454067 -24.473185 -122.6671
192817000 -24.164772 -133.40579 -0.11535066 -38.638054 -0.11421201 -38.640762 -24.396933 -122.76701
193816000 -24.134535 -133.77422 -0.11447113 -38.82925 -0.11309863 -38.828983 -24.341713 -123.01197
194815000 -24.07618 -134.21141 -0.11445385 -39.026566 -0.11336087 -39.029663 -24.278999 -123.14021
195814000 -24.024836 -134.45937 -0.11538044 -39.224907 -0.11384395 -39.227348 -24.227228 -123.22988
196813000 -23.968498 -134.77696 -0.11497001 -39.419498 -0.11332208 -39.421043 -24.148972 -123.41711
197812000 -23.909611 -135.01508 -0.11399382 -39.614582 -0.11362711 -39.618366 -24.081945 -123.50223
198811000 -23.859793 -135.1889 -0.11410916 -39.815479 -0.11355936 -39.819023 -24.010748 -123.69157
199810000 -23.787777 -135.57176 -0.11471246 -40.007755 -0.11301228 -40.010738 -23.935911 -123.80254
200809000 -23.731859 -135.85092 -0.11515236 -40.205055 -0.1130864 -40.206474 -23.855198 -123.98326
201808000 -23.674566 -136.08101 -0.11579754 -40.405693 -0.1144302 -40.411095 -23.787237 -124.07342
202807000 -23.617212 -136.45462 -0.11664171 -40.608524 -0.11568296 -40.611053 -23.73387 -124.26563
203806000 -23.561554 -136.89012 -0.11729296 -40.805611 -0.11569971 -40.808868 -23.672173 -124.44875
