!Keysight Technologies,E5080B,MY59205177,A.15.75.32
!Date: Friday, February 23, 2024 03:26:44
!Correction: S11(Cdelta 2-Port  ) 
!S21(Cdelta 2-Port  ) 
!S12(Cdelta 2-Port  ) 
!S22(Cdelta 2-Port  ) 
!S2P File: Measurements: S11, S21, S12, S22:
# Hz S  dB   R 50
10000000 -45.916298 -0.57843339 -0.016397839 -2.0590997 -0.019053165 -2.1114106 -46.172729 -159.56918
10999000 -45.176037 -2.3915176 -0.018166924 -2.2762206 -0.019599196 -2.3331473 -46.143085 -153.10184
11998000 -44.228741 -5.7835264 -0.018033834 -2.5041463 -0.018841272 -2.546005 -46.322083 -148.86438
12997000 -43.494125 -11.23281 -0.016875189 -2.6837876 -0.018482247 -2.7162642 -46.033447 -142.4232
13996000 -43.256962 -14.789216 -0.016136449 -2.8641262 -0.019057065 -2.8855267 -45.790821 -137.17264
14995000 -42.861698 -19.288691 -0.018310156 -3.0743575 -0.018296897 -3.0986781 -45.535885 -133.98996
15994000 -42.707581 -23.580015 -0.019759117 -3.2939944 -0.021087864 -3.317126 -45.470177 -130.32384
16993000 -42.686745 -28.196785 -0.019075265 -3.4892602 -0.02028469 -3.503792 -44.64077 -129.86485
17992000 -42.732533 -33.452152 -0.019817626 -3.6900425 -0.021030119 -3.6947999 -44.104408 -129.78246
18991000 -43.039238 -38.326424 -0.019921124 -3.903971 -0.022262985 -3.9014699 -43.401886 -128.54614
19990000 -42.847694 -44.336864 -0.022894252 -4.1137919 -0.024201833 -4.106699 -42.705074 -129.38213
20989000 -42.754494 -47.615417 -0.025235372 -4.3219619 -0.025655366 -4.3088689 -42.17186 -128.89557
21988000 -42.548798 -52.661369 -0.025590269 -4.5167851 -0.026343379 -4.499928 -41.949196 -127.83766
22987000 -42.238514 -57.5411 -0.026916895 -4.7174478 -0.027867191 -4.7113214 -41.687992 -127.41065
23986000 -42.187 -61.712486 -0.027028637 -4.9122057 -0.027005715 -4.9106207 -41.537666 -127.32825
24985000 -41.842388 -64.750351 -0.027665809 -5.1199603 -0.027118502 -5.1210318 -41.35273 -124.74207
25984000 -41.472519 -66.490387 -0.028933914 -5.3300595 -0.027952382 -5.3297806 -41.02042 -123.03221
26983000 -41.179234 -68.729042 -0.029312568 -5.5282483 -0.028503962 -5.5503778 -40.917377 -122.45655
27982000 -41.022312 -69.565559 -0.030506339 -5.7279491 -0.030058768 -5.76297 -40.674351 -120.61543
28981000 -41.029362 -71.122368 -0.028692095 -5.9272614 -0.030748 -5.9507799 -40.408588 -120.18491
29980000 -40.622967 -72.72818 -0.028867204 -6.1201363 -0.031383891 -6.1321859 -40.142487 -119.02471
30979000 -40.22047 -71.396767 -0.026848912 -6.4766655 -0.025861602 -6.4687314 -39.630997 -119.48444
31978000 -40.010517 -72.712242 -0.025702758 -6.6781974 -0.027052341 -6.6603065 -39.390472 -118.73808
32977000 -39.832565 -74.189034 -0.026352495 -6.8832536 -0.027531646 -6.8817868 -39.158562 -118.67271
33976000 -39.634136 -75.272224 -0.02706771 -7.0860767 -0.027900798 -7.0816727 -38.865822 -117.92617
34975000 -39.363022 -76.114761 -0.026791612 -7.286736 -0.029178876 -7.2867727 -38.62915 -117.69382
35974000 -39.134892 -76.701416 -0.026656434 -7.48141 -0.029316738 -7.4876223 -38.351521 -116.71615
36973000 -38.92205 -77.416534 -0.027243536 -7.6857524 -0.030114548 -7.6839204 -38.081387 -115.75314
37972000 -38.756523 -77.135559 -0.026577517 -7.8939767 -0.029778829 -7.9061661 -37.859016 -115.03772
38971000 -38.403 -76.778404 -0.02750325 -8.0958681 -0.030274075 -8.1108646 -37.687614 -113.49959
39970000 -38.062836 -77.095047 -0.026375674 -8.2880173 -0.028760364 -8.3086243 -37.431683 -112.76451
40969000 -37.76907 -76.762924 -0.027136216 -8.4898539 -0.028639458 -8.5088205 -37.167526 -111.26167
41968000 -37.428493 -76.820045 -0.026197279 -8.6925554 -0.028837757 -8.7076559 -36.972603 -110.02274
42967000 -37.159424 -76.854195 -0.026416041 -8.9049835 -0.029634437 -8.925601 -36.77673 -107.96967
43966000 -36.864712 -77.566772 -0.026994254 -9.1074028 -0.030800661 -9.1221752 -36.498638 -107.26724
44965000 -36.615604 -78.375183 -0.028035494 -9.3085575 -0.031452727 -9.3323278 -36.271103 -107.06774
45964000 -36.396778 -79.451302 -0.029597167 -9.51542 -0.032498162 -9.5315075 -36.04364 -106.73885
46963000 -36.173759 -81.433846 -0.029322993 -9.7063265 -0.033398293 -9.7273684 -35.851658 -106.87252
47962000 -36.025658 -82.782928 -0.03156589 -9.9106302 -0.034565005 -9.926878 -35.659088 -106.97906
48961000 -35.817245 -84.140533 -0.033319253 -10.108557 -0.03551776 -10.128802 -35.402119 -107.07974
49960000 -35.583138 -85.572403 -0.034901876 -10.306034 -0.036933314 -10.331141 -35.275127 -107.19538
50959000 -35.351196 -86.91243 -0.035640944 -10.521883 -0.038396597 -10.529943 -35.100761 -107.44996
51958000 -35.162128 -87.944466 -0.037533034 -10.720148 -0.039454158 -10.730587 -34.910454 -107.84446
52957000 -34.938568 -89.118698 -0.039056595 -10.921697 -0.041143287 -10.930182 -34.747776 -107.54242
53956000 -34.768284 -89.750145 -0.04075576 -11.125578 -0.041160274 -11.128276 -34.61829 -107.45451
54955000 -34.603062 -90.12059 -0.040661953 -11.328155 -0.04223628 -11.322962 -34.473461 -107.46952
55954000 -34.436012 -91.08609 -0.042587079 -11.528181 -0.043491654 -11.52138 -34.353699 -107.0709
56953000 -34.311985 -91.143188 -0.041604288 -11.727477 -0.041561946 -11.714771 -34.293335 -107.27807
57952000 -34.153862 -91.766357 -0.043266278 -11.923898 -0.043820329 -11.913589 -34.187733 -107.40129
58951000 -34.033333 -91.989655 -0.044830821 -12.128538 -0.043451648 -12.107172 -34.043377 -107.4372
59950000 -33.905949 -92.446983 -0.044975981 -12.331366 -0.045197263 -12.310182 -33.96941 -107.70892
60949000 -33.791264 -92.965073 -0.045835275 -12.533318 -0.045107022 -12.511515 -33.866451 -107.95841
61948000 -33.721413 -93.288025 -0.046502419 -12.731745 -0.045939393 -12.714687 -33.791531 -108.12163
62947000 -33.637878 -93.490646 -0.045804664 -12.945751 -0.046264589 -12.928235 -33.649834 -108.28488
63946000 -33.562698 -94.256897 -0.046979167 -13.14318 -0.047450993 -13.124764 -33.536919 -108.41516
64945000 -33.450779 -94.391006 -0.047936741 -13.346816 -0.047536571 -13.327223 -33.434975 -108.90496
65944000 -33.352787 -94.676567 -0.049048461 -13.54465 -0.047957681 -13.528836 -33.335342 -109.38036
66943000 -33.196079 -95.106766 -0.046718024 -13.748535 -0.04704668 -13.733908 -33.231762 -109.58968
67942000 -33.145535 -95.014565 -0.049154494 -13.946844 -0.04858353 -13.934155 -33.106869 -109.95251
68941000 -33.023491 -95.170128 -0.048291404 -14.138383 -0.047843043 -14.133059 -32.997066 -109.88359
69940000 -32.93124 -95.065498 -0.048546884 -14.339842 -0.04849479 -14.326924 -32.861073 -110.21399
70939000 -32.828411 -94.994644 -0.048797403 -14.538912 -0.047441307 -14.528356 -32.721359 -110.053
71938000 -32.686924 -94.588509 -0.049049772 -14.734894 -0.048515469 -14.724102 -32.587868 -109.93731
72937000 -32.510052 -94.404236 -0.04778206 -14.934002 -0.047890674 -14.921663 -32.442066 -109.67496
73936000 -32.374001 -94.079399 -0.048534054 -15.131065 -0.04742299 -15.12551 -32.322662 -109.51156
74935000 -32.245052 -94.261337 -0.047930982 -15.327209 -0.045942795 -15.328488 -32.169495 -109.1351
75934000 -32.110935 -94.527237 -0.048093785 -15.538105 -0.046715405 -15.534427 -32.073559 -109.04047
76933000 -31.989838 -94.867004 -0.048967827 -15.73507 -0.047627382 -15.725906 -31.895554 -109.31653
77932000 -31.883011 -95.643883 -0.050202366 -15.935547 -0.050157327 -15.919438 -31.778124 -109.32146
78931000 -31.807837 -96.444336 -0.048915993 -16.129271 -0.049043749 -16.124413 -31.680725 -109.13866
79930000 -31.694036 -97.30722 -0.0515237 -16.323574 -0.051461879 -16.322704 -31.592258 -109.44559
80929000 -31.580873 -98.06041 -0.053363234 -16.52297 -0.053964965 -16.520376 -31.488298 -109.71687
81928000 -31.485905 -98.888283 -0.05379172 -16.713287 -0.054164685 -16.709818 -31.350994 -109.65509
82927000 -31.372812 -99.561852 -0.055199876 -16.910851 -0.05486457 -16.91342 -31.242189 -109.96847
83926000 -31.265015 -100.24061 -0.056642577 -17.108915 -0.055931132 -17.111385 -31.126904 -110.15741
84925000 -31.1439 -100.73565 -0.058109112 -17.308077 -0.056843475 -17.303762 -31.014915 -110.15601
85924000 -31.057032 -101.11842 -0.058365431 -17.511808 -0.057876155 -17.508093 -30.931889 -110.13869
86923000 -30.953503 -101.60973 -0.058827214 -17.708624 -0.058185454 -17.704731 -30.833834 -110.01898
87922000 -30.836361 -101.99039 -0.05850501 -17.919857 -0.058299314 -17.90724 -30.736597 -110.03909
88921000 -30.76906 -102.20422 -0.059989493 -18.111681 -0.059012726 -18.109365 -30.648914 -109.98986
89920000 -30.664242 -102.76719 -0.060372438 -18.315516 -0.059463818 -18.311224 -30.589216 -110.09785
90919000 -30.557055 -103.03732 -0.062162418 -18.509712 -0.05987585 -18.50886 -30.504391 -110.24783
91918000 -30.464413 -103.3959 -0.062137999 -18.712484 -0.061295692 -18.704817 -30.433891 -110.26086
92917000 -30.366671 -103.70959 -0.063337937 -18.911987 -0.062480953 -18.909567 -30.371704 -110.37725
93916000 -30.279776 -104.11906 -0.062821575 -19.108061 -0.062351227 -19.10186 -30.27762 -110.9517
94915000 -30.200012 -104.68578 -0.064664848 -19.307785 -0.063172728 -19.306395 -30.218554 -110.83517
95914000 -30.136969 -104.90072 -0.065645777 -19.501469 -0.064010933 -19.500629 -30.137196 -111.11263
96913000 -30.044277 -105.14093 -0.066850372 -19.704762 -0.06551937 -19.700483 -30.060476 -111.42541
97912000 -29.973917 -105.59137 -0.067777105 -19.900124 -0.06566076 -19.900866 -29.996496 -111.65814
98911000 -29.861874 -105.76577 -0.068846576 -20.103239 -0.066800162 -20.099405 -29.948904 -111.8905
99910000 -29.789415 -105.9208 -0.069682986 -20.302925 -0.06710431 -20.299109 -29.844147 -112.21411
100909000 -29.703985 -106.15566 -0.068659328 -20.509884 -0.066820666 -20.504711 -29.754852 -112.46597
101908000 -29.609667 -106.40907 -0.069767945 -20.711695 -0.068002969 -20.70892 -29.637857 -112.22505
102907000 -29.474119 -106.36299 -0.070496924 -20.911743 -0.068444736 -20.911486 -29.565639 -112.17107
103906000 -29.38212 -106.48196 -0.070611112 -21.118111 -0.068513371 -21.113033 -29.415398 -112.14759
104905000 -29.226055 -106.32214 -0.071878925 -21.318466 -0.067877278 -21.316542 -29.287603 -111.82039
105904000 -29.091354 -106.43259 -0.071325228 -21.51947 -0.068445258 -21.511963 -29.170647 -111.73653
106903000 -28.976913 -106.49738 -0.071835764 -21.723703 -0.068737172 -21.72401 -29.039953 -111.59145
107902000 -28.809944 -106.83974 -0.072943881 -21.925493 -0.069506742 -21.919973 -28.907524 -111.55016
108901000 -28.701704 -107.06314 -0.073445655 -22.128893 -0.071135245 -22.121872 -28.775637 -111.52564
109900000 -28.572815 -107.55259 -0.074273206 -22.333853 -0.071786024 -22.319792 -28.623917 -111.57369
110899000 -28.458885 -108.18056 -0.075613469 -22.525972 -0.072458483 -22.516722 -28.490137 -111.8666
111898000 -28.369045 -108.82327 -0.077449538 -22.728153 -0.07392326 -22.722284 -28.379957 -111.99899
112897000 -28.233681 -109.40611 -0.079023808 -22.929089 -0.075611889 -22.918093 -28.241943 -112.14252
113896000 -28.134197 -109.99382 -0.079631478 -23.128471 -0.07623779 -23.118528 -28.130198 -112.30814
114895000 -28.028227 -110.64812 -0.080642693 -23.326334 -0.077616081 -23.312788 -28.012272 -112.33358
115894000 -27.915499 -111.02045 -0.081441551 -23.530722 -0.079231016 -23.515627 -27.955097 -112.60239
116893000 -27.834471 -111.46198 -0.083087198 -23.729748 -0.080262706 -23.711632 -27.827402 -112.61707
117892000 -27.749828 -111.99568 -0.082802497 -23.923178 -0.080379784 -23.91048 -27.740824 -112.82443
118891000 -27.689804 -112.4338 -0.084060945 -24.124428 -0.080817543 -24.110641 -27.645899 -112.93731
119890000 -27.608284 -112.79423 -0.084843539 -24.327042 -0.081806608 -24.312151 -27.631342 -113.05927
120889000 -27.548302 -113.25645 -0.085582182 -24.533333 -0.082051933 -24.513485 -27.562868 -112.99882
121888000 -27.506563 -113.59649 -0.085673265 -24.724346 -0.082670055 -24.711618 -27.50341 -113.26274
122887000 -27.463882 -113.80238 -0.086855166 -24.928358 -0.083798356 -24.915258 -27.451563 -113.26682
123886000 -27.413622 -114.23621 -0.087453894 -25.132616 -0.08368963 -25.110367 -27.437887 -113.42777
124885000 -27.381313 -114.70023 -0.087486647 -25.329105 -0.084798135 -25.317076 -27.40589 -113.46621
125884000 -27.32568 -114.922 -0.088781059 -25.529377 -0.084508047 -25.516018 -27.377804 -113.62606
126883000 -27.303795 -115.3055 -0.088879615 -25.732521 -0.085532017 -25.716141 -27.337717 -113.60503
127882000 -27.255779 -115.61267 -0.089273043 -25.933239 -0.08624094 -25.915491 -27.302927 -113.77911
128881000 -27.224623 -115.93333 -0.089645103 -26.136419 -0.086413369 -26.115965 -27.253845 -113.86562
129880000 -27.165142 -116.26623 -0.090685874 -26.334827 -0.08669249 -26.317184 -27.218754 -113.80838
130879000 -27.104065 -116.34998 -0.09023153 -26.538021 -0.088007011 -26.519064 -27.14543 -113.8454
131878000 -27.036619 -116.65195 -0.09027382 -26.740154 -0.08727403 -26.720795 -27.083509 -113.7527
132877000 -26.966524 -116.6799 -0.090299986 -26.942135 -0.087713011 -26.923462 -26.997881 -113.7366
133876000 -26.878592 -116.86124 -0.091251031 -27.145395 -0.087902933 -27.120281 -26.904158 -113.58039
134875000 -26.779593 -117.00996 -0.090692222 -27.341379 -0.089050561 -27.328928 -26.800198 -113.44596
135874000 -26.699596 -117.05674 -0.091493718 -27.54438 -0.088759929 -27.529261 -26.700615 -113.39064
136873000 -26.583427 -116.96748 -0.091632776 -27.747362 -0.088052973 -27.728529 -26.618662 -113.37905
137872000 -26.503981 -117.13734 -0.091902189 -27.949457 -0.088919505 -27.932907 -26.508606 -113.30083
138871000 -26.426149 -117.34106 -0.092383154 -28.149294 -0.088853985 -28.13221 -26.411884 -113.4997
139870000 -26.323637 -117.63174 -0.092705764 -28.348446 -0.090299718 -28.330578 -26.324364 -113.63745
140869000 -26.247936 -118.16456 -0.093850434 -28.546825 -0.090817511 -28.527245 -26.222652 -113.86877
141868000 -26.16769 -118.56636 -0.094924226 -28.742826 -0.09278404 -28.727369 -26.172102 -114.06856
142867000 -26.081093 -118.78432 -0.093725316 -28.943754 -0.091382682 -28.924089 -26.093466 -114.23409
143866000 -26.008402 -119.28239 -0.095317408 -29.13899 -0.093110383 -29.122793 -26.020277 -114.66214
144865000 -25.956926 -119.80369 -0.096848682 -29.339426 -0.09425357 -29.322334 -25.966362 -114.95602
145864000 -25.895895 -120.09541 -0.097091146 -29.540596 -0.095678084 -29.527256 -25.927118 -115.23805
146863000 -25.853643 -120.51142 -0.098329917 -29.743559 -0.09541823 -29.727753 -25.879269 -115.52877
147862000 -25.813324 -120.82424 -0.099286698 -29.937778 -0.097346075 -29.927485 -25.854431 -115.82979
148861000 -25.784994 -121.24205 -0.099738277 -30.13678 -0.097951815 -30.121216 -25.827723 -115.96656
149860000 -25.753422 -121.40984 -0.10154457 -30.332481 -0.099174671 -30.322031 -25.779818 -116.0293
150859000 -25.722731 -121.90015 -0.10118923 -30.529617 -0.09884204 -30.512119 -25.759481 -116.37632
151858000 -25.718727 -122.23817 -0.10056397 -30.72716 -0.099100515 -30.710754 -25.750813 -116.73817
152857000 -25.704987 -122.58419 -0.10110763 -30.927448 -0.098650582 -30.915482 -25.734808 -116.90354
153856000 -25.703032 -122.75995 -0.10030568 -31.126638 -0.097960286 -31.111717 -25.758089 -117.22924
154855000 -25.704168 -122.94534 -0.10117573 -31.325798 -0.099053375 -31.3158 -25.745115 -117.47133
155854000 -25.718962 -123.18876 -0.10162353 -31.529919 -0.099163279 -31.507942 -25.739506 -117.69893
156853000 -25.706623 -123.92198 -0.099515796 -31.715885 -0.097565807 -31.707104 -25.737452 -118.02258
157852000 -25.708885 -124.09961 -0.10127694 -31.915964 -0.099874958 -31.908766 -25.726578 -118.38104
158851000 -25.711321 -124.30952 -0.10155887 -32.116909 -0.10007972 -32.106319 -25.709257 -118.64661
159850000 -25.700176 -124.43913 -0.10223146 -32.316055 -0.10015468 -32.307194 -25.711763 -118.81811
160849000 -25.688604 -124.54274 -0.10174437 -32.515125 -0.10142161 -32.508488 -25.68721 -119.10133
161848000 -25.666225 -124.61414 -0.10236238 -32.716499 -0.10110736 -32.708118 -25.646811 -119.22536
162847000 -25.631239 -124.78234 -0.10266665 -32.914955 -0.10172211 -32.908543 -25.621328 -119.4684
163846000 -25.592701 -124.9882 -0.10243871 -33.116562 -0.10142267 -33.107056 -25.540043 -119.47858
164845000 -25.534334 -124.98678 -0.10392238 -33.314362 -0.10189223 -33.309471 -25.480946 -119.58589
165844000 -25.484175 -125.01836 -0.1039709 -33.513176 -0.10298737 -33.508301 -25.400928 -119.75378
166843000 -25.422251 -125.0808 -0.10304304 -33.717476 -0.10254791 -33.709595 -25.33629 -119.90469
167842000 -25.360729 -125.18972 -0.10451578 -33.919064 -0.10346559 -33.907257 -25.258585 -119.81777
168841000 -25.280159 -125.35669 -0.10457916 -34.11272 -0.10348229 -34.108677 -25.182972 -119.8837
169840000 -25.215153 -125.60202 -0.10436437 -34.312328 -0.10395552 -34.30751 -25.099695 -120.09452
170839000 -25.159191 -125.80796 -0.10601661 -34.507504 -0.10485467 -34.50573 -25.009598 -120.26035
171838000 -25.102392 -126.23247 -0.10489525 -34.712646 -0.10531241 -34.705681 -24.949131 -120.51447
172837000 -25.028648 -126.58454 -0.10687082 -34.90765 -0.10621343 -34.903362 -24.883743 -120.72932
173836000 -24.959753 -126.96989 -0.10823419 -35.106037 -0.10693926 -35.10519 -24.837702 -120.96399
174835000 -24.90629 -127.41814 -0.10900602 -35.301445 -0.10776712 -35.302395 -24.790833 -121.2771
175834000 -24.854996 -127.75501 -0.10939915 -35.504044 -0.10879049 -35.498215 -24.730751 -121.52998
176833000 -24.803574 -128.13074 -0.11063293 -35.700748 -0.10955232 -35.702137 -24.678343 -121.67964
177832000 -24.757204 -128.52664 -0.11201475 -35.902161 -0.11066586 -35.9021 -24.657221 -121.81776
178831000 -24.709246 -128.80219 -0.1127466 -36.098282 -0.11201236 -36.097431 -24.620007 -121.93529
179830000 -24.651659 -129.13684 -0.11517601 -36.290493 -0.11300696 -36.290253 -24.567038 -121.92335
180829000 -24.590597 -129.48926 -0.1145094 -36.479042 -0.11311271 -36.476765 -24.508917 -122.21911
181828000 -24.566483 -129.92715 -0.11333085 -36.677864 -0.11244614 -36.672749 -24.493101 -122.44843
182827000 -24.541578 -130.3188 -0.11327983 -36.87632 -0.11220441 -36.869549 -24.478916 -122.58816
183826000 -24.499231 -130.65201 -0.11426543 -37.075626 -0.11241825 -37.068611 -24.469444 -122.68388
184825000 -24.505703 -130.99158 -0.11423672 -37.274544 -0.11254151 -37.26997 -24.441631 -122.82902
185824000 -24.47117 -131.35876 -0.11356866 -37.465767 -0.11307578 -37.466751 -24.443569 -122.91673
186823000 -24.454765 -131.71796 -0.11439618 -37.665531 -0.1132963 -37.665234 -24.432642 -122.92806
187822000 -24.432018 -132.07402 -0.11499367 -37.862427 -0.11379745 -37.86253 -24.39609 -123.01668
188821000 -24.409203 -132.31367 -0.11437041 -38.059109 -0.11416231 -38.061184 -24.372236 -123.14633
189820000 -24.384516 -132.6176 -0.11436057 -38.257626 -0.11456893 -38.255749 -24.352581 -123.32343
190819000 -24.351088 -132.90944 -0.11567764 -38.458908 -0.11490675 -38.453625 -24.315168 -123.37151
191818000 -24.319336 -133.21831 -0.11560401 -38.655823 -0.11494344 -38.655815 -24.285852 -123.42302
192817000 -24.272623 -133.49168 -0.11605304 -38.84938 -0.11573533 -38.852371 -24.238129 -123.48869
193816000 -24.24041 -133.75151 -0.11670526 -39.045555 -0.11529298 -39.046112 -24.192848 -123.68958
194815000 -24.179918 -134.14413 -0.11634737 -39.243229 -0.1163346 -39.245472 -24.119244 -123.73889
195814000 -24.120403 -134.34425 -0.11750785 -39.440002 -0.11635534 -39.438713 -24.061228 -123.84965
196813000 -24.065218 -134.68158 -0.11699378 -39.633167 -0.11629525 -39.634647 -23.979971 -123.99966
197812000 -24.005627 -134.91161 -0.11726637 -39.832829 -0.1168579 -39.832985 -23.913973 -124.10559
198811000 -23.954947 -135.04907 -0.11786558 -40.030857 -0.11677998 -40.035732 -23.842514 -124.30377
199810000 -23.880163 -135.40387 -0.11797038 -40.229702 -0.11710388 -40.222733 -23.763092 -124.36408
200809000 -23.824701 -135.66896 -0.11853138 -40.423172 -0.11722648 -40.422691 -23.685905 -124.58398
201808000 -23.763617 -135.86464 -0.11942585 -40.623173 -0.11879689 -40.623596 -23.615664 -124.61909
202807000 -23.706852 -136.2291 -0.11986383 -40.827259 -0.11919649 -40.826775 -23.561033 -124.83446
