!Keysight Technologies,E5080B,MY59205177,A.15.75.32
!Date: Friday, February 23, 2024 02:47:27
!Correction: S11(Cdelta 2-Port  ) 
!S21(Cdelta 2-Port  ) 
!S12(Cdelta 2-Port  ) 
!S22(Cdelta 2-Port  ) 
!S2P File: Measurements: S11, S21, S12, S22:
# Hz S  dB   R 50
10000000 -40.251877 -3.3200285 -0.059691872 -2.0556865 -0.062154017 -2.1057827 -54.922009 -86.152466
10999000 -39.831718 -4.6265416 -0.0603895 -2.270602 -0.061829727 -2.3207297 -52.624756 -80.729156
11998000 -39.292061 -6.4783273 -0.060619444 -2.4931171 -0.061763823 -2.5385048 -51.563679 -75.568825
12997000 -38.869457 -9.6912985 -0.059922304 -2.6747427 -0.061257623 -2.706171 -49.917049 -75.025772
13996000 -38.731102 -12.269984 -0.059266999 -2.8550019 -0.061611801 -2.8759277 -48.839367 -72.957001
14995000 -38.541672 -14.871676 -0.061196715 -3.0646122 -0.061187524 -3.0880435 -48.040939 -73.266632
15994000 -38.457413 -17.711245 -0.062388252 -3.2828326 -0.064371109 -3.3037806 -47.346775 -71.272575
16993000 -38.48114 -20.466551 -0.062049244 -3.4809477 -0.063097611 -3.4894385 -46.779282 -77.19046
17992000 -38.64283 -23.83145 -0.062110163 -3.6802721 -0.063890614 -3.6806033 -46.395126 -80.225548
18991000 -38.880295 -26.633532 -0.063395984 -3.887275 -0.064221889 -3.88708 -45.67889 -83.451431
19990000 -38.871853 -30.41441 -0.064757071 -4.1034846 -0.067114569 -4.094389 -45.180462 -88.166443
20989000 -38.864399 -32.572235 -0.067085385 -4.3038511 -0.068798184 -4.2961273 -44.60437 -90.530914
21988000 -38.895134 -36.105125 -0.068427376 -4.5018287 -0.069578029 -4.4939656 -44.203861 -90.769684
22987000 -38.871498 -39.49984 -0.069926307 -4.7003012 -0.070953421 -4.691081 -43.961533 -91.353157
23986000 -39.017426 -42.666142 -0.069901057 -4.8958168 -0.069913417 -4.8927212 -43.847866 -92.202065
24985000 -38.830116 -44.803188 -0.070837118 -5.1050539 -0.070783444 -5.0992656 -43.403244 -90.662201
25984000 -38.694309 -47.008766 -0.072027095 -5.3122878 -0.070766084 -5.3097143 -42.922783 -90.403145
26983000 -38.510586 -48.996525 -0.07175076 -5.5079532 -0.071729966 -5.5252585 -42.714302 -89.870483
27982000 -38.423779 -49.79372 -0.074487291 -5.7100377 -0.073480144 -5.7437744 -42.297104 -89.342934
28981000 -38.465019 -51.15926 -0.071893401 -5.9094009 -0.073416427 -5.9279847 -41.991703 -89.387001
29980000 -38.205734 -52.766361 -0.071843393 -6.1009922 -0.073821358 -6.1057367 -41.630806 -89.654884
30979000 -37.894199 -52.88063 -0.069678776 -6.4590626 -0.068728752 -6.445725 -41.118755 -91.713852
31978000 -37.735355 -54.13699 -0.068191238 -6.6526194 -0.069485702 -6.6443634 -40.800972 -91.787605
32977000 -37.668961 -55.650848 -0.069016211 -6.8638725 -0.070358276 -6.8579869 -40.575718 -92.628387
33976000 -37.575298 -56.894463 -0.069474652 -7.0637965 -0.071073934 -7.0591092 -40.222088 -93.002831
34975000 -37.33881 -58.052406 -0.069748215 -7.2635031 -0.071559697 -7.2626185 -39.93914 -93.16333
35974000 -37.197083 -59.018341 -0.069432043 -7.4592128 -0.071632594 -7.462069 -39.60022 -93.045021
36973000 -37.025406 -59.989483 -0.069345243 -7.6567354 -0.071947612 -7.6653857 -39.215557 -92.937317
37972000 -36.865826 -60.181454 -0.068886548 -7.8661814 -0.071956828 -7.882112 -38.95969 -92.597252
38971000 -36.579765 -60.375492 -0.070110455 -8.0727043 -0.072589308 -8.0864449 -38.663177 -91.21096
39970000 -36.320236 -61.325764 -0.068364002 -8.2675467 -0.07131049 -8.2839088 -38.360718 -91.250397
40969000 -36.027088 -61.607735 -0.068539932 -8.4614239 -0.070564277 -8.4811516 -38.028511 -90.490944
41968000 -35.746681 -62.285419 -0.069430202 -8.6664543 -0.071694173 -8.6813726 -37.765579 -89.532288
42967000 -35.536205 -62.677879 -0.068442367 -8.8796091 -0.072078943 -8.8984146 -37.462635 -88.091949
43966000 -35.296158 -63.8689 -0.070197269 -9.0799437 -0.072699599 -9.0927238 -37.141644 -88.020279
44965000 -35.122555 -64.746681 -0.071251288 -9.2812481 -0.073401421 -9.2991238 -36.921379 -88.203712
45964000 -34.944748 -66.137802 -0.071632594 -9.4817162 -0.073940903 -9.4997215 -36.664337 -88.450851
46963000 -34.820255 -68.121315 -0.071297862 -9.677578 -0.07482148 -9.6969528 -36.512665 -89.070961
47962000 -34.737572 -69.597183 -0.073469087 -9.8764057 -0.076519683 -9.8963461 -36.325859 -89.504654
48961000 -34.589603 -71.076859 -0.075336903 -10.076594 -0.078162141 -10.096015 -36.096958 -90.089104
49960000 -34.423233 -72.647186 -0.077108294 -10.276059 -0.078410693 -10.297461 -35.950047 -90.529465
50959000 -34.270447 -74.135666 -0.077686973 -10.49102 -0.080019325 -10.499544 -35.783089 -91.249191
51958000 -34.1189 -75.397141 -0.079313263 -10.685879 -0.081760973 -10.699716 -35.640179 -92.01593
52957000 -33.9613 -76.677277 -0.081558928 -10.886708 -0.082844712 -10.895949 -35.469166 -92.186928
53956000 -33.814156 -77.550446 -0.08281754 -11.090441 -0.0842866 -11.093391 -35.323215 -92.464851
54955000 -33.682411 -78.212746 -0.083309367 -11.287391 -0.084959418 -11.289846 -35.179039 -92.596848
55954000 -33.552639 -79.32515 -0.084547378 -11.490584 -0.085123353 -11.48667 -35.070686 -92.463394
56953000 -33.441269 -79.496712 -0.084070712 -11.690254 -0.084526792 -11.680404 -34.994331 -92.840462
57952000 -33.30798 -80.198975 -0.085247159 -11.891541 -0.085501917 -11.877077 -34.884579 -93.079475
58951000 -33.201454 -80.710854 -0.086687207 -12.095083 -0.086737119 -12.0745 -34.739101 -93.47287
59950000 -33.09169 -81.282845 -0.087771386 -12.290501 -0.087092325 -12.271704 -34.672878 -93.876015
60949000 -33.000286 -81.995743 -0.087867007 -12.494262 -0.087586485 -12.472554 -34.584568 -94.213654
61948000 -32.944172 -82.232925 -0.088267215 -12.695682 -0.086974271 -12.675975 -34.498775 -94.489441
62947000 -32.862373 -82.573524 -0.088684894 -12.905622 -0.088174485 -12.88625 -34.366787 -95.02462
63946000 -32.801899 -83.320953 -0.089774854 -13.106568 -0.089074343 -13.083955 -34.261261 -95.190407
64945000 -32.705746 -83.669426 -0.089815021 -13.303884 -0.090138234 -13.289719 -34.1572 -95.863205
65944000 -32.613018 -83.989822 -0.091310516 -13.503392 -0.090516977 -13.487898 -34.091473 -96.524887
66943000 -32.489658 -84.546631 -0.089336455 -13.704026 -0.088898368 -13.690873 -33.98835 -96.925728
67942000 -32.427971 -84.5373 -0.091364972 -13.903214 -0.090990648 -13.890749 -33.860271 -97.276802
68941000 -32.323452 -84.716507 -0.090913989 -14.094962 -0.090624027 -14.089743 -33.754467 -97.34816
69940000 -32.221764 -84.877113 -0.091297291 -14.297424 -0.090755127 -14.287382 -33.617062 -97.763512
70939000 -32.103802 -84.973938 -0.090783149 -14.490815 -0.090789489 -14.489906 -33.469902 -97.851395
71938000 -31.946159 -84.716057 -0.090896808 -14.690558 -0.091306545 -14.680015 -33.328358 -97.801872
72937000 -31.80545 -84.710808 -0.090430282 -14.888194 -0.090662085 -14.883273 -33.183979 -97.560898
73936000 -31.650496 -84.584953 -0.090295225 -15.085313 -0.089342274 -15.079329 -33.05764 -97.589729
74935000 -31.53083 -84.892479 -0.090529397 -15.27884 -0.089202493 -15.275689 -32.883179 -97.398071
75934000 -31.416943 -85.266678 -0.089925751 -15.491427 -0.089518256 -15.485943 -32.797707 -97.393814
76933000 -31.289816 -85.77507 -0.090192944 -15.685555 -0.090392753 -15.680257 -32.629498 -97.971298
77932000 -31.209208 -86.611946 -0.092683814 -15.882782 -0.092210755 -15.873362 -32.530914 -98.007423
78931000 -31.157814 -87.429802 -0.090721563 -16.081051 -0.091564573 -16.07695 -32.436695 -98.019417
79930000 -31.058317 -88.335541 -0.093623221 -16.273659 -0.093834825 -16.2731 -32.346367 -98.461693
80929000 -30.948473 -89.293839 -0.095219776 -16.469349 -0.096144378 -16.46487 -32.243683 -98.922066
81928000 -30.89043 -90.190475 -0.095457919 -16.662241 -0.096111029 -16.660728 -32.128929 -99.129837
82927000 -30.818922 -90.991447 -0.097330987 -16.862352 -0.097519472 -16.859278 -32.02166 -99.579979
83926000 -30.713146 -91.852516 -0.09884575 -17.057446 -0.098196201 -17.056139 -31.903975 -99.961754
84925000 -30.615818 -92.342148 -0.099597372 -17.260798 -0.099120378 -17.257793 -31.810993 -100.14961
85924000 -30.541107 -92.846725 -0.099564001 -17.457563 -0.10020687 -17.454998 -31.732544 -100.21358
86923000 -30.443062 -93.47747 -0.10114366 -17.655729 -0.10064583 -17.654123 -31.61788 -100.28143
87922000 -30.34359 -93.980659 -0.10098337 -17.862621 -0.10029084 -17.855879 -31.530209 -100.42364
88921000 -30.281136 -94.316223 -0.10206264 -18.062153 -0.10190045 -18.058399 -31.440216 -100.46576
89920000 -30.199778 -94.937302 -0.10241221 -18.260332 -0.10188031 -18.256079 -31.396324 -100.7001
90919000 -30.101927 -95.296295 -0.10329726 -18.459675 -0.10294894 -18.452837 -31.301905 -101.03416
91918000 -30.01535 -95.7873 -0.10457862 -18.656124 -0.10319546 -18.65366 -31.226833 -101.07015
92917000 -29.919716 -96.202957 -0.10558134 -18.85659 -0.10453805 -18.849285 -31.155861 -101.2469
93916000 -29.845787 -96.7117 -0.10540948 -19.047657 -0.10438771 -19.046503 -31.090725 -101.98387
94915000 -29.780069 -97.381729 -0.1065644 -19.250816 -0.10504906 -19.243904 -31.018211 -101.82658
95914000 -29.722488 -97.605713 -0.10748611 -19.442822 -0.10704725 -19.440794 -30.930319 -102.25768
96913000 -29.64299 -97.949226 -0.10894603 -19.644796 -0.10768698 -19.643217 -30.867741 -102.68215
97912000 -29.573902 -98.448196 -0.11017623 -19.841318 -0.10759252 -19.842016 -30.796444 -102.99101
98911000 -29.470087 -98.709862 -0.1105392 -20.043236 -0.10898956 -20.039845 -30.763233 -103.21008
99910000 -29.401306 -98.84716 -0.11140943 -20.239985 -0.10934632 -20.240831 -30.645311 -103.58822
100909000 -29.309452 -99.26989 -0.11018738 -20.447571 -0.10926138 -20.443611 -30.550249 -103.88472
101908000 -29.23031 -99.521149 -0.11164794 -20.653936 -0.11077633 -20.648806 -30.428108 -103.67712
102907000 -29.093143 -99.665901 -0.11266 -20.851973 -0.11009047 -20.849253 -30.351149 -103.69112
103906000 -28.996561 -99.761383 -0.11248971 -21.055813 -0.11008543 -21.051493 -30.200182 -103.71143
104905000 -28.847376 -99.793976 -0.1138785 -21.256641 -0.11036421 -21.254766 -30.049856 -103.48302
105904000 -28.717804 -100.00373 -0.11364704 -21.455976 -0.11036368 -21.452785 -29.931896 -103.3941
106903000 -28.602459 -100.14254 -0.11399197 -21.660805 -0.11070675 -21.658173 -29.797979 -103.37922
107902000 -28.439791 -100.61445 -0.11393696 -21.864017 -0.11188938 -21.853081 -29.649767 -103.41259
108901000 -28.337357 -100.95344 -0.11521243 -22.065207 -0.11329604 -22.057238 -29.503946 -103.50285
109900000 -28.212261 -101.48887 -0.11641091 -22.262102 -0.11405548 -22.255154 -29.357933 -103.6996
110899000 -28.102396 -102.20962 -0.11784058 -22.460243 -0.11482967 -22.453756 -29.234251 -104.12282
111898000 -28.021938 -102.93859 -0.11888787 -22.661655 -0.11615114 -22.655651 -29.104319 -104.26695
112897000 -27.906244 -103.59477 -0.12040831 -22.864027 -0.11734083 -22.853025 -28.962704 -104.58007
113896000 -27.806997 -104.24748 -0.12158107 -23.063877 -0.11862396 -23.053961 -28.85214 -104.88863
114895000 -27.704559 -104.9134 -0.12250917 -23.261971 -0.12028403 -23.247271 -28.739471 -105.03889
115894000 -27.573957 -105.34275 -0.12347849 -23.460218 -0.12184089 -23.44873 -28.671724 -105.30481
116893000 -27.511086 -106.00692 -0.12410706 -23.658756 -0.1224466 -23.640001 -28.537327 -105.53534
117892000 -27.434034 -106.53152 -0.12431137 -23.854946 -0.12263938 -23.843443 -28.458204 -105.79715
118891000 -27.374933 -107.0176 -0.12497763 -24.055668 -0.12374695 -24.041426 -28.366009 -106.07172
119890000 -27.283604 -107.43178 -0.12571779 -24.255703 -0.12419177 -24.241201 -28.351109 -106.20042
120889000 -27.236553 -107.96583 -0.12735552 -24.457792 -0.12384417 -24.439196 -28.27076 -106.26719
121888000 -27.193224 -108.3476 -0.12769993 -24.653513 -0.12510444 -24.64172 -28.220074 -106.61075
122887000 -27.158392 -108.55378 -0.12763728 -24.853453 -0.12505275 -24.837936 -28.164148 -106.68494
123886000 -27.097115 -108.99201 -0.12962696 -25.060394 -0.12596455 -25.037786 -28.149975 -106.83658
124885000 -27.065243 -109.52008 -0.1294152 -25.259995 -0.12666331 -25.241617 -28.118736 -106.93183
125884000 -27.012352 -109.74718 -0.12997475 -25.453871 -0.12667796 -25.43902 -28.092592 -107.15806
126883000 -26.992048 -110.14935 -0.13066082 -25.659616 -0.12754612 -25.644571 -28.045816 -107.24152
127882000 -26.94327 -110.47282 -0.13115756 -25.855497 -0.12848109 -25.841055 -28.005821 -107.41244
128881000 -26.907185 -110.82693 -0.13166425 -26.061453 -0.1283883 -26.042036 -27.958937 -107.57254
129880000 -26.853079 -111.17603 -0.13162956 -26.260098 -0.1283907 -26.242956 -27.912846 -107.54963
130879000 -26.790352 -111.3494 -0.13154177 -26.459282 -0.12877972 -26.443895 -27.828184 -107.65437
131878000 -26.720352 -111.63094 -0.13215657 -26.661703 -0.12966643 -26.64303 -27.759315 -107.57108
132877000 -26.649193 -111.7067 -0.13167092 -26.860142 -0.12953335 -26.841976 -27.672115 -107.65005
133876000 -26.568687 -111.94034 -0.13224944 -27.063992 -0.1302751 -27.043154 -27.567936 -107.56425
134875000 -26.469822 -112.08908 -0.13311176 -27.267616 -0.12992568 -27.241161 -27.457529 -107.46993
135874000 -26.387913 -112.15425 -0.13262866 -27.465595 -0.13018253 -27.44562 -27.352356 -107.54676
136873000 -26.271528 -112.1477 -0.13295615 -27.664995 -0.13010731 -27.648157 -27.259312 -107.50603
137872000 -26.185062 -112.32261 -0.13247788 -27.868357 -0.12998755 -27.854967 -27.148699 -107.50181
138871000 -26.123238 -112.57506 -0.1338712 -28.068863 -0.13098416 -28.054066 -27.051861 -107.74567
139870000 -26.021788 -112.87018 -0.13468045 -28.270023 -0.13171281 -28.252928 -26.969759 -107.93513
140869000 -25.933565 -113.37083 -0.13601759 -28.464138 -0.13356768 -28.447538 -26.854822 -108.1084
141868000 -25.839468 -113.91206 -0.13669232 -28.657351 -0.13452666 -28.642838 -26.795116 -108.52763
142867000 -25.770382 -114.16335 -0.13542521 -28.855368 -0.1340789 -28.834084 -26.715931 -108.72498
143866000 -25.70055 -114.71445 -0.13704816 -29.052046 -0.13457097 -29.035578 -26.647074 -109.33413
144865000 -25.64876 -115.24472 -0.13842158 -29.248447 -0.13608997 -29.235226 -26.595415 -109.67764
145864000 -25.591787 -115.60325 -0.13880937 -29.450451 -0.1375272 -29.44066 -26.562778 -110.01034
146863000 -25.551439 -116.02377 -0.13970159 -29.651064 -0.13789621 -29.635374 -26.519283 -110.3427
147862000 -25.514759 -116.43235 -0.14044294 -29.845131 -0.13799936 -29.831259 -26.486582 -110.7134
148861000 -25.489908 -116.94885 -0.14105365 -30.044104 -0.13866824 -30.031937 -26.463787 -110.9801
149860000 -25.474295 -117.16722 -0.14195597 -30.243767 -0.13886495 -30.229418 -26.43302 -111.15115
150859000 -25.454828 -117.55422 -0.14234889 -30.446135 -0.13958022 -30.429008 -26.431498 -111.44646
151858000 -25.440266 -117.92062 -0.14173558 -30.641718 -0.13979542 -30.625927 -26.42997 -111.74274
152857000 -25.421947 -118.23832 -0.14298207 -30.841579 -0.13969971 -30.829807 -26.411219 -111.88621
153856000 -25.416538 -118.45586 -0.14214399 -31.040642 -0.14007933 -31.027245 -26.434809 -112.17968
154855000 -25.405828 -118.64957 -0.14343153 -31.240088 -0.13988605 -31.226324 -26.42515 -112.36938
155854000 -25.419157 -118.87716 -0.14291331 -31.440413 -0.14056593 -31.425383 -26.416256 -112.67214
156853000 -25.411741 -119.56761 -0.14098252 -31.627184 -0.14007452 -31.614775 -26.415411 -112.978
157852000 -25.416765 -119.81219 -0.14226569 -31.826742 -0.14185272 -31.817307 -26.412373 -113.33674
158851000 -25.414206 -120.05422 -0.14339621 -32.023392 -0.14206856 -32.014946 -26.395163 -113.60727
159850000 -25.397499 -120.17976 -0.14380987 -32.225666 -0.14225313 -32.214176 -26.40237 -113.7786
160849000 -25.373571 -120.32204 -0.14449356 -32.421978 -0.14316346 -32.41716 -26.375172 -114.07194
161848000 -25.357395 -120.44797 -0.14496915 -32.624134 -0.14292882 -32.616299 -26.331287 -114.17683
162847000 -25.31443 -120.64246 -0.14515865 -32.82111 -0.14397389 -32.816887 -26.306999 -114.46934
163846000 -25.268188 -120.92621 -0.14471543 -33.019379 -0.14405979 -33.010578 -26.2216 -114.4821
164845000 -25.202848 -120.9548 -0.14569962 -33.222691 -0.14470044 -33.213108 -26.148251 -114.59982
165844000 -25.150875 -121.04256 -0.14606129 -33.418869 -0.14424148 -33.415695 -26.069128 -114.7663
166843000 -25.085043 -121.17547 -0.14540249 -33.616383 -0.14329027 -33.612244 -25.996809 -115.01092
167842000 -25.02984 -121.31591 -0.14597669 -33.815998 -0.14518622 -33.808506 -25.909655 -114.94817
168841000 -24.947577 -121.55477 -0.14623798 -34.017105 -0.14590494 -34.011417 -25.835009 -115.03529
169840000 -24.885906 -121.83719 -0.14669849 -34.209164 -0.14556578 -34.211266 -25.741295 -115.26719
170839000 -24.82943 -122.13399 -0.1483112 -34.408806 -0.14598258 -34.405052 -25.659395 -115.51204
171838000 -24.767134 -122.57323 -0.14734544 -34.608608 -0.14711407 -34.603786 -25.588081 -115.79266
172837000 -24.701841 -122.95308 -0.1489466 -34.802746 -0.14868139 -34.798931 -25.523037 -116.11596
173836000 -24.635698 -123.42308 -0.15061213 -35.005512 -0.14940792 -35.000607 -25.478579 -116.34125
174835000 -24.583696 -123.89775 -0.1510924 -35.197662 -0.15020587 -35.201416 -25.438862 -116.71762
175834000 -24.535141 -124.31623 -0.15168343 -35.396339 -0.15099779 -35.395275 -25.374046 -117.06493
176833000 -24.486139 -124.70845 -0.15264399 -35.594601 -0.1514698 -35.593456 -25.317545 -117.27972
177832000 -24.444012 -125.20375 -0.15258501 -35.790337 -0.1520633 -35.791565 -25.298355 -117.47224
178831000 -24.403069 -125.61929 -0.15346828 -35.989727 -0.1528105 -35.983639 -25.263462 -117.73099
179830000 -24.369936 -126.05676 -0.15456684 -36.18623 -0.15319932 -36.187096 -25.236141 -117.89788
180829000 -24.328434 -126.28527 -0.15480451 -36.38092 -0.15335028 -36.381596 -25.208031 -118.10406
181828000 -24.306328 -126.66724 -0.15488712 -36.579708 -0.15359056 -36.581676 -25.19404 -118.25135
182827000 -24.277916 -127.0593 -0.15456738 -36.77322 -0.15405105 -36.776737 -25.175148 -118.35101
183826000 -24.238909 -127.37409 -0.15628579 -36.978035 -0.15439142 -36.96796 -25.163147 -118.4595
184825000 -24.244287 -127.71027 -0.15628606 -37.165222 -0.15477394 -37.169991 -25.146229 -118.57362
185824000 -24.213295 -128.07997 -0.15606441 -37.364227 -0.15527263 -37.369862 -25.141636 -118.64506
186823000 -24.203325 -128.43327 -0.15656649 -37.568359 -0.15514734 -37.56284 -25.142277 -118.64875
187822000 -24.180601 -128.75523 -0.15643123 -37.760292 -0.15586478 -37.761383 -25.105627 -118.73254
188821000 -24.162022 -129.03108 -0.15702675 -37.954628 -0.15633757 -37.959816 -25.084833 -118.84245
189820000 -24.143805 -129.28931 -0.15771228 -38.157379 -0.15719691 -38.156181 -25.072105 -118.99128
190819000 -24.110403 -129.54692 -0.158639 -38.354965 -0.15795656 -38.355316 -25.038153 -118.93089
191818000 -24.075403 -129.75618 -0.15984362 -38.552631 -0.15932639 -38.548973 -25.000416 -118.85172
192817000 -24.005419 -130.03604 -0.16049789 -38.736717 -0.15969886 -38.736576 -24.921831 -118.95956
193816000 -23.96636 -130.40413 -0.15979527 -38.930634 -0.15821964 -38.927738 -24.863611 -119.24304
194815000 -23.911634 -130.8642 -0.15919428 -39.126259 -0.15896443 -39.12746 -24.798157 -119.39091
195814000 -23.857233 -131.09836 -0.1600856 -39.324028 -0.15897356 -39.326473 -24.740911 -119.48677
196813000 -23.805063 -131.4409 -0.15967603 -39.517513 -0.15909708 -39.521561 -24.665039 -119.69347
197812000 -23.74958 -131.7247 -0.15981005 -39.718674 -0.15975392 -39.715015 -24.587412 -119.82108
198811000 -23.692842 -131.92102 -0.1597652 -39.913002 -0.15983288 -39.916931 -24.514956 -119.99825
199810000 -23.622412 -132.31297 -0.1600053 -40.109581 -0.15922838 -40.111908 -24.438721 -120.18082
200809000 -23.566111 -132.61795 -0.16099833 -40.308628 -0.15943031 -40.306625 -24.354727 -120.40318
201808000 -23.50786 -132.85452 -0.16159984 -40.502995 -0.16069022 -40.509857 -24.281485 -120.50145
202807000 -23.45241 -133.25589 -0.162543 -40.710762 -0.16072513 -40.709766 -24.229214 -120.75985
203806000 -23.396894 -133.7334 -0.16422451 -40.906734 -0.16200933 -40.909767 -24.160839 -120.95599
204805000 -23.350086 -134.09917 -0.16451028 -41.106319 -0.16314983 -41.105679 -24.100964 -121.17509
