!Keysight Technologies,E5080B,MY59205177,A.15.75.32
!Date: Friday, February 23, 2024 03:41:05
!Correction: S11(Cdelta 2-Port  ) 
!S21(Cdelta 2-Port  ) 
!S12(Cdelta 2-Port  ) 
!S22(Cdelta 2-Port  ) 
!S2P File: Measurements: S11, S21, S12, S22:
# Hz S  dB   R 50
10000000 -46.127914 -2.4481204 -0.015133647 -2.0407236 -0.018398801 -2.0954812 -45.935322 -156.96622
10999000 -45.27383 -5.0320292 -0.015880791 -2.2603071 -0.018208515 -2.313309 -45.850128 -151.40085
11998000 -44.370651 -7.9253383 -0.016424602 -2.4871206 -0.017820431 -2.5297 -46.000446 -146.79535
12997000 -43.617275 -13.65424 -0.015385885 -2.6623874 -0.017445117 -2.6963279 -45.551582 -141.11784
13996000 -43.26001 -17.545635 -0.014765059 -2.8466043 -0.017731277 -2.8671896 -45.408978 -135.93228
14995000 -42.872974 -21.702181 -0.017447975 -3.0562651 -0.018064246 -3.0795262 -45.086838 -132.45302
15994000 -42.715435 -26.064655 -0.018545419 -3.2743649 -0.01983453 -3.2964616 -44.906162 -129.36798
16993000 -42.696354 -30.984484 -0.016702382 -3.4699364 -0.019506626 -3.4812505 -44.15921 -129.15205
17992000 -42.704983 -36.496853 -0.017999781 -3.6716464 -0.01930771 -3.6699173 -43.502071 -129.05249
18991000 -42.953354 -41.735081 -0.018628869 -3.8841639 -0.020590544 -3.8819461 -42.932858 -127.95937
19990000 -42.706577 -47.301388 -0.021498093 -4.0887065 -0.022572361 -4.0904884 -42.229076 -128.92847
20989000 -42.542747 -50.871998 -0.023265872 -4.2990646 -0.024731848 -4.2831669 -41.692417 -128.03453
21988000 -42.335377 -56.112167 -0.024461105 -4.4917283 -0.025310358 -4.4801831 -41.459606 -127.70863
22987000 -42.010033 -60.710487 -0.025590008 -4.6894002 -0.02563818 -4.683269 -41.169373 -127.05524
23986000 -41.894028 -65.115562 -0.025122633 -4.88204 -0.024615999 -4.8846674 -41.033405 -126.89257
24985000 -41.521568 -67.699265 -0.026072796 -5.0964432 -0.025836864 -5.0906944 -40.820477 -124.26204
25984000 -41.193222 -69.766342 -0.026912728 -5.298574 -0.025842592 -5.3005028 -40.507668 -122.85632
26983000 -40.880764 -71.617142 -0.026983315 -5.4987001 -0.026540793 -5.51474 -40.412106 -122.28191
27982000 -40.69585 -72.415077 -0.028795023 -5.6997881 -0.028358569 -5.7305536 -40.140778 -120.96525
28981000 -40.661156 -73.965866 -0.026209779 -5.8948174 -0.028167848 -5.9173779 -39.89566 -119.8694
29980000 -40.248192 -75.26783 -0.027553789 -6.0882626 -0.028929746 -6.0946813 -39.599613 -119.23602
30979000 -39.836662 -74.336014 -0.024294242 -6.4408302 -0.023287995 -6.4374104 -39.12289 -119.55607
31978000 -39.683846 -75.302025 -0.023903793 -6.6387553 -0.024441322 -6.6294589 -38.855923 -118.71705
32977000 -39.459793 -76.959328 -0.023780158 -6.8498659 -0.024742784 -6.844213 -38.626106 -118.77493
33976000 -39.307171 -77.972496 -0.024210684 -7.0503497 -0.025161689 -7.0427914 -38.317894 -118.13233
34975000 -38.972244 -78.769585 -0.024315068 -7.2491384 -0.026237383 -7.2506957 -38.104729 -117.8317
35974000 -38.780643 -79.309555 -0.023724718 -7.4480038 -0.026394164 -7.4479055 -37.854294 -116.87309
36973000 -38.550991 -79.959694 -0.02385564 -7.6447296 -0.027252393 -7.6451826 -37.576744 -115.96958
37972000 -38.380154 -79.564774 -0.023082921 -7.8551121 -0.026864281 -7.8621111 -37.356697 -115.1749
38971000 -38.084576 -79.166862 -0.02455977 -8.0538435 -0.027097404 -8.0690107 -37.201813 -113.66213
39970000 -37.747585 -79.472855 -0.023352277 -8.2514582 -0.026417604 -8.2708635 -36.939972 -113.06813
40969000 -37.461346 -79.077278 -0.02310374 -8.444891 -0.025915507 -8.4645271 -36.711342 -111.76912
41968000 -37.107491 -78.997551 -0.023393657 -8.6480598 -0.026460838 -8.6682215 -36.525219 -110.5274
42967000 -36.85371 -79.023491 -0.023799678 -8.8606529 -0.025907435 -8.8772736 -36.343159 -108.64532
43966000 -36.58139 -79.723106 -0.024129469 -9.0612402 -0.027324548 -9.0826597 -36.052402 -107.902
44965000 -36.344864 -80.514915 -0.025083579 -9.2660065 -0.027209152 -9.2864408 -35.858738 -107.67573
45964000 -36.108654 -81.476425 -0.026303273 -9.4632444 -0.02872649 -9.4864569 -35.631645 -107.40143
46963000 -35.902149 -83.378464 -0.026547566 -9.6580772 -0.029284682 -9.6824932 -35.467403 -107.60143
47962000 -35.744629 -84.867043 -0.027821599 -9.8654165 -0.031095004 -9.8776989 -35.264523 -107.57883
48961000 -35.522709 -86.095505 -0.030415101 -10.05787 -0.032458521 -10.079019 -35.024128 -107.73789
49960000 -35.282421 -87.467979 -0.030990196 -10.259002 -0.033382639 -10.279971 -34.890438 -107.78204
50959000 -35.060162 -88.707176 -0.032049082 -10.473096 -0.034396186 -10.482593 -34.709396 -108.12042
51958000 -34.867901 -89.738815 -0.033976652 -10.670081 -0.035910819 -10.683405 -34.529354 -108.6311
52957000 -34.65086 -90.80117 -0.035238251 -10.87154 -0.036891282 -10.876871 -34.382851 -108.39567
53956000 -34.466873 -91.590797 -0.035989646 -11.072172 -0.037425458 -11.075048 -34.231647 -108.31834
54955000 -34.314068 -91.990303 -0.037618939 -11.272715 -0.038560085 -11.274906 -34.072994 -108.35124
55954000 -34.132084 -92.833832 -0.038393203 -11.475443 -0.038075909 -11.472423 -33.970291 -107.98534
56953000 -34.014984 -92.938354 -0.038486961 -11.67237 -0.037704844 -11.663553 -33.905678 -108.30248
57952000 -33.854916 -93.499504 -0.039458338 -11.871231 -0.038834061 -11.861737 -33.80497 -108.36137
58951000 -33.729053 -93.805344 -0.03961011 -12.076336 -0.039554469 -12.051897 -33.646358 -108.44117
59950000 -33.60117 -94.187508 -0.040700104 -12.273516 -0.040727019 -12.252756 -33.561874 -108.74312
60949000 -33.477962 -94.747368 -0.041363064 -12.478089 -0.040844344 -12.45743 -33.466377 -108.98379
61948000 -33.403103 -94.956558 -0.041771814 -12.677354 -0.040736165 -12.655545 -33.387222 -109.07816
62947000 -33.325657 -95.274742 -0.041828532 -12.885076 -0.041228741 -12.869589 -33.236855 -109.37774
63946000 -33.256268 -95.966553 -0.042888757 -13.084004 -0.042000253 -13.063755 -33.138371 -109.39616
64945000 -33.145153 -96.170479 -0.043220524 -13.28589 -0.042570088 -13.265306 -33.022545 -109.89188
65944000 -33.033779 -96.43634 -0.044178054 -13.487182 -0.043016337 -13.469998 -32.927631 -110.30572
66943000 -32.88839 -96.881226 -0.041927591 -13.689086 -0.041894656 -13.671241 -32.81612 -110.59866
67942000 -32.828011 -96.774704 -0.043765679 -13.886108 -0.043734036 -13.87109 -32.694607 -110.88694
68941000 -32.712997 -96.932152 -0.043707367 -14.078831 -0.042426053 -14.069153 -32.584431 -110.8372
69940000 -32.621799 -96.881973 -0.043446682 -14.277137 -0.043530088 -14.26776 -32.448288 -111.10935
70939000 -32.512028 -96.778999 -0.044459183 -14.473623 -0.043382101 -14.466637 -32.313686 -110.99754
71938000 -32.379688 -96.372665 -0.043231241 -14.67105 -0.043341838 -14.664591 -32.188381 -110.91571
72937000 -32.229362 -96.153679 -0.042554665 -14.871955 -0.04338184 -14.86434 -32.049721 -110.59624
73936000 -32.100044 -95.8293 -0.042470492 -15.068494 -0.041861463 -15.059999 -31.926987 -110.40211
74935000 -31.964375 -96.023453 -0.041688964 -15.263781 -0.041174121 -15.260944 -31.78248 -109.9773
75934000 -31.835926 -96.34314 -0.042010706 -15.475643 -0.041623104 -15.469429 -31.695936 -109.99657
76933000 -31.707926 -96.612274 -0.043102872 -15.668562 -0.042753078 -15.65931 -31.529745 -110.29092
77932000 -31.607698 -97.394142 -0.044188254 -15.862515 -0.044762038 -15.857474 -31.418776 -110.2263
78931000 -31.533409 -98.091316 -0.042822093 -16.062422 -0.043828171 -16.057753 -31.331831 -110.0499
79930000 -31.418959 -98.958305 -0.045248531 -16.257318 -0.045681976 -16.251959 -31.232803 -110.40474
80929000 -31.312651 -99.77874 -0.047042754 -16.45294 -0.047461983 -16.451107 -31.128735 -110.64317
81928000 -31.209909 -100.48705 -0.047339506 -16.64595 -0.04762084 -16.642815 -30.995562 -110.67191
82927000 -31.109978 -101.21746 -0.049036682 -16.845444 -0.049077783 -16.840862 -30.899967 -110.92468
83926000 -30.996145 -101.91277 -0.050621115 -17.041128 -0.049376771 -17.037985 -30.779497 -111.06837
84925000 -30.896597 -102.34418 -0.05084347 -17.240711 -0.050533384 -17.237595 -30.68891 -111.13531
85924000 -30.797213 -102.7394 -0.05149043 -17.4389 -0.05149043 -17.437557 -30.600597 -111.17081
86923000 -30.690161 -103.26898 -0.052401055 -17.636765 -0.051935766 -17.630951 -30.499332 -110.96634
87922000 -30.584948 -103.58385 -0.051401109 -17.846296 -0.051361557 -17.835249 -30.411354 -111.05107
88921000 -30.503031 -103.82424 -0.053513918 -18.043749 -0.051764436 -18.041164 -30.32572 -111.01157
89920000 -30.403128 -104.36284 -0.053507891 -18.244118 -0.052616689 -18.236078 -30.267698 -111.18189
90919000 -30.307741 -104.64355 -0.054635983 -18.439993 -0.053533312 -18.435541 -30.187681 -111.37185
91918000 -30.202246 -104.97298 -0.054981232 -18.644678 -0.053810067 -18.639864 -30.108419 -111.36366
92917000 -30.121141 -105.32784 -0.056457691 -18.839224 -0.054988831 -18.835487 -30.044043 -111.50408
93916000 -30.037285 -105.65767 -0.055900976 -19.034922 -0.054993026 -19.029726 -29.965923 -112.10263
94915000 -29.950819 -106.3091 -0.057603072 -19.234831 -0.055658437 -19.229446 -29.898905 -111.98348
95914000 -29.881124 -106.39278 -0.057840999 -19.426067 -0.057078473 -19.423485 -29.81823 -112.22973
96913000 -29.795418 -106.65369 -0.059529688 -19.626427 -0.058017291 -19.626476 -29.750526 -112.55694
97912000 -29.723047 -107.15701 -0.06047586 -19.822002 -0.058117505 -19.825241 -29.664164 -112.77272
98911000 -29.621078 -107.25613 -0.060839683 -20.025375 -0.05922449 -20.022367 -29.625584 -112.99249
99910000 -29.545656 -107.4354 -0.062005654 -20.224852 -0.05969581 -20.224163 -29.515356 -113.27682
100909000 -29.460375 -107.64896 -0.061328772 -20.433149 -0.059222914 -20.427492 -29.433353 -113.45839
101908000 -29.36281 -107.85059 -0.062773511 -20.633148 -0.061139222 -20.630373 -29.318871 -113.25423
102907000 -29.24003 -107.87948 -0.062315777 -20.833479 -0.060133323 -20.833717 -29.24901 -113.24158
103906000 -29.139372 -107.94713 -0.062706277 -21.040339 -0.059987657 -21.034481 -29.103083 -113.1927
104905000 -28.99968 -107.78098 -0.063917674 -21.239155 -0.060649894 -21.2346 -28.980116 -112.88492
105904000 -28.858381 -107.88519 -0.0633009 -21.442202 -0.060575869 -21.435265 -28.873672 -112.74844
106903000 -28.746229 -107.94341 -0.063759267 -21.643644 -0.061196979 -21.642944 -28.752604 -112.64691
107902000 -28.587721 -108.25242 -0.064366117 -21.848076 -0.061482098 -21.837336 -28.61809 -112.58218
108901000 -28.475948 -108.49445 -0.065978497 -22.048615 -0.063249946 -22.04183 -28.485167 -112.52388
109900000 -28.346983 -108.96391 -0.066351987 -22.248434 -0.064396858 -22.240301 -28.339355 -112.62972
110899000 -28.230888 -109.5599 -0.067149796 -22.447107 -0.064326972 -22.436167 -28.217936 -112.91237
111898000 -28.146881 -110.21896 -0.06898544 -22.646637 -0.065866798 -22.645071 -28.102921 -113.01966
112897000 -28.010723 -110.74493 -0.069928676 -22.845362 -0.066916615 -22.835754 -27.971254 -113.15836
113896000 -27.910526 -111.2906 -0.071512595 -23.047552 -0.068146802 -23.034119 -27.85858 -113.30869
114895000 -27.800812 -111.96102 -0.072112635 -23.246014 -0.069995493 -23.231438 -27.75374 -113.39295
115894000 -27.679129 -112.29989 -0.07358335 -23.445837 -0.070999995 -23.438688 -27.674709 -113.60557
116893000 -27.608967 -112.77963 -0.074116789 -23.641512 -0.072210543 -23.625385 -27.553612 -113.67337
117892000 -27.529846 -113.25946 -0.074075453 -23.8375 -0.072148427 -23.829855 -27.481186 -113.85378
118891000 -27.469242 -113.70912 -0.074290581 -24.039099 -0.072676435 -24.026106 -27.385017 -113.98711
119890000 -27.378229 -114.07874 -0.075676158 -24.243116 -0.073057868 -24.226419 -27.370394 -114.1087
120889000 -27.325346 -114.53812 -0.076341584 -24.44383 -0.073454864 -24.428848 -27.302149 -114.09879
121888000 -27.284492 -114.85738 -0.076576322 -24.639771 -0.073617049 -24.627266 -27.238228 -114.34
122887000 -27.250107 -115.06435 -0.076355286 -24.838503 -0.074993454 -24.828217 -27.194918 -114.37791
123886000 -27.199121 -115.51363 -0.078049608 -25.04077 -0.075073786 -25.022018 -27.175894 -114.48831
124885000 -27.158545 -116.00636 -0.077978708 -25.239645 -0.074775659 -25.226851 -27.148558 -114.54384
125884000 -27.113148 -116.16391 -0.078505576 -25.441298 -0.075298451 -25.42742 -27.11525 -114.72108
126883000 -27.089151 -116.59175 -0.07935334 -25.643892 -0.075984627 -25.632021 -27.081629 -114.71939
127882000 -27.041584 -116.85111 -0.07979811 -25.843847 -0.076772086 -25.828922 -27.045088 -114.81216
128881000 -27.012182 -117.16855 -0.080048859 -26.047213 -0.076655105 -26.030508 -27.0058 -114.93538
129880000 -26.957989 -117.51566 -0.080827564 -26.24987 -0.076909356 -26.228724 -26.960222 -114.85362
130879000 -26.896877 -117.64633 -0.080062836 -26.450176 -0.077456124 -26.431351 -26.89044 -114.91646
131878000 -26.838478 -117.90652 -0.080503456 -26.650299 -0.078223556 -26.629271 -26.834349 -114.74244
132877000 -26.771641 -117.95301 -0.080089994 -26.854761 -0.078129724 -26.834986 -26.752623 -114.73086
133876000 -26.690483 -118.08794 -0.080522709 -27.05331 -0.07810574 -27.035978 -26.666609 -114.6245
134875000 -26.591339 -118.22311 -0.081141137 -27.249437 -0.078669794 -27.2334 -26.568594 -114.43876
135874000 -26.51296 -118.2606 -0.081609569 -27.451103 -0.078719608 -27.436913 -26.471388 -114.40393
136873000 -26.401865 -118.17263 -0.08184275 -27.655327 -0.07827469 -27.638885 -26.393093 -114.35057
137872000 -26.325226 -118.3152 -0.081639372 -27.857374 -0.0785546 -27.844618 -26.294989 -114.2779
138871000 -26.25491 -118.53445 -0.082665302 -28.056526 -0.078906238 -28.03767 -26.196226 -114.42113
139870000 -26.149008 -118.80497 -0.081839055 -28.256994 -0.079494119 -28.238459 -26.118885 -114.59438
140869000 -26.075319 -119.34044 -0.08408127 -28.452852 -0.079771742 -28.435427 -26.021467 -114.83672
141868000 -25.997847 -119.73676 -0.084288187 -28.654219 -0.081960395 -28.637297 -25.971685 -115.07188
142867000 -25.917795 -119.94794 -0.082706988 -28.848753 -0.080982633 -28.834013 -25.89118 -115.17823
143866000 -25.840818 -120.41933 -0.084803417 -29.047316 -0.081705585 -29.033632 -25.818171 -115.67782
144865000 -25.790089 -120.94104 -0.086327814 -29.247025 -0.08313179 -29.230625 -25.757111 -115.93707
145864000 -25.726027 -121.23341 -0.086858593 -29.446295 -0.08432778 -29.43498 -25.729275 -116.19107
146863000 -25.681374 -121.62196 -0.087690555 -29.647552 -0.085132062 -29.635572 -25.681242 -116.49325
147862000 -25.646038 -121.96258 -0.088920832 -29.843126 -0.086095713 -29.835981 -25.655035 -116.83546
148861000 -25.610996 -122.37352 -0.089400671 -30.044769 -0.08709047 -30.028811 -25.629793 -117.00023
149860000 -25.584291 -122.5673 -0.090730809 -30.236349 -0.087868325 -30.2227 -25.57238 -117.07559
150859000 -25.555954 -123.01778 -0.089763224 -30.432167 -0.088145427 -30.421028 -25.557148 -117.42821
151858000 -25.546824 -123.37862 -0.089174218 -30.631838 -0.086416267 -30.617651 -25.544697 -117.80264
152857000 -25.524502 -123.71046 -0.089620262 -30.830589 -0.087277994 -30.821783 -25.528261 -117.94174
153856000 -25.525215 -123.90764 -0.089344911 -31.030809 -0.085806064 -31.019875 -25.54521 -118.2936
154855000 -25.524666 -124.09966 -0.089470692 -31.229712 -0.086795747 -31.215778 -25.535849 -118.56009
155854000 -25.538414 -124.31742 -0.089761905 -31.430998 -0.087692402 -31.418232 -25.520536 -118.81598
156853000 -25.523951 -125.04263 -0.08800225 -31.619408 -0.086154856 -31.612753 -25.516102 -119.11521
157852000 -25.527346 -125.22007 -0.088627823 -31.822315 -0.087906629 -31.811872 -25.50338 -119.48629
158851000 -25.525347 -125.45358 -0.089947686 -32.019562 -0.088249512 -32.01128 -25.489363 -119.73098
159850000 -25.517097 -125.56113 -0.090239197 -32.216335 -0.088555962 -32.209381 -25.488302 -119.94604
160849000 -25.498339 -125.64998 -0.090224922 -32.41935 -0.089430265 -32.412651 -25.455835 -120.23161
161848000 -25.482143 -125.73672 -0.090957873 -32.620163 -0.088903129 -32.61153 -25.416473 -120.32516
162847000 -25.439894 -125.89409 -0.090852402 -32.815178 -0.089955352 -32.811649 -25.389889 -120.5559
163846000 -25.403137 -126.09546 -0.090769403 -33.015442 -0.089630827 -33.012691 -25.310865 -120.55505
164845000 -25.343023 -126.09766 -0.091417581 -33.217968 -0.089871839 -33.210072 -25.249409 -120.65466
165844000 -25.291504 -126.11196 -0.091316067 -33.419888 -0.089920998 -33.408054 -25.17581 -120.79604
166843000 -25.229053 -126.18318 -0.090963423 -33.612247 -0.08945933 -33.614948 -25.105963 -120.93581
167842000 -25.17186 -126.25719 -0.091716856 -33.816536 -0.090827025 -33.812061 -25.029522 -120.85809
168841000 -25.096916 -126.41833 -0.091950573 -34.014496 -0.090649135 -34.010075 -24.956654 -120.92065
169840000 -25.031834 -126.68422 -0.092014559 -34.209923 -0.091361798 -34.20512 -24.874701 -121.1469
170839000 -24.970722 -126.90951 -0.093384385 -34.409176 -0.092198856 -34.406548 -24.792873 -121.26289
171838000 -24.914906 -127.31141 -0.092839047 -34.6087 -0.092512988 -34.603527 -24.728661 -121.49968
172837000 -24.841949 -127.62354 -0.094776332 -34.807251 -0.093758911 -34.799618 -24.661501 -121.68915
173836000 -24.776896 -128.00209 -0.09536954 -35.006573 -0.094753578 -35.003971 -24.62162 -121.92255
174835000 -24.720858 -128.41426 -0.096288882 -35.20116 -0.095032975 -35.201511 -24.578264 -122.21788
175834000 -24.672791 -128.77789 -0.096976534 -35.404984 -0.096201278 -35.40033 -24.521639 -122.52519
176833000 -24.616423 -129.15176 -0.097770192 -35.60004 -0.097251564 -35.601284 -24.475767 -122.65643
177832000 -24.579321 -129.53508 -0.099027947 -35.800236 -0.097925335 -35.799938 -24.448776 -122.76396
178831000 -24.529171 -129.78856 -0.10043655 -35.997593 -0.099528506 -35.991253 -24.413677 -122.8185
179830000 -24.458654 -130.16631 -0.10141923 -36.174347 -0.10061086 -36.181877 -24.353577 -122.92818
180829000 -24.41576 -130.55167 -0.10068133 -36.370667 -0.099486127 -36.370693 -24.305185 -123.22359
181828000 -24.394499 -130.95369 -0.10033561 -36.571487 -0.098843634 -36.572704 -24.292053 -123.42106
182827000 -24.36684 -131.35002 -0.10009005 -36.772537 -0.098454364 -36.772594 -24.27722 -123.56759
183826000 -24.326384 -131.65622 -0.10003018 -36.968678 -0.098689772 -36.965164 -24.27216 -123.70277
184825000 -24.331926 -132.01573 -0.10070783 -37.168053 -0.10015601 -37.166615 -24.250257 -123.84709
185824000 -24.304644 -132.35565 -0.10001799 -37.359764 -0.099551283 -37.365631 -24.243025 -123.89195
186823000 -24.288023 -132.75424 -0.10045138 -37.564125 -0.099688753 -37.559231 -24.237011 -123.93014
187822000 -24.262539 -133.09111 -0.10128435 -37.758514 -0.10036395 -37.754929 -24.199001 -124.02193
188821000 -24.240757 -133.3224 -0.10106868 -37.951927 -0.099831514 -37.954933 -24.178688 -124.10806
189820000 -24.222357 -133.63921 -0.10133417 -38.153778 -0.099907272 -38.154255 -24.164112 -124.30569
190819000 -24.188463 -133.92451 -0.10233243 -38.348045 -0.10067524 -38.348347 -24.124321 -124.36955
191818000 -24.158485 -134.20453 -0.10194179 -38.546165 -0.1011275 -38.548409 -24.098846 -124.38613
192817000 -24.115479 -134.49565 -0.10275517 -38.745686 -0.10137286 -38.746517 -24.05521 -124.47018
193816000 -24.082272 -134.73953 -0.10271224 -38.940807 -0.101225 -38.938541 -24.002604 -124.61842
194815000 -24.02248 -135.14673 -0.10311567 -39.134903 -0.10215884 -39.138355 -23.933342 -124.67471
195814000 -23.968102 -135.32352 -0.10348255 -39.335403 -0.10223834 -39.336147 -23.882217 -124.76845
196813000 -23.912933 -135.64742 -0.10339348 -39.524487 -0.10197677 -39.527485 -23.802845 -124.8968
197812000 -23.859484 -135.89137 -0.10337201 -39.72419 -0.10223623 -39.724056 -23.735411 -125.02174
198811000 -23.799866 -136.02664 -0.1032217 -39.92255 -0.10282409 -39.921719 -23.664253 -125.17322
199810000 -23.734293 -136.36891 -0.10384841 -40.118732 -0.10280024 -40.114063 -23.588442 -125.23743
200809000 -23.675627 -136.60378 -0.1044296 -40.314053 -0.10293966 -40.315147 -23.510181 -125.42379
201808000 -23.619751 -136.83449 -0.10460302 -40.514629 -0.1041337 -40.515976 -23.444723 -125.49216
202807000 -23.566685 -137.15163 -0.10527236 -40.718372 -0.10494828 -40.721066 -23.395012 -125.66344
