!Keysight Technologies,E5080B,MY59205177,A.15.75.32
!Date: Friday, February 23, 2024 03:02:51
!Correction: S11(Cdelta 2-Port  ) 
!S21(Cdelta 2-Port  ) 
!S12(Cdelta 2-Port  ) 
!S22(Cdelta 2-Port  ) 
!S2P File: Measurements: S11, S21, S12, S22:
# Hz S  dB   R 50
10000000 -44.163277 -3.7220001 -0.026309785 -2.0379999 -0.030275378 -2.0911 -48.044079 -150.68494
10999000 -43.543789 -5.5302372 -0.027282348 -2.2520442 -0.030340547 -2.3086863 -47.743679 -142.68488
11998000 -42.767353 -7.9975977 -0.028009439 -2.4787807 -0.029832521 -2.5213776 -47.784508 -137.24634
12997000 -42.105251 -12.844245 -0.027426662 -2.6562128 -0.029596385 -2.6932418 -47.252739 -131.40099
13996000 -41.915447 -16.152925 -0.026384789 -2.8383677 -0.029956851 -2.8587284 -46.776932 -125.28165
14995000 -41.551224 -20.236361 -0.02833955 -3.0479126 -0.029467376 -3.0701766 -46.332649 -122.38656
15994000 -41.459045 -23.910378 -0.029959718 -3.2644575 -0.03200084 -3.2885854 -46.141644 -118.84409
16993000 -41.449417 -27.814688 -0.028671769 -3.4589896 -0.030949004 -3.4691637 -45.160038 -119.38287
17992000 -41.518875 -32.415741 -0.029738169 -3.6607556 -0.031872019 -3.6619139 -44.593098 -120.04572
18991000 -41.779991 -36.968494 -0.030061895 -3.871444 -0.032977547 -3.8671935 -43.869877 -119.26797
19990000 -41.640713 -41.898914 -0.032744892 -4.0748725 -0.034616146 -4.0751967 -43.183556 -120.92928
20989000 -41.511902 -45.017815 -0.034858298 -4.2787375 -0.036907729 -4.2682161 -42.573349 -121.09159
21988000 -41.39275 -49.80769 -0.034976769 -4.4768038 -0.037072986 -4.4673767 -42.325008 -120.65055
22987000 -41.217087 -54.123539 -0.037134342 -4.6731138 -0.038134925 -4.6685619 -42.030052 -119.76613
23986000 -41.1991 -57.638882 -0.036547206 -4.8706636 -0.03711215 -4.8706317 -41.859955 -119.8291
24985000 -40.912014 -60.277069 -0.037829399 -5.0795984 -0.037744273 -5.0759211 -41.650307 -117.19345
25984000 -40.621086 -62.752979 -0.038493227 -5.2822065 -0.037883192 -5.2848225 -41.356834 -116.17362
26983000 -40.352093 -64.479271 -0.039328512 -5.4824562 -0.039266866 -5.4985948 -41.188953 -115.09272
27982000 -40.19743 -65.260033 -0.040566847 -5.6810112 -0.040402759 -5.7175288 -40.876743 -113.76102
28981000 -40.142258 -66.616592 -0.037884757 -5.8772192 -0.0405901 -5.9017134 -40.641975 -112.82867
29980000 -39.815994 -68.338669 -0.037999917 -6.0718126 -0.040747661 -6.0769777 -40.315952 -112.04671
30979000 -39.442238 -67.60215 -0.03612642 -6.4246907 -0.034550395 -6.4171958 -39.803585 -112.9837
31978000 -39.248363 -68.52037 -0.034920406 -6.6198502 -0.035798065 -6.6064267 -39.573761 -112.50502
32977000 -39.099289 -70.239265 -0.035365347 -6.8311815 -0.036771715 -6.8230762 -39.317139 -112.74023
33976000 -38.943966 -71.356247 -0.036356386 -7.0272717 -0.037205357 -7.0230317 -39.006386 -112.13036
34975000 -38.665012 -72.25695 -0.03598547 -7.2297525 -0.038011931 -7.2291508 -38.771526 -112.05434
35974000 -38.506149 -72.978119 -0.035251822 -7.4213386 -0.037724167 -7.4251652 -38.481773 -111.3226
36973000 -38.26173 -73.875328 -0.035913691 -7.6261086 -0.03842663 -7.6244984 -38.175739 -110.53564
37972000 -38.085617 -73.737427 -0.035816599 -7.8345542 -0.038150854 -7.8362093 -37.931404 -109.9107
38971000 -37.755299 -73.444984 -0.036932267 -8.0348635 -0.038358469 -8.0425482 -37.751457 -108.51038
39970000 -37.435905 -74.145027 -0.03475653 -8.2249355 -0.037544262 -8.2388067 -37.484001 -108.04361
40969000 -37.173069 -74.107941 -0.035147436 -8.4247103 -0.037601966 -8.436923 -37.218475 -106.62257
41968000 -36.835808 -74.210892 -0.035368476 -8.6298857 -0.037443474 -8.6415195 -36.984253 -105.6284
42967000 -36.577717 -74.426598 -0.035722636 -8.8359747 -0.038317468 -8.857091 -36.754524 -103.8558
43966000 -36.305496 -75.350395 -0.03647542 -9.037384 -0.038959954 -9.0546474 -36.487995 -103.34858
44965000 -36.091129 -76.318649 -0.036633875 -9.2422752 -0.039054245 -9.2591295 -36.241749 -103.15749
45964000 -35.881672 -77.391846 -0.037710849 -9.4437008 -0.040773269 -9.4546576 -36.019512 -103.1644
46963000 -35.668858 -79.375412 -0.037725475 -9.635561 -0.040635563 -9.6466875 -35.824406 -103.44457
47962000 -35.536781 -80.887299 -0.039225332 -9.8352776 -0.042070825 -9.8505697 -35.615841 -103.52547
48961000 -35.339996 -82.297165 -0.041699942 -10.033 -0.043881517 -10.051545 -35.385677 -103.95555
49960000 -35.130325 -83.728638 -0.042732686 -10.229885 -0.044310376 -10.249459 -35.241711 -104.07571
50959000 -34.909515 -85.12851 -0.043012936 -10.441673 -0.045724615 -10.449863 -35.077724 -104.47021
51958000 -34.716 -86.212761 -0.044919487 -10.639339 -0.047080435 -10.652558 -34.897297 -105.06042
52957000 -34.521103 -87.35553 -0.046443027 -10.84052 -0.04815058 -10.847481 -34.74094 -104.90218
53956000 -34.354778 -88.072128 -0.047772899 -11.040789 -0.049031183 -11.040657 -34.599361 -104.76973
54955000 -34.193089 -88.532806 -0.048746355 -11.24411 -0.050154708 -11.23724 -34.439991 -104.80444
55954000 -34.04187 -89.483421 -0.05007929 -11.441478 -0.050454818 -11.436244 -34.321198 -104.64053
56953000 -33.930447 -89.491234 -0.049679447 -11.640267 -0.049037203 -11.629036 -34.240501 -104.79368
57952000 -33.769707 -90.058548 -0.049792036 -11.838347 -0.050096571 -11.827215 -34.158409 -104.80306
58951000 -33.662151 -90.438881 -0.051897779 -12.041906 -0.050946403 -12.017831 -34.011024 -105.03062
59950000 -33.53944 -90.830826 -0.052150328 -12.238968 -0.052017763 -12.213183 -33.941456 -105.31223
60949000 -33.429462 -91.413574 -0.051586568 -12.441157 -0.052367255 -12.419196 -33.843773 -105.53484
61948000 -33.368645 -91.647667 -0.052645247 -12.637359 -0.05142704 -12.623478 -33.76096 -105.65836
62947000 -33.280827 -91.936562 -0.052810583 -12.853209 -0.052904129 -12.828945 -33.625633 -105.96068
63946000 -33.211884 -92.704025 -0.054382242 -13.048178 -0.054341614 -13.027596 -33.529434 -106.15253
64945000 -33.115814 -92.833519 -0.054530606 -13.249532 -0.055169463 -13.2309 -33.411812 -106.62957
65944000 -33.017815 -93.16468 -0.055644017 -13.44945 -0.054924082 -13.431476 -33.331394 -107.10299
66943000 -32.875679 -93.602417 -0.053511038 -13.650432 -0.053511038 -13.632615 -33.219894 -107.39832
67942000 -32.821484 -93.576462 -0.055136431 -13.847005 -0.055459693 -13.834335 -33.100628 -107.73734
68941000 -32.708733 -93.718666 -0.055150062 -14.037395 -0.054503866 -14.028115 -33.000984 -107.61715
69940000 -32.611778 -93.656708 -0.054868765 -14.238844 -0.05545681 -14.227159 -32.855453 -108.05294
70939000 -32.508678 -93.659035 -0.054876368 -14.433065 -0.055122796 -14.427351 -32.718586 -107.98444
71938000 -32.370705 -93.301346 -0.055042051 -14.633576 -0.0552295 -14.622843 -32.593369 -107.78829
72937000 -32.198975 -93.153748 -0.053859603 -14.827243 -0.05432903 -14.81949 -32.445293 -107.51534
73936000 -32.074455 -92.84053 -0.05364915 -15.027884 -0.054001134 -15.02127 -32.330803 -107.44006
74935000 -31.949873 -93.177467 -0.053227488 -15.222548 -0.052458696 -15.21712 -32.180779 -107.07603
75934000 -31.825241 -93.507919 -0.053665921 -15.431556 -0.052759752 -15.422956 -32.084843 -107.09772
76933000 -31.706848 -93.833778 -0.054979656 -15.622852 -0.054257475 -15.616385 -31.924007 -107.45318
77932000 -31.606129 -94.61779 -0.055789277 -15.820013 -0.056082431 -15.815873 -31.819342 -107.42704
78931000 -31.536898 -95.448128 -0.054547381 -16.020638 -0.05534381 -16.013786 -31.720215 -107.34874
79930000 -31.422041 -96.206558 -0.056961495 -16.212301 -0.057685442 -16.208757 -31.628296 -107.63061
80929000 -31.289431 -97.17968 -0.058416855 -16.40617 -0.059642009 -16.402998 -31.522064 -108.027
81928000 -31.214975 -98.001648 -0.058896746 -16.597263 -0.059643585 -16.595135 -31.400047 -108.15936
82927000 -31.122845 -98.718544 -0.060455911 -16.795822 -0.061062824 -16.797859 -31.295336 -108.34099
83926000 -31.014799 -99.482643 -0.06171656 -16.992887 -0.062016685 -16.99213 -31.166059 -108.64637
84925000 -30.903324 -99.907593 -0.062688686 -17.192701 -0.062048979 -17.188135 -31.084221 -108.7182
85924000 -30.820671 -100.33464 -0.062784016 -17.390821 -0.063441694 -17.389284 -31.002674 -108.72729
86923000 -30.714319 -100.89184 -0.06420166 -17.585823 -0.06392923 -17.585245 -30.903492 -108.6094
87922000 -30.607107 -101.29142 -0.06305401 -17.797232 -0.063265704 -17.788229 -30.8134 -108.60224
88921000 -30.534477 -101.58962 -0.064273641 -17.992502 -0.063894294 -17.990742 -30.72213 -108.70214
89920000 -30.429491 -102.09629 -0.065653928 -18.194944 -0.064844042 -18.182781 -30.668255 -108.84244
90919000 -30.346632 -102.36907 -0.065379046 -18.388945 -0.064975686 -18.38183 -30.59153 -108.94962
91918000 -30.246595 -102.75182 -0.066668727 -18.588074 -0.065669432 -18.584375 -30.520555 -109.02631
92917000 -30.153173 -103.13278 -0.067653261 -18.7885 -0.067138486 -18.783775 -30.459867 -109.1186
93916000 -30.07799 -103.51427 -0.066785961 -18.977703 -0.066668727 -18.975716 -30.367575 -109.78704
94915000 -29.996914 -104.11081 -0.068425804 -19.181673 -0.067629077 -19.176903 -30.309139 -109.64067
95914000 -29.945297 -104.3112 -0.069765314 -19.373629 -0.068973601 -19.37248 -30.221912 -109.9568
96913000 -29.858297 -104.54122 -0.070794761 -19.573469 -0.069432303 -19.569689 -30.161802 -110.2765
97912000 -29.78273 -105.0715 -0.071789972 -19.768438 -0.069664568 -19.769394 -30.080479 -110.53298
98911000 -29.683414 -105.28455 -0.07222186 -19.973213 -0.071146034 -19.967304 -30.043711 -110.73663
99910000 -29.616693 -105.39386 -0.073043652 -20.168032 -0.0705285 -20.168554 -29.930086 -111.04025
100909000 -29.537544 -105.67302 -0.072003148 -20.377563 -0.071189709 -20.368155 -29.849558 -111.25122
101908000 -29.442369 -105.99054 -0.073572025 -20.578743 -0.072188698 -20.575985 -29.741711 -111.0445
102907000 -29.320541 -105.97821 -0.073618628 -20.776554 -0.071871817 -20.773304 -29.670696 -111.01563
103906000 -29.216875 -106.06443 -0.074227646 -20.980436 -0.071724966 -20.976269 -29.519634 -110.98102
104905000 -29.075102 -105.96732 -0.074232653 -21.180265 -0.071810499 -21.177664 -29.386866 -110.69402
105904000 -28.933208 -106.13364 -0.074258983 -21.38282 -0.071952619 -21.377008 -29.273357 -110.59427
106903000 -28.822208 -106.24685 -0.074520998 -21.587313 -0.072471119 -21.579252 -29.146776 -110.45346
107902000 -28.662626 -106.61913 -0.074810684 -21.791132 -0.07277067 -21.774895 -29.006632 -110.40924
108901000 -28.555452 -106.83438 -0.076348171 -21.987509 -0.074864931 -21.980906 -28.877291 -110.32307
109900000 -28.423214 -107.36187 -0.076706216 -22.188025 -0.075915083 -22.177637 -28.724802 -110.43869
110899000 -28.311592 -107.97171 -0.078475006 -22.385098 -0.076597668 -22.375072 -28.602289 -110.73526
111898000 -28.219086 -108.63139 -0.079959475 -22.586666 -0.077540189 -22.579029 -28.485807 -110.86237
112897000 -28.096725 -109.18813 -0.081009008 -22.784529 -0.07841596 -22.772999 -28.350222 -111.03613
113896000 -27.987545 -109.76144 -0.081776805 -22.985294 -0.080200739 -22.970627 -28.243183 -111.19727
114895000 -27.889538 -110.45174 -0.083047092 -23.18232 -0.080769017 -23.167021 -28.131647 -111.26584
115894000 -27.761003 -110.79385 -0.083978608 -23.384253 -0.082354516 -23.368738 -28.063646 -111.44917
116893000 -27.683626 -111.36127 -0.084747456 -23.578697 -0.082836539 -23.559816 -27.927856 -111.57899
117892000 -27.60708 -111.79308 -0.084249124 -23.773748 -0.083560325 -23.761814 -27.865248 -111.83606
118891000 -27.547199 -112.26627 -0.08593148 -23.976007 -0.083553724 -23.960829 -27.765881 -111.94118
119890000 -27.453299 -112.62587 -0.086489946 -24.17804 -0.085326098 -24.156689 -27.7509 -112.09262
120889000 -27.399714 -113.12166 -0.087633237 -24.375023 -0.084758542 -24.36117 -27.682423 -112.03539
121888000 -27.365627 -113.43691 -0.087538682 -24.571861 -0.085383117 -24.560863 -27.619724 -112.32842
122887000 -27.321304 -113.63034 -0.088634163 -24.769253 -0.085996963 -24.764687 -27.582333 -112.36076
123886000 -27.267599 -114.04652 -0.088936418 -24.974155 -0.086734213 -24.957779 -27.563301 -112.54245
124885000 -27.231703 -114.58451 -0.089302368 -25.172537 -0.087004378 -25.155964 -27.532995 -112.60765
125884000 -27.181131 -114.72576 -0.090277515 -25.374628 -0.087151743 -25.359303 -27.513002 -112.80581
126883000 -27.163502 -115.12922 -0.090112336 -25.574375 -0.087840065 -25.559578 -27.461744 -112.8194
127882000 -27.114384 -115.45275 -0.090375043 -25.773314 -0.088070408 -25.758919 -27.423738 -112.99931
128881000 -27.082304 -115.77412 -0.091143705 -25.975033 -0.088015199 -25.956633 -27.381849 -113.13213
129880000 -27.030363 -116.06332 -0.091805689 -26.176298 -0.087926701 -26.157799 -27.345112 -113.08527
130879000 -26.963125 -116.24485 -0.09101259 -26.375425 -0.088802196 -26.358603 -27.26899 -113.12395
131878000 -26.904646 -116.48064 -0.091642298 -26.579744 -0.089286253 -26.559196 -27.207384 -113.07583
132877000 -26.836226 -116.5258 -0.091271125 -26.779453 -0.08959119 -26.765192 -27.123457 -113.04757
133876000 -26.75288 -116.68511 -0.091522798 -26.979141 -0.089529619 -26.960392 -27.037121 -112.9922
134875000 -26.652916 -116.82941 -0.091773957 -27.180708 -0.090208009 -27.160488 -26.929749 -112.86684
135874000 -26.574898 -116.84998 -0.091887914 -27.378666 -0.089986272 -27.365995 -26.828259 -112.85265
136873000 -26.468115 -116.79971 -0.092071407 -27.583862 -0.089525655 -27.56765 -26.743248 -112.84045
137872000 -26.387072 -116.89579 -0.092970483 -27.779547 -0.090328529 -27.763603 -26.641558 -112.77529
138871000 -26.312649 -117.12477 -0.093481183 -27.983009 -0.090391427 -27.968832 -26.544117 -112.97215
139870000 -26.212385 -117.38363 -0.093791179 -28.183605 -0.090755925 -28.163769 -26.46249 -113.15986
140869000 -26.130257 -117.84865 -0.095735244 -28.375059 -0.093168303 -28.357786 -26.358736 -113.23658
141868000 -26.031723 -118.32388 -0.096525759 -28.570101 -0.093507104 -28.5527 -26.281797 -113.55161
142867000 -25.957756 -118.57918 -0.094409123 -28.767859 -0.092335291 -28.748953 -26.204897 -113.7832
143866000 -25.88484 -119.03902 -0.095636539 -28.96225 -0.092974976 -28.947424 -26.132515 -114.29331
144865000 -25.826584 -119.58206 -0.096997179 -29.163584 -0.094754368 -29.148184 -26.077717 -114.60101
145864000 -25.7757 -119.92665 -0.09728916 -29.36412 -0.095796637 -29.351418 -26.040253 -114.88033
146863000 -25.726036 -120.28288 -0.098196991 -29.562405 -0.095850095 -29.550861 -25.991426 -115.17651
147862000 -25.686359 -120.65696 -0.099494606 -29.758045 -0.095852472 -29.746294 -25.954153 -115.49036
148861000 -25.649733 -121.15668 -0.098529302 -29.957125 -0.097373605 -29.944561 -25.932234 -115.74601
149860000 -25.63777 -121.33274 -0.099769004 -30.158485 -0.097311392 -30.143049 -25.898365 -115.88889
150859000 -25.619383 -121.7203 -0.099900387 -30.353197 -0.098328851 -30.341173 -25.893038 -116.14421
151858000 -25.601412 -122.02368 -0.10032369 -30.552431 -0.097980142 -30.539083 -25.881605 -116.43304
152857000 -25.581757 -122.36336 -0.10103132 -30.752016 -0.098025948 -30.735422 -25.866348 -116.57514
153856000 -25.575634 -122.57219 -0.10065775 -30.950298 -0.097031057 -30.935423 -25.8794 -116.87118
154855000 -25.567907 -122.73574 -0.10078068 -31.148741 -0.097727828 -31.135798 -25.874275 -117.0686
155854000 -25.585146 -122.97902 -0.10098495 -31.347458 -0.098907188 -31.333149 -25.864672 -117.36187
156853000 -25.566084 -123.65833 -0.098895006 -31.534727 -0.09746097 -31.526917 -25.858662 -117.62968
157852000 -25.57373 -123.91682 -0.099937737 -31.73517 -0.099152423 -31.72629 -25.845757 -117.98904
158851000 -25.567642 -124.15992 -0.10114869 -31.932327 -0.099637896 -31.925425 -25.828081 -118.24789
159850000 -25.55435 -124.28467 -0.10157981 -32.131725 -0.099843174 -32.123386 -25.834541 -118.40309
160849000 -25.534693 -124.36455 -0.10160869 -32.330093 -0.10079684 -32.324284 -25.800615 -118.68607
161848000 -25.514828 -124.49142 -0.10171442 -32.535419 -0.10022727 -32.523918 -25.762009 -118.81785
162847000 -25.475937 -124.73589 -0.10165692 -32.726357 -0.10062119 -32.724731 -25.732454 -119.05547
163846000 -25.434711 -124.93031 -0.10195848 -32.930199 -0.10071498 -32.921329 -25.655556 -119.06553
164845000 -25.37356 -124.93557 -0.10282993 -33.129299 -0.10105278 -33.120281 -25.586941 -119.19906
165844000 -25.314526 -125.02425 -0.10253625 -33.326237 -0.10249649 -33.317711 -25.50766 -119.31184
166843000 -25.260061 -125.08542 -0.10283708 -33.525314 -0.10172529 -33.52002 -25.438854 -119.51017
167842000 -25.192797 -125.23956 -0.10276975 -33.724548 -0.10171469 -33.716946 -25.359106 -119.40595
168841000 -25.117943 -125.43269 -0.10300168 -33.923225 -0.10176477 -33.920212 -25.280836 -119.51262
169840000 -25.05205 -125.71534 -0.10370471 -34.116013 -0.10165665 -34.11277 -25.194326 -119.71814
170839000 -24.992256 -125.97157 -0.1040218 -34.316166 -0.10306212 -34.309212 -25.105019 -119.88068
171838000 -24.935604 -126.39301 -0.10407642 -34.515995 -0.10333304 -34.50864 -25.041454 -120.12232
172837000 -24.865318 -126.76098 -0.10536333 -34.711334 -0.10494033 -34.705177 -24.974066 -120.36755
173836000 -24.798609 -127.14617 -0.10706025 -34.906807 -0.10552962 -34.907204 -24.93001 -120.58775
174835000 -24.743216 -127.57307 -0.10736697 -35.10144 -0.10666256 -35.103722 -24.884596 -120.92184
175834000 -24.692806 -127.96841 -0.10772413 -35.302044 -0.1075283 -35.298775 -24.824402 -121.2159
176833000 -24.64373 -128.36041 -0.10910157 -35.500519 -0.10738952 -35.49884 -24.768471 -121.37036
177832000 -24.596973 -128.83867 -0.10908618 -35.697929 -0.10835414 -35.696625 -24.745279 -121.52869
178831000 -24.562046 -129.18068 -0.10958046 -35.890255 -0.10891205 -35.890209 -24.709961 -121.77319
179830000 -24.526146 -129.60931 -0.11040245 -36.086189 -0.1088096 -36.092575 -24.682535 -121.89851
180829000 -24.483263 -129.83235 -0.11073224 -36.283138 -0.10933199 -36.28643 -24.654411 -122.02251
181828000 -24.457178 -130.17651 -0.11009711 -36.484886 -0.10895691 -36.478207 -24.635778 -122.16613
182827000 -24.4298 -130.54201 -0.11017305 -36.680286 -0.11033554 -36.681858 -24.624538 -122.24821
183826000 -24.390097 -130.84836 -0.11155897 -36.877495 -0.1095425 -36.873596 -24.612854 -122.31189
184825000 -24.397135 -131.18277 -0.11165325 -37.069588 -0.1108868 -37.074821 -24.598917 -122.45313
185824000 -24.369522 -131.53351 -0.11149336 -37.26754 -0.11054 -37.265789 -24.592583 -122.4916
186823000 -24.354816 -131.87675 -0.11116776 -37.471352 -0.11072321 -37.465805 -24.586191 -122.5049
187822000 -24.336899 -132.19844 -0.11204689 -37.661346 -0.11112739 -37.662411 -24.557196 -122.55692
188821000 -24.314579 -132.45238 -0.11136083 -37.86039 -0.11183493 -37.864479 -24.539152 -122.6647
189820000 -24.301615 -132.70995 -0.11249848 -38.059456 -0.11173931 -38.057426 -24.533653 -122.80332
190819000 -24.272663 -132.94159 -0.11357397 -38.259956 -0.11300351 -38.257374 -24.500927 -122.75597
191818000 -24.235832 -133.11629 -0.11452003 -38.451885 -0.11413388 -38.453403 -24.469206 -122.68597
192817000 -24.165239 -133.41316 -0.11510637 -38.638855 -0.11481771 -38.640366 -24.397005 -122.78243
193816000 -24.129347 -133.76833 -0.11366326 -38.829506 -0.11321819 -38.831123 -24.340782 -123.02549
194815000 -24.074913 -134.22749 -0.11414637 -39.029881 -0.11385617 -39.028748 -24.277822 -123.15796
195814000 -24.022015 -134.43396 -0.11454874 -39.224041 -0.11327399 -39.23037 -24.228249 -123.24168
196813000 -23.967703 -134.7849 -0.1141857 -39.419033 -0.11299634 -39.419819 -24.150053 -123.40254
197812000 -23.908466 -135.01582 -0.11439804 -39.617008 -0.11344589 -39.617203 -24.082388 -123.51685
198811000 -23.857498 -135.1998 -0.11393483 -39.8144 -0.11273465 -39.818192 -24.012423 -123.70921
199810000 -23.788754 -135.5571 -0.11460987 -40.010399 -0.11314566 -40.006504 -23.933224 -123.80617
200809000 -23.734407 -135.85812 -0.11476561 -40.20615 -0.11405601 -40.209072 -23.853994 -123.99989
201808000 -23.674269 -136.06276 -0.11530308 -40.40593 -0.11441319 -40.408714 -23.790167 -124.0946
202807000 -23.616684 -136.41547 -0.11639842 -40.606232 -0.11596291 -40.611435 -23.727057 -124.28802
203806000 -23.564648 -136.90068 -0.11724084 -40.804897 -0.115998 -40.806969 -23.661156 -124.47091
