!Keysight Technologies,E5080B,MY59205177,A.15.75.32
!Date: Friday, February 23, 2024 03:02:57
!Correction: S11(Cdelta 2-Port  ) 
!S21(Cdelta 2-Port  ) 
!S12(Cdelta 2-Port  ) 
!S22(Cdelta 2-Port  ) 
!S2P File: Measurements: S11, S21, S12, S22:
# Hz S  dB   R 50
10000000 -44.18317 -3.6307206 -0.027173465 -2.04059 -0.030772505 -2.0918319 -48.078331 -150.38583
10999000 -43.502178 -5.551321 -0.028693918 -2.2548757 -0.030107509 -2.3076348 -47.823795 -143.21968
11998000 -42.764778 -7.7516022 -0.028903166 -2.4812145 -0.030097084 -2.5224545 -47.80558 -137.67519
12997000 -42.10162 -12.848152 -0.0281642 -2.6563218 -0.029238295 -2.6895564 -47.211025 -131.10829
13996000 -41.887478 -16.027878 -0.027668934 -2.8375633 -0.030070497 -2.858819 -46.798592 -125.1118
14995000 -41.556652 -19.936472 -0.029533835 -3.0453863 -0.029185651 -3.0720484 -46.35907 -122.06242
15994000 -41.465302 -23.744596 -0.030562647 -3.2647965 -0.032317951 -3.2884817 -46.084812 -118.41887
16993000 -41.423424 -27.71961 -0.029755373 -3.4603403 -0.030930754 -3.4660659 -45.178619 -119.48473
17992000 -41.484615 -32.47052 -0.029928962 -3.6539118 -0.031852461 -3.6586237 -44.565918 -119.94428
18991000 -41.803806 -36.976849 -0.031084053 -3.8671272 -0.032922514 -3.8681808 -43.847359 -119.52664
19990000 -41.573643 -42.047749 -0.0326197 -4.0773377 -0.034781322 -4.0694737 -43.175171 -120.83043
20989000 -41.500675 -44.964069 -0.034844991 -4.2819285 -0.037160188 -4.2723856 -42.612759 -120.71675
21988000 -41.40509 -49.774239 -0.03654094 -4.4741354 -0.037427027 -4.4648538 -42.311554 -120.46725
22987000 -41.185722 -53.881359 -0.03701999 -4.6725016 -0.038183238 -4.6676106 -42.013287 -119.94949
23986000 -41.198227 -57.87429 -0.036873527 -4.8697801 -0.037229117 -4.8677459 -41.910919 -119.78574
24985000 -40.873123 -60.536118 -0.038029164 -5.0760131 -0.038013756 -5.0726318 -41.6754 -117.17259
25984000 -40.646721 -62.528786 -0.039249364 -5.2835808 -0.037131991 -5.2879739 -41.320366 -116.01331
26983000 -40.360435 -64.554558 -0.039719827 -5.4833932 -0.038473379 -5.5007114 -41.162361 -115.35694
27982000 -40.218807 -65.454369 -0.040892422 -5.679059 -0.04042758 -5.7133951 -40.85281 -113.50437
28981000 -40.191837 -66.824677 -0.039241791 -5.8807497 -0.040270291 -5.9027753 -40.635242 -113.14325
29980000 -39.790646 -68.323677 -0.039339483 -6.0702682 -0.041428924 -6.0797215 -40.325562 -112.1973
30979000 -39.452534 -67.593285 -0.03676362 -6.4230866 -0.035706978 -6.4146843 -39.823685 -113.2486
31978000 -39.271378 -68.606644 -0.035961196 -6.6191797 -0.036722895 -6.6127329 -39.567654 -112.51065
32977000 -39.092514 -70.208878 -0.035582744 -6.8297672 -0.037169587 -6.8257403 -39.30336 -112.74017
33976000 -38.958 -71.327156 -0.036310442 -7.0282416 -0.037280027 -7.0233212 -38.999298 -112.28786
34975000 -38.667233 -72.417076 -0.036581144 -7.2293019 -0.038002789 -7.2252951 -38.769249 -111.97327
35974000 -38.4842 -72.995735 -0.036057249 -7.4237013 -0.03788998 -7.4236574 -38.480331 -111.29955
36973000 -38.262966 -73.903839 -0.036290865 -7.6246238 -0.038348023 -7.6252632 -38.176704 -110.54662
37972000 -38.089344 -73.795807 -0.035405274 -7.8341188 -0.038685709 -7.8394933 -37.941521 -109.90779
38971000 -37.791397 -73.501572 -0.037269324 -8.0337639 -0.038841635 -8.0413742 -37.755199 -108.43508
39970000 -37.456913 -74.161743 -0.035508364 -8.224062 -0.038050577 -8.2435961 -37.454891 -108.01537
40969000 -37.161114 -73.98101 -0.035167791 -8.4238596 -0.037329115 -8.4444542 -37.201237 -106.82417
41968000 -36.850353 -74.213554 -0.035389356 -8.627986 -0.037707455 -8.6411572 -37.00032 -105.60799
42967000 -36.586407 -74.363518 -0.035701234 -8.8397169 -0.038126048 -8.8525524 -36.753849 -103.88917
43966000 -36.288296 -75.349655 -0.035831213 -9.035203 -0.039126858 -9.0536299 -36.472454 -103.25047
44965000 -36.083225 -76.066696 -0.037026256 -9.2385082 -0.039815444 -9.2579489 -36.258354 -103.08936
45964000 -35.859737 -77.330643 -0.038494535 -9.4396257 -0.041374825 -9.4584675 -36.017948 -103.06603
46963000 -35.686638 -79.220184 -0.038478341 -9.6281366 -0.041935954 -9.6524401 -35.834793 -103.24421
47962000 -35.530239 -80.847298 -0.040257227 -9.8338604 -0.042676743 -9.8503218 -35.618748 -103.62276
48961000 -35.342899 -82.273865 -0.041437808 -10.029264 -0.044150855 -10.050997 -35.38126 -104.02513
49960000 -35.13126 -83.647346 -0.043298695 -10.227764 -0.045265272 -10.25126 -35.24361 -104.00844
50959000 -34.919144 -85.108955 -0.043462891 -10.44342 -0.046434391 -10.451176 -35.076099 -104.43582
51958000 -34.728931 -86.145035 -0.044978335 -10.637039 -0.047521915 -10.650331 -34.911942 -105.02762
52957000 -34.523285 -87.368301 -0.046699181 -10.838629 -0.048866514 -10.848708 -34.722572 -104.82635
53956000 -34.381123 -88.02597 -0.047919728 -11.041116 -0.049879495 -11.038723 -34.594124 -104.89793
54955000 -34.200191 -88.617409 -0.049168106 -11.243621 -0.050175656 -11.237041 -34.448753 -104.92271
55954000 -34.050613 -89.535637 -0.050266262 -11.443382 -0.050551716 -11.441534 -34.328953 -104.66763
56953000 -33.933895 -89.491615 -0.049809057 -11.637603 -0.049024899 -11.630685 -34.251419 -104.82437
57952000 -33.770092 -90.130302 -0.050870184 -11.836567 -0.050152611 -11.830784 -34.148277 -104.94115
58951000 -33.662426 -90.542542 -0.051739026 -12.037594 -0.052206915 -12.020934 -34.00259 -105.0596
59950000 -33.538197 -90.990166 -0.052462887 -12.24168 -0.052881591 -12.21762 -33.942924 -105.31363
60949000 -33.433182 -91.449387 -0.052392147 -12.442537 -0.05306397 -12.419003 -33.836082 -105.57667
61948000 -33.373405 -91.789993 -0.053574719 -12.640172 -0.052907534 -12.619465 -33.763317 -105.75223
62947000 -33.283516 -92.007515 -0.053553492 -12.84945 -0.052899674 -12.827872 -33.620796 -106.0591
63946000 -33.212257 -92.725204 -0.054459043 -13.04845 -0.054363891 -13.028493 -33.509216 -106.14477
64945000 -33.10392 -92.933578 -0.055040479 -13.251141 -0.054687362 -13.229349 -33.41198 -106.64519
65944000 -33.01749 -93.197807 -0.055671021 -13.451036 -0.055492729 -13.432325 -33.313404 -107.10557
66943000 -32.87133 -93.596306 -0.053301126 -13.648477 -0.053547464 -13.630486 -33.21767 -107.35728
67942000 -32.823441 -93.556244 -0.055597343 -13.844245 -0.055835422 -13.83365 -33.105022 -107.72296
68941000 -32.706467 -93.624451 -0.055017147 -14.040874 -0.054705713 -14.027292 -32.994247 -107.69189
69940000 -32.617416 -93.733932 -0.055528127 -14.237467 -0.055422988 -14.231258 -32.859016 -108.04206
70939000 -32.505219 -93.685143 -0.055780884 -14.433002 -0.055207741 -14.425865 -32.71405 -107.94936
71938000 -32.367989 -93.351006 -0.054717246 -14.630079 -0.054628644 -14.622337 -32.582371 -107.81927
72937000 -32.209511 -93.131012 -0.054360747 -14.831954 -0.0548997 -14.819716 -32.450367 -107.58273
73936000 -32.056435 -92.851883 -0.054237291 -15.028232 -0.054161541 -15.014008 -32.324722 -107.39706
74935000 -31.942253 -93.105141 -0.053783596 -15.22266 -0.053476181 -15.21767 -32.175735 -107.0858
75934000 -31.819681 -93.440376 -0.053237446 -15.430979 -0.053299028 -15.417892 -32.085415 -107.02611
76933000 -31.694454 -93.83989 -0.05443991 -15.622979 -0.053962603 -15.616729 -31.912102 -107.46226
77932000 -31.597918 -94.687759 -0.056141693 -15.819385 -0.056272548 -15.811909 -31.810755 -107.43016
78931000 -31.536259 -95.391685 -0.054480538 -16.016975 -0.05542089 -16.013531 -31.72002 -107.30216
79930000 -31.417522 -96.215179 -0.057474017 -16.210957 -0.057817653 -16.20842 -31.625519 -107.62519
80929000 -31.293476 -97.105133 -0.059235509 -16.403727 -0.059164397 -16.402864 -31.522638 -108.01003
81928000 -31.216805 -98.010162 -0.058896486 -16.599152 -0.059492946 -16.595272 -31.39753 -108.08663
82927000 -31.124187 -98.701141 -0.060845196 -16.794044 -0.060788233 -16.793459 -31.29266 -108.41832
83926000 -31.002762 -99.502731 -0.062290303 -16.993319 -0.061754897 -16.995489 -31.181862 -108.5982
84925000 -30.907429 -99.908157 -0.06363029 -17.190969 -0.06200723 -17.190594 -31.088017 -108.72032
85924000 -30.824245 -100.37867 -0.063846745 -17.394289 -0.063305631 -17.387291 -30.997704 -108.73015
86923000 -30.716867 -100.85748 -0.063580379 -17.590445 -0.063403338 -17.586773 -30.897274 -108.62106
87922000 -30.609524 -101.28005 -0.063807338 -17.793421 -0.062688686 -17.786312 -30.811951 -108.68998
88921000 -30.535038 -101.58011 -0.064773887 -17.991146 -0.06434904 -17.989246 -30.722647 -108.65759
89920000 -30.436424 -102.16807 -0.065426081 -18.191692 -0.065298103 -18.181644 -30.668074 -108.856
90919000 -30.338392 -102.46017 -0.066464745 -18.392233 -0.065813452 -18.385216 -30.585684 -109.0089
91918000 -30.24818 -102.79775 -0.066850632 -18.59057 -0.066362761 -18.582575 -30.519943 -109.04122
92917000 -30.161293 -103.08711 -0.068352699 -18.786097 -0.067226559 -18.780008 -30.453503 -109.16263
93916000 -30.080124 -103.51874 -0.068122081 -18.981644 -0.067217618 -18.976374 -30.372074 -109.80227
94915000 -30.003183 -104.20837 -0.068644598 -19.183025 -0.068140224 -19.174469 -30.312647 -109.64578
95914000 -29.937141 -104.40869 -0.069848701 -19.373234 -0.068795025 -19.371016 -30.225075 -109.90731
96913000 -29.857143 -104.62061 -0.070911318 -19.575438 -0.070009962 -19.570671 -30.163626 -110.32992
97912000 -29.784739 -105.07542 -0.071766809 -19.767721 -0.070566647 -19.769178 -30.074055 -110.55806
98911000 -29.683998 -105.26342 -0.072400048 -19.971573 -0.071798652 -19.968159 -30.0394 -110.78519
99910000 -29.610126 -105.4629 -0.073010221 -20.168493 -0.071694702 -20.168802 -29.929811 -111.02296
100909000 -29.527994 -105.7951 -0.072983369 -20.376455 -0.071093403 -20.368256 -29.844063 -111.28831
101908000 -29.436678 -105.91753 -0.073944584 -20.578243 -0.072201855 -20.573298 -29.737923 -111.03376
102907000 -29.301764 -106.03312 -0.074143648 -20.774609 -0.072058946 -20.773787 -29.659527 -111.01752
103906000 -29.210495 -106.04794 -0.075065091 -20.985519 -0.071845762 -20.973995 -29.510807 -110.96434
104905000 -29.070019 -105.98172 -0.074853875 -21.177137 -0.072622471 -21.181282 -29.38372 -110.65531
105904000 -28.930063 -106.07368 -0.075374834 -21.382681 -0.071527071 -21.372656 -29.271189 -110.52445
106903000 -28.829971 -106.19833 -0.075089589 -21.588844 -0.072572194 -21.583332 -29.148785 -110.46988
107902000 -28.6584 -106.54754 -0.07649228 -21.789238 -0.073767386 -21.776041 -29.010321 -110.38647
108901000 -28.557467 -106.79777 -0.077090636 -21.986336 -0.074647933 -21.980108 -28.877851 -110.3396
109900000 -28.425129 -107.30655 -0.077844568 -22.188362 -0.075809978 -22.180937 -28.727314 -110.44592
110899000 -28.31049 -107.95441 -0.079278998 -22.386667 -0.075765193 -22.374599 -28.601465 -110.74106
111898000 -28.221558 -108.63162 -0.080471024 -22.587423 -0.077121466 -22.578186 -28.481707 -110.88639
112897000 -28.089754 -109.16568 -0.082091764 -22.784235 -0.07822039 -22.771317 -28.353346 -111.07537
113896000 -27.992554 -109.76007 -0.08297611 -22.982964 -0.079791516 -22.972324 -28.241669 -111.21404
114895000 -27.891413 -110.44239 -0.083766684 -23.182297 -0.081141137 -23.167765 -28.12352 -111.30717
115894000 -27.768122 -110.7887 -0.084955461 -23.384125 -0.082383014 -23.369511 -28.0592 -111.47502
116893000 -27.684797 -111.35028 -0.085984021 -23.581856 -0.083156064 -23.557241 -27.9293 -111.55147
117892000 -27.608742 -111.85391 -0.085835636 -23.775183 -0.083315969 -23.761705 -27.865664 -111.80341
118891000 -27.548077 -112.25439 -0.086593986 -23.975401 -0.083735548 -23.961079 -27.770512 -111.9433
119890000 -27.456579 -112.63422 -0.087743916 -24.176455 -0.084224842 -24.161102 -27.749994 -112.08755
120889000 -27.401009 -113.11655 -0.088227056 -24.374535 -0.08481925 -24.362463 -27.679867 -112.05236
121888000 -27.364048 -113.48203 -0.08834409 -24.574432 -0.085326888 -24.560421 -27.618044 -112.34293
122887000 -27.323597 -113.66076 -0.089155987 -24.770559 -0.08591643 -24.758501 -27.579346 -112.39526
123886000 -27.268381 -114.12183 -0.089106575 -24.975798 -0.086421289 -24.955845 -27.563841 -112.53423
124885000 -27.235928 -114.58429 -0.089792028 -25.176868 -0.08661142 -25.159908 -27.535376 -112.62775
125884000 -27.185785 -114.78483 -0.090531513 -25.368622 -0.086775407 -25.35784 -27.510818 -112.78226
126883000 -27.159248 -115.14277 -0.090928793 -25.574467 -0.08798667 -25.562626 -27.471096 -112.85597
127882000 -27.111135 -115.4537 -0.09141811 -25.773418 -0.087941498 -25.75598 -27.420746 -112.98897
128881000 -27.080727 -115.80888 -0.091812029 -25.974558 -0.08843708 -25.958267 -27.379839 -113.14301
129880000 -27.024149 -116.10311 -0.09201932 -26.176739 -0.088360995 -26.158192 -27.345322 -113.10981
130879000 -26.965155 -116.26445 -0.092006102 -26.37343 -0.089257978 -26.357841 -27.263269 -113.14768
131878000 -26.904768 -116.50237 -0.09191224 -26.578207 -0.089376889 -26.558346 -27.208273 -113.07706
132877000 -26.829575 -116.5426 -0.091767348 -26.78019 -0.089123219 -26.760416 -27.123838 -113.05345
133876000 -26.749525 -116.73328 -0.092253849 -26.977753 -0.089178443 -26.963108 -27.031713 -112.99239
134875000 -26.652573 -116.82179 -0.092370197 -27.178017 -0.089916237 -27.1621 -26.929729 -112.86034
135874000 -26.570765 -116.84892 -0.092323922 -27.381351 -0.089778289 -27.362974 -26.831686 -112.8423
136873000 -26.461987 -116.76656 -0.092377074 -27.583515 -0.089283079 -27.559988 -26.742119 -112.82165
137872000 -26.380718 -116.90643 -0.092804931 -27.783726 -0.089389309 -27.766708 -26.642025 -112.80196
138871000 -26.310978 -117.09296 -0.093289696 -27.981279 -0.090264305 -27.966434 -26.544817 -112.91661
139870000 -26.214918 -117.35373 -0.094310977 -28.182938 -0.091458291 -28.163063 -26.461029 -113.12939
140869000 -26.126841 -117.79695 -0.096585311 -28.373589 -0.092367813 -28.359455 -26.355984 -113.28642
141868000 -26.032125 -118.31553 -0.09615735 -28.56712 -0.092773199 -28.552065 -26.283478 -113.57649
142867000 -25.957808 -118.5769 -0.094790615 -28.767771 -0.09217453 -28.746767 -26.206104 -113.79707
143866000 -25.888756 -119.07462 -0.096518084 -28.962851 -0.092984758 -28.947359 -26.132801 -114.30367
144865000 -25.833889 -119.58408 -0.097776011 -29.162754 -0.094442718 -29.147453 -26.072338 -114.62842
145864000 -25.779547 -119.90099 -0.098052427 -29.362812 -0.095625155 -29.350601 -26.040171 -114.86691
146863000 -25.728973 -120.28944 -0.099244058 -29.560978 -0.095855385 -29.549578 -25.987829 -115.20162
147862000 -25.681921 -120.66628 -0.09933304 -29.758854 -0.096128501 -29.746235 -25.954472 -115.51453
148861000 -25.654427 -121.16517 -0.10030726 -29.955263 -0.097141176 -29.940077 -25.931311 -115.77959
149860000 -25.637453 -121.33315 -0.10035522 -30.157021 -0.096380718 -30.142389 -25.903673 -115.88823
150859000 -25.621958 -121.75706 -0.10078492 -30.356415 -0.097921632 -30.337477 -25.892096 -116.17802
151858000 -25.607687 -122.0564 -0.10018435 -30.555552 -0.097818635 -30.535215 -25.885712 -116.44313
152857000 -25.582092 -122.34776 -0.10061987 -30.749352 -0.098538838 -30.741497 -25.865641 -116.5723
153856000 -25.578159 -122.58251 -0.10081565 -30.951128 -0.097796932 -30.93362 -25.880688 -116.87328
154855000 -25.573383 -122.75172 -0.10160392 -31.147022 -0.098314553 -31.136524 -25.870575 -117.10962
155854000 -25.5812 -122.98114 -0.10159571 -31.348024 -0.098564789 -31.331844 -25.864676 -117.37008
156853000 -25.5669 -123.73006 -0.099083036 -31.533453 -0.097954728 -31.525547 -25.861841 -117.65189
157852000 -25.56599 -123.9088 -0.1004625 -31.734165 -0.099468119 -31.724972 -25.851238 -118.0013
158851000 -25.566799 -124.12899 -0.1008546 -31.935308 -0.099839732 -31.923298 -25.831026 -118.24428
159850000 -25.550844 -124.2901 -0.10182943 -32.132923 -0.099595249 -32.122551 -25.83065 -118.39609
160849000 -25.5287 -124.39596 -0.10211802 -32.331184 -0.1006506 -32.326347 -25.799341 -118.70721
161848000 -25.513733 -124.49196 -0.10259403 -32.531731 -0.10040502 -32.522419 -25.761669 -118.78941
162847000 -25.46744 -124.70255 -0.1024252 -32.729221 -0.10073326 -32.722523 -25.736509 -119.08402
163846000 -25.428068 -124.92583 -0.10248827 -32.928802 -0.10119374 -32.92136 -25.650642 -119.08072
164845000 -25.369814 -124.92752 -0.10261311 -33.128159 -0.10137286 -33.119221 -25.587509 -119.18848
165844000 -25.314655 -125.00574 -0.10285696 -33.330017 -0.10182121 -33.318748 -25.509588 -119.30861
166843000 -25.247866 -125.07638 -0.10322488 -33.524841 -0.10210636 -33.52261 -25.436518 -119.48418
167842000 -25.19039 -125.22643 -0.10304993 -33.728748 -0.10210928 -33.717617 -25.361004 -119.41808
168841000 -25.115871 -125.41838 -0.10374793 -33.920998 -0.10225425 -33.917332 -25.279259 -119.50749
169840000 -25.046244 -125.69135 -0.10328373 -34.114834 -0.10267937 -34.110359 -25.189062 -119.71389
170839000 -24.991201 -125.93741 -0.10494245 -34.312595 -0.10328055 -34.314072 -25.102715 -119.88993
171838000 -24.931274 -126.35603 -0.10418089 -34.51207 -0.10396083 -34.507133 -25.038227 -120.14719
172837000 -24.867746 -126.74718 -0.10574632 -34.710564 -0.10430843 -34.704735 -24.971464 -120.35876
173836000 -24.799105 -127.17609 -0.10724014 -34.910694 -0.10514135 -34.904305 -24.930702 -120.59995
174835000 -24.745901 -127.60104 -0.1073943 -35.103367 -0.10635058 -35.103142 -24.878752 -120.90157
175834000 -24.698879 -127.96915 -0.1081137 -35.302006 -0.10680343 -35.298012 -24.822634 -121.19273
176833000 -24.644398 -128.34604 -0.10917059 -35.499561 -0.10742137 -35.493984 -24.771109 -121.35898
177832000 -24.597313 -128.81209 -0.109023 -35.694866 -0.10719556 -35.69606 -24.74571 -121.52425
178831000 -24.553881 -129.17326 -0.10932163 -35.892067 -0.10798366 -35.890415 -24.705652 -121.75774
179830000 -24.521784 -129.60431 -0.10931633 -36.085243 -0.10805426 -36.095226 -24.677898 -121.90008
180829000 -24.481003 -129.83247 -0.11078376 -36.283661 -0.109139 -36.286858 -24.652876 -122.04572
181828000 -24.457657 -130.19249 -0.11066984 -36.487873 -0.1095656 -36.481194 -24.632172 -122.17315
182827000 -24.436087 -130.52214 -0.1108698 -36.679214 -0.10930756 -36.677113 -24.621454 -122.22256
183826000 -24.390646 -130.87292 -0.11168671 -36.877159 -0.10968719 -36.870579 -24.610594 -122.35019
184825000 -24.398581 -131.19029 -0.11189496 -37.070457 -0.11044653 -37.073544 -24.598204 -122.46042
185824000 -24.370407 -131.51875 -0.11194303 -37.26704 -0.11104507 -37.266361 -24.596363 -122.53034
186823000 -24.353794 -131.89331 -0.11188114 -37.468704 -0.11096593 -37.463238 -24.593792 -122.48692
187822000 -24.333286 -132.24529 -0.11244189 -37.661545 -0.11168592 -37.663467 -24.557858 -122.55318
188821000 -24.314655 -132.44881 -0.11206761 -37.8578 -0.11187848 -37.860474 -24.543539 -122.66331
189820000 -24.295589 -132.69998 -0.11240975 -38.060528 -0.11175949 -38.060333 -24.530245 -122.81392
190819000 -24.270578 -132.96353 -0.11352348 -38.256287 -0.11286775 -38.254196 -24.499725 -122.78931
191818000 -24.230385 -133.15706 -0.11459232 -38.449619 -0.11440894 -38.453068 -24.464649 -122.67025
192817000 -24.166786 -133.42656 -0.11525842 -38.635349 -0.11443339 -38.640358 -24.395342 -122.76601
193816000 -24.126909 -133.79488 -0.11472575 -38.831749 -0.11286668 -38.832298 -24.340979 -123.02395
194815000 -24.068491 -134.21375 -0.11440256 -39.028099 -0.11363349 -39.029053 -24.280231 -123.13971
195814000 -24.017012 -134.45631 -0.11493785 -39.22831 -0.11302768 -39.226093 -24.231153 -123.23258
196813000 -23.966858 -134.79671 -0.11449372 -39.420719 -0.11290441 -39.422409 -24.14974 -123.41586
197812000 -23.909134 -135.0047 -0.11494663 -39.620979 -0.11401774 -39.610661 -24.07538 -123.52872
198811000 -23.857849 -135.18636 -0.11456654 -39.810108 -0.11349373 -39.812702 -24.010128 -123.71558
199810000 -23.78717 -135.55539 -0.114709 -40.007748 -0.11374643 -40.007263 -23.933804 -123.81353
200809000 -23.729109 -135.83029 -0.11509362 -40.20475 -0.1142128 -40.204514 -23.855478 -124.00486
201808000 -23.672531 -136.08627 -0.11564202 -40.406006 -0.11576883 -40.411648 -23.786928 -124.07327
202807000 -23.614384 -136.42427 -0.11678557 -40.604317 -0.11586347 -40.609776 -23.731785 -124.28069
203806000 -23.564289 -136.87096 -0.11769509 -40.806805 -0.11589166 -40.806709 -23.661627 -124.45468
