!Keysight Technologies,E5080B,MY59205177,A.15.75.32
!Date: Friday, February 23, 2024 03:41:11
!Correction: S11(Cdelta 2-Port  ) 
!S21(Cdelta 2-Port  ) 
!S12(Cdelta 2-Port  ) 
!S22(Cdelta 2-Port  ) 
!S2P File: Measurements: S11, S21, S12, S22:
# Hz S  dB   R 50
10000000 -46.067581 -3.0696301 -0.015643073 -2.043462 -0.018562317 -2.0954435 -45.866192 -157.23625
10999000 -45.27737 -5.0198832 -0.016085524 -2.2624185 -0.018356947 -2.3119817 -45.832615 -151.05595
11998000 -44.33213 -7.9092388 -0.017181844 -2.4856989 -0.018220212 -2.528384 -45.982571 -147.0826
12997000 -43.572826 -13.354999 -0.015711399 -2.667347 -0.017847722 -2.6994672 -45.56826 -141.19693
13996000 -43.30294 -17.186697 -0.014339883 -2.849746 -0.018210074 -2.8666935 -45.397411 -135.85817
14995000 -42.934303 -22.005375 -0.01633418 -3.0541167 -0.018331472 -3.0786889 -45.042713 -132.69034
15994000 -42.715023 -26.368135 -0.018208774 -3.2753041 -0.020463882 -3.2942269 -44.968864 -129.36533
16993000 -42.630646 -31.062113 -0.017430043 -3.470542 -0.019104125 -3.4781871 -44.082996 -128.70779
17992000 -42.698769 -36.352943 -0.018113114 -3.6662538 -0.019756777 -3.6744087 -43.499847 -129.01424
18991000 -42.947567 -41.885384 -0.018955408 -3.8826549 -0.020757005 -3.878418 -42.908237 -127.88058
19990000 -42.697918 -47.172836 -0.02114301 -4.0929613 -0.022648344 -4.0815716 -42.259411 -128.50896
20989000 -42.544895 -50.791428 -0.023696087 -4.2938342 -0.025025781 -4.2843246 -41.721779 -128.04337
21988000 -42.304935 -56.020859 -0.023991771 -4.4911809 -0.025968371 -4.4777899 -41.448215 -127.46864
22987000 -42.032257 -60.670925 -0.025508506 -4.6894293 -0.026639765 -4.6793079 -41.183659 -126.79305
23986000 -41.901272 -65.001999 -0.025088787 -4.8850083 -0.025341865 -4.8795872 -41.063255 -126.96299
24985000 -41.539036 -67.664597 -0.026261603 -5.0933061 -0.025136173 -5.0912762 -40.846695 -124.23983
25984000 -41.185787 -69.859024 -0.026534542 -5.2995691 -0.026190767 -5.2999592 -40.47403 -122.8109
26983000 -40.882633 -71.648552 -0.027215403 -5.5001965 -0.027876569 -5.5162463 -40.384331 -122.25727
27982000 -40.659561 -72.40387 -0.028357789 -5.6969886 -0.028768443 -5.7337432 -40.136955 -120.72372
28981000 -40.659172 -74.169395 -0.026793955 -5.8954077 -0.028908378 -5.9209495 -39.85429 -119.87222
29980000 -40.222408 -75.496002 -0.026911164 -6.0885229 -0.029116591 -6.097712 -39.628403 -119.17513
30979000 -39.856716 -74.33886 -0.024580335 -6.4443259 -0.023229178 -6.4376645 -39.117111 -119.48098
31978000 -39.628155 -75.314224 -0.02343712 -6.6404915 -0.024358802 -6.6261497 -38.873772 -118.79923
32977000 -39.426792 -76.904991 -0.023664074 -6.8481569 -0.024943769 -6.8475738 -38.614799 -118.88242
33976000 -39.297405 -78.005173 -0.024920598 -7.0467758 -0.02571734 -7.0463872 -38.357727 -118.09539
34975000 -39.009003 -78.691986 -0.024488701 -7.2483573 -0.026405104 -7.2462964 -38.128609 -117.97627
35974000 -38.804073 -79.373131 -0.023854338 -7.4456449 -0.026502248 -7.4484735 -37.837364 -117.03551
36973000 -38.536495 -79.8536 -0.02412192 -7.6451058 -0.027168516 -7.647727 -37.581066 -116.10638
37972000 -38.37957 -79.774529 -0.024062051 -7.8515849 -0.027172683 -7.8624129 -37.363033 -115.19872
38971000 -38.05452 -79.204582 -0.025002349 -8.0556126 -0.026836149 -8.0638847 -37.197048 -113.69795
39970000 -37.74955 -79.538048 -0.02278886 -8.250515 -0.025791293 -8.2679739 -36.953373 -113.07091
40969000 -37.454636 -79.07164 -0.023430094 -8.4447985 -0.024932835 -8.4612894 -36.693653 -111.7262
41968000 -37.113697 -79.031738 -0.024032116 -8.6483841 -0.026152747 -8.6658621 -36.52924 -110.5462
42967000 -36.870445 -79.113426 -0.023132626 -8.861558 -0.026452504 -8.8785839 -36.328369 -108.69041
43966000 -36.566372 -79.765007 -0.024354376 -9.0602484 -0.027906008 -9.0776739 -36.065159 -107.9053
44965000 -36.326099 -80.518639 -0.024735494 -9.2624159 -0.027475117 -9.2818432 -35.849209 -107.67641
45964000 -36.111439 -81.427132 -0.026702795 -9.463726 -0.028675677 -9.4859123 -35.6315 -107.31162
46963000 -35.90889 -83.359123 -0.02655017 -9.6561565 -0.029220052 -9.6811943 -35.444412 -107.56322
47962000 -35.750317 -84.73613 -0.027750736 -9.8595915 -0.030739136 -9.8794775 -35.255043 -107.69309
48961000 -35.526592 -86.206512 -0.030129144 -10.058596 -0.031609956 -10.077828 -35.014164 -107.73931
49960000 -35.294518 -87.563576 -0.031375807 -10.256365 -0.032945987 -10.281328 -34.881542 -107.84532
50959000 -35.064827 -88.767456 -0.031928606 -10.471491 -0.034366444 -10.4833 -34.720303 -108.16021
51958000 -34.859974 -89.813423 -0.033920299 -10.668326 -0.035721853 -10.680899 -34.52536 -108.60567
52957000 -34.650066 -90.895515 -0.034956153 -10.870122 -0.036643535 -10.87572 -34.379753 -108.43015
53956000 -34.478954 -91.572266 -0.035882369 -11.072551 -0.037173506 -11.073015 -34.24028 -108.35349
54955000 -34.309967 -92.008972 -0.036800168 -11.271959 -0.038607098 -11.270745 -34.086899 -108.30682
55954000 -34.149548 -92.799736 -0.038650975 -11.473693 -0.038129702 -11.470224 -33.979111 -108.055
56953000 -34.0159 -92.897934 -0.037424155 -11.672492 -0.037804592 -11.659554 -33.902306 -108.22682
57952000 -33.846767 -93.436668 -0.038538933 -11.868237 -0.039484981 -11.85932 -33.805252 -108.35844
58951000 -33.727066 -93.823853 -0.039668627 -12.072693 -0.038930178 -12.054078 -33.646053 -108.38334
59950000 -33.59964 -94.210007 -0.040352855 -12.274897 -0.040112488 -12.25758 -33.573315 -108.67215
60949000 -33.47451 -94.784645 -0.040496819 -12.474885 -0.040968727 -12.45702 -33.470947 -109.04575
61948000 -33.406975 -95.021706 -0.041416377 -12.677689 -0.040445086 -12.659949 -33.384441 -109.10425
62947000 -33.32827 -95.251167 -0.040975519 -12.884852 -0.041358363 -12.868154 -33.242523 -109.26736
63946000 -33.250618 -95.994873 -0.042260587 -13.085883 -0.042464219 -13.066462 -33.129028 -109.49145
64945000 -33.145767 -96.117126 -0.042794906 -13.286187 -0.042583156 -13.268602 -33.018272 -109.93226
65944000 -33.038391 -96.441078 -0.043616634 -13.485032 -0.043110978 -13.470034 -32.928364 -110.28539
66943000 -32.892181 -96.829247 -0.042022992 -13.685355 -0.041664135 -13.671557 -32.822193 -110.59687
67942000 -32.829361 -96.84407 -0.043908972 -13.881844 -0.043696124 -13.872825 -32.700653 -110.91929
68941000 -32.722813 -96.879066 -0.043619774 -14.076138 -0.042247258 -14.070992 -32.573803 -110.85081
69940000 -32.628613 -96.902435 -0.043233596 -14.276772 -0.043135814 -14.273104 -32.442142 -111.14111
70939000 -32.515759 -96.84639 -0.043548129 -14.473437 -0.042627074 -14.467419 -32.315861 -111.01762
71938000 -32.37561 -96.39299 -0.043524861 -14.669544 -0.042737655 -14.660467 -32.181118 -110.88779
72937000 -32.217918 -96.14959 -0.04371129 -14.865989 -0.042558324 -14.860537 -32.040913 -110.58138
73936000 -32.093498 -95.85067 -0.042598844 -15.069163 -0.041979343 -15.058928 -31.930532 -110.36404
74935000 -31.962357 -96.048653 -0.041898839 -15.259968 -0.04174019 -15.263262 -31.787012 -110.02265
75934000 -31.835827 -96.352028 -0.042290125 -15.473125 -0.041406184 -15.467549 -31.696011 -109.9509
76933000 -31.709499 -96.658974 -0.043534271 -15.664758 -0.042418733 -15.657213 -31.519613 -110.22005
77932000 -31.602343 -97.383148 -0.044206034 -15.861503 -0.044139612 -15.855781 -31.425148 -110.27092
78931000 -31.541752 -98.137993 -0.042879868 -16.064129 -0.043342099 -16.056677 -31.333294 -110.10443
79930000 -31.426081 -99.021797 -0.045765426 -16.255823 -0.045729063 -16.255194 -31.224636 -110.38525
80929000 -31.309525 -99.717224 -0.047209445 -16.454796 -0.047577657 -16.451391 -31.140238 -110.67185
81928000 -31.200932 -100.49236 -0.047383472 -16.642418 -0.047822364 -16.639929 -31.009245 -110.6779
82927000 -31.112831 -101.285 -0.048847668 -16.843042 -0.048786148 -16.843185 -30.901819 -110.92905
83926000 -30.993071 -101.86179 -0.050664853 -17.03837 -0.049424421 -17.043472 -30.774385 -111.10612
84925000 -30.88588 -102.3419 -0.051685847 -17.238165 -0.050003875 -17.235125 -30.693159 -111.18924
85924000 -30.791597 -102.70621 -0.051943623 -17.439356 -0.051418398 -17.435621 -30.60288 -111.10844
86923000 -30.685974 -103.17223 -0.052189361 -17.638826 -0.051460307 -17.631948 -30.506411 -111.0372
87922000 -30.575388 -103.51527 -0.051837787 -17.845478 -0.051331431 -17.839598 -30.4104 -111.05318
88921000 -30.505041 -103.86111 -0.053593326 -18.045351 -0.052352324 -18.039547 -30.319429 -111.03033
89920000 -30.392801 -104.32175 -0.05373485 -18.239716 -0.053030167 -18.234686 -30.26733 -111.21354
90919000 -30.300478 -104.64005 -0.055239987 -18.437174 -0.05364522 -18.436008 -30.178005 -111.35027
91918000 -30.205065 -104.96304 -0.055962861 -18.640987 -0.054347381 -18.63274 -30.112349 -111.40441
92917000 -30.111271 -105.31342 -0.05597597 -18.838676 -0.055058829 -18.83787 -30.047131 -111.48172
93916000 -30.02294 -105.6687 -0.056187585 -19.033039 -0.055011641 -19.027452 -29.962761 -112.05072
94915000 -29.945562 -106.25607 -0.057231389 -19.234043 -0.055967841 -19.227741 -29.896753 -111.94503
95914000 -29.883984 -106.44421 -0.058483757 -19.429501 -0.056736205 -19.425558 -29.814032 -112.18627
96913000 -29.793098 -106.63415 -0.059207432 -19.628262 -0.058018863 -19.624935 -29.736647 -112.55673
97912000 -29.720419 -107.11674 -0.060140934 -19.821007 -0.058525737 -19.826052 -29.660904 -112.76925
98911000 -29.61347 -107.30405 -0.060703706 -20.0257 -0.060035687 -20.023886 -29.620859 -113.00467
99910000 -29.544825 -107.43015 -0.061188839 -20.225231 -0.059925977 -20.223036 -29.509876 -113.28309
100909000 -29.460413 -107.63168 -0.060383201 -20.435894 -0.059157047 -20.425543 -29.421392 -113.52615
101908000 -29.364311 -107.93257 -0.062140625 -20.633711 -0.060944952 -20.631273 -29.314508 -113.30762
102907000 -29.236235 -107.83926 -0.062573656 -20.834616 -0.060341466 -20.831816 -29.247494 -113.26608
103906000 -29.137815 -107.86758 -0.062542409 -21.037073 -0.059692662 -21.033617 -29.102329 -113.19247
104905000 -28.993509 -107.82347 -0.063295908 -21.238302 -0.060807135 -21.232216 -28.97468 -112.88902
105904000 -28.850925 -107.8653 -0.06355989 -21.440205 -0.060903739 -21.43479 -28.872828 -112.76868
106903000 -28.741756 -107.93546 -0.063394144 -21.647177 -0.062124606 -21.638847 -28.740538 -112.64092
107902000 -28.582903 -108.21014 -0.064619392 -21.845875 -0.062128544 -21.839603 -28.606516 -112.59451
108901000 -28.471889 -108.46911 -0.065607145 -22.046036 -0.063597456 -22.042604 -28.480129 -112.54535
109900000 -28.344139 -108.97591 -0.065830536 -22.24789 -0.064310685 -22.239681 -28.338629 -112.62148
110899000 -28.22612 -109.56615 -0.067688234 -22.444433 -0.065088145 -22.437262 -28.213247 -112.87934
111898000 -28.136919 -110.23283 -0.068564124 -22.645792 -0.066179827 -22.641817 -28.094898 -113.04598
112897000 -28.014257 -110.75296 -0.070349067 -22.845642 -0.067220777 -22.834831 -27.965282 -113.15044
113896000 -27.904829 -111.33516 -0.071117349 -23.049372 -0.068491809 -23.034624 -27.851915 -113.3136
114895000 -27.810535 -111.93369 -0.072357677 -23.246017 -0.069968134 -23.23279 -27.748781 -113.36576
115894000 -27.685829 -112.29524 -0.073475406 -23.449009 -0.071001045 -23.436195 -27.679649 -113.62067
116893000 -27.6073 -112.77178 -0.074420407 -23.642855 -0.07165391 -23.627943 -27.555534 -113.66509
117892000 -27.521746 -113.26946 -0.073850587 -23.837475 -0.072351098 -23.826448 -27.479187 -113.8615
118891000 -27.46525 -113.69496 -0.07479541 -24.039953 -0.07273408 -24.027334 -27.382692 -113.95404
119890000 -27.383469 -114.03658 -0.07557027 -24.239639 -0.073078133 -24.225529 -27.375887 -114.14798
120889000 -27.330788 -114.57777 -0.076797903 -24.441469 -0.07346566 -24.425417 -27.297823 -114.04917
121888000 -27.300215 -114.89169 -0.076746263 -24.638187 -0.0741347 -24.625444 -27.243107 -114.34867
122887000 -27.25321 -115.09184 -0.077507243 -24.84059 -0.074395128 -24.828793 -27.192711 -114.34457
123886000 -27.19644 -115.5005 -0.077644281 -25.046329 -0.075154111 -25.024086 -27.17836 -114.50089
124885000 -27.160328 -115.99728 -0.079094462 -25.244823 -0.07526052 -25.22817 -27.150497 -114.54103
125884000 -27.10845 -116.16769 -0.079650201 -25.438978 -0.075179659 -25.427029 -27.118351 -114.6759
126883000 -27.091555 -116.5608 -0.079295337 -25.648659 -0.076815821 -25.630363 -27.081255 -114.6991
127882000 -27.039948 -116.8611 -0.079801008 -25.842659 -0.076737039 -25.825136 -27.041042 -114.86042
128881000 -27.008665 -117.18714 -0.080420658 -26.045795 -0.077109613 -26.031067 -27.004784 -114.90419
129880000 -26.955109 -117.53564 -0.080792218 -26.247652 -0.077251114 -26.228779 -26.959768 -114.88663
130879000 -26.899204 -117.64712 -0.080085248 -26.445038 -0.078318968 -26.432241 -26.891844 -114.90852
131878000 -26.83457 -117.87571 -0.080836788 -26.649654 -0.078257293 -26.630367 -26.834042 -114.76192
132877000 -26.767668 -117.9457 -0.080483414 -26.851563 -0.078352176 -26.830202 -26.753647 -114.77322
133876000 -26.684988 -118.11124 -0.080982894 -27.052858 -0.077889368 -27.031982 -26.665304 -114.62988
134875000 -26.590622 -118.23 -0.081355304 -27.254381 -0.078908086 -27.236698 -26.566336 -114.44506
135874000 -26.513838 -118.27345 -0.080876879 -27.450258 -0.078869335 -27.434475 -26.470545 -114.41079
136873000 -26.403563 -118.19081 -0.081022196 -27.656601 -0.07870432 -27.64271 -26.395979 -114.33401
137872000 -26.324133 -118.27777 -0.081360839 -27.855532 -0.078507952 -27.842436 -26.292835 -114.30528
138871000 -26.252171 -118.50387 -0.082439467 -28.060333 -0.078793943 -28.04114 -26.19474 -114.4408
139870000 -26.155247 -118.7814 -0.082517557 -28.256504 -0.079718746 -28.239597 -26.118439 -114.60029
140869000 -26.070837 -119.33786 -0.083664298 -28.450655 -0.080347613 -28.436079 -26.023308 -114.80531
141868000 -25.990601 -119.73223 -0.084400624 -28.652599 -0.082135819 -28.638069 -25.97121 -115.07793
142867000 -25.912512 -119.92633 -0.08284656 -28.847342 -0.08087793 -28.833811 -25.891783 -115.17137
143866000 -25.83847 -120.3879 -0.084654279 -29.047297 -0.08229173 -29.029533 -25.819311 -115.64265
144865000 -25.781242 -120.89329 -0.086307481 -29.24506 -0.083818413 -29.230577 -25.760839 -115.92992
145864000 -25.726887 -121.24038 -0.087239429 -29.44836 -0.084874421 -29.433451 -25.731178 -116.16398
146863000 -25.686462 -121.60981 -0.087607615 -29.647242 -0.085325301 -29.634296 -25.682333 -116.49553
147862000 -25.643005 -121.98431 -0.088973142 -29.843672 -0.086183898 -29.830858 -25.649717 -116.82764
148861000 -25.614153 -122.38295 -0.089634001 -30.044012 -0.087666787 -30.029169 -25.631662 -116.98687
149860000 -25.582409 -122.55901 -0.090709403 -30.23579 -0.088398769 -30.228485 -25.57019 -117.10877
150859000 -25.5595 -123.0286 -0.089601763 -30.431543 -0.087229654 -30.420977 -25.554882 -117.41203
151858000 -25.544098 -123.3916 -0.089479677 -30.631475 -0.087852739 -30.616446 -25.541946 -117.77578
152857000 -25.532888 -123.75638 -0.090119205 -30.830507 -0.087820515 -30.817823 -25.529766 -117.95222
153856000 -25.528667 -123.89703 -0.090046264 -31.031004 -0.086628847 -31.018629 -25.543007 -118.30213
154855000 -25.526016 -124.09044 -0.090164401 -31.227932 -0.087263726 -31.219044 -25.528757 -118.51194
155854000 -25.539822 -124.34608 -0.090688251 -31.431171 -0.087365411 -31.414656 -25.525015 -118.79533
156853000 -25.519585 -125.02078 -0.087872818 -31.621887 -0.086970046 -31.61227 -25.514677 -119.11653
157852000 -25.529787 -125.22057 -0.0891544 -31.818867 -0.088680662 -31.808861 -25.504463 -119.48751
158851000 -25.526108 -125.42706 -0.089719623 -32.021065 -0.088663757 -32.010838 -25.488214 -119.77498
159850000 -25.520597 -125.5522 -0.090727642 -32.218246 -0.088964686 -32.212364 -25.48354 -119.9034
160849000 -25.497648 -125.64559 -0.090677947 -32.417347 -0.089258775 -32.412487 -25.453184 -120.18939
161848000 -25.480541 -125.7519 -0.091356248 -32.616463 -0.08934544 -32.614269 -25.411493 -120.33195
162847000 -25.442146 -125.90793 -0.090724997 -32.816658 -0.090419978 -32.813015 -25.382589 -120.5663
163846000 -25.396753 -126.10384 -0.091062285 -33.016602 -0.090284653 -33.008259 -25.309343 -120.55796
164845000 -25.340075 -126.07677 -0.0913729 -33.215816 -0.090392224 -33.209995 -25.249659 -120.62845
165844000 -25.286064 -126.09195 -0.091330603 -33.417206 -0.090296015 -33.40543 -25.172375 -120.77898
166843000 -25.221607 -126.16054 -0.091183357 -33.616112 -0.090090662 -33.60989 -25.102905 -120.94377
167842000 -25.172054 -126.30299 -0.091712095 -33.812782 -0.09065257 -33.811123 -25.02721 -120.86061
168841000 -25.091213 -126.42038 -0.092043646 -34.016617 -0.091238871 -34.007996 -24.953863 -120.91567
169840000 -25.032722 -126.65121 -0.092471473 -34.211563 -0.091526501 -34.206161 -24.870371 -121.1068
170839000 -24.968403 -126.8981 -0.093667388 -34.407318 -0.091753341 -34.406654 -24.78861 -121.28642
171838000 -24.911762 -127.2948 -0.092976563 -34.612293 -0.093027338 -34.605553 -24.730997 -121.50132
172837000 -24.840044 -127.64349 -0.094657809 -34.805534 -0.09359809 -34.801151 -24.660662 -121.72273
173836000 -24.77343 -128.00192 -0.096134588 -35.005119 -0.095141985 -35.005455 -24.619061 -121.91541
174835000 -24.720467 -128.43098 -0.096297085 -35.200634 -0.095303655 -35.201546 -24.575483 -122.25574
175834000 -24.671419 -128.74831 -0.097096972 -35.403427 -0.096301056 -35.398674 -24.516088 -122.49296
176833000 -24.623577 -129.105 -0.098302372 -35.600384 -0.096845768 -35.600151 -24.469618 -122.65818
177832000 -24.580021 -129.53915 -0.099429451 -35.799854 -0.098272189 -35.799141 -24.446159 -122.75596
178831000 -24.534378 -129.77199 -0.10061722 -35.996853 -0.09960717 -35.994164 -24.410959 -122.83358
179830000 -24.464205 -130.17131 -0.10212968 -36.176434 -0.10056847 -36.180149 -24.349754 -122.9301
180829000 -24.415031 -130.54941 -0.10079499 -36.375523 -0.099950716 -36.371189 -24.305534 -123.24175
181828000 -24.388559 -130.97058 -0.10031839 -36.574409 -0.099204063 -36.571289 -24.28842 -123.44526
182827000 -24.370161 -131.34525 -0.09990833 -36.773621 -0.098888382 -36.770981 -24.275742 -123.55388
183826000 -24.326025 -131.68073 -0.10035389 -36.971268 -0.099616967 -36.963333 -24.270643 -123.71072
184825000 -24.333904 -132.01167 -0.10106338 -37.163738 -0.09974093 -37.167896 -24.246933 -123.84012
185824000 -24.304594 -132.39127 -0.10048847 -37.35915 -0.10005932 -37.363499 -24.24044 -123.91666
186823000 -24.288309 -132.75456 -0.10081115 -37.561611 -0.10045615 -37.561474 -24.234938 -123.92682
187822000 -24.261862 -133.09602 -0.1013143 -37.757088 -0.10027468 -37.754646 -24.201832 -124.02032
188821000 -24.239643 -133.33975 -0.10095846 -37.952297 -0.10069113 -37.954868 -24.178846 -124.11402
189820000 -24.224518 -133.66138 -0.1011373 -38.151592 -0.10056689 -38.152245 -24.160521 -124.32969
190819000 -24.18734 -133.93619 -0.10193729 -38.350994 -0.1006506 -38.350277 -24.12261 -124.35419
191818000 -24.159369 -134.25105 -0.10244772 -38.546844 -0.10094521 -38.547188 -24.09972 -124.39176
192817000 -24.110817 -134.50227 -0.10273927 -38.744984 -0.10209841 -38.746952 -24.054817 -124.48169
193816000 -24.080841 -134.73169 -0.10335001 -38.939785 -0.10156444 -38.940723 -24.002371 -124.6015
194815000 -24.022377 -135.13702 -0.10299055 -39.135242 -0.10202845 -39.136761 -23.938562 -124.68415
195814000 -23.96464 -135.34036 -0.10369994 -39.33416 -0.10203216 -39.331474 -23.884159 -124.73515
196813000 -23.914108 -135.66148 -0.1038781 -39.524952 -0.10233959 -39.532722 -23.80472 -124.91846
197812000 -23.854961 -135.87813 -0.10366521 -39.72699 -0.10274086 -39.721828 -23.732613 -125.00267
198811000 -23.79933 -135.99052 -0.10391496 -39.922443 -0.10258316 -39.924103 -23.666252 -125.16053
199810000 -23.729424 -136.35323 -0.10427475 -40.1194 -0.1017184 -40.115833 -23.589878 -125.24767
200809000 -23.673702 -136.62039 -0.10463803 -40.311749 -0.10286067 -40.311081 -23.509949 -125.42602
201808000 -23.617369 -136.82574 -0.10517742 -40.515598 -0.10383648 -40.51796 -23.441769 -125.47073
202807000 -23.557768 -137.16171 -0.10598955 -40.713478 -0.10441873 -40.71526 -23.389864 -125.67315
