!Keysight Technologies,E5080B,MY59205177,A.15.75.32
!Date: Friday, February 23, 2024 03:41:18
!Correction: S11(Cdelta 2-Port  ) 
!S21(Cdelta 2-Port  ) 
!S12(Cdelta 2-Port  ) 
!S22(Cdelta 2-Port  ) 
!S2P File: Measurements: S11, S21, S12, S22:
# Hz S  dB   R 50
10000000 -46.099216 -3.1547599 -0.014899087 -2.0416045 -0.018631469 -2.0935133 -45.924839 -157.11789
10999000 -45.269501 -4.9411221 -0.016291307 -2.2611041 -0.017809773 -2.3163517 -45.785908 -151.03873
11998000 -44.373932 -7.6418948 -0.016389264 -2.487042 -0.017447975 -2.5286093 -46.035942 -146.97023
12997000 -43.627998 -13.573952 -0.015206901 -2.6637022 -0.017927 -2.6958148 -45.603199 -141.31337
13996000 -43.308029 -17.429771 -0.014796228 -2.8448317 -0.018020576 -2.8655808 -45.383312 -136.16862
14995000 -42.942677 -21.668001 -0.016872851 -3.0562425 -0.017636668 -3.0790093 -45.046875 -132.34634
15994000 -42.738483 -26.139668 -0.017699827 -3.2772498 -0.019798122 -3.2990553 -44.927948 -129.6546
16993000 -42.657291 -31.021391 -0.0173856 -3.4691954 -0.019613756 -3.4758375 -44.130466 -128.96718
17992000 -42.731853 -36.655113 -0.017443817 -3.672215 -0.019621298 -3.6715128 -43.511055 -128.87309
18991000 -42.948372 -41.561211 -0.018313793 -3.8812342 -0.02112012 -3.8767924 -42.9268 -127.84378
19990000 -42.733433 -47.440109 -0.021807415 -4.0907235 -0.022952022 -4.0838313 -42.202881 -128.73897
20989000 -42.524506 -51.198841 -0.023095151 -4.29459 -0.024947936 -4.2835584 -41.673588 -128.23152
21988000 -42.310356 -56.099171 -0.023841584 -4.4910569 -0.025893893 -4.4783187 -41.445656 -127.30566
22987000 -41.971329 -60.864868 -0.025014065 -4.6864147 -0.026616845 -4.6795511 -41.162495 -126.84758
23986000 -41.939903 -65.154922 -0.02459231 -4.8825026 -0.02551762 -4.8847356 -41.067421 -126.71332
24985000 -41.536949 -67.671379 -0.0252549 -5.0923014 -0.026153006 -5.0921721 -40.840149 -124.2764
25984000 -41.210217 -70.041527 -0.026911164 -5.2977867 -0.026644714 -5.2959557 -40.475266 -122.88105
26983000 -40.866768 -71.517754 -0.028113134 -5.4939413 -0.027575932 -5.5153804 -40.381832 -122.04229
27982000 -40.700207 -72.439056 -0.029506469 -5.6934071 -0.02849354 -5.7304978 -40.061981 -120.54662
28981000 -40.661694 -74.166389 -0.026431669 -5.8941317 -0.029448871 -5.9210734 -39.893494 -119.98003
29980000 -40.213081 -75.678345 -0.026994515 -6.0883193 -0.029624272 -6.0982533 -39.613297 -119.19758
30979000 -39.853218 -74.181519 -0.02448063 -6.4428148 -0.023704676 -6.4370551 -39.117512 -119.52162
31978000 -39.647884 -75.244347 -0.02341656 -6.6388035 -0.024496511 -6.6268363 -38.887726 -118.675
32977000 -39.455051 -76.706657 -0.023462627 -6.8492508 -0.025315566 -6.8413606 -38.625031 -118.89399
33976000 -39.312641 -77.950577 -0.023706499 -7.0491538 -0.025920715 -7.0432668 -38.351059 -118.20894
34975000 -38.996502 -78.667542 -0.024706336 -7.2467618 -0.026682219 -7.2480721 -38.103798 -117.79152
35974000 -38.78825 -79.318329 -0.02361176 -7.443676 -0.026549909 -7.4471331 -37.838715 -116.85757
36973000 -38.558113 -79.866447 -0.023777815 -7.643961 -0.027187791 -7.6493797 -37.601795 -115.969
37972000 -38.392506 -79.710999 -0.023264311 -7.8526797 -0.026366819 -7.8653874 -37.352829 -115.23183
38971000 -38.09201 -79.016975 -0.024442622 -8.0570927 -0.02760563 -8.0656958 -37.206165 -113.84359
39970000 -37.771156 -79.363251 -0.022392301 -8.2485151 -0.026505373 -8.2681599 -36.957867 -113.09328
40969000 -37.454918 -79.063744 -0.023130024 -8.444417 -0.026283741 -8.4627924 -36.715919 -111.73983
41968000 -37.132412 -79.034409 -0.024485577 -8.652463 -0.02613087 -8.6693735 -36.519863 -110.51157
42967000 -36.867229 -78.916061 -0.023308814 -8.861886 -0.02663742 -8.8788319 -36.335579 -108.61913
43966000 -36.557919 -79.798447 -0.024087559 -9.0614986 -0.027761938 -9.0758781 -36.069073 -107.9106
44965000 -36.341698 -80.559898 -0.025194494 -9.2629299 -0.028064413 -9.2828102 -35.852894 -107.70111
45964000 -36.092327 -81.595375 -0.026692376 -9.4645271 -0.028922709 -9.4847164 -35.611389 -107.43606
46963000 -35.897835 -83.390404 -0.026704878 -9.6574564 -0.029557811 -9.6839504 -35.455055 -107.62777
47962000 -35.741154 -84.815895 -0.02816863 -9.8598585 -0.030594191 -9.878294 -35.264477 -107.7186
48961000 -35.51125 -86.228462 -0.029743643 -10.05836 -0.032120015 -10.08069 -35.035545 -107.87012
49960000 -35.278973 -87.630424 -0.030961778 -10.256015 -0.033804987 -10.2799 -34.884796 -107.81164
50959000 -35.062698 -88.767151 -0.031697828 -10.469692 -0.035037573 -10.481816 -34.715176 -108.16148
51958000 -34.85918 -89.831955 -0.033823773 -10.665515 -0.035631809 -10.682028 -34.530727 -108.56168
52957000 -34.62933 -90.923508 -0.034951977 -10.870097 -0.037257835 -10.876447 -34.358284 -108.34276
53956000 -34.470375 -91.618614 -0.036035061 -11.069144 -0.037999135 -11.074752 -34.230652 -108.35783
54955000 -34.30201 -92.032143 -0.036913212 -11.272432 -0.038620155 -11.268672 -34.08437 -108.3023
55954000 -34.123943 -92.867149 -0.037945341 -11.474047 -0.038729329 -11.469713 -33.969849 -108.02477
56953000 -34.009747 -92.843369 -0.037613716 -11.67057 -0.0376192 -11.66351 -33.89352 -108.2603
57952000 -33.848751 -93.422981 -0.039038572 -11.869275 -0.038673174 -11.860394 -33.788109 -108.34555
58951000 -33.72028 -93.704071 -0.039516069 -12.070862 -0.039739683 -12.055557 -33.645245 -108.37691
59950000 -33.603973 -94.089989 -0.040302169 -12.274317 -0.041127607 -12.24974 -33.572662 -108.71812
60949000 -33.471649 -94.758583 -0.040964283 -12.476068 -0.041074559 -12.454925 -33.459312 -108.93163
61948000 -33.413643 -94.999931 -0.04108632 -12.674058 -0.041013148 -12.653661 -33.381958 -109.09455
62947000 -33.310043 -95.245468 -0.041144855 -12.887403 -0.041317854 -12.865393 -33.244232 -109.31483
63946000 -33.24398 -95.981613 -0.042706285 -13.08621 -0.042660534 -13.064586 -33.138329 -109.43544
64945000 -33.128338 -96.125526 -0.043121956 -13.285951 -0.042827845 -13.267576 -33.020618 -109.84258
65944000 -33.036282 -96.435852 -0.044195574 -13.484771 -0.04371861 -13.471198 -32.923279 -110.35133
66943000 -32.89827 -96.833504 -0.041815985 -13.689609 -0.041668318 -13.671159 -32.815384 -110.6245
67942000 -32.835144 -96.733437 -0.044153731 -13.884508 -0.043468907 -13.876098 -32.70359 -110.83772
68941000 -32.716568 -96.875412 -0.043080129 -14.076588 -0.042218767 -14.068663 -32.580395 -110.80906
69940000 -32.626659 -96.907715 -0.044252582 -14.274592 -0.043576892 -14.26754 -32.44368 -111.11895
70939000 -32.523079 -96.827621 -0.043486424 -14.470984 -0.042923789 -14.464721 -32.312145 -111.01662
71938000 -32.379566 -96.405807 -0.043263923 -14.6691 -0.043849874 -14.661939 -32.183685 -110.87126
72937000 -32.219269 -96.185341 -0.042103495 -14.867479 -0.042872548 -14.863457 -32.042374 -110.57636
73936000 -32.087528 -95.880775 -0.041786451 -15.066988 -0.041852579 -15.060428 -31.927902 -110.37325
74935000 -31.963617 -96.062462 -0.041674592 -15.26444 -0.041564301 -15.26232 -31.78285 -110.02821
75934000 -31.838331 -96.375061 -0.042218506 -15.471146 -0.04121463 -15.468102 -31.688368 -109.92084
76933000 -31.705698 -96.655533 -0.043600164 -15.665442 -0.042456374 -15.659023 -31.517206 -110.29377
77932000 -31.607105 -97.428856 -0.043972254 -15.862876 -0.044505473 -15.85391 -31.428181 -110.22072
78931000 -31.528875 -98.189438 -0.043279089 -16.066059 -0.043604083 -16.057108 -31.328358 -110.0486
79930000 -31.418766 -99.035301 -0.046201013 -16.254772 -0.046000611 -16.25572 -31.223307 -110.36629
80929000 -31.29734 -99.716827 -0.047602519 -16.451679 -0.047374837 -16.450577 -31.124088 -110.62934
81928000 -31.199509 -100.53541 -0.047662716 -16.64217 -0.048355535 -16.642157 -30.997856 -110.58112
82927000 -31.10359 -101.32843 -0.049173605 -16.840275 -0.049368393 -16.842247 -30.885921 -110.94243
83926000 -30.988024 -101.94672 -0.050171465 -17.036177 -0.050252646 -17.043253 -30.777723 -111.14015
84925000 -30.882069 -102.36578 -0.050722208 -17.242733 -0.049584921 -17.234362 -30.680679 -111.134
85924000 -30.792486 -102.75934 -0.052140631 -17.438223 -0.051906161 -17.440531 -30.58975 -111.11176
86923000 -30.683191 -103.26353 -0.052601755 -17.642008 -0.051769938 -17.633192 -30.496801 -111.01102
87922000 -30.567993 -103.5546 -0.052558258 -17.843805 -0.051664367 -17.83497 -30.417986 -111.03656
88921000 -30.501726 -103.82491 -0.05310354 -18.043753 -0.052306734 -18.036125 -30.321692 -111.05488
89920000 -30.395651 -104.34296 -0.053781763 -18.244001 -0.053133413 -18.237923 -30.2708 -111.19523
90919000 -30.297064 -104.60902 -0.054744247 -18.439301 -0.053669591 -18.430172 -30.183928 -111.33721
91918000 -30.20035 -104.93476 -0.05570196 -18.639854 -0.054230213 -18.634527 -30.102535 -111.32574
92917000 -30.114573 -105.27676 -0.055970464 -18.837574 -0.055368979 -18.831198 -30.044277 -111.48404
93916000 -30.032608 -105.63946 -0.055155307 -19.030777 -0.055421676 -19.028582 -29.954378 -112.04721
94915000 -29.944651 -106.25639 -0.057681769 -19.233624 -0.056160312 -19.227789 -29.897121 -112.00536
95914000 -29.884132 -106.45834 -0.058898844 -19.426067 -0.057509951 -19.424549 -29.814915 -112.22085
96913000 -29.795082 -106.65123 -0.059020072 -19.626366 -0.058106486 -19.6257 -29.737429 -112.55592
97912000 -29.719654 -107.05664 -0.060504209 -19.822367 -0.057983447 -19.82469 -29.662514 -112.74197
98911000 -29.614037 -107.3222 -0.060719192 -20.02597 -0.059684526 -20.025434 -29.618256 -112.99208
99910000 -29.54744 -107.39191 -0.061364215 -20.224834 -0.059733864 -20.221733 -29.514875 -113.24053
100909000 -29.457727 -107.66388 -0.060957815 -20.432245 -0.059143927 -20.428532 -29.427538 -113.46722
101908000 -29.36618 -107.88026 -0.062239096 -20.632397 -0.060295533 -20.63006 -29.316206 -113.28758
102907000 -29.230289 -107.86424 -0.06247754 -20.83482 -0.060554869 -20.830629 -29.248402 -113.28519
103906000 -29.136181 -107.91876 -0.063097343 -21.039061 -0.060217578 -21.032568 -29.103725 -113.21198
104905000 -28.991587 -107.80943 -0.063550703 -21.238108 -0.061340325 -21.236462 -28.97827 -112.88681
105904000 -28.843025 -107.87746 -0.063527055 -21.436481 -0.06107989 -21.435146 -28.864779 -112.78474
106903000 -28.741575 -107.98753 -0.063822053 -21.644316 -0.061074376 -21.642307 -28.740398 -112.68242
107902000 -28.57485 -108.3018 -0.06412337 -21.845398 -0.062091783 -21.837078 -28.613733 -112.57316
108901000 -28.465881 -108.54108 -0.065468915 -22.050039 -0.063275948 -22.034214 -28.480696 -112.57741
109900000 -28.343678 -108.97485 -0.066181406 -22.247005 -0.064764164 -22.237213 -28.336548 -112.6421
110899000 -28.221006 -109.58448 -0.067821011 -22.444473 -0.065101288 -22.434942 -28.209354 -112.91758
111898000 -28.134016 -110.21186 -0.069404162 -22.646051 -0.066076793 -22.64152 -28.095013 -113.06009
112897000 -28.009247 -110.74496 -0.070426941 -22.845877 -0.067294911 -22.835609 -27.961018 -113.15836
113896000 -27.906391 -111.3583 -0.071466014 -23.045065 -0.068570964 -23.036089 -27.851738 -113.3564
114895000 -27.800789 -111.95222 -0.072569035 -23.243929 -0.070298553 -23.230724 -27.744234 -113.38937
115894000 -27.682997 -112.34942 -0.073449604 -23.447897 -0.070622422 -23.433577 -27.672567 -113.61156
116893000 -27.607018 -112.77994 -0.074490979 -23.641069 -0.072484806 -23.627714 -27.5532 -113.68187
117892000 -27.525696 -113.27552 -0.073807672 -23.838167 -0.072405316 -23.83106 -27.473656 -113.88171
118891000 -27.467213 -113.69653 -0.075120136 -24.041376 -0.072320566 -24.025484 -27.384552 -113.97552
119890000 -27.37077 -114.05401 -0.075426191 -24.242887 -0.073257677 -24.229368 -27.364691 -114.11646
120889000 -27.320923 -114.56242 -0.07647305 -24.437881 -0.073475406 -24.426918 -27.29463 -114.06841
121888000 -27.287594 -114.89589 -0.076502293 -24.637836 -0.074475445 -24.627188 -27.239683 -114.34129
122887000 -27.251202 -115.09317 -0.078105219 -24.838596 -0.07443963 -24.82719 -27.19412 -114.36182
123886000 -27.194366 -115.49111 -0.078079917 -25.043522 -0.074906021 -25.025467 -27.174297 -114.47482
124885000 -27.163664 -115.99957 -0.078869864 -25.24181 -0.07525973 -25.229517 -27.14748 -114.53129
125884000 -27.107634 -116.14429 -0.079287961 -25.440203 -0.075351916 -25.42857 -27.115242 -114.65165
126883000 -27.094429 -116.55919 -0.079782024 -25.644684 -0.075906388 -25.630934 -27.076912 -114.69035
127882000 -27.049118 -116.89021 -0.079685532 -25.843294 -0.076461717 -25.829065 -27.043188 -114.80092
128881000 -27.012526 -117.19704 -0.080010362 -26.045654 -0.076373726 -26.028667 -27.004002 -114.96493
129880000 -26.965809 -117.53001 -0.080459155 -26.247175 -0.076822937 -26.229803 -26.964314 -114.89169
130879000 -26.901213 -117.63981 -0.080426984 -26.447617 -0.077586301 -26.431648 -26.891087 -114.87679
131878000 -26.83676 -117.89749 -0.080951773 -26.649586 -0.077635318 -26.628584 -26.829157 -114.75961
132877000 -26.769209 -117.94839 -0.08085525 -26.851694 -0.077972122 -26.833624 -26.757473 -114.75113
133876000 -26.686581 -118.10236 -0.081166983 -27.0529 -0.077603698 -27.031179 -26.671072 -114.62038
134875000 -26.591845 -118.27557 -0.0808869 -27.255247 -0.078308947 -27.235813 -26.570581 -114.47321
135874000 -26.515432 -118.25978 -0.081109487 -27.450731 -0.078355342 -27.435762 -26.474506 -114.43056
136873000 -26.399834 -118.1956 -0.081487708 -27.65369 -0.077895693 -27.63686 -26.397907 -114.37524
137872000 -26.321304 -118.34598 -0.081926629 -27.853476 -0.078524552 -27.842875 -26.289749 -114.2972
138871000 -26.246586 -118.5274 -0.081996799 -28.056087 -0.078386441 -28.040867 -26.195562 -114.4363
139870000 -26.151749 -118.78904 -0.08286424 -28.25577 -0.079461433 -28.236078 -26.118464 -114.62738
140869000 -26.075121 -119.34656 -0.083892837 -28.454569 -0.080794066 -28.434912 -26.017771 -114.84052
141868000 -25.992205 -119.75063 -0.084359713 -28.650978 -0.082121842 -28.634245 -25.967268 -115.06514
142867000 -25.911713 -119.95609 -0.083162397 -28.848001 -0.081108168 -28.833054 -25.88945 -115.20192
143866000 -25.8424 -120.42593 -0.084719472 -29.04578 -0.082610428 -29.031422 -25.817816 -115.64845
144865000 -25.784035 -120.93309 -0.086804725 -29.246365 -0.084067278 -29.231363 -25.763353 -115.96499
145864000 -25.731905 -121.25893 -0.086547509 -29.444017 -0.085172452 -29.436323 -25.729765 -116.19952
146863000 -25.681004 -121.60428 -0.087781422 -29.649107 -0.08471103 -29.632992 -25.680159 -116.50987
147862000 -25.642092 -121.96795 -0.088726632 -29.846691 -0.085572936 -29.832611 -25.642704 -116.83738
148861000 -25.612198 -122.40878 -0.089074343 -30.042273 -0.087655954 -30.028473 -25.620279 -116.97289
149860000 -25.575134 -122.60226 -0.090310551 -30.235748 -0.088245019 -30.226582 -25.570791 -117.10466
150859000 -25.551615 -123.03918 -0.090332754 -30.429081 -0.087169707 -30.420557 -25.554255 -117.4518
151858000 -25.542566 -123.36485 -0.089285195 -30.633398 -0.086806834 -30.617382 -25.54188 -117.77787
152857000 -25.524334 -123.7241 -0.090175234 -30.831375 -0.087931983 -30.816273 -25.529648 -117.95274
153856000 -25.52368 -123.90861 -0.089494742 -31.031103 -0.086490475 -31.017399 -25.542196 -118.31693
154855000 -25.51837 -124.10528 -0.089774325 -31.230572 -0.087875724 -31.21987 -25.530005 -118.53683
155854000 -25.535444 -124.33902 -0.090444818 -31.430225 -0.088201962 -31.416561 -25.523298 -118.79664
156853000 -25.518066 -125.01714 -0.088019155 -31.618374 -0.087576449 -31.610334 -25.517714 -119.12121
157852000 -25.527071 -125.23555 -0.088612765 -31.819895 -0.088805899 -31.813189 -25.502783 -119.45598
158851000 -25.524841 -125.46458 -0.089836426 -32.019115 -0.089245826 -32.011116 -25.487364 -119.7405
159850000 -25.514429 -125.57569 -0.090281479 -32.216228 -0.089390889 -32.211868 -25.481077 -119.90514
160849000 -25.494795 -125.63102 -0.090661556 -32.417095 -0.090160437 -32.412052 -25.454912 -120.18968
161848000 -25.478855 -125.74827 -0.090702266 -32.61882 -0.089748167 -32.61158 -25.41651 -120.28227
162847000 -25.438412 -125.89074 -0.091055676 -32.813759 -0.090364471 -32.812149 -25.386921 -120.53311
163846000 -25.400194 -126.1355 -0.090954438 -33.018028 -0.089682095 -33.007519 -25.309334 -120.57719
164845000 -25.341179 -126.07626 -0.091740385 -33.218472 -0.09028624 -33.210247 -25.24745 -120.67776
165844000 -25.287941 -126.14706 -0.091472037 -33.417454 -0.090982452 -33.410889 -25.167049 -120.79479
166843000 -25.227875 -126.15402 -0.091308661 -33.612003 -0.090864561 -33.609779 -25.105186 -120.962
167842000 -25.176647 -126.28058 -0.09192308 -33.818226 -0.091427624 -33.811279 -25.02774 -120.88285
168841000 -25.087242 -126.44896 -0.091889232 -34.012562 -0.091695435 -34.013279 -24.959646 -120.94147
169840000 -25.021328 -126.69138 -0.09254472 -34.207275 -0.091422871 -34.207054 -24.866077 -121.11751
170839000 -24.967793 -126.92613 -0.093367986 -34.411297 -0.091928363 -34.4049 -24.789793 -121.29856
171838000 -24.910358 -127.28295 -0.093674265 -34.610531 -0.093113825 -34.602535 -24.721649 -121.50105
172837000 -24.840546 -127.65479 -0.094252512 -34.804844 -0.094254367 -34.803871 -24.661371 -121.71439
173836000 -24.770903 -128.03825 -0.095740005 -35.004795 -0.094584256 -35.00631 -24.618587 -121.91109
174835000 -24.719141 -128.41586 -0.09646409 -35.202076 -0.095715396 -35.200928 -24.575636 -122.23885
175834000 -24.669582 -128.77362 -0.09712556 -35.405251 -0.096549056 -35.398621 -24.516647 -122.51384
176833000 -24.618652 -129.11681 -0.098140329 -35.601337 -0.097337864 -35.60149 -24.471437 -122.63457
177832000 -24.577669 -129.5491 -0.099550754 -35.799423 -0.098198578 -35.800743 -24.447027 -122.74451
178831000 -24.530506 -129.77373 -0.10105357 -35.994202 -0.10014833 -35.995625 -24.409986 -122.83657
179830000 -24.458389 -130.21498 -0.10154244 -36.179787 -0.10060185 -36.182716 -24.344975 -122.91311
180829000 -24.408125 -130.53806 -0.10020184 -36.370399 -0.099730864 -36.374187 -24.30612 -123.24221
181828000 -24.390354 -130.96989 -0.099433161 -36.571884 -0.099259414 -36.569721 -24.291819 -123.44493
182827000 -24.366955 -131.34213 -0.099504933 -36.77137 -0.099374361 -36.770432 -24.272085 -123.54505
183826000 -24.324804 -131.69594 -0.10048582 -36.968384 -0.099512085 -36.964203 -24.27109 -123.68579
184825000 -24.329973 -132.00778 -0.10024634 -37.166992 -0.099461235 -37.165234 -24.247068 -123.82887
185824000 -24.299318 -132.35414 -0.099646635 -37.364067 -0.10010197 -37.363434 -24.240501 -123.89559
186823000 -24.283964 -132.74545 -0.10099661 -37.562328 -0.10029402 -37.559147 -24.239914 -123.89648
187822000 -24.264008 -133.06261 -0.10070623 -37.755501 -0.10052238 -37.755966 -24.198946 -123.99242
188821000 -24.2386 -133.31665 -0.1001666 -37.951862 -0.10103106 -37.955975 -24.182869 -124.10204
189820000 -24.222357 -133.62584 -0.10078943 -38.151962 -0.1010761 -38.152802 -24.161985 -124.31149
190819000 -24.190117 -133.93832 -0.10140412 -38.348339 -0.10117149 -38.349075 -24.127218 -124.32917
191818000 -24.160591 -134.22173 -0.10203508 -38.548065 -0.10204753 -38.549236 -24.099154 -124.36594
192817000 -24.111427 -134.48804 -0.1020364 -38.745327 -0.10188773 -38.746819 -24.054865 -124.47945
193816000 -24.07826 -134.74504 -0.10230672 -38.938927 -0.10162327 -38.942249 -24.004915 -124.62467
194815000 -24.024599 -135.15863 -0.10244586 -39.135098 -0.10204064 -39.140327 -23.939335 -124.68806
195814000 -23.966082 -135.34373 -0.10330653 -39.331989 -0.10302395 -39.338196 -23.88427 -124.74882
196813000 -23.914558 -135.67023 -0.10327207 -39.528637 -0.10326809 -39.530781 -23.804665 -124.89336
197812000 -23.854349 -135.87436 -0.10332244 -39.727047 -0.10253201 -39.72736 -23.737709 -125.00632
198811000 -23.804462 -136.03169 -0.10290414 -39.920357 -0.10273662 -39.923523 -23.666859 -125.17957
199810000 -23.732796 -136.36868 -0.10381819 -40.122005 -0.10271595 -40.117207 -23.590708 -125.24929
200809000 -23.67473 -136.63513 -0.10375986 -40.316051 -0.10333622 -40.315056 -23.51372 -125.43644
201808000 -23.619593 -136.81577 -0.1053689 -40.516724 -0.10445797 -40.517006 -23.447746 -125.47361
202807000 -23.557259 -137.16617 -0.10624526 -40.717018 -0.10476345 -40.717766 -23.390621 -125.68155
