!Keysight Technologies,E5080B,MY59205177,A.15.75.32
!Date: Friday, February 23, 2024 03:03:03
!Correction: S11(Cdelta 2-Port  ) 
!S21(Cdelta 2-Port  ) 
!S12(Cdelta 2-Port  ) 
!S22(Cdelta 2-Port  ) 
!S2P File: Measurements: S11, S21, S12, S22:
# Hz S  dB   R 50
10000000 -44.15963 -3.6621912 -0.027609278 -2.0384934 -0.03060149 -2.0930784 -47.965824 -150.34659
10999000 -43.530609 -5.4977961 -0.028784078 -2.2581158 -0.03038408 -2.3115258 -47.774864 -142.95349
11998000 -42.792618 -7.8833132 -0.028483378 -2.4805245 -0.030151563 -2.5237362 -47.817787 -137.13666
12997000 -42.110767 -12.656012 -0.02753425 -2.6597021 -0.029978747 -2.6867223 -47.212509 -131.32295
13996000 -41.895782 -16.1257 -0.027259424 -2.8375359 -0.029798899 -2.8592579 -46.782921 -125.79497
14995000 -41.578709 -19.662439 -0.029113986 -3.0477815 -0.029854937 -3.0709898 -46.309834 -121.8399
15994000 -41.471756 -23.873234 -0.030613482 -3.2620411 -0.031504873 -3.2865763 -46.12439 -118.45075
16993000 -41.392017 -27.886164 -0.030012891 -3.4581974 -0.031421699 -3.4718854 -45.174561 -119.41787
17992000 -41.522099 -32.510105 -0.03025661 -3.6563404 -0.032023787 -3.6616619 -44.556664 -120.02394
18991000 -41.771809 -36.76804 -0.031345565 -3.867125 -0.032226413 -3.8704057 -43.845837 -119.5814
19990000 -41.594559 -42.157997 -0.034107361 -4.0768619 -0.034536041 -4.0717096 -43.203709 -121.1876
20989000 -41.535553 -45.007591 -0.035631027 -4.2840056 -0.035688706 -4.269352 -42.590332 -120.90646
21988000 -41.413765 -49.600567 -0.035953626 -4.4801373 -0.037441909 -4.4637413 -42.295231 -120.44424
22987000 -41.179401 -53.992405 -0.037289429 -4.6751795 -0.037770908 -4.6637645 -42.022373 -119.89046
23986000 -41.20512 -57.731342 -0.037403002 -4.8675442 -0.036730465 -4.8671408 -41.902897 -119.86359
24985000 -40.856785 -60.634998 -0.037994955 -5.0813284 -0.037849505 -5.0732131 -41.649525 -117.32978
25984000 -40.660828 -62.657375 -0.038728021 -5.2836194 -0.037643481 -5.2850299 -41.324444 -116.30505
26983000 -40.334663 -64.35656 -0.039193727 -5.4809494 -0.03882492 -5.4994855 -41.195518 -115.25387
27982000 -40.225025 -65.20385 -0.041099906 -5.680614 -0.040331692 -5.7160664 -40.877518 -113.7254
28981000 -40.173393 -66.768211 -0.039619252 -5.8784719 -0.039215408 -5.9013853 -40.618641 -113.12936
29980000 -39.800846 -68.411476 -0.03966549 -6.0696702 -0.039854631 -6.072506 -40.326134 -112.31516
30979000 -39.46064 -67.477837 -0.036380924 -6.4238086 -0.034825418 -6.414979 -39.807461 -112.98624
31978000 -39.258621 -68.601265 -0.03537944 -6.6173759 -0.036251191 -6.6111903 -39.567589 -112.44807
32977000 -39.079002 -70.211617 -0.035873495 -6.8267512 -0.036808524 -6.8246946 -39.316292 -112.66766
33976000 -38.953167 -71.212646 -0.036309659 -7.0294333 -0.037075337 -7.0235367 -39.009922 -112.27128
34975000 -38.641087 -72.261391 -0.036095619 -7.2299466 -0.037776131 -7.2300706 -38.759926 -112.14087
35974000 -38.480316 -73.05938 -0.03584113 -7.4223719 -0.037836451 -7.4274526 -38.458534 -111.16803
36973000 -38.281708 -73.88089 -0.036580622 -7.6246247 -0.039058164 -7.6248312 -38.17329 -110.40752
37972000 -38.094509 -73.653107 -0.035706457 -7.8323617 -0.038934879 -7.8410292 -37.954109 -110.04705
38971000 -37.781086 -73.574333 -0.036458451 -8.034874 -0.038979806 -8.044364 -37.735172 -108.48893
39970000 -37.470348 -74.179222 -0.034902137 -8.2277746 -0.037136432 -8.2433558 -37.47224 -107.95277
40969000 -37.171509 -74.0047 -0.035403971 -8.4223471 -0.037299089 -8.4386969 -37.195194 -106.77153
41968000 -36.831619 -74.21386 -0.036382489 -8.627265 -0.037514757 -8.6484985 -36.998425 -105.58261
42967000 -36.569298 -74.441635 -0.035606496 -8.8310118 -0.038213529 -8.852046 -36.755867 -103.77547
43966000 -36.306225 -75.321541 -0.035864361 -9.0361242 -0.039046932 -9.0515919 -36.46801 -103.34079
44965000 -36.08427 -76.258698 -0.036056988 -9.2375402 -0.038489051 -9.2584867 -36.261787 -103.24257
45964000 -35.860359 -77.340683 -0.037842195 -9.4355659 -0.04039884 -9.4576645 -36.016541 -103.08766
46963000 -35.676937 -79.333931 -0.038047966 -9.6324568 -0.040776405 -9.652627 -35.820831 -103.44597
47962000 -35.541004 -80.726379 -0.039778348 -9.8315897 -0.042208835 -9.8501043 -35.614937 -103.50311
48961000 -35.341648 -82.261642 -0.041974898 -10.026612 -0.043759923 -10.050431 -35.391998 -103.8662
49960000 -35.116665 -83.75959 -0.042978428 -10.229172 -0.044824544 -10.251694 -35.258507 -103.99613
50959000 -34.914631 -85.082893 -0.043733515 -10.441811 -0.045864835 -10.449654 -35.071018 -104.52094
51958000 -34.71891 -86.255302 -0.046160199 -10.639863 -0.047426917 -10.649332 -34.895012 -104.97634
52957000 -34.529148 -87.377563 -0.047203165 -10.840096 -0.048951074 -10.844561 -34.735054 -104.88725
53956000 -34.371063 -88.091103 -0.047923394 -11.042892 -0.049258955 -11.043447 -34.596294 -104.86318
54955000 -34.203438 -88.608994 -0.048917826 -11.238876 -0.050209962 -11.235755 -34.447704 -104.86374
55954000 -34.047047 -89.484245 -0.049872424 -11.442331 -0.050217032 -11.439453 -34.3251 -104.6752
56953000 -33.920582 -89.616127 -0.049897298 -11.640344 -0.049913011 -11.629855 -34.256413 -104.75264
57952000 -33.769081 -90.169319 -0.050869398 -11.835599 -0.049668711 -11.826182 -34.140907 -104.9278
58951000 -33.653984 -90.478828 -0.051703136 -12.042537 -0.051330648 -12.019425 -33.986115 -105.09418
59950000 -33.525799 -90.843956 -0.051928692 -12.241429 -0.051566921 -12.217437 -33.931355 -105.32589
60949000 -33.430862 -91.36982 -0.052515026 -12.436198 -0.052594677 -12.421138 -33.839718 -105.52833
61948000 -33.361782 -91.717499 -0.053318158 -12.638297 -0.052013047 -12.624088 -33.757626 -105.76858
62947000 -33.285507 -92.025719 -0.053089913 -12.851837 -0.052814253 -12.832476 -33.620163 -106.01647
63946000 -33.211353 -92.65641 -0.054370183 -13.048488 -0.053788316 -13.029292 -33.516857 -106.05494
64945000 -33.111298 -92.901688 -0.055385496 -13.250308 -0.054309897 -13.230118 -33.411777 -106.59056
65944000 -33.007473 -93.259529 -0.055874493 -13.449753 -0.05528849 -13.43124 -33.320267 -107.14876
66943000 -32.883919 -93.553223 -0.053404376 -13.649007 -0.053231157 -13.633504 -33.217075 -107.40962
67942000 -32.818558 -93.595688 -0.055351675 -13.845752 -0.05545786 -13.835541 -33.101181 -107.69949
68941000 -32.70393 -93.713272 -0.055419579 -14.037635 -0.054593515 -14.030435 -32.990116 -107.64092
69940000 -32.602913 -93.721237 -0.055223994 -14.238872 -0.055678889 -14.226722 -32.846382 -108.01857
70939000 -32.497215 -93.676872 -0.055393886 -14.427604 -0.055136167 -14.426394 -32.724689 -107.93284
71938000 -32.369869 -93.318275 -0.054262191 -14.630332 -0.055662632 -14.620782 -32.578979 -107.82183
72937000 -32.20108 -93.141068 -0.054680545 -14.827803 -0.054974414 -14.827127 -32.451252 -107.5195
73936000 -32.076717 -92.876778 -0.054140311 -15.02667 -0.054251708 -15.022814 -32.324059 -107.37802
74935000 -31.94717 -93.140121 -0.053504486 -15.223505 -0.052893907 -15.215816 -32.177052 -107.08611
75934000 -31.823818 -93.43187 -0.053753193 -15.429138 -0.053190537 -15.422248 -32.087231 -107.04549
76933000 -31.691816 -93.836876 -0.0552295 -15.620904 -0.054089725 -15.615672 -31.926126 -107.39356
77932000 -31.593756 -94.580605 -0.056770038 -15.81943 -0.056337323 -15.815155 -31.814699 -107.42593
78931000 -31.53121 -95.41095 -0.055089239 -16.020988 -0.054493908 -16.018154 -31.716063 -107.38666
79930000 -31.422367 -96.225624 -0.057642683 -16.211086 -0.05809547 -16.208031 -31.621964 -107.6292
80929000 -31.293007 -97.145523 -0.0588894 -16.40274 -0.058892548 -16.400888 -31.518475 -108.04259
81928000 -31.214567 -97.96817 -0.059354387 -16.597816 -0.059185389 -16.593336 -31.398632 -108.05508
82927000 -31.12649 -98.733574 -0.060495809 -16.79561 -0.060891137 -16.792923 -31.294611 -108.40127
83926000 -31.008415 -99.426758 -0.061941586 -16.994234 -0.061890647 -16.991722 -31.180521 -108.64365
84925000 -30.909048 -99.96344 -0.062701553 -17.195501 -0.0617675 -17.190205 -31.082489 -108.66224
85924000 -30.825024 -100.38322 -0.063183494 -17.390812 -0.063051909 -17.388033 -31.002407 -108.69051
86923000 -30.708757 -100.94047 -0.063532047 -17.59284 -0.063902959 -17.585449 -30.903999 -108.5839
87922000 -30.606543 -101.29367 -0.064147539 -17.792736 -0.062858604 -17.786728 -30.818216 -108.70475
88921000 -30.542475 -101.63528 -0.064959392 -17.996265 -0.064571314 -17.988491 -30.723585 -108.65938
89920000 -30.440155 -102.14143 -0.065051101 -18.193796 -0.064558968 -18.186481 -30.672249 -108.79369
90919000 -30.334831 -102.41338 -0.065792166 -18.388023 -0.065718837 -18.380846 -30.586601 -108.95773
91918000 -30.244743 -102.83748 -0.066718146 -18.586279 -0.06591253 -18.583935 -30.521994 -109.04073
92917000 -30.160812 -103.14152 -0.06789095 -18.785116 -0.066454761 -18.784237 -30.449661 -109.13807
93916000 -30.078897 -103.53415 -0.067217886 -18.980692 -0.066275761 -18.974398 -30.370388 -109.80257
94915000 -29.996885 -104.23005 -0.068959139 -19.179192 -0.067449503 -19.175386 -30.30591 -109.63728
95914000 -29.94603 -104.40983 -0.069826081 -19.373001 -0.068631187 -19.372446 -30.210438 -109.9332
96913000 -29.855562 -104.64636 -0.071051307 -19.574329 -0.069689557 -19.571663 -30.156536 -110.3032
97912000 -29.782721 -105.08336 -0.072211333 -19.767586 -0.069610909 -19.770727 -30.079718 -110.5618
98911000 -29.678778 -105.29791 -0.07270091 -19.968544 -0.070637681 -19.967794 -30.039515 -110.74377
99910000 -29.613741 -105.40909 -0.072756194 -20.169186 -0.070870012 -20.169352 -29.926895 -111.0726
100909000 -29.523888 -105.7374 -0.072176851 -20.376854 -0.070321441 -20.371168 -29.845892 -111.27379
101908000 -29.443768 -105.96538 -0.073561497 -20.576454 -0.071732335 -20.572777 -29.725218 -111.04313
102907000 -29.305458 -106.03371 -0.074616857 -20.773294 -0.072106317 -20.775312 -29.663931 -111.01535
103906000 -29.212458 -106.09264 -0.074111789 -20.980938 -0.070858434 -20.977261 -29.508238 -111.00273
104905000 -29.067947 -105.96308 -0.075297661 -21.180811 -0.071932085 -21.178329 -29.380112 -110.67895
105904000 -28.929277 -106.07146 -0.075626642 -21.384737 -0.072291613 -21.375599 -29.273954 -110.51952
106903000 -28.820652 -106.26228 -0.074762225 -21.581991 -0.072219759 -21.580841 -29.140295 -110.50239
107902000 -28.66161 -106.56529 -0.075868458 -21.784239 -0.073416427 -21.780293 -29.003147 -110.42101
108901000 -28.554302 -106.78944 -0.077221595 -21.984852 -0.07444147 -21.980978 -28.872339 -110.39366
109900000 -28.423826 -107.32331 -0.078069106 -22.189001 -0.075747542 -22.177473 -28.72681 -110.44012
110899000 -28.306978 -107.93487 -0.079470128 -22.381704 -0.075693808 -22.377193 -28.601742 -110.69595
111898000 -28.220848 -108.65551 -0.080105022 -22.584631 -0.077110134 -22.577421 -28.483864 -110.86343
112897000 -28.095919 -109.1957 -0.081865959 -22.783829 -0.077690922 -22.771975 -28.345535 -111.07191
113896000 -27.996082 -109.78787 -0.082133971 -22.984472 -0.079283737 -22.973221 -28.244066 -111.18919
114895000 -27.890888 -110.39455 -0.083565332 -23.181273 -0.080736578 -23.170006 -28.127546 -111.31722
115894000 -27.763845 -110.80672 -0.08515688 -23.380554 -0.081733279 -23.372688 -28.065931 -111.47837
116893000 -27.688948 -111.37167 -0.085429057 -23.577972 -0.082337901 -23.55983 -27.934555 -111.57591
117892000 -27.604753 -111.80648 -0.085381009 -23.770075 -0.08265765 -23.759583 -27.870625 -111.83314
118891000 -27.552031 -112.24539 -0.086149313 -23.9748 -0.083511502 -23.960487 -27.769617 -111.9259
119890000 -27.462111 -112.63902 -0.087138012 -24.17672 -0.083646879 -24.157835 -27.754387 -112.11299
120889000 -27.398298 -113.15557 -0.088367864 -24.379831 -0.085003771 -24.360497 -27.6828 -112.1105
121888000 -27.366377 -113.44594 -0.087724365 -24.571812 -0.084983177 -24.556736 -27.62458 -112.32926
122887000 -27.31942 -113.6689 -0.089616299 -24.772987 -0.085379422 -24.762417 -27.578676 -112.4116
123886000 -27.269884 -114.09412 -0.09021911 -24.975241 -0.085969761 -24.955217 -27.566412 -112.52425
124885000 -27.237917 -114.55859 -0.089248464 -25.175375 -0.086139016 -25.161226 -27.534601 -112.59509
125884000 -27.182856 -114.75803 -0.090342008 -25.371716 -0.086263642 -25.35578 -27.503035 -112.75626
126883000 -27.16667 -115.16558 -0.090907119 -25.573254 -0.087692402 -25.557549 -27.458845 -112.85751
127882000 -27.111572 -115.47271 -0.091009945 -25.772875 -0.088080183 -25.755089 -27.42597 -113.03702
128881000 -27.073181 -115.79754 -0.091505878 -25.976212 -0.087971345 -25.957233 -27.388338 -113.15656
129880000 -27.020452 -116.09677 -0.092358299 -26.177849 -0.087494038 -26.160009 -27.342302 -113.08974
130879000 -26.965673 -116.25993 -0.091736682 -26.373426 -0.088801935 -26.3575 -27.266157 -113.17968
131878000 -26.897892 -116.48755 -0.092340313 -26.577793 -0.088797443 -26.558065 -27.206244 -113.07711
132877000 -26.829058 -116.5851 -0.091505878 -26.779243 -0.089124277 -26.76112 -27.118206 -113.04951
133876000 -26.751667 -116.72887 -0.091883682 -26.97826 -0.088797443 -26.962603 -27.033482 -112.96906
134875000 -26.652241 -116.83872 -0.092341639 -27.179041 -0.089747109 -27.162535 -26.922457 -112.84929
135874000 -26.565323 -116.85439 -0.09194582 -27.378874 -0.089252956 -27.36558 -26.826403 -112.84373
136873000 -26.461338 -116.79532 -0.092722692 -27.579857 -0.089351252 -27.562307 -26.746372 -112.83794
137872000 -26.386129 -116.91053 -0.092429958 -27.783541 -0.089674167 -27.764351 -26.641932 -112.81718
138871000 -26.309544 -117.11304 -0.093659192 -27.981693 -0.089839071 -27.966389 -26.543015 -112.94526
139870000 -26.213102 -117.38605 -0.093751505 -28.179754 -0.091235436 -28.166422 -26.462929 -113.13658
140869000 -26.131445 -117.81642 -0.095763028 -28.376959 -0.093104303 -28.35763 -26.35354 -113.23872
141868000 -26.030474 -118.32313 -0.095680729 -28.568876 -0.093484096 -28.550987 -26.278786 -113.5584
142867000 -25.955643 -118.5698 -0.093908623 -28.767725 -0.091982037 -28.749807 -26.211369 -113.77472
143866000 -25.884314 -119.09785 -0.095751122 -28.965658 -0.093162745 -28.947384 -26.131407 -114.27386
144865000 -25.829967 -119.60867 -0.097531915 -29.163412 -0.094580553 -29.149305 -26.07394 -114.5991
145864000 -25.772146 -119.94485 -0.097643636 -29.360449 -0.095813572 -29.347733 -26.04587 -114.84129
146863000 -25.724503 -120.30257 -0.0991413 -29.562136 -0.096235156 -29.550209 -25.991966 -115.13867
147862000 -25.689367 -120.68431 -0.099968195 -29.758858 -0.096158937 -29.749418 -25.958834 -115.53381
148861000 -25.652672 -121.15958 -0.099433161 -29.95372 -0.097063087 -29.941067 -25.934956 -115.7279
149860000 -25.635817 -121.38284 -0.10026223 -30.154226 -0.0966499 -30.138046 -25.898495 -115.92087
150859000 -25.617617 -121.72676 -0.099829137 -30.357264 -0.096960649 -30.33803 -25.890368 -116.14777
151858000 -25.598597 -122.02442 -0.099986739 -30.554934 -0.097511798 -30.540215 -25.878429 -116.44469
152857000 -25.579473 -122.3593 -0.10039045 -30.748091 -0.097452231 -30.735376 -25.868233 -116.57186
153856000 -25.578264 -122.58167 -0.10056159 -30.948383 -0.097045884 -30.938576 -25.876474 -116.86729
154855000 -25.572962 -122.76605 -0.10103847 -31.147791 -0.097585924 -31.133816 -25.866835 -117.10063
155854000 -25.57951 -123.02578 -0.10155225 -31.344835 -0.098185875 -31.332428 -25.860281 -117.3666
156853000 -25.565718 -123.69837 -0.099343106 -31.532066 -0.09750253 -31.524181 -25.85713 -117.65263
157852000 -25.568098 -123.90759 -0.10088322 -31.734825 -0.098939493 -31.725956 -25.842987 -118.001
158851000 -25.565994 -124.13947 -0.10073935 -31.934601 -0.099415675 -31.922777 -25.833248 -118.24548
159850000 -25.545294 -124.26852 -0.10146427 -32.130455 -0.099975877 -32.125328 -25.832268 -118.45469
160849000 -25.530304 -124.35786 -0.10141578 -32.329201 -0.10053774 -32.324463 -25.796837 -118.71745
161848000 -25.511236 -124.50013 -0.10191555 -32.529945 -0.10003548 -32.524643 -25.756788 -118.8085
162847000 -25.468344 -124.70712 -0.10238305 -32.724937 -0.10113916 -32.721924 -25.730955 -119.07987
163846000 -25.427282 -124.93085 -0.1023054 -32.927795 -0.10032713 -32.918911 -25.653255 -119.07417
164845000 -25.368261 -124.91558 -0.10270641 -33.127213 -0.10081989 -33.123444 -25.588184 -119.20003
165844000 -25.313572 -124.99023 -0.10242122 -33.322243 -0.10123932 -33.321854 -25.504868 -119.32652
166843000 -25.251619 -125.12172 -0.10233004 -33.522987 -0.10157026 -33.518383 -25.433153 -119.49823
167842000 -25.192749 -125.22757 -0.10265393 -33.721027 -0.10129363 -33.719368 -25.355019 -119.43299
168841000 -25.114986 -125.44083 -0.10401651 -33.91909 -0.1016601 -33.917202 -25.278978 -119.53205
169840000 -25.051487 -125.70837 -0.10341151 -34.117001 -0.10163625 -34.110725 -25.192684 -119.74245
170839000 -24.990086 -125.96952 -0.10373016 -34.315491 -0.10247952 -34.309361 -25.107002 -119.90355
171838000 -24.932434 -126.38081 -0.10365461 -34.515434 -0.1040682 -34.50613 -25.039274 -120.13886
172837000 -24.86264 -126.75098 -0.10565932 -34.707867 -0.10436146 -34.703789 -24.97411 -120.34202
173836000 -24.797079 -127.16271 -0.10700984 -34.908218 -0.1054002 -34.906979 -24.929741 -120.60052
174835000 -24.745041 -127.56285 -0.10697004 -35.103462 -0.10611422 -35.102253 -24.881519 -120.90698
175834000 -24.693939 -127.98985 -0.10765169 -35.303009 -0.1069069 -35.297375 -24.822681 -121.2121
176833000 -24.640789 -128.36172 -0.10813016 -35.49807 -0.10733354 -35.497955 -24.771181 -121.34692
177832000 -24.594309 -128.80467 -0.10891365 -35.696762 -0.1077098 -35.69717 -24.74634 -121.52274
178831000 -24.556005 -129.1848 -0.10941056 -35.890919 -0.10843907 -35.885925 -24.706377 -121.7736
179830000 -24.522017 -129.63089 -0.10979763 -36.089657 -0.10809512 -36.090778 -24.680109 -121.85037
180829000 -24.481266 -129.84473 -0.11046166 -36.287006 -0.10907716 -36.284786 -24.649948 -122.04746
181828000 -24.454235 -130.17938 -0.1102904 -36.4883 -0.10913104 -36.479332 -24.631275 -122.17265
182827000 -24.432751 -130.56931 -0.11069348 -36.679466 -0.10986453 -36.67823 -24.622963 -122.24846
183826000 -24.388525 -130.86481 -0.11193214 -36.876659 -0.10980666 -36.873631 -24.612244 -122.33218
184825000 -24.395302 -131.18761 -0.11111836 -37.073715 -0.11019747 -37.068516 -24.593218 -122.46613
185824000 -24.369452 -131.55011 -0.11126815 -37.265507 -0.11025164 -37.264622 -24.59585 -122.48717
186823000 -24.353479 -131.89049 -0.11144237 -37.468803 -0.11023438 -37.466713 -24.59045 -122.49875
187822000 -24.334736 -132.21053 -0.11178765 -37.661976 -0.11135712 -37.661137 -24.559612 -122.58116
188821000 -24.315826 -132.46419 -0.11180996 -37.854588 -0.1113279 -37.860775 -24.539867 -122.66589
189820000 -24.297596 -132.71698 -0.11164688 -38.060135 -0.11181102 -38.05793 -24.534107 -122.82665
190819000 -24.271828 -132.95024 -0.11312121 -38.255562 -0.1128178 -38.25526 -24.504644 -122.75869
191818000 -24.233997 -133.14572 -0.11428987 -38.451355 -0.11424629 -38.453568 -24.466658 -122.66091
192817000 -24.162462 -133.42015 -0.11502371 -38.637455 -0.11423831 -38.637596 -24.396391 -122.74168
193816000 -24.13142 -133.76961 -0.11379399 -38.830898 -0.11296392 -38.8293 -24.340485 -123.01749
194815000 -24.0697 -134.22733 -0.11346237 -39.024284 -0.11331065 -39.027275 -24.279404 -123.13834
195814000 -24.021179 -134.43184 -0.1145599 -39.227627 -0.11309331 -39.227116 -24.222883 -123.25591
196813000 -23.97221 -134.79445 -0.11405495 -39.419907 -0.11341667 -39.42461 -24.147987 -123.40242
197812000 -23.908697 -135.0468 -0.11418171 -39.615047 -0.11396459 -39.618053 -24.07832 -123.51998
198811000 -23.854671 -135.20975 -0.1142322 -39.813496 -0.11319826 -39.821167 -24.01198 -123.71007
199810000 -23.785477 -135.61453 -0.11446847 -40.008121 -0.11324688 -40.008907 -23.935707 -123.81625
200809000 -23.72847 -135.85976 -0.11524753 -40.207375 -0.11332208 -40.207642 -23.853333 -124.00562
201808000 -23.667053 -136.07257 -0.11548092 -40.404907 -0.1149033 -40.408024 -23.785889 -124.05401
202807000 -23.612583 -136.47966 -0.11624553 -40.607697 -0.11486077 -40.607903 -23.729996 -124.30344
203806000 -23.560266 -136.86644 -0.11760919 -40.807373 -0.11533605 -40.808895 -23.666742 -124.44454
