!Keysight Technologies,E5080B,MY59205177,A.15.75.32
!Date: Friday, February 23, 2024 03:41:24
!Correction: S11(Cdelta 2-Port  ) 
!S21(Cdelta 2-Port  ) 
!S12(Cdelta 2-Port  ) 
!S22(Cdelta 2-Port  ) 
!S2P File: Measurements: S11, S21, S12, S22:
# Hz S  dB   R 50
10000000 -46.119053 -2.8917625 -0.015026366 -2.0377526 -0.017955074 -2.0966873 -45.92878 -157.21329
10999000 -45.259995 -5.373086 -0.015901055 -2.2580357 -0.017470067 -2.308795 -45.813545 -150.93292
11998000 -44.364838 -8.064208 -0.017026436 -2.4853349 -0.017806655 -2.5277205 -45.992138 -146.74248
12997000 -43.578835 -13.719699 -0.01596367 -2.6665318 -0.01772036 -2.6987731 -45.565289 -140.98946
13996000 -43.298443 -17.472301 -0.015105853 -2.8456321 -0.01730711 -2.8642676 -45.36116 -135.78783
14995000 -42.931236 -21.886093 -0.017366366 -3.05356 -0.017458891 -3.0794108 -45.054111 -132.66605
15994000 -42.702812 -26.346819 -0.018127672 -3.2741165 -0.01989148 -3.2940037 -44.910542 -129.24835
16993000 -42.692715 -30.882168 -0.017157935 -3.4718683 -0.019344112 -3.4790504 -44.143829 -128.95016
17992000 -42.737892 -36.429508 -0.018297678 -3.6687701 -0.020204328 -3.6751435 -43.55117 -128.77359
18991000 -42.920105 -41.750874 -0.018507984 -3.8842385 -0.020368174 -3.8830903 -42.924927 -128.08797
19990000 -42.732605 -47.215614 -0.021578999 -4.0900698 -0.02326249 -4.0856886 -42.244678 -128.735
20989000 -42.556419 -50.891121 -0.022955146 -4.2948194 -0.024707116 -4.2839961 -41.721081 -127.84373
21988000 -42.356895 -56.161808 -0.024053462 -4.4896293 -0.025839208 -4.4742756 -41.426517 -127.38518
22987000 -42.030354 -60.894325 -0.025089828 -4.6921067 -0.026125401 -4.6793671 -41.167885 -126.64114
23986000 -41.911503 -64.895706 -0.024971627 -4.8815079 -0.025738172 -4.8840904 -41.037556 -126.54491
24985000 -41.48909 -67.839859 -0.026282178 -5.0943313 -0.025991548 -5.0913043 -40.806465 -124.47291
25984000 -41.183334 -69.808701 -0.027103394 -5.2968001 -0.025893372 -5.3009896 -40.501461 -122.6752
26983000 -40.877422 -71.47596 -0.028001102 -5.494998 -0.027187791 -5.5144849 -40.39529 -122.16143
27982000 -40.691208 -72.820671 -0.02823559 -5.6968102 -0.029111119 -5.7305989 -40.118591 -120.74474
28981000 -40.628872 -74.044983 -0.026760615 -5.8942089 -0.02868141 -5.9207544 -39.85778 -119.70902
29980000 -40.249916 -75.304794 -0.026441826 -6.0900621 -0.02921484 -6.0953526 -39.579941 -119.09985
30979000 -39.855167 -74.408234 -0.023841064 -6.4444437 -0.023393918 -6.4360552 -39.11132 -119.36047
31978000 -39.65464 -75.367592 -0.023306992 -6.6356306 -0.024695663 -6.625051 -38.860764 -118.69543
32977000 -39.44735 -77.035133 -0.023507912 -6.8471394 -0.025580633 -6.8450994 -38.665833 -118.75477
33976000 -39.282467 -77.972298 -0.024171377 -7.047513 -0.02573687 -7.0458031 -38.33186 -118.0831
34975000 -38.97641 -78.806183 -0.024612356 -7.2454972 -0.026653048 -7.2514753 -38.123501 -117.80041
35974000 -38.787937 -79.343475 -0.023586513 -7.4431953 -0.02649183 -7.4475718 -37.831764 -116.80308
36973000 -38.568493 -79.934837 -0.02354539 -7.6430254 -0.027660597 -7.6467981 -37.60075 -116.16108
37972000 -38.398514 -79.639786 -0.023775993 -7.8516679 -0.027293028 -7.8637257 -37.370232 -115.23342
38971000 -38.070133 -79.171463 -0.025239017 -8.053586 -0.027398529 -8.0672112 -37.192581 -113.68561
39970000 -37.753296 -79.380089 -0.022589276 -8.2478628 -0.026004046 -8.2689314 -36.949783 -113.10036
40969000 -37.4771 -79.133804 -0.023431394 -8.4446878 -0.026031651 -8.4683857 -36.708626 -111.70605
41968000 -37.142426 -79.039848 -0.023603691 -8.6500502 -0.026165247 -8.6692553 -36.534737 -110.56309
42967000 -36.8671 -79.126884 -0.022980388 -8.8575735 -0.026537668 -8.8783531 -36.333744 -108.7175
43966000 -36.573898 -79.671242 -0.024265869 -9.0592175 -0.027857551 -9.0779409 -36.065079 -107.85637
44965000 -36.337635 -80.415344 -0.025386909 -9.2630081 -0.027926851 -9.2834234 -35.868172 -107.60394
45964000 -36.108215 -81.531738 -0.026885899 -9.4626856 -0.029038152 -9.48316 -35.622978 -107.33813
46963000 -35.894768 -83.436638 -0.026424376 -9.6611605 -0.029473891 -9.6797581 -35.449642 -107.58563
47962000 -35.738148 -84.783485 -0.02820693 -9.8611269 -0.030627036 -9.8792095 -35.234249 -107.65697
48961000 -35.529663 -86.190216 -0.030240709 -10.0572 -0.032401145 -10.077468 -35.025341 -107.82693
49960000 -35.286003 -87.551514 -0.031038428 -10.255509 -0.032991894 -10.277724 -34.886013 -107.93366
50959000 -35.05336 -88.756134 -0.031746592 -10.46891 -0.03435418 -10.480421 -34.713284 -108.17427
51958000 -34.862656 -89.832405 -0.033648983 -10.669641 -0.03587715 -10.678831 -34.526749 -108.51486
52957000 -34.64764 -90.874771 -0.035067581 -10.869828 -0.037040092 -10.874417 -34.366165 -108.32053
53956000 -34.476383 -91.477203 -0.036190633 -11.072449 -0.037705626 -11.075994 -34.234573 -108.37483
54955000 -34.296841 -92.03054 -0.036531284 -11.271142 -0.038431853 -11.269342 -34.084457 -108.33602
55954000 -34.133827 -92.83255 -0.038026813 -11.472231 -0.039118238 -11.470871 -33.979572 -108.00198
56953000 -34.025173 -92.87468 -0.037229117 -11.669276 -0.037882406 -11.661667 -33.905624 -108.24944
57952000 -33.854866 -93.481171 -0.039233953 -11.865362 -0.039343663 -11.85818 -33.800686 -108.31144
58951000 -33.729378 -93.874435 -0.039700236 -12.071039 -0.040221956 -12.052435 -33.638802 -108.46493
59950000 -33.603836 -94.148895 -0.040881708 -12.271368 -0.040193219 -12.25515 -33.565697 -108.64029
60949000 -33.4706 -94.751099 -0.040746093 -12.47756 -0.040823963 -12.452818 -33.467907 -108.90326
61948000 -33.414295 -94.987885 -0.041219071 -12.673418 -0.040900264 -12.657975 -33.375137 -109.0822
62947000 -33.319714 -95.305878 -0.040671363 -12.882595 -0.042152375 -12.867831 -33.229973 -109.32194
63946000 -33.246284 -95.988907 -0.042578451 -13.082183 -0.042663936 -13.065903 -33.139404 -109.38855
64945000 -33.136272 -96.157471 -0.043297127 -13.287237 -0.043182611 -13.270598 -33.018829 -109.90913
65944000 -33.038643 -96.488121 -0.043600425 -13.4853 -0.043538716 -13.468666 -32.926151 -110.38255
66943000 -32.890823 -96.898964 -0.041243896 -13.685759 -0.041627284 -13.671478 -32.81078 -110.56578
67942000 -32.828587 -96.806557 -0.043185227 -13.883896 -0.043870796 -13.87452 -32.70285 -110.82777
68941000 -32.711723 -96.889221 -0.042642497 -14.078077 -0.042155251 -14.066546 -32.581486 -110.84572
69940000 -32.621403 -96.933388 -0.04313869 -14.276205 -0.044281609 -14.267994 -32.443687 -111.13838
70939000 -32.507854 -96.862282 -0.043169018 -14.471395 -0.043985326 -14.465417 -32.313267 -111.04885
71938000 -32.378231 -96.377113 -0.043392558 -14.671661 -0.04306601 -14.664232 -32.182053 -110.86168
72937000 -32.226597 -96.26519 -0.042422131 -14.870851 -0.042721707 -14.861626 -32.039131 -110.5787
73936000 -32.083851 -95.858986 -0.0418531 -15.070341 -0.041913215 -15.060376 -31.931311 -110.33067
74935000 -31.962353 -96.049042 -0.041631728 -15.261665 -0.041059926 -15.26195 -31.775883 -110.0302
75934000 -31.842968 -96.334297 -0.042086244 -15.46928 -0.041863814 -15.471107 -31.690159 -109.97714
76933000 -31.701708 -96.634041 -0.043213725 -15.666205 -0.043261569 -15.65971 -31.523884 -110.29507
77932000 -31.603342 -97.391998 -0.044562746 -15.862853 -0.044588897 -15.854679 -31.421104 -110.2371
78931000 -31.521456 -98.114746 -0.043281179 -16.061106 -0.043613758 -16.055676 -31.317575 -110.09977
79930000 -31.416746 -99.00071 -0.045690086 -16.254553 -0.045381673 -16.254114 -31.22135 -110.41772
80929000 -31.304176 -99.840004 -0.047578704 -16.45059 -0.047421418 -16.449778 -31.123384 -110.63625
81928000 -31.201317 -100.46522 -0.047310982 -16.643972 -0.047849845 -16.640509 -30.997972 -110.6827
82927000 -31.109272 -101.27947 -0.049124908 -16.84594 -0.048581436 -16.841249 -30.891306 -110.90514
83926000 -30.994173 -101.9418 -0.050347969 -17.039597 -0.049767423 -17.041378 -30.772179 -111.17976
84925000 -30.888033 -102.38033 -0.051454809 -17.239822 -0.050076149 -17.237608 -30.678526 -111.12744
85924000 -30.798643 -102.80677 -0.051959343 -17.441008 -0.051356316 -17.43405 -30.590351 -111.10757
86923000 -30.686323 -103.25769 -0.051882584 -17.637543 -0.052312501 -17.631105 -30.493168 -111.01904
87922000 -30.576088 -103.55645 -0.051803209 -17.848082 -0.051585782 -17.837383 -30.411928 -111.02733
88921000 -30.495243 -103.83212 -0.05336795 -18.040115 -0.052426469 -18.040825 -30.313459 -111.02036
89920000 -30.394999 -104.35226 -0.053742975 -18.242453 -0.052990075 -18.237686 -30.259682 -111.18069
90919000 -30.300045 -104.61228 -0.053983834 -18.44136 -0.053211764 -18.433981 -30.176497 -111.31126
91918000 -30.196943 -104.97105 -0.055849846 -18.639374 -0.053605907 -18.631697 -30.104687 -111.38179
92917000 -30.110285 -105.28588 -0.05618706 -18.838417 -0.055235006 -18.833485 -30.045843 -111.48502
93916000 -30.022871 -105.62772 -0.055384446 -19.029909 -0.054968122 -19.027397 -29.956142 -112.05611
94915000 -29.946941 -106.27804 -0.057524119 -19.230761 -0.056461625 -19.226273 -29.89945 -111.97318
95914000 -29.875534 -106.43257 -0.058218248 -19.428074 -0.057161879 -19.424397 -29.807261 -112.17379
96913000 -29.788109 -106.65329 -0.05931161 -19.626783 -0.05819175 -19.627567 -29.731518 -112.56396
97912000 -29.717119 -107.0792 -0.060218889 -19.822906 -0.05825419 -19.824707 -29.651276 -112.78536
98911000 -29.606752 -107.26205 -0.060616817 -20.026739 -0.059987657 -20.024559 -29.619923 -113.01069
99910000 -29.538603 -107.40134 -0.06154222 -20.224966 -0.059484024 -20.222828 -29.513428 -113.23283
100909000 -29.446474 -107.67484 -0.06093445 -20.434496 -0.05914183 -20.424654 -29.420279 -113.50725
101908000 -29.358995 -107.90491 -0.062294241 -20.633383 -0.060515493 -20.629377 -29.315208 -113.26267
102907000 -29.229183 -107.89274 -0.062809758 -20.832285 -0.060619444 -20.83036 -29.237698 -113.26993
103906000 -29.133072 -107.91387 -0.06349659 -21.040668 -0.059548844 -21.031776 -29.096529 -113.24615
104905000 -28.989511 -107.77718 -0.063116252 -21.236301 -0.060758043 -21.237217 -28.975187 -112.90184
105904000 -28.842758 -107.80477 -0.063557267 -21.439688 -0.06059188 -21.434887 -28.868975 -112.75762
106903000 -28.736769 -107.95927 -0.063341089 -21.64175 -0.061058361 -21.638781 -28.741932 -112.67893
107902000 -28.579313 -108.2571 -0.064437322 -21.850975 -0.06144429 -21.837246 -28.607817 -112.66694
108901000 -28.466528 -108.47007 -0.065594792 -22.049269 -0.063255198 -22.041594 -28.481216 -112.53695
109900000 -28.339104 -108.95715 -0.065901756 -22.248789 -0.064505368 -22.239994 -28.334227 -112.64153
110899000 -28.227207 -109.58658 -0.067234181 -22.445736 -0.064838789 -22.436937 -28.201609 -112.91285
111898000 -28.132225 -110.23841 -0.069308944 -22.645979 -0.065694399 -22.642038 -28.085161 -113.05508
112897000 -28.009035 -110.75642 -0.070166491 -22.847824 -0.066747323 -22.834034 -27.952398 -113.17876
113896000 -27.907034 -111.30419 -0.071291812 -23.045944 -0.068082638 -23.038174 -27.853676 -113.32125
114895000 -27.805984 -111.9398 -0.072395578 -23.245977 -0.06894809 -23.231867 -27.740103 -113.38522
115894000 -27.683321 -112.32379 -0.073401161 -23.448355 -0.07044746 -23.433971 -27.672331 -113.62286
116893000 -27.602922 -112.82161 -0.073683657 -23.642387 -0.071992882 -23.626175 -27.547892 -113.65639
117892000 -27.523233 -113.30497 -0.074074924 -23.839172 -0.071663648 -23.826359 -27.476254 -113.83447
118891000 -27.459908 -113.68319 -0.074463591 -24.042221 -0.071603119 -24.024481 -27.380468 -113.96973
119890000 -27.375799 -114.03576 -0.075291075 -24.241255 -0.07242769 -24.224365 -27.363976 -114.08947
120889000 -27.32806 -114.54112 -0.076030724 -24.438992 -0.0728091 -24.428358 -27.295174 -114.04665
121888000 -27.290657 -114.91744 -0.07673388 -24.636074 -0.073796876 -24.626753 -27.233639 -114.34937
122887000 -27.246042 -115.10632 -0.07708405 -24.837559 -0.074205004 -24.824984 -27.19438 -114.34032
123886000 -27.197029 -115.52666 -0.077740207 -25.043819 -0.074449897 -25.024561 -27.177177 -114.47861
124885000 -27.156902 -116.00446 -0.078157663 -25.242455 -0.07449045 -25.229052 -27.147659 -114.5441
125884000 -27.113396 -116.19062 -0.078544058 -25.441261 -0.074327447 -25.427591 -27.118748 -114.71633
126883000 -27.091223 -116.59709 -0.079222843 -25.643053 -0.075615838 -25.629143 -27.078524 -114.67781
127882000 -27.041794 -116.83817 -0.078812927 -25.844162 -0.075772308 -25.825521 -27.042673 -114.84858
128881000 -27.013874 -117.19395 -0.079959475 -26.043951 -0.076709114 -26.029552 -27.004124 -114.91347
129880000 -26.957474 -117.52808 -0.080422767 -26.249556 -0.076753639 -26.231098 -26.964373 -114.85821
130879000 -26.898012 -117.68111 -0.080204427 -26.447876 -0.077815577 -26.429556 -26.887281 -114.91866
131878000 -26.838362 -117.9118 -0.080275625 -26.648979 -0.07763163 -26.629471 -26.834513 -114.79775
132877000 -26.766243 -117.96868 -0.079827905 -26.852221 -0.077412643 -26.835447 -26.753775 -114.76089
133876000 -26.690487 -118.11946 -0.08058811 -27.055529 -0.077810831 -27.033581 -26.665861 -114.62267
134875000 -26.593006 -118.22447 -0.080571495 -27.2495 -0.078881197 -27.234978 -26.570425 -114.46165
135874000 -26.512016 -118.25914 -0.0805678 -27.451269 -0.078229353 -27.433725 -26.474085 -114.44444
136873000 -26.402338 -118.20529 -0.081400402 -27.656191 -0.078077018 -27.635189 -26.394522 -114.36852
137872000 -26.324236 -118.30996 -0.081014805 -27.855051 -0.078231461 -27.846636 -26.298662 -114.31334
138871000 -26.254185 -118.52623 -0.081078634 -28.053932 -0.078009546 -28.042933 -26.201044 -114.47223
139870000 -26.153145 -118.80109 -0.082518354 -28.25712 -0.08025717 -28.237625 -26.123789 -114.60513
140869000 -26.077023 -119.37166 -0.083014637 -28.452017 -0.079961583 -28.436359 -26.025887 -114.82197
141868000 -25.998539 -119.73879 -0.084216401 -28.652184 -0.081631728 -28.636742 -25.970932 -115.07364
142867000 -25.917669 -119.92627 -0.08263839 -28.850498 -0.080712318 -28.833384 -25.888409 -115.19288
143866000 -25.841423 -120.43341 -0.084813975 -29.048239 -0.082034789 -29.029739 -25.81822 -115.66331
144865000 -25.784557 -120.93178 -0.086007789 -29.244091 -0.084067546 -29.229027 -25.762541 -115.96157
145864000 -25.731871 -121.2371 -0.086454295 -29.445759 -0.084693603 -29.434082 -25.728819 -116.21696
146863000 -25.684038 -121.64391 -0.087636411 -29.648796 -0.085066065 -29.633039 -25.679144 -116.49784
147862000 -25.648237 -121.91931 -0.088462971 -29.844328 -0.085859135 -29.833382 -25.652016 -116.83012
148861000 -25.613983 -122.40229 -0.089184262 -30.041214 -0.08650922 -30.026711 -25.627083 -116.94653
149860000 -25.583662 -122.58704 -0.090338573 -30.232174 -0.087431177 -30.223669 -25.572159 -117.07504
150859000 -25.551991 -123.04434 -0.089664921 -30.431864 -0.087691352 -30.416735 -25.559334 -117.46069
151858000 -25.541101 -123.3929 -0.089303166 -30.631639 -0.08726003 -30.616705 -25.542702 -117.79159
152857000 -25.528355 -123.72009 -0.089359708 -30.829855 -0.087657273 -30.816698 -25.528421 -117.97554
153856000 -25.523882 -123.89172 -0.088878028 -31.030766 -0.086779371 -31.019899 -25.543653 -118.30751
154855000 -25.521544 -124.10666 -0.089761905 -31.23274 -0.086997509 -31.220724 -25.531048 -118.54535
155854000 -25.53688 -124.34391 -0.089655146 -31.427982 -0.087675765 -31.419342 -25.518309 -118.79678
156853000 -25.518131 -125.04697 -0.087514117 -31.621164 -0.086640462 -31.61055 -25.512516 -119.13417
157852000 -25.525108 -125.25746 -0.089009874 -31.818214 -0.088252679 -31.812654 -25.505045 -119.45293
158851000 -25.522495 -125.46143 -0.089654088 -32.020222 -0.088645265 -32.009026 -25.488863 -119.72084
159850000 -25.511751 -125.56086 -0.090045206 -32.218079 -0.088340916 -32.208546 -25.4837 -119.90175
160849000 -25.497223 -125.6253 -0.090487108 -32.415051 -0.089674965 -32.41325 -25.459942 -120.20944
161848000 -25.475615 -125.73073 -0.090964742 -32.619831 -0.089073814 -32.609001 -25.414618 -120.31202
162847000 -25.43668 -125.92965 -0.0910118 -32.818832 -0.089923635 -32.812092 -25.383383 -120.56399
163846000 -25.391792 -126.09518 -0.090993032 -33.01545 -0.089469105 -33.008736 -25.308165 -120.57056
164845000 -25.341192 -126.08659 -0.091049865 -33.218979 -0.089942932 -33.208546 -25.248093 -120.69353
165844000 -25.286243 -126.09834 -0.091633305 -33.416409 -0.090937249 -33.411404 -25.169065 -120.81086
166843000 -25.222904 -126.14943 -0.091541834 -33.619278 -0.09070041 -33.609787 -25.098623 -120.94787
167842000 -25.169283 -126.26884 -0.091601051 -33.819244 -0.090869054 -33.809822 -25.031879 -120.8576
168841000 -25.089037 -126.44583 -0.092076428 -34.016712 -0.090890996 -34.014267 -24.95067 -120.9155
169840000 -25.028217 -126.67452 -0.091816261 -34.211868 -0.091194987 -34.204723 -24.870123 -121.14405
170839000 -24.965925 -126.90421 -0.092409067 -34.40696 -0.092062943 -34.408703 -24.784271 -121.29822
171838000 -24.906858 -127.29539 -0.092894584 -34.609161 -0.09312202 -34.60088 -24.726473 -121.48983
172837000 -24.838705 -127.61359 -0.094502248 -34.80563 -0.093814455 -34.799931 -24.66036 -121.71165
173836000 -24.769695 -128.01483 -0.095386475 -35.005978 -0.095032975 -35.002575 -24.619175 -121.90536
174835000 -24.721117 -128.44997 -0.095779702 -35.201427 -0.095207073 -35.201496 -24.570408 -122.25461
175834000 -24.670399 -128.80301 -0.096831478 -35.402313 -0.096180901 -35.396461 -24.512966 -122.51292
176833000 -24.618597 -129.12994 -0.098106436 -35.601707 -0.096960649 -35.600185 -24.470037 -122.64777
177832000 -24.575409 -129.53294 -0.098959625 -35.800049 -0.097666405 -35.803116 -24.447559 -122.75881
178831000 -24.527466 -129.76288 -0.09997005 -35.99519 -0.10060185 -35.992085 -24.4109 -122.84695
179830000 -24.457508 -130.20274 -0.10120063 -36.180813 -0.10035972 -36.184151 -24.343679 -122.89681
180829000 -24.413021 -130.54152 -0.10041588 -36.374584 -0.099825159 -36.372395 -24.304022 -123.25436
181828000 -24.388849 -130.98354 -0.09934999 -36.573917 -0.098919898 -36.57029 -24.285482 -123.42657
182827000 -24.368776 -131.32063 -0.099535391 -36.767097 -0.098942146 -36.769726 -24.274357 -123.55231
183826000 -24.325729 -131.68542 -0.10074571 -36.97121 -0.099224985 -36.966835 -24.264019 -123.70169
184825000 -24.327765 -132.02003 -0.10044025 -37.167576 -0.099298611 -37.165508 -24.251171 -123.84235
185824000 -24.298416 -132.38692 -0.099870719 -37.361538 -0.099245116 -37.36348 -24.239611 -123.88085
186823000 -24.286261 -132.76907 -0.10093144 -37.564857 -0.099748611 -37.559578 -24.237347 -123.90653
187822000 -24.26053 -133.03993 -0.10083076 -37.759502 -0.10019707 -37.758152 -24.199604 -123.98369
188821000 -24.237398 -133.34517 -0.10097489 -37.953064 -0.10024369 -37.954243 -24.177565 -124.12508
189820000 -24.217136 -133.6404 -0.10120063 -38.151779 -0.1009219 -38.150776 -24.164127 -124.32782
190819000 -24.185822 -133.9393 -0.10153608 -38.349327 -0.10092773 -38.349518 -24.126822 -124.34599
191818000 -24.156637 -134.23111 -0.10141896 -38.546608 -0.10123666 -38.547466 -24.094383 -124.38068
192817000 -24.110811 -134.49281 -0.10218401 -38.745209 -0.10149157 -38.745548 -24.050734 -124.4997
193816000 -24.078249 -134.7796 -0.10238729 -38.938118 -0.10140518 -38.937469 -24.000004 -124.60207
194815000 -24.017895 -135.15886 -0.10243315 -39.138092 -0.10213022 -39.136448 -23.939245 -124.67251
195814000 -23.964815 -135.34105 -0.10359814 -39.333565 -0.1024456 -39.335812 -23.881138 -124.74569
196813000 -23.906631 -135.66771 -0.10295795 -39.52589 -0.10258687 -39.525753 -23.803997 -124.89031
197812000 -23.854748 -135.87007 -0.10327525 -39.724762 -0.10245885 -39.726776 -23.730545 -124.98833
198811000 -23.805292 -136.03925 -0.103227 -39.921776 -0.10272575 -39.924175 -23.662981 -125.15092
199810000 -23.733887 -136.39154 -0.10375005 -40.117672 -0.10272364 -40.112976 -23.589006 -125.25204
200809000 -23.677855 -136.6156 -0.10408809 -40.316006 -0.10333066 -40.31395 -23.509279 -125.41973
201808000 -23.619177 -136.83604 -0.10499018 -40.514107 -0.10394756 -40.517231 -23.448532 -125.48794
202807000 -23.55928 -137.18021 -0.10480402 -40.71315 -0.10413051 -40.721672 -23.393564 -125.67153
