!Keysight Technologies,E5080B,MY59205177,A.15.75.32
!Date: Friday, February 23, 2024 03:03:10
!Correction: S11(Cdelta 2-Port  ) 
!S21(Cdelta 2-Port  ) 
!S12(Cdelta 2-Port  ) 
!S22(Cdelta 2-Port  ) 
!S2P File: Measurements: S11, S21, S12, S22:
# Hz S  dB   R 50
10000000 -44.170513 -3.9355464 -0.027469646 -2.0390794 -0.03008353 -2.0915596 -47.94981 -151.05217
10999000 -43.515823 -5.5804009 -0.028583435 -2.2565119 -0.029954504 -2.3096964 -47.832268 -142.88576
11998000 -42.745647 -8.4067783 -0.028957628 -2.4806015 -0.030287892 -2.5245879 -47.88966 -137.05879
12997000 -42.134052 -12.836074 -0.028374985 -2.6572182 -0.029553121 -2.6896024 -47.227993 -130.84048
13996000 -41.881641 -16.152674 -0.027708011 -2.8394165 -0.029652942 -2.8566794 -46.740498 -125.4221
14995000 -41.533005 -19.892103 -0.029451998 -3.044311 -0.029717058 -3.0690589 -46.310207 -122.18536
15994000 -41.447128 -23.69161 -0.030787366 -3.2663116 -0.031414658 -3.2892888 -46.123001 -118.48496
16993000 -41.427464 -27.876657 -0.029613847 -3.4583368 -0.031191733 -3.4677265 -45.185535 -119.00527
17992000 -41.538807 -32.472641 -0.030834554 -3.6594121 -0.031529646 -3.6647611 -44.590229 -119.75426
18991000 -41.786888 -37.123848 -0.030798577 -3.8690231 -0.032603789 -3.8618765 -43.826668 -119.32186
19990000 -41.61565 -42.087761 -0.033628635 -4.0777125 -0.034659203 -4.0726733 -43.157898 -120.96929
20989000 -41.53857 -44.828979 -0.035522196 -4.2797947 -0.036538333 -4.2731776 -42.621124 -121.10766
21988000 -41.42345 -49.513908 -0.036521364 -4.4800148 -0.037221543 -4.4642143 -42.328491 -120.33398
22987000 -41.221695 -53.881027 -0.037062544 -4.6752796 -0.03807199 -4.6680822 -42.003639 -120.06903
23986000 -41.19175 -57.699764 -0.037092045 -4.8700542 -0.037576117 -4.866416 -41.911648 -120.02825
24985000 -40.893463 -60.287022 -0.03817749 -5.0769076 -0.037459403 -5.0750484 -41.63501 -117.53043
25984000 -40.630844 -62.430305 -0.038677093 -5.2835464 -0.037928104 -5.2846279 -41.320839 -116.30673
26983000 -40.360985 -64.668686 -0.040235281 -5.4811058 -0.038968313 -5.4957705 -41.160744 -115.27517
27982000 -40.208057 -65.560715 -0.041493215 -5.6782174 -0.040714476 -5.7143049 -40.856071 -113.74443
28981000 -40.190285 -66.781189 -0.039072007 -5.8757029 -0.040878311 -5.8997035 -40.624706 -113.0498
29980000 -39.778667 -68.442215 -0.039350454 -6.0689173 -0.040925086 -6.078846 -40.320278 -112.19889
30979000 -39.432724 -67.522461 -0.036860734 -6.4222403 -0.035513844 -6.4095564 -39.811771 -113.00528
31978000 -39.258553 -68.466179 -0.035584573 -6.6180367 -0.036899112 -6.608428 -39.55513 -112.52749
32977000 -39.076965 -70.133377 -0.035583265 -6.8332372 -0.03760745 -6.8241725 -39.290714 -112.83644
33976000 -38.934998 -71.369186 -0.036624737 -7.029119 -0.037453134 -7.0217056 -39.015274 -112.23277
34975000 -38.673882 -72.489517 -0.036564175 -7.2280083 -0.038056582 -7.2286668 -38.762276 -112.11991
35974000 -38.482204 -72.874573 -0.03548409 -7.4223113 -0.03816548 -7.4238248 -38.46719 -111.26936
36973000 -38.263798 -73.847733 -0.036049157 -7.6215477 -0.038988162 -7.6243463 -38.195908 -110.62314
37972000 -38.085281 -73.722031 -0.035112988 -7.8333163 -0.038943239 -7.840754 -37.934097 -109.9025
38971000 -37.76683 -73.569954 -0.037025996 -8.0320587 -0.039064169 -8.0473576 -37.736343 -108.49029
39970000 -37.462486 -74.135284 -0.035191279 -8.2242985 -0.03828143 -8.245739 -37.44791 -107.99754
40969000 -37.162945 -74.016426 -0.035135433 -8.421464 -0.037262276 -8.4376354 -37.201141 -106.63531
41968000 -36.837132 -74.07943 -0.035443638 -8.6261473 -0.03757716 -8.6425619 -36.995182 -105.61382
42967000 -36.581528 -74.56794 -0.035294622 -8.8315897 -0.037352614 -8.8503237 -36.744633 -104.0234
43966000 -36.305378 -75.35479 -0.036372568 -9.0388947 -0.038840327 -9.053298 -36.478004 -103.3281
44965000 -36.08231 -76.220764 -0.036929134 -9.2383738 -0.038902491 -9.2570028 -36.233952 -103.28826
45964000 -35.863838 -77.437248 -0.037901469 -9.437314 -0.040281788 -9.4584446 -35.991608 -103.09926
46963000 -35.679276 -79.32235 -0.037992865 -9.6315689 -0.04152013 -9.6538925 -35.816643 -103.33988
47962000 -35.540634 -80.908478 -0.039400607 -9.8327055 -0.042884052 -9.8491716 -35.623405 -103.53056
48961000 -35.339958 -82.405571 -0.042398866 -10.029362 -0.044211004 -10.049333 -35.393734 -103.80599
49960000 -35.135502 -83.705269 -0.042612698 -10.226608 -0.045154627 -10.251442 -35.226059 -104.06086
50959000 -34.91354 -85.112923 -0.043255556 -10.439467 -0.04617459 -10.448094 -35.07077 -104.43649
51958000 -34.7267 -86.273605 -0.045482643 -10.640787 -0.047303919 -10.648495 -34.891682 -105.00058
52957000 -34.511814 -87.304901 -0.046582747 -10.838544 -0.047802474 -10.846725 -34.730278 -104.85608
53956000 -34.349152 -88.043793 -0.047708254 -11.039083 -0.049186695 -11.04485 -34.594662 -104.82964
54955000 -34.193928 -88.593567 -0.048429351 -11.240939 -0.050218079 -11.239175 -34.433029 -104.825
55954000 -34.049004 -89.516769 -0.049742285 -11.437925 -0.050016705 -11.437333 -34.32822 -104.6172
56953000 -33.929523 -89.543854 -0.049590945 -11.641463 -0.049150564 -11.625468 -34.252354 -104.83649
57952000 -33.77734 -90.200333 -0.050483625 -11.835066 -0.050910257 -11.822179 -34.163712 -104.98987
58951000 -33.656124 -90.494217 -0.051477596 -12.043648 -0.052202724 -12.020176 -34.002884 -105.037
59950000 -33.531574 -90.947113 -0.051948339 -12.240211 -0.052893385 -12.217665 -33.928879 -105.33594
60949000 -33.424587 -91.510223 -0.052743766 -12.441663 -0.053639714 -12.420783 -33.835991 -105.66621
61948000 -33.366642 -91.751411 -0.052653633 -12.640273 -0.052395552 -12.618908 -33.752567 -105.66503
62947000 -33.28035 -91.933571 -0.052762896 -12.851438 -0.053582057 -12.829931 -33.620136 -105.94425
63946000 -33.20863 -92.669235 -0.053995106 -13.048721 -0.053775471 -13.032116 -33.511108 -106.18419
64945000 -33.121658 -92.894623 -0.054698635 -13.248583 -0.054346591 -13.234226 -33.409985 -106.6449
65944000 -33.01741 -93.195709 -0.055184405 -13.447453 -0.055128042 -13.431439 -33.31348 -107.11463
66943000 -32.871212 -93.591667 -0.052739836 -13.648522 -0.054330867 -13.632406 -33.213932 -107.41674
67942000 -32.807514 -93.608208 -0.054946363 -13.844205 -0.056055948 -13.834379 -33.100334 -107.75797
68941000 -32.700459 -93.673042 -0.055064861 -14.0391 -0.054320119 -14.028996 -32.980545 -107.6995
69940000 -32.6092 -93.677956 -0.055436358 -14.23619 -0.055194106 -14.226389 -32.850231 -107.98705
70939000 -32.497658 -93.723564 -0.054610819 -14.432728 -0.055182308 -14.430179 -32.722496 -107.90434
71938000 -32.358295 -93.316635 -0.054805588 -14.628021 -0.054959472 -14.618818 -32.582687 -107.76965
72937000 -32.205437 -93.188705 -0.054228116 -14.825638 -0.054595612 -14.820585 -32.436089 -107.57652
73936000 -32.067005 -92.891716 -0.05425328 -15.027772 -0.053550608 -15.020322 -32.325928 -107.43388
74935000 -31.946577 -93.175209 -0.053518899 -15.218902 -0.0529547 -15.21779 -32.167797 -107.0741
75934000 -31.813828 -93.462982 -0.053434514 -15.431657 -0.053284355 -15.421926 -32.084366 -107.04357
76933000 -31.694067 -93.880722 -0.054767575 -15.625687 -0.054360222 -15.614788 -31.917896 -107.38496
77932000 -31.593317 -94.680695 -0.05609633 -15.818333 -0.056568097 -15.813188 -31.81212 -107.46457
78931000 -31.538984 -95.399803 -0.054592207 -16.019169 -0.055349577 -16.013794 -31.716928 -107.34094
79930000 -31.416553 -96.275444 -0.057044376 -16.21076 -0.058112521 -16.207672 -31.6243 -107.67331
80929000 -31.290592 -97.187706 -0.058917213 -16.406574 -0.059481926 -16.403587 -31.512455 -108.00371
81928000 -31.21629 -98.039284 -0.058402162 -16.597237 -0.058966018 -16.593954 -31.395983 -108.08837
82927000 -31.113894 -98.754387 -0.061198816 -16.798935 -0.060883261 -16.791393 -31.291353 -108.37794
83926000 -31.001753 -99.453796 -0.061814763 -16.994089 -0.062429484 -16.992031 -31.173388 -108.64394
84925000 -30.898838 -99.930275 -0.062872 -17.194162 -0.062248025 -17.19009 -31.076834 -108.69414
85924000 -30.81691 -100.39476 -0.063643426 -17.3916 -0.063849375 -17.392551 -31.002649 -108.73709
86923000 -30.715139 -100.93811 -0.064094998 -17.5917 -0.064120479 -17.583029 -30.898081 -108.61768
87922000 -30.600576 -101.29591 -0.06351734 -17.794044 -0.063441426 -17.789234 -30.812943 -108.70451
88921000 -30.539989 -101.59063 -0.064200342 -17.991865 -0.064440995 -17.990522 -30.723661 -108.63985
89920000 -30.439304 -102.1633 -0.065013789 -18.191084 -0.065423191 -18.184505 -30.670698 -108.84378
90919000 -30.346062 -102.4351 -0.066475525 -18.386574 -0.06539008 -18.384222 -30.581812 -109.00667
91918000 -30.242189 -102.85674 -0.067190543 -18.587605 -0.066068389 -18.5774 -30.522511 -109.07313
92917000 -30.164127 -103.17057 -0.067376941 -18.786404 -0.066610105 -18.782784 -30.441257 -109.19537
93916000 -30.077435 -103.51291 -0.067315683 -18.978708 -0.066885069 -18.974678 -30.369226 -109.83337
94915000 -29.998507 -104.16988 -0.068635397 -19.176836 -0.067733459 -19.174204 -30.314575 -109.63692
95914000 -29.936411 -104.38432 -0.069784522 -19.374414 -0.068743482 -19.36949 -30.221067 -109.89048
96913000 -29.85288 -104.64544 -0.071099982 -19.575922 -0.070340119 -19.572903 -30.159592 -110.25884
97912000 -29.785191 -105.1114 -0.071483649 -19.76964 -0.069918156 -19.770117 -30.082109 -110.56059
98911000 -29.679594 -105.29457 -0.072281085 -19.972652 -0.071233653 -19.96628 -30.040415 -110.77028
99910000 -29.616816 -105.47073 -0.073008642 -20.166178 -0.071675226 -20.165997 -29.931751 -111.04248
100909000 -29.527729 -105.7541 -0.07185287 -20.376652 -0.070850544 -20.367584 -29.838158 -111.30181
101908000 -29.441872 -105.98178 -0.07370156 -20.574036 -0.072535604 -20.568405 -29.724314 -111.04292
102907000 -29.305758 -105.98045 -0.074208692 -20.775295 -0.072381362 -20.771521 -29.659149 -110.97602
103906000 -29.214508 -106.05928 -0.073812671 -20.980028 -0.071519703 -20.978868 -29.515249 -111.01186
104905000 -29.067656 -106.00594 -0.074997142 -21.176144 -0.072241075 -21.176487 -29.382837 -110.70543
105904000 -28.927162 -106.09698 -0.074703231 -21.376068 -0.071841024 -21.373699 -29.274748 -110.55725
106903000 -28.821659 -106.21988 -0.074717984 -21.589628 -0.072865963 -21.579889 -29.145033 -110.45332
107902000 -28.658339 -106.62445 -0.075340062 -21.784109 -0.073920101 -21.778858 -29.005753 -110.43629
108901000 -28.556276 -106.8491 -0.076213554 -21.98847 -0.074814372 -21.980251 -28.876753 -110.39417
109900000 -28.415936 -107.35583 -0.07699921 -22.185577 -0.075765193 -22.178064 -28.726398 -110.42672
110899000 -28.311069 -107.96561 -0.078837179 -22.384235 -0.076451972 -22.373453 -28.592875 -110.75253
111898000 -28.216627 -108.6396 -0.080052286 -22.587278 -0.077323049 -22.577797 -28.485064 -110.88515
112897000 -28.094021 -109.1897 -0.08147452 -22.78319 -0.078395665 -22.771894 -28.346182 -111.0681
113896000 -28.00005 -109.80667 -0.082639448 -22.9841 -0.079999022 -22.971001 -28.236292 -111.23154
114895000 -27.885344 -110.43076 -0.083190367 -23.182688 -0.08180397 -23.166231 -28.123709 -111.26466
115894000 -27.756016 -110.76772 -0.084843799 -23.380623 -0.082225248 -23.37002 -28.057535 -111.45937
116893000 -27.679499 -111.34741 -0.084687538 -23.57979 -0.083599903 -23.562712 -27.927963 -111.62839
117892000 -27.601908 -111.8361 -0.084800772 -23.775452 -0.083488017 -23.759739 -27.863367 -111.83182
118891000 -27.542459 -112.21705 -0.086138487 -23.975855 -0.083870664 -23.957777 -27.764511 -111.92326
119890000 -27.450214 -112.62424 -0.086551733 -24.174536 -0.084456317 -24.15925 -27.750002 -112.09822
120889000 -27.403065 -113.13267 -0.087514646 -24.377808 -0.084871516 -24.362648 -27.673605 -112.078
121888000 -27.363586 -113.47141 -0.087487705 -24.570433 -0.085397638 -24.555367 -27.619368 -112.36969
122887000 -27.324642 -113.64803 -0.088488862 -24.772518 -0.085875504 -24.760002 -27.575045 -112.35805
123886000 -27.268835 -114.08993 -0.089130886 -24.974894 -0.08639092 -24.954338 -27.561708 -112.54798
124885000 -27.236025 -114.58611 -0.09021382 -25.172743 -0.086903229 -25.15801 -27.531443 -112.63594
125884000 -27.17922 -114.7896 -0.090491071 -25.372858 -0.087267429 -25.356131 -27.503275 -112.78898
126883000 -27.163555 -115.17126 -0.090333551 -25.572367 -0.087713271 -25.558748 -27.463184 -112.81546
127882000 -27.113054 -115.48223 -0.091032147 -25.775911 -0.088491768 -25.758463 -27.422792 -112.98677
128881000 -27.075197 -115.82479 -0.090815134 -25.974463 -0.088124298 -25.957186 -27.382839 -113.10551
129880000 -27.021679 -116.10654 -0.091826841 -26.176226 -0.087994859 -26.155235 -27.335091 -113.08809
130879000 -26.958584 -116.24628 -0.091502443 -26.37598 -0.089140132 -26.356489 -27.264545 -113.17438
131878000 -26.897348 -116.4644 -0.092095993 -26.576185 -0.088971294 -26.559736 -27.202971 -113.09226
132877000 -26.828482 -116.5583 -0.091473363 -26.781591 -0.089644045 -26.761051 -27.122507 -113.10484
133876000 -26.751318 -116.71311 -0.092347719 -26.980167 -0.089608632 -26.965004 -27.028048 -112.97633
134875000 -26.645647 -116.81664 -0.091973841 -27.173876 -0.090070575 -27.159952 -26.921339 -112.84769
135874000 -26.574385 -116.88412 -0.092099965 -27.380346 -0.090021156 -27.36076 -26.825706 -112.85531
136873000 -26.455254 -116.80632 -0.092841424 -27.580074 -0.089561857 -27.560894 -26.744078 -112.86144
137872000 -26.381357 -116.94728 -0.092588879 -27.78002 -0.0899942 -27.762642 -26.635653 -112.77271
138871000 -26.31181 -117.10069 -0.092988729 -27.983322 -0.090600498 -27.964523 -26.535458 -112.95969
139870000 -26.208862 -117.36759 -0.094341926 -28.179676 -0.091397226 -28.160204 -26.456015 -113.10696
140869000 -26.124861 -117.84326 -0.095649503 -28.378847 -0.092606865 -28.357649 -26.350359 -113.26691
141868000 -26.029394 -118.33713 -0.095248349 -28.569281 -0.093783513 -28.549927 -26.280432 -113.57713
142867000 -25.952221 -118.5602 -0.093666598 -28.767443 -0.092110537 -28.748184 -26.197842 -113.84141
143866000 -25.88867 -119.07211 -0.095380656 -28.962803 -0.093426168 -28.946526 -26.132034 -114.29655
144865000 -25.826307 -119.61043 -0.097033709 -29.164341 -0.094881102 -29.144058 -26.073284 -114.61306
145864000 -25.77212 -119.95072 -0.097677529 -29.359432 -0.096111298 -29.350313 -26.034153 -114.87915
146863000 -25.726341 -120.29425 -0.098132387 -29.561731 -0.096208423 -29.546654 -25.987366 -115.13911
147862000 -25.686382 -120.67117 -0.099229224 -29.757612 -0.096184604 -29.747456 -25.951372 -115.51009
148861000 -25.64999 -121.135 -0.099044897 -29.956032 -0.097197302 -29.940678 -25.931152 -115.79047
149860000 -25.634502 -121.35092 -0.10036343 -30.153715 -0.097503588 -30.141844 -25.895483 -115.8894
150859000 -25.616888 -121.75092 -0.10057006 -30.355461 -0.098136358 -30.344505 -25.889969 -116.1689
151858000 -25.595345 -122.02495 -0.099922635 -30.553093 -0.09842021 -30.539125 -25.878325 -116.42181
152857000 -25.578064 -122.37724 -0.10066703 -30.747412 -0.09865164 -30.738935 -25.86544 -116.59259
153856000 -25.578377 -122.58569 -0.099904627 -30.94813 -0.097849354 -30.933426 -25.876984 -116.87675
154855000 -25.568672 -122.73291 -0.10016078 -31.147831 -0.098019592 -31.133272 -25.868252 -117.09364
155854000 -25.582352 -122.97066 -0.10079525 -31.348555 -0.099137329 -31.330835 -25.863617 -117.37415
156853000 -25.560759 -123.68188 -0.098653495 -31.531725 -0.097767539 -31.526773 -25.854227 -117.63743
157852000 -25.570333 -123.94128 -0.1003372 -31.737297 -0.099321388 -31.725935 -25.839983 -118.00638
158851000 -25.569595 -124.1429 -0.10047522 -31.932051 -0.099763706 -31.922768 -25.829494 -118.25163
159850000 -25.548983 -124.29756 -0.10105702 -32.13102 -0.10025375 -32.125114 -25.828548 -118.41592
160849000 -25.53442 -124.41154 -0.1018244 -32.327652 -0.10126846 -32.324432 -25.802082 -118.68377
161848000 -25.514038 -124.51501 -0.10191555 -32.530617 -0.10041588 -32.522186 -25.761528 -118.81859
162847000 -25.471001 -124.70641 -0.1017592 -32.726521 -0.1006514 -32.723072 -25.731558 -119.07214
163846000 -25.429281 -124.92163 -0.10212439 -32.926956 -0.10099687 -32.92033 -25.650776 -119.09275
164845000 -25.369642 -124.93246 -0.10261258 -33.125847 -0.10178252 -33.119633 -25.584301 -119.17148
165844000 -25.316952 -125.03832 -0.1023327 -33.32407 -0.10181141 -33.317009 -25.511829 -119.33828
166843000 -25.253338 -125.0977 -0.10266453 -33.522228 -0.10167865 -33.516384 -25.435341 -119.47105
167842000 -25.196274 -125.22907 -0.10267354 -33.721272 -0.10197598 -33.717102 -25.359606 -119.43211
168841000 -25.117844 -125.44417 -0.10325033 -33.921188 -0.10226431 -33.912868 -25.276396 -119.50308
169840000 -25.051098 -125.71018 -0.10306822 -34.11454 -0.10318884 -34.111546 -25.191156 -119.683
170839000 -24.996908 -125.96609 -0.10473295 -34.312675 -0.10331979 -34.315712 -25.107059 -119.91171
171838000 -24.933748 -126.39552 -0.10363472 -34.517063 -0.10400006 -34.508083 -25.044384 -120.13332
172837000 -24.865988 -126.74797 -0.10524319 -34.708401 -0.10492574 -34.705338 -24.976778 -120.35464
173836000 -24.798771 -127.16269 -0.10642777 -34.908001 -0.10614738 -34.905636 -24.933908 -120.58172
174835000 -24.744987 -127.59989 -0.10680184 -35.102314 -0.10664107 -35.103237 -24.886877 -120.9428
175834000 -24.691128 -127.97617 -0.10757288 -35.300228 -0.10721441 -35.296619 -24.824699 -121.2057
176833000 -24.640724 -128.38463 -0.10858823 -35.49823 -0.10820553 -35.498154 -24.773848 -121.38956
177832000 -24.598516 -128.82793 -0.10910529 -35.693394 -0.10824746 -35.696877 -24.747614 -121.5491
178831000 -24.55625 -129.22252 -0.1093511 -35.89312 -0.10826869 -35.889629 -24.707182 -121.75155
179830000 -24.522848 -129.64322 -0.10986878 -36.090221 -0.10853807 -36.087761 -24.685522 -121.88573
180829000 -24.477737 -129.86836 -0.11020384 -36.290047 -0.10916343 -36.284359 -24.65127 -122.04876
181828000 -24.45874 -130.22713 -0.11038652 -36.485493 -0.10947932 -36.47876 -24.63446 -122.17216
182827000 -24.428072 -130.53006 -0.1095072 -36.67606 -0.10969223 -36.677826 -24.623575 -122.21664
183826000 -24.390598 -130.85399 -0.11080049 -36.878349 -0.10964417 -36.871952 -24.614504 -122.37621
184825000 -24.397102 -131.15982 -0.11111491 -37.066822 -0.11092822 -37.070171 -24.597939 -122.48859
185824000 -24.370813 -131.52449 -0.11077951 -37.262074 -0.11097389 -37.265041 -24.593361 -122.51656
186823000 -24.353296 -131.88658 -0.11145565 -37.468555 -0.11066851 -37.464928 -24.592134 -122.49451
187822000 -24.333916 -132.1906 -0.11164422 -37.658848 -0.11126815 -37.662159 -24.555468 -122.5583
188821000 -24.315332 -132.43436 -0.11104055 -37.856491 -0.11189257 -37.860199 -24.545082 -122.66679
189820000 -24.300419 -132.69957 -0.11254842 -38.058338 -0.11167875 -38.054596 -24.535116 -122.83057
190819000 -24.269884 -132.94398 -0.11344908 -38.255199 -0.11289697 -38.254784 -24.501608 -122.81291
191818000 -24.232811 -133.13565 -0.11479964 -38.450577 -0.11402359 -38.450619 -24.466579 -122.69363
192817000 -24.164427 -133.41563 -0.11523476 -38.636189 -0.11439352 -38.639782 -24.396891 -122.77661
193816000 -24.128674 -133.78195 -0.11487406 -38.830193 -0.1130338 -38.829567 -24.341549 -123.04201
194815000 -24.068916 -134.23857 -0.1136388 -39.023602 -0.1139715 -39.027596 -24.27553 -123.14804
195814000 -24.018642 -134.44954 -0.11453439 -39.225403 -0.11393324 -39.226067 -24.224882 -123.24146
196813000 -23.967783 -134.78793 -0.11426808 -39.421539 -0.11388221 -39.421246 -24.147451 -123.40798
197812000 -23.91054 -135.02679 -0.1148613 -39.617031 -0.11432867 -39.618046 -24.078506 -123.52031
198811000 -23.858841 -135.20581 -0.11404857 -39.809998 -0.11339647 -39.817375 -24.010212 -123.71128
199810000 -23.787653 -135.56996 -0.11508404 -40.009277 -0.11345387 -40.004704 -23.929842 -123.80653
200809000 -23.729307 -135.8725 -0.11465478 -40.20723 -0.11373075 -40.202896 -23.851061 -123.99216
201808000 -23.672901 -136.05841 -0.11612774 -40.405231 -0.11496815 -40.406521 -23.783148 -124.07983
202807000 -23.61414 -136.42686 -0.11602619 -40.604435 -0.11568003 -40.606956 -23.730026 -124.29155
203806000 -23.560818 -136.89809 -0.11746371 -40.804546 -0.11569173 -40.8083 -23.664177 -124.48273
