!Keysight Technologies,E5080B,MY59205177,A.15.75.32
!Date: Friday, February 23, 2024 03:41:30
!Correction: S11(Cdelta 2-Port  ) 
!S21(Cdelta 2-Port  ) 
!S12(Cdelta 2-Port  ) 
!S22(Cdelta 2-Port  ) 
!S2P File: Measurements: S11, S21, S12, S22:
# Hz S  dB   R 50
10000000 -46.069031 -2.9757698 -0.014847398 -2.0417447 -0.018269602 -2.0933146 -45.926693 -157.34755
10999000 -45.296093 -4.8304448 -0.016114363 -2.2617068 -0.017902048 -2.314537 -45.842518 -151.18941
11998000 -44.351055 -7.9310493 -0.016589085 -2.4857867 -0.017585466 -2.5282657 -45.983715 -146.91832
12997000 -43.602036 -13.792541 -0.015654763 -2.6638892 -0.017696969 -2.6993525 -45.585136 -140.87837
13996000 -43.232262 -17.424585 -0.015023509 -2.8475866 -0.017297495 -2.8667502 -45.405441 -136.28807
14995000 -42.928509 -21.750845 -0.017182363 -3.0528255 -0.016734084 -3.0793145 -45.044678 -132.76283
15994000 -42.777458 -26.37528 -0.018275062 -3.2750764 -0.020025406 -3.2927687 -44.93177 -129.22067
16993000 -42.704727 -31.000031 -0.017194839 -3.4720123 -0.019216707 -3.4802797 -44.082836 -129.18358
17992000 -42.67664 -36.475163 -0.018353567 -3.6690288 -0.0200847 -3.6707828 -43.504471 -129.15154
18991000 -42.934399 -41.773708 -0.018876111 -3.8814018 -0.020735158 -3.8789175 -42.867867 -127.92063
19990000 -42.697826 -47.346985 -0.021593306 -4.0912743 -0.02207461 -4.0844612 -42.225433 -128.59163
20989000 -42.568008 -50.809551 -0.024099013 -4.2972779 -0.024161225 -4.2834883 -41.686607 -128.30367
21988000 -42.399757 -55.871975 -0.024533736 -4.4932842 -0.024878943 -4.4797525 -41.442574 -127.3083
22987000 -41.991405 -60.746277 -0.024850305 -4.6874104 -0.026007432 -4.6765299 -41.181095 -126.82072
23986000 -41.945244 -64.951065 -0.024435855 -4.8848429 -0.024942467 -4.8817596 -41.022533 -126.8575
24985000 -41.529739 -67.879128 -0.025555637 -5.097858 -0.025636358 -5.0893126 -40.8195 -124.27211
25984000 -41.164474 -69.894447 -0.026673103 -5.299511 -0.025683489 -5.2970138 -40.500954 -122.66445
26983000 -40.865433 -71.661209 -0.027941702 -5.4982538 -0.026724933 -5.5157418 -40.349064 -122.19385
27982000 -40.702091 -72.476044 -0.029004795 -5.7002072 -0.02825018 -5.7310858 -40.073566 -120.52953
28981000 -40.622402 -74.13295 -0.026886681 -5.8975339 -0.028319227 -5.9249978 -39.850658 -119.83029
29980000 -40.215466 -75.426941 -0.026527511 -6.088057 -0.028392442 -6.0948987 -39.601063 -118.98162
30979000 -39.859531 -74.374702 -0.025085403 -6.4426498 -0.022997303 -6.4354277 -39.107079 -119.33762
31978000 -39.643593 -75.495621 -0.023557883 -6.6385293 -0.02435906 -6.6293135 -38.849037 -118.64204
32977000 -39.436134 -76.938698 -0.023822844 -6.8477592 -0.024780013 -6.8454285 -38.623108 -118.67562
33976000 -39.296341 -77.988724 -0.024781834 -7.049386 -0.024309862 -7.0453229 -38.335033 -118.14443
34975000 -38.984459 -78.67189 -0.024233852 -7.2475653 -0.026152486 -7.2492938 -38.126637 -117.74903
35974000 -38.773159 -79.253578 -0.023283569 -7.4423451 -0.025133569 -7.4461255 -37.85239 -116.87609
36973000 -38.558147 -80.01638 -0.024053982 -7.6416936 -0.026591061 -7.6494541 -37.584206 -115.88947
37972000 -38.361568 -79.72554 -0.024280446 -7.8566599 -0.0258603 -7.8637257 -37.384373 -115.23196
38971000 -38.05426 -79.190125 -0.025010681 -8.0569553 -0.026844485 -8.0674276 -37.219013 -113.68984
39970000 -37.736366 -79.526619 -0.023063142 -8.2467289 -0.025634795 -8.2648087 -36.95956 -113.16473
40969000 -37.461773 -79.113739 -0.023281228 -8.4421101 -0.025332229 -8.4646864 -36.716534 -111.73329
41968000 -37.116394 -79.072609 -0.023505049 -8.6486788 -0.025889205 -8.6691799 -36.55217 -110.53368
42967000 -36.870346 -79.066406 -0.023400685 -8.8604717 -0.025376493 -8.8811359 -36.331356 -108.74416
43966000 -36.571636 -79.678833 -0.024698526 -9.0620222 -0.027222957 -9.0763397 -36.07682 -107.91446
44965000 -36.341438 -80.530167 -0.025194233 -9.2651939 -0.026641589 -9.2840481 -35.859863 -107.68502
45964000 -36.100616 -81.507507 -0.02650902 -9.4661808 -0.028558942 -9.4843645 -35.641922 -107.38641
46963000 -35.89901 -83.361969 -0.026471255 -9.6546249 -0.02862226 -9.6806593 -35.448326 -107.61861
47962000 -35.739719 -84.714302 -0.027689254 -9.8584833 -0.030301707 -9.8749838 -35.256039 -107.68191
48961000 -35.520588 -86.193504 -0.029535919 -10.057429 -0.031475671 -10.079305 -35.010494 -107.84072
49960000 -35.300503 -87.488266 -0.030888258 -10.255994 -0.03304667 -10.281743 -34.880363 -107.94463
50959000 -35.074181 -88.726135 -0.03168688 -10.471352 -0.03401709 -10.484107 -34.708344 -108.29662
51958000 -34.872631 -89.826233 -0.03389734 -10.670129 -0.035030786 -10.677477 -34.526871 -108.61414
52957000 -34.653637 -90.846046 -0.035161007 -10.871622 -0.035966676 -10.875951 -34.362293 -108.41261
53956000 -34.476688 -91.52832 -0.036256932 -11.068583 -0.036727857 -11.07185 -34.213505 -108.45393
54955000 -34.319332 -91.917542 -0.036488995 -11.272448 -0.03795892 -11.266791 -34.087734 -108.26816
55954000 -34.130486 -92.908653 -0.037667245 -11.473912 -0.038247216 -11.472025 -33.957195 -108.12681
56953000 -34.011189 -92.889389 -0.037595175 -11.670434 -0.036390841 -11.661205 -33.895332 -108.24583
57952000 -33.849804 -93.419014 -0.039186675 -11.866898 -0.038374923 -11.859949 -33.812943 -108.35889
58951000 -33.738918 -93.812134 -0.040088974 -12.074698 -0.03957171 -12.055545 -33.644039 -108.43345
59950000 -33.594223 -94.190437 -0.041141719 -12.272898 -0.040011901 -12.248641 -33.573009 -108.67265
60949000 -33.475605 -94.805862 -0.041037973 -12.476253 -0.040555611 -12.455457 -33.455017 -108.89071
61948000 -33.419853 -95.10125 -0.041069072 -12.674544 -0.040114578 -12.659535 -33.382893 -108.99466
62947000 -33.322449 -95.228477 -0.040993813 -12.88768 -0.040636349 -12.863151 -33.240448 -109.26206
63946000 -33.249062 -96.013046 -0.042759351 -13.084215 -0.041880284 -13.067962 -33.131844 -109.44157
64945000 -33.139355 -96.137398 -0.043229152 -13.284868 -0.042984441 -13.266226 -33.0145 -109.94148
65944000 -33.016945 -96.477173 -0.044266444 -13.485791 -0.042370636 -13.470265 -32.924511 -110.30896
66943000 -32.872063 -96.855034 -0.041656818 -13.6853 -0.041224297 -13.669925 -32.813351 -110.55602
67942000 -32.825714 -96.848091 -0.04394009 -13.882972 -0.043395173 -13.873012 -32.696491 -110.86188
68941000 -32.716591 -96.912262 -0.043250851 -14.074389 -0.042177729 -14.067163 -32.584126 -110.87589
69940000 -32.619293 -96.870216 -0.043464459 -14.274981 -0.043001436 -14.266644 -32.440712 -111.09448
70939000 -32.511147 -96.822357 -0.043289285 -14.475408 -0.042438339 -14.467193 -32.312096 -111.03458
71938000 -32.366577 -96.416656 -0.043465767 -14.669449 -0.042242032 -14.659965 -32.194389 -110.90589
72937000 -32.208069 -96.208191 -0.043831047 -14.86571 -0.042237327 -14.863997 -32.046127 -110.59819
73936000 -32.074802 -95.849457 -0.043614022 -15.067382 -0.040710296 -15.062336 -31.929039 -110.36301
74935000 -31.955067 -96.053154 -0.042189755 -15.261011 -0.040009029 -15.259869 -31.775803 -110.07422
75934000 -31.834833 -96.284286 -0.042296138 -15.468079 -0.040564753 -15.461279 -31.69451 -109.96848
76933000 -31.700809 -96.704056 -0.043447465 -15.665799 -0.04239364 -15.654471 -31.517618 -110.25629
77932000 -31.598284 -97.44944 -0.044239771 -15.862515 -0.043972515 -15.856322 -31.431612 -110.29965
78931000 -31.527664 -98.116562 -0.043167971 -16.061447 -0.042519372 -16.058388 -31.324213 -110.16473
79930000 -31.413029 -99.024513 -0.045509849 -16.25445 -0.045088191 -16.252913 -31.224815 -110.43013
80929000 -31.300327 -99.753647 -0.047138792 -16.451355 -0.046719592 -16.450449 -31.124889 -110.71249
81928000 -31.204275 -100.5315 -0.047328778 -16.645063 -0.047273036 -16.64077 -30.992386 -110.63885
82927000 -31.106831 -101.22891 -0.049250837 -16.842527 -0.048554212 -16.839941 -30.892611 -111.01483
83926000 -30.990587 -101.90189 -0.050329898 -17.040363 -0.049193241 -17.043308 -30.762224 -111.11122
84925000 -30.890991 -102.31464 -0.05186896 -17.238783 -0.049835503 -17.234743 -30.678675 -111.18594
85924000 -30.800453 -102.71675 -0.052112337 -17.442965 -0.050736874 -17.435938 -30.593275 -111.14095
86923000 -30.685034 -103.25113 -0.051618788 -17.638357 -0.051083121 -17.635265 -30.49391 -110.97781
87922000 -30.571486 -103.59749 -0.05215897 -17.843796 -0.050853159 -17.836779 -30.407867 -111.09409
88921000 -30.505545 -103.82163 -0.053404637 -18.04217 -0.052368566 -18.034872 -30.31905 -111.0284
89920000 -30.402927 -104.40024 -0.053893935 -18.241102 -0.05218517 -18.231958 -30.256351 -111.23159
90919000 -30.292421 -104.66148 -0.054932993 -18.439724 -0.053206261 -18.435223 -30.182049 -111.32323
91918000 -30.199125 -105.00151 -0.055520523 -18.63899 -0.054020006 -18.631811 -30.112167 -111.35468
92917000 -30.103632 -105.30164 -0.056282513 -18.83963 -0.055522881 -18.833069 -30.043425 -111.51446
93916000 -30.020666 -105.69784 -0.056406029 -19.031393 -0.054989357 -19.029249 -29.948805 -112.07436
94915000 -29.94367 -106.23915 -0.057597827 -19.232592 -0.055984885 -19.22818 -29.899307 -111.92522
95914000 -29.873747 -106.47536 -0.058194112 -19.427404 -0.056607962 -19.428774 -29.7992 -112.18784
96913000 -29.793062 -106.69692 -0.059439674 -19.625553 -0.057876155 -19.621096 -29.737829 -112.5477
97912000 -29.714201 -107.14806 -0.060864624 -19.821413 -0.057719283 -19.822899 -29.657629 -112.78974
98911000 -29.605801 -107.29794 -0.061104041 -20.025148 -0.059348349 -20.020956 -29.622719 -113.04397
99910000 -29.541845 -107.44514 -0.061374452 -20.223614 -0.0595764 -20.221409 -29.509253 -113.33081
100909000 -29.447464 -107.64616 -0.060921852 -20.435106 -0.05841187 -20.429037 -29.42104 -113.48541
101908000 -29.355742 -107.8654 -0.062232267 -20.632029 -0.060629416 -20.631584 -29.318306 -113.27795
102907000 -29.230387 -107.89658 -0.062614098 -20.830675 -0.060585842 -20.831532 -29.247744 -113.26146
103906000 -29.129652 -107.90871 -0.063026167 -21.03899 -0.060340155 -21.03521 -29.103956 -113.21966
104905000 -28.9828 -107.81672 -0.063571714 -21.235596 -0.060714729 -21.237543 -28.975971 -112.8814
105904000 -28.841251 -107.88893 -0.0636274 -21.440641 -0.060703442 -21.42938 -28.862688 -112.80318
106903000 -28.732073 -107.98769 -0.063798413 -21.644783 -0.061237931 -21.636688 -28.738674 -112.65899
107902000 -28.570623 -108.26346 -0.064336434 -21.846394 -0.061115593 -21.837624 -28.601925 -112.62524
108901000 -28.470173 -108.48769 -0.065391392 -22.048979 -0.062443927 -22.041689 -28.475508 -112.57896
109900000 -28.342896 -108.95631 -0.066413492 -22.246998 -0.064106293 -22.235516 -28.333242 -112.62714
110899000 -28.219355 -109.56643 -0.068175457 -22.445393 -0.064183265 -22.437494 -28.208025 -112.93421
111898000 -28.134983 -110.21082 -0.06901332 -22.646467 -0.06538824 -22.639811 -28.086708 -113.03938
112897000 -28.007074 -110.75249 -0.071025513 -22.847055 -0.066282071 -22.833635 -27.958969 -113.17405
113896000 -27.90732 -111.27596 -0.071713127 -23.047621 -0.067509182 -23.035048 -27.846542 -113.32979
114895000 -27.806234 -111.9267 -0.072708547 -23.243143 -0.068855517 -23.231226 -27.730776 -113.4231
115894000 -27.678141 -112.29608 -0.073613361 -23.444487 -0.070585325 -23.43273 -27.676365 -113.58946
116893000 -27.605396 -112.77617 -0.074917607 -23.644629 -0.071714178 -23.627464 -27.548286 -113.67411
117892000 -27.5245 -113.31246 -0.074362472 -23.84103 -0.071781814 -23.824345 -27.470705 -113.86665
118891000 -27.468916 -113.72136 -0.074773811 -24.037821 -0.072160013 -24.025169 -27.379223 -113.98679
119890000 -27.379219 -114.029 -0.07567168 -24.237713 -0.072320037 -24.22385 -27.360886 -114.09126
120889000 -27.330797 -114.54208 -0.076603197 -24.440147 -0.072213441 -24.427162 -27.294176 -114.04093
121888000 -27.287945 -114.92595 -0.077393666 -24.641407 -0.073498838 -24.623354 -27.236652 -114.32141
122887000 -27.246363 -115.11504 -0.077907287 -24.839874 -0.074671894 -24.829498 -27.189842 -114.38594
123886000 -27.194113 -115.52193 -0.078039326 -25.044867 -0.074824378 -25.023319 -27.176826 -114.48341
124885000 -27.16398 -116.03862 -0.078964233 -25.246164 -0.075151481 -25.22835 -27.151592 -114.54874
125884000 -27.116367 -116.19202 -0.079237342 -25.437479 -0.074698493 -25.428122 -27.117458 -114.67912
126883000 -27.093903 -116.58946 -0.079612762 -25.645277 -0.075954854 -25.626694 -27.082218 -114.68816
127882000 -27.046658 -116.8882 -0.080050707 -25.843294 -0.076230146 -25.824991 -27.044031 -114.81817
128881000 -27.014141 -117.20882 -0.080585204 -26.045982 -0.075935103 -26.025948 -27.00239 -114.91428
129880000 -26.957136 -117.55061 -0.081039332 -26.246675 -0.076244377 -26.227833 -26.967361 -114.86161
130879000 -26.900187 -117.67102 -0.081179909 -26.445749 -0.077119887 -26.431278 -26.894886 -114.89008
131878000 -26.83614 -117.88411 -0.080629244 -26.649424 -0.077374697 -26.630682 -26.836218 -114.7588
132877000 -26.772354 -117.95084 -0.080664322 -26.851242 -0.077925473 -26.8316 -26.754053 -114.73015
133876000 -26.687357 -118.12292 -0.081256658 -27.054321 -0.077564694 -27.033403 -26.668051 -114.62526
134875000 -26.59503 -118.27174 -0.081049621 -27.253021 -0.077606857 -27.233511 -26.571402 -114.45658
135874000 -26.510754 -118.24143 -0.081486128 -27.446592 -0.078504525 -27.436169 -26.476055 -114.40283
136873000 -26.398359 -118.21597 -0.081851453 -27.655815 -0.077807672 -27.639235 -26.39263 -114.33539
137872000 -26.321369 -118.3204 -0.081087336 -27.856239 -0.077715166 -27.839779 -26.297873 -114.286
138871000 -26.253704 -118.5407 -0.081805557 -28.052677 -0.078263879 -28.040714 -26.196278 -114.44842
139870000 -26.152695 -118.81995 -0.082364544 -28.257158 -0.079193056 -28.236563 -26.119381 -114.61361
140869000 -26.076769 -119.36857 -0.083243668 -28.453823 -0.07917513 -28.435572 -26.019535 -114.83638
141868000 -25.990488 -119.76 -0.083322302 -28.650267 -0.081217363 -28.637283 -25.969629 -115.10387
142867000 -25.918964 -119.94444 -0.083370857 -28.851723 -0.080022223 -28.832489 -25.890781 -115.17349
143866000 -25.847345 -120.40661 -0.085063688 -29.046637 -0.081634097 -29.032675 -25.816961 -115.67287
144865000 -25.790407 -120.93999 -0.086514764 -29.244696 -0.083729215 -29.229485 -25.76037 -115.96458
145864000 -25.734352 -121.25104 -0.087162837 -29.443642 -0.084015287 -29.435268 -25.72226 -116.22517
146863000 -25.685005 -121.62824 -0.088409074 -29.646727 -0.084758542 -29.634787 -25.674604 -116.51487
147862000 -25.649778 -121.94823 -0.089108951 -29.846251 -0.085208088 -29.832399 -25.651688 -116.82346
148861000 -25.612656 -122.39571 -0.089682363 -30.044233 -0.086540118 -30.025816 -25.624466 -117.0014
149860000 -25.582783 -122.56727 -0.090425 -30.235872 -0.087211438 -30.221603 -25.576151 -117.0659
150859000 -25.5504 -123.03791 -0.08993315 -30.433493 -0.086495757 -30.416735 -25.549126 -117.45909
151858000 -25.543222 -123.39353 -0.089704826 -30.633139 -0.086611941 -30.61717 -25.543724 -117.78496
152857000 -25.530235 -123.74254 -0.09004309 -30.83112 -0.086459838 -30.817408 -25.526127 -117.96751
153856000 -25.524626 -123.96228 -0.090533629 -31.030558 -0.086460635 -31.020243 -25.543346 -118.32225
154855000 -25.518682 -124.11707 -0.090222806 -31.231043 -0.086130567 -31.222591 -25.528 -118.53961
155854000 -25.536921 -124.34472 -0.090019837 -31.430813 -0.086692221 -31.418211 -25.518494 -118.80416
156853000 -25.519821 -125.04546 -0.088077009 -31.617588 -0.085942835 -31.611206 -25.507465 -119.12115
157852000 -25.523689 -125.22173 -0.089514561 -31.818338 -0.087636411 -31.808865 -25.499819 -119.46894
158851000 -25.519352 -125.44894 -0.090012439 -32.018074 -0.087348774 -32.008064 -25.486828 -119.73397
159850000 -25.508022 -125.57254 -0.090532042 -32.21653 -0.087750256 -32.20924 -25.480547 -119.91257
160849000 -25.488451 -125.66125 -0.091189176 -32.417816 -0.088625975 -32.411076 -25.450407 -120.20197
161848000 -25.475227 -125.73737 -0.091359682 -32.616337 -0.088471949 -32.610069 -25.415325 -120.29859
162847000 -25.430462 -125.92032 -0.091298617 -32.816006 -0.088950686 -32.81345 -25.388189 -120.56358
163846000 -25.395508 -126.12454 -0.091174103 -33.016846 -0.088971026 -33.010494 -25.308371 -120.54952
164845000 -25.335018 -126.08928 -0.092379451 -33.219997 -0.089133523 -33.211624 -25.246565 -120.68682
165844000 -25.282852 -126.11618 -0.091740645 -33.413704 -0.089593045 -33.409103 -25.170034 -120.81243
166843000 -25.222969 -126.15835 -0.091453537 -33.615074 -0.089868404 -33.611423 -25.102285 -120.95386
167842000 -25.164705 -126.26561 -0.092188008 -33.814316 -0.089683421 -33.812626 -25.026649 -120.88394
168841000 -25.089792 -126.44398 -0.092516951 -34.012169 -0.090305798 -34.011711 -24.952471 -120.95239
169840000 -25.024176 -126.65437 -0.092825823 -34.207645 -0.090886503 -34.204433 -24.867426 -121.12237
170839000 -24.96884 -126.89558 -0.093096629 -34.409138 -0.091289103 -34.403492 -24.781469 -121.29359
171838000 -24.908468 -127.31098 -0.093123078 -34.609436 -0.091829479 -34.60162 -24.720699 -121.53584
172837000 -24.842535 -127.63439 -0.095063664 -34.805569 -0.092555031 -34.80304 -24.663734 -121.73729
173836000 -24.774897 -128.00105 -0.09588211 -35.005821 -0.093638033 -35.001087 -24.612621 -121.93479
174835000 -24.723091 -128.42108 -0.096708126 -35.201359 -0.09451177 -35.20113 -24.57276 -122.23409
175834000 -24.672935 -128.78139 -0.097437672 -35.401611 -0.09527164 -35.397591 -24.510941 -122.50646
176833000 -24.624575 -129.11777 -0.098169453 -35.601448 -0.096145704 -35.597092 -24.469511 -122.64908
177832000 -24.580177 -129.55434 -0.099252529 -35.797672 -0.096988179 -35.801361 -24.445902 -122.74391
178831000 -24.534504 -129.77692 -0.10094044 -35.993923 -0.098620132 -35.990898 -24.403364 -122.84333
179830000 -24.464067 -130.22322 -0.10143274 -36.182137 -0.099768475 -36.180122 -24.342121 -122.92809
180829000 -24.416422 -130.53931 -0.10030568 -36.370346 -0.09874247 -36.371025 -24.302376 -123.27081
181828000 -24.392567 -130.96884 -0.1005886 -36.576012 -0.098164693 -36.574543 -24.282888 -123.43347
182827000 -24.36631 -131.31523 -0.099325627 -36.771095 -0.098502293 -36.768608 -24.275623 -123.56867
183826000 -24.330782 -131.70348 -0.1004376 -36.967758 -0.099001467 -36.963932 -24.265055 -123.69018
184825000 -24.330023 -132.0397 -0.10001694 -37.164127 -0.098653495 -37.164471 -24.244345 -123.8292
185824000 -24.304461 -132.38713 -0.10001297 -37.357903 -0.098572463 -37.361763 -24.239178 -123.89058
186823000 -24.288668 -132.76518 -0.10035919 -37.55825 -0.099174932 -37.560154 -24.235756 -123.88538
187822000 -24.2633 -133.1049 -0.10080903 -37.75695 -0.09961459 -37.759651 -24.198835 -123.94922
188821000 -24.240503 -133.37318 -0.10076108 -37.952988 -0.099379919 -37.954853 -24.178638 -124.10004
189820000 -24.220285 -133.6301 -0.10070359 -38.151501 -0.099886879 -38.150314 -24.1597 -124.30689
190819000 -24.184294 -133.97189 -0.10128674 -38.351639 -0.10015918 -38.348324 -24.128502 -124.33508
191818000 -24.158243 -134.24765 -0.10175735 -38.545563 -0.10076293 -38.546913 -24.095192 -124.368
192817000 -24.112032 -134.52962 -0.10205442 -38.743645 -0.10113068 -38.745991 -24.054466 -124.46483
193816000 -24.077541 -134.77184 -0.10281508 -38.943432 -0.10096747 -38.941654 -23.999657 -124.63064
194815000 -24.015635 -135.15623 -0.10258342 -39.133221 -0.1015745 -39.135391 -23.936998 -124.65286
195814000 -23.963005 -135.35811 -0.10335346 -39.333057 -0.1014754 -39.333328 -23.880787 -124.74925
196813000 -23.912014 -135.63559 -0.10364666 -39.526863 -0.10155305 -39.52636 -23.802681 -124.89926
197812000 -23.855165 -135.86934 -0.1036737 -39.725246 -0.10247687 -39.723896 -23.733992 -124.98077
198811000 -23.795713 -136.0094 -0.10341602 -39.92281 -0.10143486 -39.922737 -23.664083 -125.13867
199810000 -23.727896 -136.37218 -0.1037299 -40.120327 -0.10181061 -40.116375 -23.588921 -125.26283
200809000 -23.676115 -136.63683 -0.10429013 -40.312077 -0.10202792 -40.314621 -23.512234 -125.41476
201808000 -23.613655 -136.82848 -0.10472368 -40.514114 -0.10305814 -40.515327 -23.443699 -125.49574
202807000 -23.55814 -137.17105 -0.10535192 -40.715446 -0.10390806 -40.722054 -23.388533 -125.68727
