!Keysight Technologies,E5080B,MY59205177,A.15.75.32
!Date: Friday, February 23, 2024 03:03:16
!Correction: S11(Cdelta 2-Port  ) 
!S21(Cdelta 2-Port  ) 
!S12(Cdelta 2-Port  ) 
!S22(Cdelta 2-Port  ) 
!S2P File: Measurements: S11, S21, S12, S22:
# Hz S  dB   R 50
10000000 -44.142509 -4.0323043 -0.026201706 -2.0403137 -0.030646328 -2.0917022 -48.018951 -150.00937
10999000 -43.524235 -5.3106322 -0.028053991 -2.2575777 -0.030000119 -2.3100789 -47.79615 -143.07903
11998000 -42.757523 -7.9811759 -0.027853902 -2.4790208 -0.029651118 -2.5241907 -47.905525 -137.12543
12997000 -42.132652 -12.612049 -0.027361277 -2.6582694 -0.029756153 -2.6911619 -47.264149 -131.54803
13996000 -41.912128 -16.055008 -0.026372287 -2.8375134 -0.029713931 -2.8582315 -46.74971 -125.55388
14995000 -41.541061 -19.899178 -0.028649099 -3.04318 -0.029640432 -3.072417 -46.309231 -122.22061
15994000 -41.414486 -23.667425 -0.030226894 -3.265996 -0.032458261 -3.2895176 -46.156555 -118.63351
16993000 -41.4398 -28.00066 -0.028466962 -3.4605961 -0.030953174 -3.4695871 -45.15234 -119.28744
17992000 -41.542114 -32.528763 -0.029155161 -3.6592495 -0.031886362 -3.6622548 -44.547226 -120.06499
18991000 -41.784912 -36.96143 -0.03088513 -3.869601 -0.032755844 -3.8626692 -43.903759 -119.55353
19990000 -41.642071 -41.980972 -0.033224825 -4.0787668 -0.034518823 -4.0766892 -43.139805 -120.94765
20989000 -41.526257 -45.002014 -0.034876566 -4.2834992 -0.036403634 -4.2699995 -42.560276 -120.99119
21988000 -41.434406 -49.508739 -0.035810072 -4.4763741 -0.037368279 -4.4626751 -42.290489 -120.17808
22987000 -41.203941 -54.137253 -0.036817137 -4.67695 -0.038475208 -4.6681738 -42.029339 -120.16226
23986000 -41.216839 -57.962852 -0.036868829 -4.8689528 -0.036715325 -4.8710046 -41.900291 -119.75022
24985000 -40.878464 -60.37397 -0.037452612 -5.0815506 -0.037598312 -5.0759296 -41.65181 -117.34242
25984000 -40.640007 -62.589367 -0.038403649 -5.2840533 -0.037417624 -5.2805448 -41.330231 -115.94904
26983000 -40.343132 -64.60659 -0.039043274 -5.4820967 -0.038667429 -5.4987926 -41.153378 -115.14046
27982000 -40.139988 -65.324852 -0.040238157 -5.6799026 -0.040471736 -5.712914 -40.89698 -113.90637
28981000 -40.194824 -66.709816 -0.038529009 -5.8812594 -0.040494468 -5.9003253 -40.641872 -113.08716
29980000 -39.794773 -68.247978 -0.038060762 -6.0682058 -0.040096026 -6.0772996 -40.293354 -112.33822
30979000 -39.436409 -67.660233 -0.036371004 -6.4232259 -0.03555534 -6.4126825 -39.809959 -113.14717
31978000 -39.265099 -68.513351 -0.034894571 -6.6213264 -0.036095098 -6.6091237 -39.546955 -112.65051
32977000 -39.084339 -70.155609 -0.035801459 -6.8294573 -0.037603531 -6.8237586 -39.313519 -112.64895
33976000 -38.944912 -71.350937 -0.036165833 -7.0326505 -0.037572198 -7.0243077 -39.003258 -112.46001
34975000 -38.687901 -72.353294 -0.035628941 -7.2282119 -0.039049283 -7.228847 -38.758659 -112.05518
35974000 -38.490166 -73.053535 -0.035049576 -7.4214482 -0.038443346 -7.4278378 -38.470245 -111.34627
36973000 -38.267296 -73.782555 -0.035172749 -7.6218843 -0.038728803 -7.6264553 -38.192249 -110.58784
37972000 -38.086857 -73.821739 -0.035580136 -7.832705 -0.038284823 -7.8397374 -37.941395 -109.94147
38971000 -37.790615 -73.585724 -0.036737252 -8.0345879 -0.038871933 -8.0423603 -37.741161 -108.42199
39970000 -37.459095 -74.141083 -0.034552481 -8.2251511 -0.037961271 -8.2405081 -37.44326 -108.10632
40969000 -37.170162 -74.057098 -0.035264872 -8.4166746 -0.038065724 -8.4450006 -37.180752 -106.71319
41968000 -36.841393 -74.15448 -0.035487745 -8.6248407 -0.038207263 -8.6392508 -37.004314 -105.63113
42967000 -36.585678 -74.450706 -0.034766447 -8.8383293 -0.038435251 -8.8548241 -36.755238 -103.94308
43966000 -36.305874 -75.367874 -0.036287472 -9.0351801 -0.039605148 -9.0484018 -36.454491 -103.26742
44965000 -36.069637 -76.283257 -0.036932267 -9.2327175 -0.039945804 -9.2557058 -36.235115 -103.27432
45964000 -35.852303 -77.498756 -0.037244782 -9.4369793 -0.04034397 -9.4574175 -36.009205 -103.12568
46963000 -35.677982 -79.438255 -0.037685782 -9.6297846 -0.041662306 -9.6544914 -35.815079 -103.37666
47962000 -35.532169 -80.918655 -0.039531481 -9.8320675 -0.042832028 -9.8470125 -35.616142 -103.56054
48961000 -35.334415 -82.25528 -0.041837677 -10.031055 -0.044115294 -10.048036 -35.371925 -103.8654
49960000 -35.116753 -83.733452 -0.042354953 -10.229645 -0.045682758 -10.249119 -35.24638 -104.07447
50959000 -34.909855 -85.151817 -0.042964835 -10.440233 -0.046856966 -10.451311 -35.047897 -104.42246
51958000 -34.713615 -86.272942 -0.045364145 -10.639143 -0.048101898 -10.650019 -34.885754 -105.0589
52957000 -34.518288 -87.410103 -0.046473902 -10.84155 -0.048767298 -10.844732 -34.722809 -104.84355
53956000 -34.352985 -88.119118 -0.047399174 -11.042702 -0.049426518 -11.042016 -34.58292 -104.83779
54955000 -34.204552 -88.657372 -0.048508927 -11.238921 -0.050539929 -11.235604 -34.43692 -104.7858
55954000 -34.035709 -89.492203 -0.049410809 -11.439184 -0.050993286 -11.440535 -34.317089 -104.5716
56953000 -33.920578 -89.568413 -0.04967735 -11.641277 -0.050074838 -11.627433 -34.250668 -104.79113
57952000 -33.765594 -90.099739 -0.050749708 -11.836818 -0.050720375 -11.828796 -34.156315 -104.93277
58951000 -33.645908 -90.494377 -0.051360507 -12.041167 -0.051824689 -12.017895 -34.001122 -105.04713
59950000 -33.52787 -90.958435 -0.052352585 -12.23933 -0.052330054 -12.215796 -33.925735 -105.3319
60949000 -33.418926 -91.448555 -0.052606471 -12.443801 -0.052220538 -12.416547 -33.841713 -105.60048
61948000 -33.364532 -91.80011 -0.052608829 -12.636757 -0.052658871 -12.620228 -33.752422 -105.68283
62947000 -33.276134 -92.02018 -0.052405246 -12.849399 -0.053381052 -12.828954 -33.62167 -105.91779
63946000 -33.209503 -92.694153 -0.0542656 -13.048601 -0.054317236 -13.026586 -33.504025 -106.14832
64945000 -33.108585 -92.867905 -0.054225497 -13.249984 -0.055061974 -13.228749 -33.403683 -106.61439
65944000 -33.015877 -93.203171 -0.054932732 -13.446279 -0.055601016 -13.432761 -33.31522 -107.07976
66943000 -32.865738 -93.646469 -0.053201281 -13.649584 -0.053431105 -13.630516 -33.205349 -107.43015
67942000 -32.819653 -93.56102 -0.055181522 -13.84544 -0.055088978 -13.83165 -33.096874 -107.71103
68941000 -32.71051 -93.702515 -0.055030778 -14.035754 -0.053601451 -14.027931 -32.994099 -107.67816
69940000 -32.605385 -93.748276 -0.055005088 -14.236263 -0.055577155 -14.225901 -32.844582 -107.9455
70939000 -32.495007 -93.696609 -0.054061942 -14.433949 -0.054908089 -14.425771 -32.719799 -107.96522
71938000 -32.359573 -93.415283 -0.054325886 -14.627647 -0.05443991 -14.623389 -32.580597 -107.78456
72937000 -32.210911 -93.222122 -0.054571759 -14.829669 -0.05437097 -14.819965 -32.433372 -107.54014
73936000 -32.067993 -92.863579 -0.053498719 -15.025964 -0.054002706 -15.013063 -32.33181 -107.36307
74935000 -31.942154 -93.215805 -0.053691607 -15.220158 -0.052318785 -15.217517 -32.174862 -107.14301
75934000 -31.816917 -93.450737 -0.053538293 -15.429278 -0.052936882 -15.420671 -32.081551 -107.04266
76933000 -31.695803 -93.895317 -0.055086356 -15.625842 -0.054096013 -15.618221 -31.906675 -107.42357
77932000 -31.595554 -94.729752 -0.055880785 -15.818599 -0.055849321 -15.809016 -31.806046 -107.45583
78931000 -31.52849 -95.421814 -0.054369923 -16.019279 -0.055341449 -16.012293 -31.715723 -107.32432
79930000 -31.412413 -96.26963 -0.056851078 -16.208445 -0.057839688 -16.207796 -31.612627 -107.6388
80929000 -31.280956 -97.187332 -0.05894319 -16.401436 -0.059422616 -16.402212 -31.515503 -108.01907
81928000 -31.200205 -98.033638 -0.058899369 -16.596487 -0.059313186 -16.592228 -31.391356 -108.15695
82927000 -31.114246 -98.758507 -0.060315218 -16.795774 -0.060742032 -16.792723 -31.291098 -108.42778
83926000 -31.008131 -99.527985 -0.06165066 -16.992809 -0.061402544 -16.992716 -31.168739 -108.66367
84925000 -30.907944 -99.965729 -0.062790059 -17.193199 -0.061944213 -17.186357 -31.085163 -108.71244
85924000 -30.811838 -100.3919 -0.063319288 -17.3943 -0.063186385 -17.387691 -30.998962 -108.66118
86923000 -30.708984 -100.89919 -0.063418835 -17.586805 -0.063186646 -17.584824 -30.896626 -108.68904
87922000 -30.602297 -101.28131 -0.063299589 -17.795559 -0.063070819 -17.787888 -30.810165 -108.73708
88921000 -30.534483 -101.5648 -0.06383834 -17.992729 -0.064132042 -17.988241 -30.723175 -108.67191
89920000 -30.434414 -102.13406 -0.065596111 -18.18821 -0.06450773 -18.180218 -30.663692 -108.84529
90919000 -30.332861 -102.45651 -0.065552488 -18.385235 -0.065074481 -18.386845 -30.577257 -109.02876
91918000 -30.244635 -102.80425 -0.066841431 -18.588993 -0.065420039 -18.581303 -30.517199 -109.04429
92917000 -30.159084 -103.11746 -0.068372682 -18.787443 -0.066562265 -18.784588 -30.456373 -109.16557
93916000 -30.07695 -103.51994 -0.06659539 -18.977211 -0.066727079 -18.973667 -30.366507 -109.77245
94915000 -30.000675 -104.16872 -0.06870877 -19.179199 -0.06756755 -19.172556 -30.313 -109.69684
95914000 -29.940718 -104.38318 -0.069946565 -19.373507 -0.068780825 -19.370863 -30.221376 -109.95021
96913000 -29.864414 -104.57535 -0.070713982 -19.573929 -0.070018642 -19.569433 -30.159275 -110.3008
97912000 -29.784689 -105.08896 -0.071445227 -19.768343 -0.070220418 -19.768454 -30.078711 -110.53779
98911000 -29.685331 -105.2723 -0.072251074 -19.972336 -0.07117182 -19.9673 -30.039305 -110.78021
99910000 -29.612337 -105.44209 -0.072487436 -20.171984 -0.071405225 -20.168829 -29.929003 -111.07261
100909000 -29.53858 -105.72321 -0.072091579 -20.375555 -0.070447989 -20.371098 -29.84516 -111.27228
101908000 -29.439476 -106.00498 -0.073520683 -20.575371 -0.072494283 -20.575354 -29.73954 -111.04429
102907000 -29.310574 -106.00116 -0.073838472 -20.772787 -0.072605096 -20.77166 -29.667814 -111.00483
103906000 -29.222097 -106.12273 -0.073542804 -20.978401 -0.07103394 -20.974554 -29.516184 -110.99797
104905000 -29.075687 -106.03703 -0.074425146 -21.17754 -0.072303191 -21.176376 -29.38394 -110.69314
105904000 -28.927361 -106.11311 -0.074857034 -21.37986 -0.072615892 -21.374628 -29.26939 -110.57425
106903000 -28.822025 -106.25326 -0.074792512 -21.586138 -0.072380051 -21.578035 -29.146801 -110.46144
107902000 -28.658144 -106.59812 -0.075172022 -21.789408 -0.073165536 -21.775913 -29.009449 -110.41526
108901000 -28.551783 -106.89298 -0.076686457 -21.984135 -0.074687436 -21.979561 -28.876463 -110.36549
109900000 -28.431068 -107.34213 -0.077339649 -22.184347 -0.075570539 -22.177509 -28.726643 -110.43987
110899000 -28.305737 -108.00166 -0.078662679 -22.382202 -0.076018341 -22.375547 -28.603945 -110.77946
111898000 -28.218 -108.65981 -0.080011152 -22.584249 -0.077191032 -22.58053 -28.488001 -110.87672
112897000 -28.090818 -109.16778 -0.081524901 -22.779774 -0.078250177 -22.771687 -28.352655 -111.06812
113896000 -27.992025 -109.81446 -0.082524158 -22.982327 -0.080062039 -22.972033 -28.234352 -111.2055
114895000 -27.889542 -110.42952 -0.083354227 -23.182198 -0.080874771 -23.169792 -28.129879 -111.29643
115894000 -27.764849 -110.71822 -0.084670641 -23.382803 -0.082234748 -23.365393 -28.058134 -111.49332
116893000 -27.67898 -111.37823 -0.084898442 -23.578327 -0.082519673 -23.557426 -27.927624 -111.62752
117892000 -27.598766 -111.84962 -0.084896065 -23.771433 -0.083491713 -23.757935 -27.862864 -111.79203
118891000 -27.544153 -112.26183 -0.085371241 -23.975618 -0.083791494 -23.958591 -27.765881 -111.92976
119890000 -27.453089 -112.63754 -0.086598478 -24.176325 -0.084221147 -24.159971 -27.750317 -112.05254
120889000 -27.401756 -113.0853 -0.087240748 -24.376863 -0.084169686 -24.360857 -27.682827 -112.03396
121888000 -27.363916 -113.47254 -0.087222524 -24.568197 -0.085469708 -24.558142 -27.618397 -112.34883
122887000 -27.323589 -113.67667 -0.088862963 -24.770582 -0.086070627 -24.765182 -27.573782 -112.38705
123886000 -27.25835 -114.03762 -0.08937715 -24.977606 -0.086693808 -24.955614 -27.563126 -112.5551
124885000 -27.226389 -114.55541 -0.089803658 -25.172995 -0.08686018 -25.158154 -27.535551 -112.62411
125884000 -27.179993 -114.79838 -0.090268001 -25.371878 -0.087063007 -25.357805 -27.506872 -112.79591
126883000 -27.159178 -115.15901 -0.090954967 -25.573704 -0.087438047 -25.56184 -27.460232 -112.84256
127882000 -27.109545 -115.44675 -0.090607904 -25.774504 -0.08793357 -25.758154 -27.419682 -113.00841
128881000 -27.081993 -115.7821 -0.091529146 -25.976404 -0.087698482 -25.958565 -27.380417 -113.09685
129880000 -27.024382 -116.06458 -0.091889501 -26.174694 -0.088019684 -26.155905 -27.340986 -113.13686
130879000 -26.963669 -116.23215 -0.091414675 -26.374987 -0.089036822 -26.360567 -27.262432 -113.20023
131878000 -26.902132 -116.50851 -0.091396168 -26.576374 -0.089265645 -26.559576 -27.205339 -113.07907
132877000 -26.832651 -116.54948 -0.091650493 -26.774626 -0.089854926 -26.759468 -27.11483 -113.07851
133876000 -26.75247 -116.73135 -0.092072204 -26.980974 -0.08905796 -26.958237 -27.025925 -113.01853
134875000 -26.653471 -116.80905 -0.092136979 -27.177198 -0.089817137 -27.160183 -26.920485 -112.89677
135874000 -26.57033 -116.84377 -0.092268921 -27.376423 -0.089761905 -27.361286 -26.817682 -112.87443
136873000 -26.462282 -116.81058 -0.092624314 -27.579887 -0.089643247 -27.558043 -26.739464 -112.83651
137872000 -26.37822 -116.9459 -0.091920696 -27.779263 -0.089995258 -27.763117 -26.630413 -112.78729
138871000 -26.306622 -117.12614 -0.093033686 -27.977324 -0.09010414 -27.964907 -26.535421 -112.97755
139870000 -26.20668 -117.39653 -0.092936896 -28.180952 -0.091763124 -28.164118 -26.452581 -113.17601
140869000 -26.123301 -117.83975 -0.095310003 -28.377369 -0.091969609 -28.354914 -26.343491 -113.27536
141868000 -26.027618 -118.33265 -0.095263965 -28.568491 -0.093297631 -28.555376 -26.276131 -113.61013
142867000 -25.955046 -118.60669 -0.093684584 -28.766453 -0.092223182 -28.748257 -26.196299 -113.81702
143866000 -25.877024 -119.0827 -0.095710896 -28.963558 -0.093756795 -28.947947 -26.12508 -114.30549
144865000 -25.823549 -119.58015 -0.097013593 -29.160496 -0.094806492 -29.148018 -26.070074 -114.61593
145864000 -25.766726 -119.92404 -0.097634636 -29.357786 -0.096499026 -29.349911 -26.041735 -114.85394
146863000 -25.720171 -120.30913 -0.098157011 -29.561663 -0.09628544 -29.546221 -25.983675 -115.18484
147862000 -25.677588 -120.65093 -0.098938704 -29.759159 -0.096124262 -29.74353 -25.94982 -115.51671
148861000 -25.64625 -121.18601 -0.099115081 -29.955154 -0.096640371 -29.943344 -25.925608 -115.77575
149860000 -25.635244 -121.36317 -0.10030673 -30.155224 -0.097381815 -30.137667 -25.897198 -115.93503
150859000 -25.614504 -121.73145 -0.099855624 -30.354509 -0.097627752 -30.337484 -25.889175 -116.15099
151858000 -25.599276 -122.02409 -0.10012819 -30.548717 -0.097822607 -30.537189 -25.877192 -116.43086
152857000 -25.575233 -122.36584 -0.10088533 -30.749477 -0.098005295 -30.736853 -25.861832 -116.59724
153856000 -25.569998 -122.57544 -0.099793904 -30.947739 -0.097629875 -30.935318 -25.876713 -116.86447
154855000 -25.565012 -122.7538 -0.1006718 -31.144556 -0.098928638 -31.134476 -25.868431 -117.11429
155854000 -25.580727 -122.98641 -0.10104802 -31.346149 -0.098314293 -31.333097 -25.850033 -117.34578
156853000 -25.560919 -123.70545 -0.099257566 -31.532312 -0.09759175 -31.529102 -25.857569 -117.62628
157852000 -25.566286 -123.9276 -0.10028316 -31.733007 -0.099428654 -31.726337 -25.844904 -117.9742
158851000 -25.564873 -124.15585 -0.10060345 -31.934526 -0.099637628 -31.923615 -25.830706 -118.25187
159850000 -25.554491 -124.27674 -0.10110392 -32.129807 -0.099486127 -32.12085 -25.830437 -118.40399
160849000 -25.531986 -124.41839 -0.10166911 -32.331017 -0.10035283 -32.32296 -25.805548 -118.73303
161848000 -25.514399 -124.50082 -0.10127005 -32.5289 -0.099699877 -32.521999 -25.761372 -118.81379
162847000 -25.474218 -124.69381 -0.10142294 -32.728062 -0.10064583 -32.721333 -25.727598 -119.08643
163846000 -25.431097 -124.94036 -0.1022606 -32.927753 -0.10054622 -32.919952 -25.652451 -119.05451
164845000 -25.373232 -124.95614 -0.10254896 -33.1264 -0.1014709 -33.117203 -25.58976 -119.21515
165844000 -25.315779 -125.02477 -0.10263484 -33.325119 -0.10149634 -33.318718 -25.506821 -119.33099
166843000 -25.252281 -125.12724 -0.10230567 -33.522858 -0.10192563 -33.521564 -25.435638 -119.48905
167842000 -25.194525 -125.27379 -0.10308068 -33.721527 -0.10124143 -33.717022 -25.35821 -119.42729
168841000 -25.118803 -125.44344 -0.10335928 -33.92284 -0.10185196 -33.918476 -25.280457 -119.52094
169840000 -25.049126 -125.71611 -0.10356288 -34.115139 -0.10220707 -34.11179 -25.196005 -119.72056
170839000 -24.996971 -125.97826 -0.10422756 -34.312637 -0.10287445 -34.31229 -25.106529 -119.89381
171838000 -24.933216 -126.40981 -0.1036729 -34.512806 -0.10363685 -34.507401 -25.040392 -120.15217
172837000 -24.868799 -126.79281 -0.10516363 -34.708824 -0.10461946 -34.706032 -24.978636 -120.35961
173836000 -24.802464 -127.15466 -0.10621927 -34.907692 -0.10491753 -34.904873 -24.927683 -120.59466
174835000 -24.745903 -127.63568 -0.10657103 -35.103554 -0.10573412 -35.100723 -24.879459 -120.91372
175834000 -24.692965 -128.00316 -0.10742269 -35.302704 -0.10677106 -35.298126 -24.820255 -121.22064
176833000 -24.640165 -128.37047 -0.10831646 -35.50108 -0.10680927 -35.496384 -24.766762 -121.35226
177832000 -24.597935 -128.84326 -0.10901451 -35.696182 -0.10722979 -35.694469 -24.742254 -121.52106
178831000 -24.560425 -129.19379 -0.10890833 -35.890675 -0.10801445 -35.887196 -24.705061 -121.76479
179830000 -24.51956 -129.6604 -0.10974931 -36.087013 -0.10848101 -36.090752 -24.681932 -121.87628
180829000 -24.483465 -129.83 -0.1092773 -36.283978 -0.10899699 -36.28183 -24.651665 -122.04907
181828000 -24.454473 -130.17694 -0.10948383 -36.483479 -0.10947826 -36.480209 -24.638052 -122.18581
182827000 -24.43026 -130.53737 -0.10983904 -36.679832 -0.10941667 -36.676872 -24.619875 -122.25274
183826000 -24.390152 -130.85379 -0.11135101 -36.875523 -0.11014065 -36.873478 -24.609516 -122.37485
184825000 -24.394827 -131.19342 -0.11081085 -37.071392 -0.11017676 -37.071102 -24.596788 -122.4668
185824000 -24.368681 -131.51115 -0.11070569 -37.265518 -0.11022508 -37.266243 -24.593534 -122.48574
186823000 -24.354536 -131.8784 -0.11066081 -37.466125 -0.11043511 -37.465614 -24.587946 -122.47159
187822000 -24.330463 -132.20023 -0.11197624 -37.664494 -0.11087723 -37.662079 -24.557131 -122.56608
188821000 -24.315033 -132.4404 -0.11138819 -37.856045 -0.11141661 -37.862122 -24.538242 -122.65841
189820000 -24.297903 -132.71527 -0.11158765 -38.058529 -0.11178685 -38.059654 -24.530968 -122.81884
190819000 -24.269424 -132.94966 -0.11295064 -38.259068 -0.11246872 -38.255383 -24.49721 -122.77951
191818000 -24.237495 -133.12564 -0.11452747 -38.452847 -0.11400871 -38.454731 -24.466473 -122.69319
192817000 -24.165981 -133.42422 -0.11506385 -38.637276 -0.11458594 -38.636906 -24.396503 -122.77621
193816000 -24.13085 -133.77029 -0.11359921 -38.830463 -0.11284171 -38.830982 -24.33868 -123.03713
194815000 -24.074848 -134.19966 -0.11324077 -39.028618 -0.11386388 -39.028786 -24.276344 -123.16159
195814000 -24.018929 -134.43712 -0.11392925 -39.223717 -0.1136877 -39.224674 -24.223463 -123.25638
196813000 -23.969141 -134.78882 -0.11327797 -39.416397 -0.11330188 -39.418758 -24.146849 -123.40503
197812000 -23.909565 -135.02786 -0.11395343 -39.617401 -0.11367601 -39.616051 -24.078978 -123.53448
198811000 -23.856459 -135.20715 -0.11317223 -39.814892 -0.11336724 -39.815891 -24.010239 -123.7171
199810000 -23.787884 -135.57739 -0.11435605 -40.006985 -0.11353491 -40.006912 -23.93214 -123.83092
200809000 -23.732088 -135.84979 -0.11484031 -40.207283 -0.11327319 -40.203815 -23.852846 -124.02332
201808000 -23.671286 -136.09315 -0.11520712 -40.406509 -0.11487193 -40.408455 -23.787062 -124.0769
202807000 -23.612 -136.44109 -0.11625058 -40.604141 -0.11503195 -40.607395 -23.73064 -124.31481
