!Keysight Technologies,E5080B,MY59205177,A.15.75.32
!Date: Friday, February 23, 2024 03:03:22
!Correction: S11(Cdelta 2-Port  ) 
!S21(Cdelta 2-Port  ) 
!S12(Cdelta 2-Port  ) 
!S22(Cdelta 2-Port  ) 
!S2P File: Measurements: S11, S21, S12, S22:
# Hz S  dB   R 50
10000000 -44.173084 -3.6674864 -0.02722452 -2.0406003 -0.030408323 -2.091305 -48.062218 -150.31886
10999000 -43.55241 -5.4350204 -0.028512821 -2.2585528 -0.030287631 -2.3079295 -47.81461 -143.1277
11998000 -42.799629 -7.8580399 -0.02804435 -2.4801588 -0.030264691 -2.5238984 -47.862774 -137.41402
12997000 -42.104134 -12.59739 -0.028168889 -2.6594908 -0.029656852 -2.6906466 -47.255547 -130.90459
13996000 -41.88802 -16.219419 -0.026430627 -2.8333688 -0.029652681 -2.8612289 -46.815456 -125.87933
14995000 -41.553379 -20.106123 -0.028854435 -3.0457878 -0.029136136 -3.0696461 -46.301647 -122.15636
15994000 -41.44627 -24.004221 -0.030452117 -3.2627418 -0.031818561 -3.2880821 -46.046242 -118.6265
16993000 -41.419224 -27.87339 -0.029655809 -3.4620628 -0.031235013 -3.4689724 -45.221363 -119.15173
17992000 -41.519268 -32.454544 -0.029640172 -3.6600192 -0.032013617 -3.660569 -44.534283 -119.91772
18991000 -41.784031 -37.165882 -0.030871835 -3.869858 -0.032649171 -3.8693936 -43.865059 -119.85129
19990000 -41.634312 -41.944698 -0.033569939 -4.0772486 -0.034709301 -4.0705433 -43.166977 -121.04221
20989000 -41.545437 -44.927944 -0.035202239 -4.283658 -0.036594719 -4.2713156 -42.62418 -120.88818
21988000 -41.395473 -49.676235 -0.036671206 -4.4746122 -0.037621811 -4.4670801 -42.269283 -120.36024
22987000 -41.195076 -54.217869 -0.037706673 -4.6746907 -0.038107768 -4.6672807 -42.056412 -119.95651
23986000 -41.169834 -57.937347 -0.037411619 -4.8692479 -0.03679077 -4.8679385 -41.910362 -119.92031
24985000 -40.859531 -60.457108 -0.037622333 -5.0804429 -0.037610583 -5.0757732 -41.675949 -117.63934
25984000 -40.662495 -62.507748 -0.038656458 -5.2814708 -0.038104635 -5.2877584 -41.304771 -116.0911
26983000 -40.313507 -64.468948 -0.039708074 -5.4807887 -0.039301608 -5.4979324 -41.167446 -115.14931
27982000 -40.218613 -65.304161 -0.040744003 -5.6790895 -0.040878311 -5.7132802 -40.861885 -114.01807
28981000 -40.177666 -66.56514 -0.038363431 -5.8778653 -0.040429931 -5.8994336 -40.627815 -113.035
29980000 -39.816544 -68.151192 -0.038539715 -6.0654111 -0.040792603 -6.0751777 -40.347019 -112.28738
30979000 -39.421562 -67.44767 -0.036437307 -6.4289975 -0.035197802 -6.4201965 -39.813812 -113.06493
31978000 -39.258106 -68.614754 -0.03585862 -6.617979 -0.037473239 -6.607111 -39.5532 -112.73439
32977000 -39.094234 -70.138458 -0.035968766 -6.8266749 -0.037432507 -6.8263626 -39.315659 -112.81342
33976000 -38.95488 -71.389816 -0.036953155 -7.0300412 -0.038058411 -7.0237265 -38.984959 -112.31242
34975000 -38.684902 -72.366356 -0.036717936 -7.2283311 -0.038493488 -7.2265253 -38.748444 -112.14357
35974000 -38.476818 -73.015976 -0.035672527 -7.420042 -0.038787831 -7.4257517 -38.451561 -111.38801
36973000 -38.281174 -73.920334 -0.036314096 -7.6231494 -0.039688479 -7.6230383 -38.169365 -110.652
37972000 -38.101849 -73.836365 -0.035872452 -7.8322129 -0.039234214 -7.8444004 -37.909027 -109.86365
38971000 -37.788548 -73.376457 -0.036171578 -8.0352049 -0.03864105 -8.0420513 -37.706997 -108.49708
39970000 -37.457436 -74.202805 -0.03501774 -8.2244692 -0.038240168 -8.2427816 -37.474541 -107.97425
40969000 -37.194901 -73.988976 -0.035510972 -8.4220047 -0.03781791 -8.4432688 -37.193024 -106.72793
41968000 -36.840347 -74.156456 -0.034930058 -8.629818 -0.038594037 -8.644598 -36.975731 -105.59483
42967000 -36.579201 -74.50441 -0.035034962 -8.8385897 -0.038228154 -8.8536739 -36.748043 -103.83076
43966000 -36.308151 -75.348068 -0.035996694 -9.0366516 -0.039856721 -9.0512066 -36.45681 -103.30305
44965000 -36.088089 -76.204163 -0.037066199 -9.2409801 -0.040410858 -9.2547312 -36.253685 -103.16207
45964000 -35.852402 -77.383636 -0.038060762 -9.436471 -0.04124834 -9.4540386 -36.000782 -102.98543
46963000 -35.673279 -79.381065 -0.037983466 -9.6314583 -0.042443566 -9.6514101 -35.820141 -103.41151
47962000 -35.55529 -80.890945 -0.039812308 -9.8324242 -0.043012153 -9.8485117 -35.612221 -103.62241
48961000 -35.325012 -82.37606 -0.041729998 -10.032115 -0.044676773 -10.050677 -35.385094 -103.92118
49960000 -35.117134 -83.776611 -0.042888235 -10.228138 -0.04554987 -10.251086 -35.249008 -104.05698
50959000 -34.90517 -85.133514 -0.043740574 -10.4393 -0.046541668 -10.45072 -35.061138 -104.42423
51958000 -34.718292 -86.319191 -0.04554804 -10.6389 -0.047841731 -10.649445 -34.8951 -105.01019
52957000 -34.515114 -87.359352 -0.046682697 -10.836937 -0.048859447 -10.843751 -34.717983 -104.86579
53956000 -34.343262 -88.095497 -0.048138279 -11.040949 -0.049620271 -11.041852 -34.59544 -104.90871
54955000 -34.198208 -88.65435 -0.049264453 -11.243245 -0.050835088 -11.236367 -34.435806 -104.84076
55954000 -34.040718 -89.551964 -0.050584976 -11.439937 -0.050850805 -11.437435 -34.323528 -104.60717
56953000 -33.924404 -89.527992 -0.049116008 -11.63943 -0.050072744 -11.62637 -34.244289 -104.87571
57952000 -33.764633 -90.130898 -0.051215135 -11.833002 -0.051470522 -11.827058 -34.150082 -104.95771
58951000 -33.64666 -90.517776 -0.051837526 -12.03909 -0.051983707 -12.021134 -34.005062 -105.1
59950000 -33.523457 -90.943039 -0.052761324 -12.235817 -0.052520007 -12.21746 -33.930679 -105.34125
60949000 -33.425255 -91.478096 -0.052782021 -12.441103 -0.052671187 -12.420492 -33.844933 -105.58784
61948000 -33.361797 -91.818344 -0.053582057 -12.64132 -0.052930854 -12.624002 -33.759056 -105.73655
62947000 -33.28175 -91.999763 -0.053068951 -12.85145 -0.053277541 -12.827649 -33.611938 -106.02326
63946000 -33.218948 -92.727005 -0.054578576 -13.045599 -0.05416888 -13.028416 -33.517021 -106.17339
64945000 -33.097347 -92.868065 -0.054977037 -13.250283 -0.054977823 -13.230989 -33.393555 -106.66039
65944000 -33.011978 -93.162613 -0.055841979 -13.448627 -0.055840407 -13.43063 -33.305676 -107.16995
66943000 -32.866486 -93.639694 -0.053124502 -13.649691 -0.053078383 -13.631995 -33.208054 -107.32997
67942000 -32.817181 -93.533676 -0.055438194 -13.843983 -0.055679675 -13.831768 -33.083668 -107.7746
68941000 -32.700111 -93.805809 -0.055186503 -14.03859 -0.054158133 -14.02692 -32.976711 -107.63669
69940000 -32.608509 -93.767441 -0.055236056 -14.240767 -0.055431116 -14.227227 -32.839127 -108.0006
70939000 -32.497501 -93.705605 -0.055042312 -14.433581 -0.055719003 -14.426727 -32.713863 -107.93806
71938000 -32.3592 -93.35466 -0.055110212 -14.629453 -0.055478573 -14.624361 -32.579926 -107.85884
72937000 -32.204868 -93.197144 -0.055067219 -14.828139 -0.054272674 -14.820011 -32.436008 -107.5359
73936000 -32.065704 -92.879021 -0.054472413 -15.024313 -0.053528856 -15.017829 -32.320484 -107.36357
74935000 -31.943104 -93.193298 -0.053975973 -15.218667 -0.053502914 -15.216474 -32.156464 -107.0951
75934000 -31.818718 -93.454613 -0.053615343 -15.431089 -0.052858535 -15.42339 -32.082546 -107.07183
76933000 -31.688536 -93.855362 -0.055168416 -15.619589 -0.054818172 -15.616096 -31.913437 -107.41827
77932000 -31.589361 -94.650551 -0.056217216 -15.819966 -0.056753777 -15.80952 -31.813314 -107.42899
78931000 -31.531784 -95.382004 -0.054860376 -16.017965 -0.055851679 -16.014582 -31.710627 -107.34955
79930000 -31.401674 -96.27079 -0.057560578 -16.210291 -0.057747874 -16.209364 -31.616432 -107.60826
80929000 -31.293087 -97.206757 -0.05916702 -16.404381 -0.059562229 -16.400888 -31.510607 -108.01467
81928000 -31.214678 -98.043106 -0.058779195 -16.596817 -0.059983455 -16.595091 -31.400175 -108.12722
82927000 -31.112768 -98.769806 -0.060049858 -16.797157 -0.060856484 -16.793501 -31.295805 -108.4732
83926000 -31.002594 -99.467575 -0.061707634 -16.99398 -0.062536627 -16.993093 -31.172497 -108.6646
84925000 -30.90188 -100.00749 -0.063065305 -17.194662 -0.062333632 -17.188457 -31.078539 -108.77953
85924000 -30.814909 -100.38359 -0.063545182 -17.390926 -0.0634128 -17.387375 -31.000837 -108.7356
86923000 -30.709261 -100.88165 -0.063426979 -17.591856 -0.063743249 -17.586142 -30.903008 -108.65602
87922000 -30.599518 -101.30273 -0.063379176 -17.794926 -0.063459814 -17.789099 -30.810703 -108.69377
88921000 -30.529461 -101.69807 -0.064920239 -17.994545 -0.064973846 -17.990122 -30.719231 -108.69305
89920000 -30.431841 -102.14569 -0.065681517 -18.194168 -0.064981729 -18.183891 -30.668383 -108.87566
90919000 -30.33367 -102.39815 -0.066166945 -18.389795 -0.06579978 -18.380865 -30.582258 -109.06711
91918000 -30.241144 -102.78555 -0.067282297 -18.589186 -0.06636408 -18.581537 -30.517277 -109.07919
92917000 -30.156824 -103.1843 -0.067822851 -18.783794 -0.067523904 -18.78216 -30.461596 -109.21214
93916000 -30.073458 -103.47874 -0.067348018 -18.978428 -0.066665046 -18.973366 -30.371777 -109.82002
94915000 -30.00082 -104.16297 -0.068573855 -19.177544 -0.067198955 -19.173433 -30.312229 -109.63268
95914000 -29.938759 -104.42026 -0.070331439 -19.373646 -0.068953089 -19.366854 -30.220882 -109.93287
96913000 -29.856415 -104.61748 -0.070844226 -19.573835 -0.070135184 -19.571787 -30.157671 -110.23589
97912000 -29.774689 -105.09966 -0.072275817 -19.769499 -0.069764793 -19.770876 -30.070589 -110.55618
98911000 -29.678089 -105.29826 -0.07170628 -19.973127 -0.071626805 -19.964741 -30.035105 -110.7511
99910000 -29.620075 -105.45906 -0.07250692 -20.170359 -0.071627595 -20.16703 -29.927923 -111.08952
100909000 -29.516609 -105.78038 -0.07217712 -20.37896 -0.070913956 -20.371532 -29.836756 -111.25616
101908000 -29.438368 -106.00014 -0.073773175 -20.577795 -0.07200104 -20.570217 -29.731936 -111.02982
102907000 -29.310102 -106.026 -0.074279524 -20.776751 -0.071925245 -20.773703 -29.659418 -111.05373
103906000 -29.210836 -106.08331 -0.074173935 -20.981327 -0.07160233 -20.977463 -29.508333 -111.00558
104905000 -29.068176 -106.07815 -0.074115999 -21.178837 -0.072449796 -21.177896 -29.382093 -110.67214
105904000 -28.928408 -106.12293 -0.074750639 -21.380671 -0.072010256 -21.376717 -29.26919 -110.62518
106903000 -28.81852 -106.25266 -0.074879155 -21.586548 -0.072628789 -21.581314 -29.14263 -110.4779
107902000 -28.655001 -106.54185 -0.075854756 -21.784159 -0.073102616 -21.775551 -29.003885 -110.39213
108901000 -28.55147 -106.84522 -0.077051379 -21.986309 -0.074493878 -21.976007 -28.871363 -110.31306
109900000 -28.428976 -107.31326 -0.076893546 -22.188034 -0.076031253 -22.176678 -28.730398 -110.45039
110899000 -28.304012 -107.9655 -0.078991123 -22.382767 -0.076303646 -22.373701 -28.59779 -110.75245
111898000 -28.215382 -108.62502 -0.080291711 -22.58622 -0.077325948 -22.579384 -28.484379 -110.88586
112897000 -28.095362 -109.19759 -0.081676565 -22.782963 -0.078692727 -22.769352 -28.350065 -111.05444
113896000 -27.997992 -109.77871 -0.082954213 -22.9828 -0.079520486 -22.970484 -28.241781 -111.22289
114895000 -27.894003 -110.41843 -0.083934002 -23.180618 -0.081089184 -23.166569 -28.132444 -111.26064
115894000 -27.761791 -110.76531 -0.084961005 -23.379696 -0.082782447 -23.370079 -28.063986 -111.46584
116893000 -27.679716 -111.3225 -0.084663779 -23.575788 -0.08362788 -23.557814 -27.929413 -111.59496
117892000 -27.606863 -111.80532 -0.084957838 -23.774887 -0.084128246 -23.762482 -27.862637 -111.84319
118891000 -27.550228 -112.26135 -0.086154595 -23.971594 -0.083963037 -23.959625 -27.763226 -111.97277
119890000 -27.451889 -112.63609 -0.08633811 -24.175627 -0.084413819 -24.157858 -27.749481 -112.08912
120889000 -27.400988 -113.12762 -0.087674446 -24.377235 -0.0848343 -24.361578 -27.675547 -112.06824
121888000 -27.363657 -113.45581 -0.088012822 -24.57061 -0.08501301 -24.556917 -27.616247 -112.37283
122887000 -27.31996 -113.64608 -0.088955969 -24.77486 -0.086018346 -24.759598 -27.574329 -112.41427
123886000 -27.26613 -114.06556 -0.089340158 -24.976551 -0.086760886 -24.955128 -27.558031 -112.53973
124885000 -27.231853 -114.60988 -0.089935265 -25.172384 -0.086609833 -25.162415 -27.531189 -112.6552
125884000 -27.177967 -114.771 -0.09009251 -25.370396 -0.086463802 -25.354774 -27.499647 -112.82723
126883000 -27.154188 -115.13195 -0.090610541 -25.576941 -0.087599695 -25.559612 -27.461687 -112.86219
127882000 -27.108236 -115.46253 -0.090879366 -25.772287 -0.088188224 -25.756895 -27.419659 -113.01347
128881000 -27.078852 -115.79108 -0.091168024 -25.976728 -0.087647237 -25.957834 -27.383396 -113.1145
129880000 -27.02422 -116.09399 -0.092195153 -26.174967 -0.087909266 -26.155775 -27.336084 -113.10702
130879000 -26.961996 -116.27072 -0.092131957 -26.375925 -0.08925692 -26.35858 -27.260715 -113.18256
131878000 -26.896572 -116.47105 -0.091979921 -26.579237 -0.089526452 -26.560099 -27.196119 -113.10625
132877000 -26.827417 -116.53757 -0.091636747 -26.777613 -0.089980721 -26.762495 -27.112539 -113.06039
133876000 -26.748119 -116.71545 -0.092035182 -26.97909 -0.089188226 -26.957161 -27.025644 -113.04793
134875000 -26.647749 -116.86543 -0.091776602 -27.177963 -0.089862593 -27.159555 -26.912291 -112.90054
135874000 -26.569977 -116.881 -0.092052899 -27.378923 -0.089241333 -27.36289 -26.819147 -112.8689
136873000 -26.457531 -116.81535 -0.092866816 -27.584332 -0.089376621 -27.562054 -26.735943 -112.82262
137872000 -26.381609 -116.96479 -0.092303827 -27.785486 -0.089655668 -27.765903 -26.63121 -112.79666
138871000 -26.310844 -117.1597 -0.092990316 -27.978539 -0.090312406 -27.963835 -26.534437 -112.95625
139870000 -26.20735 -117.38454 -0.093800701 -28.180973 -0.091331929 -28.163883 -26.456152 -113.1591
140869000 -26.118685 -117.83266 -0.095744766 -28.376986 -0.092506379 -28.358812 -26.352293 -113.27906
141868000 -26.021549 -118.3517 -0.095869415 -28.568794 -0.093227282 -28.552198 -26.279015 -113.59676
142867000 -25.947189 -118.58017 -0.094432935 -28.763828 -0.092716344 -28.749367 -26.201464 -113.77562
143866000 -25.874537 -119.13267 -0.095927633 -28.96434 -0.093015701 -28.946171 -26.127729 -114.30749
144865000 -25.822222 -119.6081 -0.097308487 -29.161415 -0.094671562 -29.144363 -26.069908 -114.61918
145864000 -25.767405 -119.9361 -0.097867355 -29.362396 -0.096094891 -29.348551 -26.036098 -114.88831
146863000 -25.718094 -120.31231 -0.0988288 -29.560486 -0.096782245 -29.548199 -25.986538 -115.1874
147862000 -25.67931 -120.65965 -0.099333309 -29.755199 -0.096811354 -29.742168 -25.954885 -115.50771
148861000 -25.647957 -121.20107 -0.099455938 -29.953382 -0.097576924 -29.941545 -25.928452 -115.77566
149860000 -25.630667 -121.3521 -0.099564791 -30.154305 -0.097872913 -30.144238 -25.896471 -115.90855
150859000 -25.612869 -121.78827 -0.10071948 -30.354151 -0.098264247 -30.338785 -25.888565 -116.158
151858000 -25.595081 -122.04404 -0.10035177 -30.553379 -0.099154271 -30.533808 -25.879866 -116.46703
152857000 -25.580893 -122.35762 -0.10107663 -30.74828 -0.098597884 -30.735544 -25.861315 -116.57981
153856000 -25.575237 -122.56227 -0.10083818 -30.948111 -0.097770981 -30.935989 -25.874422 -116.89679
154855000 -25.564039 -122.73312 -0.10102046 -31.150293 -0.098164156 -31.133154 -25.869574 -117.10872
155854000 -25.580223 -123.00526 -0.10143168 -31.347282 -0.098684743 -31.332109 -25.858671 -117.35777
156853000 -25.565908 -123.72768 -0.099053904 -31.536325 -0.097293921 -31.523542 -25.854889 -117.69376
157852000 -25.57131 -123.9179 -0.10047522 -31.73476 -0.09973722 -31.725624 -25.844297 -118.0053
158851000 -25.56464 -124.17048 -0.1009574 -31.931309 -0.099698551 -31.922655 -25.827753 -118.28964
159850000 -25.547922 -124.28592 -0.10134159 -32.130703 -0.099943295 -32.121822 -25.827038 -118.43542
160849000 -25.534752 -124.39277 -0.10167335 -32.330502 -0.10079844 -32.324413 -25.796583 -118.73105
161848000 -25.510981 -124.52377 -0.10204117 -32.530949 -0.10093726 -32.520763 -25.756975 -118.83001
162847000 -25.469381 -124.72205 -0.10193358 -32.728024 -0.10129336 -32.725166 -25.728189 -119.09292
163846000 -25.435101 -124.92111 -0.10257044 -32.930363 -0.10146958 -32.918591 -25.654297 -119.11073
164845000 -25.374254 -124.93507 -0.10249887 -33.128613 -0.10132781 -33.118095 -25.581432 -119.19934
165844000 -25.319695 -125.03799 -0.10256752 -33.325851 -0.10209019 -33.320473 -25.503273 -119.30909
166843000 -25.252581 -125.13408 -0.10231785 -33.526493 -0.10175762 -33.516464 -25.436018 -119.4936
167842000 -25.19541 -125.25482 -0.1032551 -33.722775 -0.10137339 -33.718788 -25.357456 -119.42967
168841000 -25.11882 -125.45502 -0.10283867 -33.922874 -0.10294549 -33.91378 -25.276976 -119.52423
169840000 -25.052355 -125.72885 -0.10347513 -34.115757 -0.10280607 -34.11393 -25.189924 -119.70729
170839000 -24.994637 -125.96639 -0.10442377 -34.315609 -0.10360344 -34.310635 -25.109402 -119.89334
171838000 -24.939472 -126.40963 -0.10404249 -34.516136 -0.10403082 -34.509281 -25.043253 -120.13731
172837000 -24.873318 -126.74859 -0.10557631 -34.709122 -0.10514612 -34.703899 -24.974455 -120.36369
173836000 -24.797756 -127.18628 -0.10639966 -34.907211 -0.10580653 -34.905212 -24.929796 -120.58281
174835000 -24.746399 -127.62322 -0.10657845 -35.100777 -0.10632724 -35.103413 -24.887211 -120.9447
175834000 -24.694523 -128.01332 -0.10779578 -35.301506 -0.10757659 -35.29874 -24.819637 -121.18959
176833000 -24.640453 -128.37547 -0.10826285 -35.500511 -0.10844597 -35.498035 -24.772329 -121.3867
177832000 -24.595907 -128.8259 -0.10900787 -35.693623 -0.10826603 -35.695114 -24.743473 -121.54079
178831000 -24.553619 -129.23051 -0.1090883 -35.894913 -0.10904955 -35.888676 -24.709074 -121.77637
179830000 -24.520649 -129.6098 -0.10980771 -36.088318 -0.10869334 -36.089466 -24.680773 -121.8895
180829000 -24.478991 -129.84813 -0.10986904 -36.286125 -0.10978542 -36.2869 -24.65234 -122.04077
181828000 -24.455471 -130.21805 -0.11050866 -36.480927 -0.10946047 -36.48188 -24.632694 -122.17302
182827000 -24.430325 -130.56761 -0.11042422 -36.677971 -0.11075561 -36.677898 -24.618959 -122.25328
183826000 -24.39159 -130.84952 -0.11142006 -36.873604 -0.11060584 -36.870159 -24.611391 -122.37163
184825000 -24.395041 -131.17159 -0.11169177 -37.071911 -0.11022323 -37.06633 -24.598116 -122.49374
185824000 -24.368275 -131.52534 -0.11076597 -37.266823 -0.11128195 -37.267921 -24.59201 -122.52804
186823000 -24.355312 -131.90347 -0.11081456 -37.463924 -0.11088918 -37.463375 -24.590939 -122.50127
187822000 -24.33173 -132.2065 -0.11202059 -37.663803 -0.11133561 -37.660133 -24.555309 -122.53559
188821000 -24.310423 -132.44205 -0.11167237 -37.856743 -0.111615 -37.859398 -24.541605 -122.68421
189820000 -24.299263 -132.718 -0.11241134 -38.05994 -0.11212525 -38.056835 -24.529428 -122.81165
190819000 -24.267693 -132.97658 -0.11345918 -38.255859 -0.11250219 -38.253353 -24.495861 -122.78686
191818000 -24.232222 -133.12827 -0.11443073 -38.448837 -0.11400605 -38.451027 -24.463825 -122.69543
192817000 -24.162422 -133.42036 -0.11491021 -38.636364 -0.11528022 -38.638531 -24.391787 -122.78268
193816000 -24.132481 -133.78833 -0.11406664 -38.829189 -0.11364412 -38.829865 -24.335611 -123.02599
194815000 -24.069567 -134.22974 -0.11358991 -39.022717 -0.11409774 -39.028717 -24.275797 -123.13938
195814000 -24.018366 -134.4511 -0.11472522 -39.223148 -0.11378735 -39.227077 -24.221106 -123.26688
196813000 -23.967842 -134.77408 -0.11405176 -39.418301 -0.11390613 -39.417076 -24.147242 -123.44081
197812000 -23.912657 -135.02667 -0.113963 -39.616848 -0.11385351 -39.612812 -24.080585 -123.5416
198811000 -23.858604 -135.21632 -0.11458089 -39.814247 -0.11336326 -39.814465 -24.008413 -123.71925
199810000 -23.78219 -135.58913 -0.11460295 -40.009022 -0.11410385 -40.002453 -23.929502 -123.7903
200809000 -23.729424 -135.867 -0.11481479 -40.205803 -0.11406133 -40.20507 -23.854124 -123.98767
201808000 -23.669756 -136.10794 -0.11545088 -40.404663 -0.11500616 -40.41008 -23.784351 -124.07331
202807000 -23.615618 -136.47491 -0.11617295 -40.605198 -0.11623755 -40.607334 -23.729244 -124.26293
203806000 -23.562119 -136.90576 -0.11807545 -40.805756 -0.11589431 -40.806271 -23.668528 -124.48516
