!Keysight Technologies,E5080B,MY59205177,A.15.75.32
!Date: Friday, February 23, 2024 03:41:37
!Correction: S11(Cdelta 2-Port  ) 
!S21(Cdelta 2-Port  ) 
!S12(Cdelta 2-Port  ) 
!S22(Cdelta 2-Port  ) 
!S2P File: Measurements: S11, S21, S12, S22:
# Hz S  dB   R 50
10000000 -46.127708 -2.7169292 -0.014506104 -2.0404696 -0.018235549 -2.0959845 -45.867825 -157.43048
10999000 -45.268303 -5.0624938 -0.015680483 -2.2607875 -0.018673064 -2.3152907 -45.861519 -151.16646
11998000 -44.33567 -8.038518 -0.015781026 -2.4874201 -0.018588834 -2.5314302 -45.995159 -146.83472
12997000 -43.591949 -13.379678 -0.015375753 -2.6673203 -0.017946756 -2.6955178 -45.576965 -140.77376
13996000 -43.302071 -17.476469 -0.014388969 -2.8464055 -0.017945196 -2.8671267 -45.347889 -135.85513
14995000 -42.924927 -21.916531 -0.016764488 -3.0541382 -0.017871635 -3.0779791 -45.014046 -132.68623
15994000 -42.734261 -26.461697 -0.017977167 -3.2727871 -0.020442815 -3.2953632 -44.943588 -129.28722
16993000 -42.672695 -31.034653 -0.017158974 -3.4692645 -0.019538349 -3.4813697 -44.113815 -129.06845
17992000 -42.687969 -36.45541 -0.017109597 -3.6706283 -0.020108104 -3.6706917 -43.523705 -129.07899
18991000 -42.959999 -41.419014 -0.01853502 -3.8828852 -0.020668572 -3.8768342 -42.909008 -128.25371
19990000 -42.718941 -47.404541 -0.021112056 -4.0929179 -0.023456901 -4.0847535 -42.212013 -128.75485
20989000 -42.557903 -50.866348 -0.023455599 -4.295084 -0.024319492 -4.2806773 -41.693008 -128.036
21988000 -42.344711 -55.981506 -0.024188036 -4.4895153 -0.025204388 -4.4803367 -41.419022 -127.46766
22987000 -42.024475 -60.975307 -0.025511632 -4.6891818 -0.027002851 -4.6825199 -41.178677 -126.85387
23986000 -41.97311 -65.025482 -0.024455119 -4.8849511 -0.02516976 -4.8830891 -41.050831 -126.8371
24985000 -41.519756 -67.496803 -0.025000786 -5.0931506 -0.025563188 -5.0900288 -40.81126 -124.39333
25984000 -41.149261 -69.933273 -0.026478026 -5.2991543 -0.026547566 -5.3001981 -40.494923 -123.07626
26983000 -40.855865 -71.598351 -0.026986962 -5.4987144 -0.026718682 -5.5164161 -40.396374 -122.26717
27982000 -40.708282 -72.484413 -0.028403386 -5.6968999 -0.027793983 -5.7308044 -40.105396 -120.49896
28981000 -40.672935 -74.265297 -0.026649661 -5.8963385 -0.028547738 -5.9179945 -39.827858 -119.89166
29980000 -40.253571 -75.443039 -0.026872616 -6.090548 -0.029122846 -6.0961452 -39.589958 -119.14758
30979000 -39.861877 -74.520912 -0.023930082 -6.4438381 -0.024159404 -6.4349332 -39.122452 -119.57014
31978000 -39.647587 -75.35556 -0.023378562 -6.6382365 -0.024402535 -6.6272674 -38.857738 -118.79752
32977000 -39.455875 -77.132866 -0.023323389 -6.8470535 -0.025668386 -6.8429484 -38.639309 -118.7918
33976000 -39.297039 -78.087463 -0.024162266 -7.0479498 -0.026169673 -7.0423055 -38.328594 -118.33381
34975000 -38.98177 -78.774399 -0.02426639 -7.2481637 -0.026505113 -7.2482619 -38.118214 -117.84839
35974000 -38.807178 -79.446411 -0.023697389 -7.4442677 -0.026364736 -7.4469042 -37.832764 -116.90285
36973000 -38.543743 -79.898758 -0.023491256 -7.6445365 -0.027465999 -7.6482477 -37.573078 -115.99305
37972000 -38.38958 -79.639328 -0.023394438 -7.85179 -0.02703541 -7.8594604 -37.357864 -115.37176
38971000 -38.067272 -79.130882 -0.024804745 -8.0559778 -0.027346689 -8.0648289 -37.188293 -113.65286
39970000 -37.738079 -79.494263 -0.022772467 -8.2468042 -0.026045192 -8.2681637 -36.942322 -113.17818
40969000 -37.461117 -79.005432 -0.023271859 -8.4425507 -0.02617332 -8.4632063 -36.727097 -111.80856
41968000 -37.108158 -79.04409 -0.023552679 -8.649435 -0.027092194 -8.6636496 -36.515285 -110.52563
42967000 -36.869553 -79.089645 -0.022398025 -8.8604527 -0.027342783 -8.8801403 -36.33231 -108.67792
43966000 -36.583698 -79.730598 -0.02384731 -9.0609131 -0.027878914 -9.078908 -36.057068 -107.94259
44965000 -36.326828 -80.387039 -0.025095817 -9.2632456 -0.027894545 -9.2798491 -35.837502 -107.65259
45964000 -36.092136 -81.483406 -0.026172537 -9.4635563 -0.02922787 -9.4829626 -35.621117 -107.35571
46963000 -35.898445 -83.35466 -0.026181914 -9.6610422 -0.030227676 -9.6801367 -35.443439 -107.55448
47962000 -35.736675 -84.743217 -0.027322724 -9.8640766 -0.031037906 -9.8768663 -35.235226 -107.58425
48961000 -35.53133 -86.197289 -0.029837213 -10.056351 -0.032513812 -10.078714 -35.009193 -107.84093
49960000 -35.285072 -87.549492 -0.031541642 -10.256614 -0.033439767 -10.280258 -34.891479 -107.9
50959000 -35.062172 -88.852577 -0.031146627 -10.47303 -0.034850992 -10.479611 -34.702057 -108.20667
51958000 -34.865116 -89.79129 -0.033780206 -10.667122 -0.035710894 -10.679703 -34.523563 -108.63877
52957000 -34.642593 -90.823845 -0.034843687 -10.869971 -0.036831237 -10.875474 -34.371422 -108.38781
53956000 -34.470791 -91.47316 -0.036588714 -11.068493 -0.038046662 -11.075304 -34.233288 -108.37701
54955000 -34.312447 -92.074631 -0.037595961 -11.270188 -0.038270723 -11.272122 -34.078159 -108.28677
55954000 -34.128616 -92.852516 -0.037412405 -11.47092 -0.038918164 -11.468904 -33.974552 -108.01129
56953000 -34.010258 -92.962288 -0.037710849 -11.672285 -0.038123176 -11.659226 -33.897278 -108.27257
57952000 -33.849064 -93.532951 -0.0394889 -11.870926 -0.038972229 -11.857631 -33.802494 -108.32504
58951000 -33.712532 -93.765099 -0.039803427 -12.073492 -0.039504573 -12.054815 -33.64502 -108.41949
59950000 -33.59119 -94.239487 -0.040962975 -12.275381 -0.041112449 -12.25016 -33.565582 -108.67694
60949000 -33.478493 -94.779686 -0.04116733 -12.477676 -0.041134141 -12.453773 -33.466892 -108.9789
61948000 -33.416283 -95.102448 -0.041530326 -12.675246 -0.04098336 -12.659392 -33.379036 -109.01964
62947000 -33.317661 -95.267372 -0.041355226 -12.885826 -0.042508654 -12.862148 -33.239986 -109.29469
63946000 -33.238071 -96.069054 -0.042550482 -13.084505 -0.042977381 -13.065587 -33.134937 -109.42529
64945000 -33.134747 -96.160995 -0.043012936 -13.285484 -0.043635461 -13.269918 -33.016701 -109.91633
65944000 -33.029449 -96.505135 -0.044035535 -13.485212 -0.043534797 -13.469317 -32.911411 -110.35269
66943000 -32.884506 -96.819931 -0.041578934 -13.690074 -0.042401221 -13.672103 -32.806488 -110.59772
67942000 -32.822464 -96.838684 -0.04300274 -13.883034 -0.044413414 -13.871858 -32.686291 -110.89839
68941000 -32.705376 -96.89418 -0.042862091 -14.078714 -0.043286148 -14.06713 -32.586021 -110.83269
69940000 -32.619587 -96.895859 -0.043423671 -14.277928 -0.0442973 -14.267671 -32.428783 -111.03127
70939000 -32.510387 -96.82338 -0.043558065 -14.476089 -0.043523028 -14.466931 -32.301765 -110.99564
71938000 -32.370663 -96.419411 -0.043583952 -14.667546 -0.04373116 -14.66606 -32.171452 -110.85596
72937000 -32.222672 -96.192932 -0.04260616 -14.86804 -0.042296663 -14.865155 -32.046124 -110.56285
73936000 -32.074863 -95.75386 -0.042869411 -15.067965 -0.042286206 -15.060081 -31.928629 -110.32156
74935000 -31.953287 -96.073433 -0.041679293 -15.263364 -0.041953206 -15.259898 -31.780989 -110.0313
75934000 -31.826633 -96.342522 -0.041730259 -15.47021 -0.041280221 -15.464504 -31.69529 -109.96937
76933000 -31.701721 -96.624245 -0.04338184 -15.664173 -0.04338916 -15.658677 -31.518499 -110.24988
77932000 -31.599148 -97.407967 -0.04355545 -15.863647 -0.04419636 -15.860306 -31.419157 -110.24628
78931000 -31.525015 -98.11364 -0.043075945 -16.063513 -0.043951593 -16.056963 -31.323278 -110.09969
79930000 -31.41345 -99.010719 -0.04540129 -16.255127 -0.045620762 -16.254477 -31.223043 -110.4315
80929000 -31.301571 -99.758514 -0.047304701 -16.452848 -0.047714796 -16.447475 -31.120083 -110.64367
81928000 -31.204784 -100.4569 -0.047284029 -16.642588 -0.048585363 -16.639648 -30.98885 -110.62047
82927000 -31.108007 -101.25391 -0.049045846 -16.843794 -0.049363941 -16.841516 -30.898832 -110.9211
83926000 -30.993776 -101.91264 -0.050347969 -17.039478 -0.050351635 -17.039635 -30.773373 -111.13299
84925000 -30.880806 -102.38782 -0.051365223 -17.241653 -0.051098052 -17.234821 -30.680864 -111.16147
85924000 -30.801582 -102.76392 -0.052042127 -17.4366 -0.051406872 -17.439575 -30.600697 -111.1353
86923000 -30.68515 -103.26627 -0.051996019 -17.639605 -0.052226566 -17.627861 -30.495237 -111.03398
87922000 -30.580507 -103.59795 -0.051518984 -17.843254 -0.052071467 -17.835268 -30.409626 -111.06389
88921000 -30.503136 -103.87106 -0.053047985 -18.039894 -0.052630574 -18.042227 -30.316629 -111.03396
89920000 -30.392492 -104.40555 -0.053465176 -18.243896 -0.053370308 -18.231972 -30.260572 -111.20837
90919000 -30.297611 -104.63328 -0.054468218 -18.444061 -0.053839158 -18.431396 -30.174929 -111.37654
91918000 -30.196577 -104.98572 -0.055176806 -18.641888 -0.054584078 -18.634991 -30.109076 -111.39499
92917000 -30.109331 -105.32621 -0.05659144 -18.839191 -0.055630643 -18.834358 -30.041237 -111.51292
93916000 -30.010199 -105.61227 -0.055524454 -19.033552 -0.055136956 -19.028177 -29.950859 -112.10335
94915000 -29.944242 -106.26834 -0.057695411 -19.232929 -0.056182865 -19.226786 -29.891077 -111.93803
95914000 -29.874245 -106.46004 -0.058544628 -19.429466 -0.0569872 -19.426769 -29.801302 -112.19959
96913000 -29.785248 -106.68337 -0.059307937 -19.628624 -0.05816289 -19.62676 -29.737549 -112.55405
97912000 -29.707859 -107.14397 -0.060413126 -19.822136 -0.057927571 -19.824678 -29.650978 -112.81215
98911000 -29.604492 -107.26287 -0.060671154 -20.024107 -0.059575874 -20.022335 -29.614691 -113.01598
99910000 -29.532227 -107.44109 -0.061621252 -20.224937 -0.060103402 -20.223848 -29.502495 -113.28452
100909000 -29.445057 -107.64107 -0.060678504 -20.43055 -0.059290878 -20.426926 -29.427467 -113.49072
101908000 -29.35074 -107.88681 -0.062080752 -20.632069 -0.060443833 -20.62978 -29.307198 -113.24722
102907000 -29.215601 -107.85545 -0.062962085 -20.831276 -0.06071027 -20.829937 -29.237873 -113.24466
103906000 -29.129313 -107.95539 -0.063010149 -21.040003 -0.060884051 -21.033897 -29.096411 -113.22373
104905000 -28.980894 -107.80813 -0.063105747 -21.236624 -0.060588993 -21.238054 -28.974812 -112.93536
105904000 -28.842587 -107.85939 -0.063599296 -21.439661 -0.060534656 -21.436914 -28.866362 -112.7962
106903000 -28.736137 -107.94675 -0.063306153 -21.644737 -0.061323259 -21.638943 -28.740156 -112.66353
107902000 -28.573032 -108.2852 -0.064035363 -21.844261 -0.062319715 -21.833385 -28.596985 -112.63673
108901000 -28.463554 -108.49829 -0.065150686 -22.050102 -0.062787697 -22.038059 -28.476526 -112.58283
109900000 -28.336254 -108.95443 -0.065815553 -22.249516 -0.064226612 -22.239765 -28.323244 -112.64709
110899000 -28.216112 -109.5354 -0.067516811 -22.445753 -0.065178014 -22.436924 -28.210798 -112.8959
111898000 -28.129128 -110.18291 -0.069072492 -22.648239 -0.066408232 -22.637913 -28.083115 -113.05183
112897000 -28.008505 -110.78011 -0.070082307 -22.848831 -0.066822767 -22.835655 -27.94998 -113.22919
113896000 -27.904238 -111.31196 -0.071385227 -23.045963 -0.068260923 -23.035204 -27.844036 -113.34725
114895000 -27.799011 -111.96889 -0.071838394 -23.244953 -0.069838449 -23.230335 -27.736216 -113.41026
115894000 -27.68117 -112.29914 -0.072838321 -23.444767 -0.071122609 -23.431889 -27.671099 -113.60818
116893000 -27.602167 -112.84177 -0.0735557 -23.642477 -0.071807601 -23.624859 -27.547581 -113.67304
117892000 -27.528975 -113.33524 -0.073718414 -23.83885 -0.072026305 -23.823601 -27.472206 -113.82246
118891000 -27.463255 -113.71422 -0.074368529 -24.03908 -0.072644316 -24.033636 -27.381414 -113.98924
119890000 -27.373199 -114.07851 -0.075210474 -24.24198 -0.072988108 -24.22821 -27.359261 -114.11564
120889000 -27.326109 -114.5829 -0.07708326 -24.442324 -0.072992578 -24.427132 -27.293264 -114.06039
121888000 -27.283794 -114.93851 -0.077642433 -24.63681 -0.073759221 -24.623192 -27.235157 -114.32471
122887000 -27.251749 -115.12187 -0.077188924 -24.838213 -0.074665576 -24.822344 -27.190506 -114.3316
123886000 -27.192085 -115.53335 -0.077804506 -25.044731 -0.075143844 -25.025801 -27.172457 -114.5061
124885000 -27.159773 -116.04664 -0.078397773 -25.244059 -0.075382203 -25.229637 -27.148592 -114.54408
125884000 -27.11157 -116.2254 -0.078974515 -25.44236 -0.075440414 -25.424076 -27.116163 -114.66018
126883000 -27.09186 -116.63445 -0.078617334 -25.641336 -0.076256752 -25.629536 -27.079929 -114.69398
127882000 -27.047955 -116.87218 -0.078854308 -25.843063 -0.076537862 -25.826517 -27.035194 -114.83563
128881000 -27.012896 -117.21628 -0.079356767 -26.04352 -0.076537073 -26.025835 -27.005547 -114.90785
129880000 -26.958643 -117.51074 -0.080379516 -26.249264 -0.076833472 -26.228804 -26.965141 -114.85388
130879000 -26.893269 -117.69316 -0.08024741 -26.446459 -0.077407636 -26.432055 -26.89551 -114.87557
131878000 -26.834026 -117.92117 -0.080337062 -26.650204 -0.077628992 -26.630005 -26.835213 -114.76299
132877000 -26.767685 -117.96876 -0.080259539 -26.851334 -0.078269944 -26.83124 -26.755192 -114.72366
133876000 -26.683628 -118.15155 -0.080575712 -27.051943 -0.07841596 -27.034288 -26.668173 -114.60976
134875000 -26.594517 -118.21081 -0.081613787 -27.25201 -0.07905861 -27.240925 -26.572899 -114.44524
135874000 -26.514713 -118.27045 -0.080491066 -27.448709 -0.078402258 -27.436661 -26.475542 -114.41439
136873000 -26.398003 -118.19814 -0.081185445 -27.65506 -0.078197464 -27.63674 -26.392641 -114.36822
137872000 -26.324387 -118.31631 -0.081405416 -27.853659 -0.078025095 -27.838629 -26.297276 -114.30904
138871000 -26.252132 -118.53725 -0.082102582 -28.054672 -0.07857912 -28.040907 -26.199839 -114.45341
139870000 -26.151705 -118.78356 -0.082753427 -28.255251 -0.07908576 -28.2374 -26.121582 -114.62526
140869000 -26.077213 -119.32601 -0.083501473 -28.45155 -0.080460213 -28.434574 -26.019384 -114.84438
141868000 -25.996431 -119.72844 -0.084065698 -28.652006 -0.081299648 -28.636013 -25.971128 -115.09907
142867000 -25.915194 -119.92834 -0.082959227 -28.848637 -0.080859736 -28.834118 -25.8922 -115.19311
143866000 -25.842783 -120.41933 -0.084317483 -29.047565 -0.082442895 -29.031439 -25.819181 -115.65482
144865000 -25.782118 -120.93793 -0.086034454 -29.244387 -0.08376167 -29.232483 -25.761902 -115.94511
145864000 -25.730694 -121.2515 -0.086681925 -29.442863 -0.085328206 -29.434664 -25.729332 -116.2085
146863000 -25.687963 -121.60197 -0.087194532 -29.645594 -0.085375465 -29.632746 -25.686443 -116.52023
147862000 -25.645796 -121.97083 -0.088757545 -29.843504 -0.085808441 -29.831316 -25.646952 -116.81103
148861000 -25.614754 -122.4087 -0.08909072 -30.045904 -0.087159671 -30.02891 -25.621475 -117.01733
149860000 -25.577187 -122.56201 -0.09024395 -30.233755 -0.08811558 -30.225016 -25.571142 -117.10271
150859000 -25.552982 -123.0653 -0.089850701 -30.432396 -0.087656222 -30.419645 -25.555922 -117.45953
151858000 -25.543922 -123.41427 -0.089037351 -30.632839 -0.087311268 -30.616056 -25.539064 -117.82317
152857000 -25.530268 -123.73801 -0.089793883 -30.828609 -0.088077277 -30.822601 -25.522665 -118.01417
153856000 -25.524261 -123.9378 -0.088708408 -31.028187 -0.087099984 -31.017065 -25.539295 -118.29935
154855000 -25.519579 -124.11839 -0.089995787 -31.22912 -0.086923033 -31.216028 -25.529608 -118.53314
155854000 -25.534128 -124.39259 -0.089975968 -31.431828 -0.08781787 -31.412828 -25.516575 -118.81117
156853000 -25.518618 -125.02787 -0.088129051 -31.617022 -0.087186605 -31.611902 -25.511326 -119.12257
157852000 -25.520908 -125.27274 -0.089244507 -31.821705 -0.088007011 -31.81284 -25.500311 -119.4759
158851000 -25.515985 -125.46086 -0.090189241 -32.017677 -0.08840432 -32.010151 -25.484282 -119.7598
159850000 -25.505445 -125.5737 -0.090602882 -32.219849 -0.088857681 -32.209969 -25.484514 -119.92105
160849000 -25.487434 -125.68757 -0.090047054 -32.416821 -0.089923635 -32.412884 -25.45182 -120.20454
161848000 -25.474869 -125.72888 -0.091115683 -32.616962 -0.08971037 -32.609947 -25.412693 -120.35348
162847000 -25.431524 -125.8913 -0.091068104 -32.817284 -0.090804555 -32.811214 -25.382298 -120.58711
163846000 -25.391684 -126.10752 -0.090793453 -33.016724 -0.090471782 -33.010544 -25.306419 -120.5403
164845000 -25.332933 -126.09978 -0.091123618 -33.213013 -0.090581208 -33.211006 -25.250038 -120.67761
165844000 -25.281317 -126.08582 -0.091715798 -33.41737 -0.090404116 -33.406521 -25.16651 -120.80894
166843000 -25.221813 -126.15071 -0.09154924 -33.615299 -0.090629578 -33.607685 -25.099314 -120.97176
167842000 -25.165413 -126.26702 -0.092348777 -33.81382 -0.090411521 -33.809753 -25.027733 -120.91242
168841000 -25.088957 -126.4313 -0.092397958 -34.01376 -0.091122031 -34.011803 -24.951782 -120.95422
169840000 -25.022804 -126.64751 -0.092156813 -34.208183 -0.09170945 -34.205658 -24.869226 -121.09183
170839000 -24.963024 -126.88701 -0.093199514 -34.404449 -0.092286378 -34.404217 -24.781965 -121.2762
171838000 -24.906086 -127.29015 -0.092879772 -34.612846 -0.092837989 -34.603233 -24.723877 -121.54091
172837000 -24.840578 -127.63268 -0.094550923 -34.805595 -0.093853608 -34.79937 -24.655127 -121.73893
173836000 -24.771772 -128.00989 -0.095666967 -35.003529 -0.094437696 -35.002747 -24.617176 -121.93823
174835000 -24.718454 -128.43388 -0.096302114 -35.198944 -0.09552037 -35.200897 -24.568977 -122.25915
175834000 -24.673048 -128.76164 -0.09718062 -35.401257 -0.096771657 -35.39827 -24.516172 -122.50022
176833000 -24.621738 -129.1422 -0.098340504 -35.600891 -0.097626962 -35.599094 -24.467091 -122.62974
177832000 -24.574507 -129.53316 -0.099144742 -35.798687 -0.098308727 -35.800751 -24.448986 -122.75809
178831000 -24.529072 -129.78435 -0.10048582 -35.99894 -0.10056291 -35.992142 -24.407013 -122.83982
179830000 -24.466097 -130.20271 -0.10203269 -36.176311 -0.1006302 -36.178417 -24.341272 -122.90871
180829000 -24.415373 -130.55405 -0.10027388 -36.374119 -0.099677362 -36.371101 -24.304491 -123.22321
181828000 -24.390797 -130.98155 -0.099904627 -36.571808 -0.099259943 -36.570477 -24.289097 -123.45663
182827000 -24.369509 -131.34424 -0.099139176 -36.769695 -0.099588364 -36.770657 -24.272638 -123.55121
183826000 -24.333406 -131.7099 -0.10125786 -36.968964 -0.099725038 -36.96703 -24.263643 -123.73616
184825000 -24.328876 -132.03282 -0.10030276 -37.168514 -0.099895619 -37.164474 -24.249458 -123.82212
185824000 -24.307322 -132.41966 -0.10054993 -37.357647 -0.09991204 -37.360054 -24.24316 -123.90629
186823000 -24.284069 -132.76704 -0.10023627 -37.564102 -0.10062782 -37.556774 -24.235556 -123.92767
187822000 -24.260696 -133.12708 -0.10086414 -37.754944 -0.10114074 -37.756916 -24.200441 -124.00581
188821000 -24.243349 -133.35831 -0.10007522 -37.949947 -0.10129443 -37.957802 -24.17679 -124.10178
189820000 -24.221149 -133.65881 -0.10128383 -38.151608 -0.10129125 -38.151665 -24.160559 -124.3279
190819000 -24.184679 -133.96727 -0.10209152 -38.351315 -0.10153979 -38.349354 -24.124876 -124.33155
191818000 -24.154047 -134.2542 -0.10202474 -38.546234 -0.10148548 -38.547791 -24.097681 -124.36323
192817000 -24.108988 -134.52591 -0.10210425 -38.742054 -0.10177246 -38.745186 -24.051476 -124.45824
193816000 -24.075233 -134.73782 -0.1024509 -38.940552 -0.10163307 -38.942177 -24.000135 -124.60634
194815000 -24.016985 -135.17561 -0.1026526 -39.134151 -0.10280713 -39.138062 -23.938162 -124.68284
195814000 -23.961777 -135.37018 -0.10301945 -39.33054 -0.10273371 -39.334652 -23.881006 -124.75816
196813000 -23.906628 -135.68607 -0.10302979 -39.527977 -0.10261974 -39.529865 -23.80028 -124.90932
197812000 -23.850132 -135.86803 -0.1030881 -39.727135 -0.10329646 -39.724232 -23.733837 -124.99446
198811000 -23.800879 -136.03893 -0.1030388 -39.921837 -0.10253996 -39.925842 -23.663921 -125.16615
199810000 -23.729427 -136.37102 -0.10399529 -40.113571 -0.1024085 -40.112087 -23.582989 -125.23534
200809000 -23.671394 -136.62102 -0.10421059 -40.311626 -0.10340886 -40.314133 -23.507746 -125.39248
201808000 -23.61236 -136.82832 -0.1047303 -40.518394 -0.10416551 -40.515347 -23.441935 -125.47081
202807000 -23.55591 -137.14638 -0.10545722 -40.71225 -0.10439195 -40.716644 -23.38834 -125.66083
