!Keysight Technologies,E5080B,MY59205177,A.15.75.32
!Date: Friday, February 23, 2024 03:03:29
!Correction: S11(Cdelta 2-Port  ) 
!S21(Cdelta 2-Port  ) 
!S12(Cdelta 2-Port  ) 
!S22(Cdelta 2-Port  ) 
!S2P File: Measurements: S11, S21, S12, S22:
# Hz S  dB   R 50
10000000 -44.199776 -3.5269539 -0.027274534 -2.0412583 -0.030529801 -2.0906897 -48.048508 -150.59299
10999000 -43.534 -5.5138383 -0.029025903 -2.2547958 -0.030183103 -2.3112493 -47.848999 -142.8587
11998000 -42.756905 -8.0479612 -0.028801275 -2.4780457 -0.02955286 -2.5214696 -47.906433 -137.49248
12997000 -42.119778 -12.855018 -0.02805347 -2.6588717 -0.02964356 -2.6887188 -47.189838 -130.78448
13996000 -41.888779 -15.856079 -0.026928356 -2.8368821 -0.029435579 -2.8560693 -46.731506 -125.73664
14995000 -41.555088 -19.825794 -0.029157767 -3.0482259 -0.030057985 -3.0690508 -46.360886 -122.01534
15994000 -41.45866 -23.797121 -0.030545441 -3.2667065 -0.032248583 -3.2855773 -46.094315 -118.64119
16993000 -41.426819 -27.770761 -0.029418118 -3.4589734 -0.031401623 -3.468986 -45.176598 -119.07845
17992000 -41.521976 -32.4398 -0.030333769 -3.6548274 -0.032368284 -3.6620772 -44.571503 -120.13004
18991000 -41.747341 -37.199234 -0.030972468 -3.869683 -0.032668993 -3.8690879 -43.836609 -119.64937
19990000 -41.632637 -41.847363 -0.033117618 -4.0755525 -0.03463624 -4.0706859 -43.145512 -120.98656
20989000 -41.520988 -45.147083 -0.035614844 -4.2792654 -0.036880054 -4.2705283 -42.589054 -120.88849
21988000 -41.432018 -49.620594 -0.035874281 -4.4774289 -0.037454963 -4.4632702 -42.312584 -120.12082
22987000 -41.169819 -54.320179 -0.037418932 -4.6749091 -0.038745258 -4.665967 -42.041931 -119.83746
23986000 -41.1647 -57.971531 -0.036743257 -4.8711543 -0.036968559 -4.8648133 -41.941929 -119.82758
24985000 -40.876251 -60.48703 -0.037871178 -5.0790825 -0.038453531 -5.0728168 -41.665607 -117.3194
25984000 -40.627583 -62.582504 -0.038965963 -5.2827139 -0.038100716 -5.2858062 -41.291309 -116.13526
26983000 -40.350964 -64.362808 -0.040070947 -5.4803481 -0.039362472 -5.4989915 -41.184757 -115.17263
27982000 -40.187267 -65.314957 -0.040767781 -5.6790242 -0.040598985 -5.7154236 -40.88435 -113.70097
28981000 -40.156075 -66.642891 -0.039713819 -5.8748612 -0.040746354 -5.9018993 -40.63002 -113.21896
29980000 -39.790852 -68.218506 -0.038691718 -6.069622 -0.040658299 -6.078526 -40.34008 -112.30701
30979000 -39.427502 -67.506905 -0.036030103 -6.4276404 -0.035516977 -6.4180613 -39.821056 -113.05608
31978000 -39.26263 -68.653702 -0.035355691 -6.6149549 -0.036458712 -6.6107688 -39.538574 -112.6599
32977000 -39.099171 -70.293106 -0.035226509 -6.8317404 -0.037177421 -6.8228793 -39.310776 -112.77501
33976000 -38.939983 -71.385033 -0.036128506 -7.0283442 -0.038088702 -7.0220127 -38.994579 -112.42697
34975000 -38.679253 -72.298676 -0.036449056 -7.2287617 -0.039148018 -7.2298679 -38.743137 -112.09691
35974000 -38.493179 -73.032043 -0.034346353 -7.4242392 -0.037754718 -7.4253292 -38.449406 -111.41489
36973000 -38.273033 -73.864372 -0.035768572 -7.6230454 -0.039148018 -7.6234355 -38.168545 -110.58523
37972000 -38.096241 -73.766273 -0.035353079 -7.8311152 -0.038458232 -7.8404527 -37.9324 -109.74242
38971000 -37.79245 -73.603798 -0.036690265 -8.0341034 -0.03854781 -8.041748 -37.732307 -108.41105
39970000 -37.452351 -74.111336 -0.035304278 -8.225275 -0.036947932 -8.2442808 -37.45034 -107.99232
40969000 -37.184841 -74.157883 -0.035339247 -8.4207258 -0.037719991 -8.4369326 -37.177429 -106.70004
41968000 -36.837349 -74.186363 -0.035888374 -8.6256962 -0.037714507 -8.6443062 -36.974983 -105.6169
42967000 -36.58926 -74.53109 -0.035200413 -8.8336039 -0.038751788 -8.851264 -36.751148 -103.86739
43966000 -36.30843 -75.452728 -0.035959367 -9.0375681 -0.039570142 -9.0521269 -36.461945 -103.28574
44965000 -36.078419 -76.299583 -0.036455318 -9.2397327 -0.03940374 -9.2553101 -36.245708 -103.22239
45964000 -35.864422 -77.506569 -0.037860733 -9.436657 -0.040390741 -9.4555902 -35.996429 -103.07803
46963000 -35.688637 -79.437515 -0.038100455 -9.6301584 -0.041408278 -9.6522131 -35.813091 -103.43183
47962000 -35.530254 -80.968292 -0.039612722 -9.834487 -0.042380832 -9.8480558 -35.610199 -103.6012
48961000 -35.334644 -82.413445 -0.041576583 -10.029016 -0.043902174 -10.049397 -35.380547 -103.85353
49960000 -35.117226 -83.836906 -0.042573746 -10.229733 -0.044920009 -10.251122 -35.248783 -104.13847
50959000 -34.900246 -85.196999 -0.043021563 -10.442235 -0.046064448 -10.449291 -35.064758 -104.44785
51958000 -34.700817 -86.261963 -0.045508802 -10.639388 -0.047496006 -10.648173 -34.894295 -105.08735
52957000 -34.511692 -87.455345 -0.046873711 -10.8427 -0.048256326 -10.843838 -34.728813 -104.81786
53956000 -34.360508 -88.088852 -0.047082528 -11.039528 -0.049507946 -11.039267 -34.596027 -104.84911
54955000 -34.19878 -88.643646 -0.049128313 -11.240384 -0.050325185 -11.238683 -34.444534 -104.82961
55954000 -34.030319 -89.421715 -0.049524702 -11.439175 -0.05082985 -11.43973 -34.3279 -104.63761
56953000 -33.91272 -89.570816 -0.049373105 -11.63996 -0.049881589 -11.630623 -34.263809 -104.82014
57952000 -33.75304 -90.138336 -0.050244268 -11.835862 -0.050779041 -11.82407 -34.158127 -104.95588
58951000 -33.641949 -90.530014 -0.051291358 -12.041803 -0.051331431 -12.019346 -34.002869 -105.10176
59950000 -33.528419 -90.842926 -0.052506644 -12.239524 -0.051672749 -12.215723 -33.939278 -105.34142
60949000 -33.423683 -91.457558 -0.052693196 -12.441044 -0.052757915 -12.416595 -33.842213 -105.70645
61948000 -33.370361 -91.706024 -0.053089652 -12.638637 -0.052202985 -12.619596 -33.760479 -105.78057
62947000 -33.281235 -91.901375 -0.052538872 -12.84773 -0.053086244 -12.828471 -33.616409 -106.03706
63946000 -33.19883 -92.731026 -0.054353669 -13.04987 -0.053712048 -13.029946 -33.505802 -106.10706
64945000 -33.109802 -92.814011 -0.054286305 -13.249386 -0.054419462 -13.22963 -33.398369 -106.66433
65944000 -32.999176 -93.212868 -0.055832539 -13.450367 -0.054797199 -13.431184 -33.311821 -107.13449
66943000 -32.870895 -93.604881 -0.053156994 -13.650818 -0.053234827 -13.632126 -33.206581 -107.40411
67942000 -32.810307 -93.578659 -0.055244707 -13.844261 -0.055160813 -13.832488 -33.073826 -107.69773
68941000 -32.699284 -93.695473 -0.054392204 -14.039015 -0.054074783 -14.026599 -32.992447 -107.70075
69940000 -32.591766 -93.714523 -0.055096842 -14.238661 -0.054531652 -14.226055 -32.835583 -108.0328
70939000 -32.502163 -93.72805 -0.055218752 -14.433856 -0.054534536 -14.426617 -32.700771 -107.97756
71938000 -32.358574 -93.335625 -0.055324409 -14.628198 -0.054920934 -14.624161 -32.567989 -107.83183
72937000 -32.200909 -93.205544 -0.054216847 -14.829986 -0.054329816 -14.821381 -32.432224 -107.59906
73936000 -32.062679 -92.964966 -0.05374743 -15.024656 -0.053669591 -15.015261 -32.319633 -107.38945
74935000 -31.93434 -93.226387 -0.053249501 -15.218365 -0.053091746 -15.21647 -32.162289 -107.08447
75934000 -31.812023 -93.532867 -0.053393632 -15.428576 -0.052565072 -15.422147 -32.084312 -107.05439
76933000 -31.689796 -93.910591 -0.054644372 -15.625149 -0.054707285 -15.617409 -31.916069 -107.47858
77932000 -31.590286 -94.734215 -0.055701438 -15.821234 -0.055896521 -15.80876 -31.81267 -107.45771
78931000 -31.52212 -95.464371 -0.054588798 -16.016962 -0.054669797 -16.009066 -31.717424 -107.35275
79930000 -31.412663 -96.264641 -0.05740713 -16.210072 -0.057703279 -16.210014 -31.627125 -107.61673
80929000 -31.289089 -97.207016 -0.059169121 -16.404388 -0.058720682 -16.401262 -31.509495 -107.97578
81928000 -31.202185 -98.04541 -0.058775783 -16.596348 -0.059211105 -16.592974 -31.385134 -108.09903
82927000 -31.113075 -98.705681 -0.060517333 -16.794056 -0.060459323 -16.791735 -31.293356 -108.41458
83926000 -30.9991 -99.513351 -0.061753057 -16.993799 -0.061796907 -16.992672 -31.178097 -108.68301
84925000 -30.905886 -99.991966 -0.062955253 -17.193218 -0.061687417 -17.187433 -31.085949 -108.72895
85924000 -30.809849 -100.42532 -0.063513927 -17.389837 -0.062884606 -17.390581 -31.004753 -108.74493
86923000 -30.701035 -100.9299 -0.063865393 -17.587599 -0.063480832 -17.584789 -30.89827 -108.68478
87922000 -30.600721 -101.27319 -0.064038515 -17.795347 -0.063103124 -17.783609 -30.814924 -108.62941
88921000 -30.531136 -101.5499 -0.064512722 -17.992615 -0.064514562 -17.98929 -30.711102 -108.69658
89920000 -30.433558 -102.15475 -0.065269984 -18.188032 -0.064952038 -18.18364 -30.670498 -108.88037
90919000 -30.338371 -102.42519 -0.066163793 -18.389482 -0.065060034 -18.383133 -30.589077 -109.04314
91918000 -30.238913 -102.75918 -0.066475786 -18.591036 -0.064803839 -18.58337 -30.516548 -109.03741
92917000 -30.149382 -103.14275 -0.067803659 -18.789644 -0.067014933 -18.782434 -30.442497 -109.21687
93916000 -30.06942 -103.52007 -0.067295179 -18.976665 -0.066618256 -18.972931 -30.364845 -109.78981
94915000 -29.996929 -104.12192 -0.069184013 -19.179592 -0.067328304 -19.173641 -30.301998 -109.72063
95914000 -29.9396 -104.36471 -0.06984397 -19.374146 -0.069177173 -19.368118 -30.220423 -109.9527
96913000 -29.862265 -104.57042 -0.071224973 -19.572557 -0.070042849 -19.569801 -30.144918 -110.32489
97912000 -29.783543 -105.07631 -0.071772866 -19.766596 -0.070131764 -19.771082 -30.069628 -110.53569
98911000 -29.685701 -105.27109 -0.072175272 -19.970863 -0.071329176 -19.967836 -30.039204 -110.77914
99910000 -29.612009 -105.45146 -0.072641946 -20.167582 -0.071228921 -20.166809 -29.924452 -111.11057
100909000 -29.525421 -105.73161 -0.071758918 -20.37715 -0.070943162 -20.368177 -29.833801 -111.30398
101908000 -29.439812 -105.9724 -0.073350608 -20.575535 -0.072373733 -20.575277 -29.729914 -111.05868
102907000 -29.307741 -105.98495 -0.073457502 -20.776867 -0.0718605 -20.770512 -29.651709 -111.06034
103906000 -29.220997 -106.08544 -0.074538119 -20.979851 -0.071687594 -20.975872 -29.515614 -110.99183
104905000 -29.071592 -106.02028 -0.074783027 -21.175232 -0.072383732 -21.17688 -29.382669 -110.69077
105904000 -28.933626 -106.15982 -0.075062722 -21.382706 -0.072927035 -21.374607 -29.269836 -110.54567
106903000 -28.820675 -106.2414 -0.074554183 -21.583254 -0.072965465 -21.575968 -29.138569 -110.41442
107902000 -28.667904 -106.61257 -0.075664043 -21.785379 -0.072943881 -21.777849 -29.007769 -110.42118
108901000 -28.553114 -106.84949 -0.076596349 -21.984816 -0.074335612 -21.977594 -28.874098 -110.35444
109900000 -28.426266 -107.33366 -0.077788696 -22.189571 -0.075596087 -22.179148 -28.728033 -110.42099
110899000 -28.308996 -107.93662 -0.078895167 -22.382879 -0.075757556 -22.373762 -28.59746 -110.72771
111898000 -28.21909 -108.63512 -0.079894349 -22.583941 -0.077309608 -22.578861 -28.4823 -110.88692
112897000 -28.093731 -109.21171 -0.081936389 -22.784599 -0.078298405 -22.770931 -28.351126 -111.08752
113896000 -27.987717 -109.83534 -0.082622036 -22.982885 -0.079647034 -22.97283 -28.236557 -111.18018
114895000 -27.884745 -110.45743 -0.083451599 -23.179224 -0.080908 -23.167292 -28.132298 -111.28632
115894000 -27.763243 -110.80367 -0.084647678 -23.382391 -0.082482472 -23.366304 -28.062386 -111.46983
116893000 -27.68095 -111.38082 -0.085484758 -23.577391 -0.083318867 -23.56176 -27.932676 -111.62107
117892000 -27.598051 -111.83981 -0.08550746 -23.774921 -0.083593041 -23.761608 -27.864676 -111.82471
118891000 -27.539227 -112.23341 -0.085930951 -23.973215 -0.083429433 -23.957581 -27.764984 -111.93464
119890000 -27.454346 -112.67038 -0.087220147 -24.175125 -0.084391385 -24.164597 -27.752068 -112.13563
120889000 -27.395315 -113.15552 -0.087715387 -24.372322 -0.084952027 -24.362663 -27.680473 -112.08292
121888000 -27.358715 -113.44266 -0.08788576 -24.568464 -0.085593268 -24.559481 -27.622177 -112.35293
122887000 -27.323719 -113.66579 -0.088320047 -24.774258 -0.085688315 -24.757563 -27.570208 -112.39738
123886000 -27.265913 -114.07697 -0.089225478 -24.974237 -0.085934386 -24.954174 -27.553661 -112.55029
124885000 -27.227926 -114.56823 -0.089572169 -25.173571 -0.08672259 -25.159361 -27.52824 -112.59972
125884000 -27.178743 -114.79103 -0.090565614 -25.370148 -0.086593457 -25.354534 -27.501896 -112.78342
126883000 -27.156647 -115.15912 -0.090329587 -25.574146 -0.087737046 -25.559834 -27.45351 -112.8231
127882000 -27.110487 -115.41501 -0.090422615 -25.772602 -0.087733872 -25.754534 -27.418896 -113.01447
128881000 -27.079615 -115.79291 -0.091004662 -25.975086 -0.088302873 -25.957424 -27.377817 -113.13601
129880000 -27.015833 -116.10915 -0.091681428 -26.176735 -0.0877278 -26.156395 -27.334581 -113.09989
130879000 -26.963362 -116.24403 -0.091377661 -26.375547 -0.089097589 -26.356253 -27.260735 -113.20847
131878000 -26.901514 -116.50519 -0.091430798 -26.575624 -0.089215703 -26.557222 -27.193413 -113.12135
132877000 -26.832027 -116.56443 -0.091338798 -26.777288 -0.089338571 -26.761318 -27.114477 -113.11472
133876000 -26.745283 -116.72728 -0.092289016 -26.982477 -0.088899426 -26.961796 -27.026423 -113.0161
134875000 -26.651283 -116.8404 -0.091806218 -27.174494 -0.089873955 -27.159422 -26.919941 -112.84092
135874000 -26.572453 -116.90426 -0.092345342 -27.377895 -0.089757144 -27.360165 -26.821537 -112.84859
136873000 -26.461658 -116.86292 -0.09221895 -27.584661 -0.089411765 -27.563841 -26.735943 -112.85537
137872000 -26.37907 -116.95113 -0.092478879 -27.782034 -0.089453518 -27.768181 -26.629608 -112.80681
138871000 -26.306791 -117.15807 -0.092570104 -27.979101 -0.090432927 -27.963682 -26.535883 -112.97206
139870000 -26.205502 -117.40205 -0.093245 -28.18047 -0.09187945 -28.159397 -26.456596 -113.13877
140869000 -26.121233 -117.8674 -0.095526986 -28.375206 -0.092934251 -28.354069 -26.352352 -113.25061
141868000 -26.02223 -118.35161 -0.095415317 -28.564501 -0.093912855 -28.554686 -26.280571 -113.58636
142867000 -25.945591 -118.60114 -0.094089821 -28.764662 -0.092617966 -28.74855 -26.198971 -113.80252
143866000 -25.880703 -119.07327 -0.095639184 -28.962587 -0.093538582 -28.947206 -26.129017 -114.2813
144865000 -25.822252 -119.62074 -0.097224034 -29.160845 -0.095524341 -29.144524 -26.076838 -114.62156
145864000 -25.764608 -119.92548 -0.097801961 -29.361683 -0.096100979 -29.347954 -26.037638 -114.83733
146863000 -25.714653 -120.2956 -0.097979881 -29.558098 -0.096238598 -29.550035 -25.989775 -115.20532
147862000 -25.675753 -120.65542 -0.099212274 -29.758196 -0.096392632 -29.743452 -25.954674 -115.49583
148861000 -25.648134 -121.16629 -0.099372506 -29.956774 -0.097174533 -29.940342 -25.928642 -115.78356
149860000 -25.631163 -121.37038 -0.099938795 -30.153521 -0.097035028 -30.142345 -25.900938 -115.92362
150859000 -25.614058 -121.73139 -0.099758409 -30.352552 -0.097769395 -30.33885 -25.891592 -116.15626
151858000 -25.594393 -122.04475 -0.099972434 -30.555422 -0.098028593 -30.538794 -25.878908 -116.45571
152857000 -25.579514 -122.34194 -0.10111531 -30.747559 -0.097469971 -30.736633 -25.859022 -116.59529
153856000 -25.574223 -122.58344 -0.10045032 -30.945183 -0.097943075 -30.935638 -25.877848 -116.8869
154855000 -25.562426 -122.74596 -0.10034224 -31.145397 -0.098351628 -31.134632 -25.869411 -117.11767
155854000 -25.578651 -122.97898 -0.10069564 -31.349537 -0.098911427 -31.331461 -25.855682 -117.37012
156853000 -25.564568 -123.69602 -0.098860577 -31.535828 -0.097689174 -31.52615 -25.852108 -117.67308
157852000 -25.56669 -123.89869 -0.10014488 -31.734976 -0.099156126 -31.726957 -25.840485 -118.01772
158851000 -25.566616 -124.13744 -0.10064636 -31.935131 -0.099231079 -31.922682 -25.82601 -118.29697
159850000 -25.550116 -124.28372 -0.10130078 -32.130356 -0.099350788 -32.121525 -25.829437 -118.42446
160849000 -25.53108 -124.42233 -0.10147832 -32.329746 -0.10063894 -32.324837 -25.797241 -118.7459
161848000 -25.517008 -124.49372 -0.10164738 -32.533016 -0.10012554 -32.5229 -25.755541 -118.84946
162847000 -25.470358 -124.72511 -0.10163042 -32.727314 -0.10061457 -32.722004 -25.726372 -119.08098
163846000 -25.432041 -124.92657 -0.10203534 -32.927498 -0.10078836 -32.918518 -25.651318 -119.08282
164845000 -25.373005 -124.96419 -0.10298472 -33.123718 -0.10151912 -33.117851 -25.585028 -119.17395
165844000 -25.313663 -125.02049 -0.10200619 -33.325993 -0.1018917 -33.315639 -25.503107 -119.34033
166843000 -25.250685 -125.12105 -0.10225955 -33.524433 -0.10184957 -33.519737 -25.433502 -119.50144
167842000 -25.195606 -125.2519 -0.10264173 -33.722637 -0.10214426 -33.712296 -25.356932 -119.42974
168841000 -25.117186 -125.44131 -0.10272416 -33.919655 -0.10210001 -33.912037 -25.277876 -119.50903
169840000 -25.053167 -125.72253 -0.10284371 -34.115265 -0.10263378 -34.112579 -25.191345 -119.71922
170839000 -24.993401 -126.02419 -0.10385398 -34.310863 -0.10312044 -34.310768 -25.103798 -119.9068
171838000 -24.932674 -126.40411 -0.10327472 -34.513248 -0.10430657 -34.505505 -25.041834 -120.15288
172837000 -24.860931 -126.76582 -0.10443331 -34.708817 -0.10471492 -34.703476 -24.971327 -120.37862
173836000 -24.798485 -127.18968 -0.10584207 -34.910851 -0.10548772 -34.899796 -24.929361 -120.60762
174835000 -24.741831 -127.65585 -0.1064368 -35.102169 -0.1067249 -35.102364 -24.88401 -120.92709
175834000 -24.688383 -128.02205 -0.10679971 -35.302227 -0.10719345 -35.29586 -24.821604 -121.21029
176833000 -24.641476 -128.37082 -0.10758296 -35.498379 -0.10777774 -35.495796 -24.770594 -121.39687
177832000 -24.590801 -128.83774 -0.10843244 -35.696362 -0.10843615 -35.693954 -24.74733 -121.53598
178831000 -24.551023 -129.21452 -0.10859355 -35.891201 -0.10915148 -35.885563 -24.707081 -121.75748
179830000 -24.514721 -129.64519 -0.10903415 -36.091209 -0.10899062 -36.090267 -24.679045 -121.88976
180829000 -24.478607 -129.85393 -0.10943685 -36.286594 -0.11010401 -36.284702 -24.647974 -122.0791
181828000 -24.451767 -130.19519 -0.1094249 -36.482281 -0.10953162 -36.478508 -24.636103 -122.15836
182827000 -24.429995 -130.54501 -0.1098571 -36.675674 -0.1103374 -36.676914 -24.615364 -122.2402
183826000 -24.389311 -130.86588 -0.11135951 -36.874828 -0.11030288 -36.871582 -24.611658 -122.38184
184825000 -24.394653 -131.16991 -0.11070835 -37.072899 -0.11023597 -37.071877 -24.591599 -122.47466
185824000 -24.366285 -131.50793 -0.11048423 -37.263233 -0.11086661 -37.267151 -24.588526 -122.50865
186823000 -24.352743 -131.87817 -0.11131755 -37.465355 -0.11070091 -37.463436 -24.592808 -122.51141
187822000 -24.332474 -132.1881 -0.11097974 -37.659595 -0.11132817 -37.659458 -24.558025 -122.58125
188821000 -24.315874 -132.44653 -0.11088998 -37.857941 -0.11163306 -37.860115 -24.54368 -122.67149
189820000 -24.297169 -132.70605 -0.11190823 -38.055614 -0.1116012 -38.053432 -24.534822 -122.84635
190819000 -24.272015 -132.95294 -0.11267886 -38.254658 -0.11258534 -38.255207 -24.492107 -122.77481
191818000 -24.233246 -133.11386 -0.11436057 -38.450268 -0.11399861 -38.451157 -24.466208 -122.68288
192817000 -24.164265 -133.41164 -0.11446103 -38.636513 -0.11418968 -38.639614 -24.388586 -122.75997
193816000 -24.127331 -133.81013 -0.11332527 -38.828602 -0.11300909 -38.828835 -24.336823 -123.04
194815000 -24.07143 -134.2383 -0.11344643 -39.024124 -0.11375227 -39.02533 -24.276587 -123.12506
195814000 -24.01687 -134.46468 -0.11439539 -39.224445 -0.11378894 -39.223736 -24.224911 -123.2603
196813000 -23.969156 -134.79965 -0.11384103 -39.416683 -0.11348204 -39.416992 -24.146437 -123.42454
197812000 -23.909779 -135.04454 -0.11446316 -39.613888 -0.11400259 -39.612923 -24.078709 -123.51977
198811000 -23.857208 -135.22832 -0.11364359 -39.815384 -0.11359895 -39.816441 -24.006569 -123.71513
199810000 -23.788332 -135.59566 -0.11388062 -40.008694 -0.11309783 -40.006371 -23.930609 -123.82051
200809000 -23.731857 -135.87712 -0.11411633 -40.202805 -0.11363775 -40.204803 -23.851128 -124.0289
201808000 -23.673199 -136.11592 -0.11456681 -40.403458 -0.11467631 -40.40414 -23.782219 -124.0873
202807000 -23.613741 -136.45328 -0.1158991 -40.603348 -0.11574384 -40.608948 -23.728619 -124.29076
