!Keysight Technologies,E5080B,MY59205177,A.15.75.32
!Date: Friday, February 23, 2024 03:41:43
!Correction: S11(Cdelta 2-Port  ) 
!S21(Cdelta 2-Port  ) 
!S12(Cdelta 2-Port  ) 
!S22(Cdelta 2-Port  ) 
!S2P File: Measurements: S11, S21, S12, S22:
# Hz S  dB   R 50
10000000 -46.038483 -3.1121767 -0.014535193 -2.0447125 -0.018115453 -2.0956454 -45.90456 -157.50757
10999000 -45.312653 -5.0293126 -0.015106891 -2.2597051 -0.017991984 -2.3155904 -45.749386 -151.09717
11998000 -44.332935 -7.9129887 -0.015995627 -2.4862401 -0.017654601 -2.5275443 -45.986889 -146.59601
12997000 -43.579082 -13.575855 -0.015572409 -2.6634266 -0.017614055 -2.6935327 -45.557636 -140.82416
13996000 -43.320995 -17.588806 -0.014428187 -2.8463995 -0.016979918 -2.863966 -45.368782 -136.13254
14995000 -42.910126 -21.923809 -0.017294897 -3.0527759 -0.017595083 -3.0802042 -45.094299 -132.54666
15994000 -42.710106 -26.54454 -0.018074904 -3.2704973 -0.020079497 -3.2974503 -44.946133 -129.04874
16993000 -42.679138 -31.127741 -0.017528806 -3.4707232 -0.018715702 -3.4801266 -44.119797 -128.81184
17992000 -42.683594 -36.266987 -0.018178361 -3.6675811 -0.020107584 -3.6693983 -43.556232 -128.72382
18991000 -42.926098 -41.782745 -0.018819174 -3.879627 -0.02025114 -3.8783374 -42.85051 -128.02209
19990000 -42.734985 -47.555809 -0.020767149 -4.0890312 -0.022723544 -4.0844321 -42.233631 -128.7491
20989000 -42.548424 -50.809418 -0.023119355 -4.2949882 -0.024218233 -4.2846384 -41.67384 -128.04619
21988000 -42.369423 -56.222221 -0.023395479 -4.4898467 -0.025542356 -4.4794664 -41.426918 -127.57951
22987000 -42.011864 -60.77079 -0.024919817 -4.6863279 -0.026550431 -4.6814337 -41.1516 -126.86643
23986000 -41.94178 -64.974129 -0.024472561 -4.8835502 -0.024991153 -4.8808932 -41.059296 -126.88101
24985000 -41.5588 -67.718689 -0.025632452 -5.0900583 -0.02521194 -5.0915213 -40.777855 -124.48549
25984000 -41.191441 -70.097527 -0.026903871 -5.2974472 -0.025736349 -5.2984858 -40.475986 -122.8181
26983000 -40.877594 -71.698624 -0.027769234 -5.4992456 -0.026582466 -5.5144901 -40.372971 -122.19938
27982000 -40.707714 -72.584877 -0.029055091 -5.694572 -0.028851047 -5.7318039 -40.134361 -120.5348
28981000 -40.648369 -74.150284 -0.026861936 -5.8946843 -0.028697565 -5.9222808 -39.868713 -120.05776
29980000 -40.230919 -75.42588 -0.026748635 -6.0884519 -0.028963361 -6.0953517 -39.618225 -119.16354
30979000 -39.848858 -74.426895 -0.023623211 -6.4459767 -0.02387308 -6.4336777 -39.134296 -119.43165
31978000 -39.644402 -75.380219 -0.023659909 -6.6371551 -0.024807869 -6.6307225 -38.862457 -118.62226
32977000 -39.462788 -76.887604 -0.023657046 -6.8469229 -0.024672752 -6.8427258 -38.629608 -118.79538
33976000 -39.282742 -78.043304 -0.024280446 -7.0492039 -0.025307234 -7.0431514 -38.360218 -118.05206
34975000 -38.985752 -78.792801 -0.024593351 -7.2484827 -0.026494434 -7.2525654 -38.107494 -117.7801
35974000 -38.764183 -79.068222 -0.023448052 -7.4426975 -0.025601465 -7.4469008 -37.843891 -116.73689
36973000 -38.551018 -80.007126 -0.023545651 -7.6420937 -0.027296675 -7.6497588 -37.561291 -115.95872
37972000 -38.389767 -79.71756 -0.023398083 -7.8556771 -0.02709558 -7.8631086 -37.379326 -115.24442
38971000 -38.05999 -79.218437 -0.024941687 -8.0544538 -0.027265938 -8.0660439 -37.212116 -113.66956
39970000 -37.747944 -79.508408 -0.023497501 -8.2511768 -0.026332442 -8.2629328 -36.957802 -113.10929
40969000 -37.46217 -79.044289 -0.023432957 -8.444499 -0.025800928 -8.4643717 -36.711197 -111.65816
41968000 -37.121601 -78.99305 -0.022694401 -8.6451149 -0.026464485 -8.6639671 -36.510986 -110.48774
42967000 -36.856888 -79.082748 -0.022805775 -8.8589258 -0.026339473 -8.8806896 -36.339203 -108.64539
43966000 -36.576744 -79.701591 -0.023595361 -9.0623236 -0.027526435 -9.0782347 -36.059471 -107.85735
44965000 -36.332306 -80.546127 -0.024106041 -9.2610865 -0.027892461 -9.2852049 -35.854404 -107.79308
45964000 -36.102039 -81.533386 -0.02561787 -9.4653978 -0.029417336 -9.4810314 -35.622131 -107.35854
46963000 -35.912476 -83.329926 -0.025946496 -9.6594887 -0.029840862 -9.680479 -35.45586 -107.54243
47962000 -35.746651 -84.832123 -0.027634025 -9.8580704 -0.031054072 -9.8790569 -35.245415 -107.65213
48961000 -35.523167 -86.226768 -0.029609676 -10.057162 -0.032520331 -10.078281 -35.027203 -107.81969
49960000 -35.28244 -87.418785 -0.030657539 -10.254942 -0.033519853 -10.281034 -34.889194 -107.96368
50959000 -35.058842 -88.803909 -0.031703826 -10.470499 -0.035330895 -10.479597 -34.69479 -108.10081
51958000 -34.850815 -89.780266 -0.033227172 -10.668171 -0.036208902 -10.678717 -34.537663 -108.63172
52957000 -34.634151 -90.864418 -0.034453589 -10.868659 -0.037333552 -10.875704 -34.36203 -108.3232
53956000 -34.47094 -91.626289 -0.036208641 -11.070026 -0.038248524 -11.071791 -34.234688 -108.37355
54955000 -34.315319 -92.008141 -0.037257314 -11.27183 -0.038479127 -11.270874 -34.083309 -108.30157
55954000 -34.141754 -92.852531 -0.038334444 -11.474473 -0.03897484 -11.469806 -33.966103 -108.00871
56953000 -34.010723 -92.948174 -0.03850054 -11.674283 -0.037459925 -11.661598 -33.894642 -108.32152
57952000 -33.848171 -93.476715 -0.038805854 -11.865454 -0.039299518 -11.858446 -33.800911 -108.3214
58951000 -33.714653 -93.864174 -0.039991263 -12.075686 -0.039933003 -12.05372 -33.640793 -108.41476
59950000 -33.593872 -94.208824 -0.041091807 -12.270585 -0.040805407 -12.252247 -33.564629 -108.67563
60949000 -33.473091 -94.744713 -0.040875699 -12.474878 -0.041254614 -12.45275 -33.477604 -108.94141
61948000 -33.407391 -95.107422 -0.041085273 -12.674457 -0.040968988 -12.65762 -33.365715 -109.04855
62947000 -33.316921 -95.259987 -0.040697753 -12.883168 -0.041876882 -12.865172 -33.245255 -109.30817
63946000 -33.236916 -96.018929 -0.042059846 -13.084231 -0.042882483 -13.063293 -33.123947 -109.43514
64945000 -33.1292 -96.154266 -0.042644851 -13.286874 -0.042936597 -13.265864 -33.016003 -109.92731
65944000 -33.017078 -96.47776 -0.043443281 -13.486022 -0.043520153 -13.466784 -32.910461 -110.37836
66943000 -32.878204 -96.862343 -0.040955659 -13.687523 -0.041792464 -13.669966 -32.80909 -110.63434
67942000 -32.82357 -96.824509 -0.043246146 -13.884085 -0.043296866 -13.872044 -32.67931 -110.87939
68941000 -32.713741 -96.926765 -0.04258028 -14.077212 -0.042863399 -14.069021 -32.571861 -110.88416
69940000 -32.610874 -96.847687 -0.042547606 -14.2769 -0.043734822 -14.270597 -32.434486 -111.10085
70939000 -32.505661 -96.814316 -0.043582905 -14.47226 -0.043328501 -14.468251 -32.305065 -110.98896
71938000 -32.371323 -96.42852 -0.043149669 -14.6698 -0.043507863 -14.661734 -32.175064 -110.92562
72937000 -32.212425 -96.246887 -0.042018808 -14.865721 -0.042385798 -14.863593 -32.026375 -110.57137
73936000 -32.077061 -95.860092 -0.042290911 -15.066703 -0.042548914 -15.057384 -31.922647 -110.39655
74935000 -31.953819 -96.099365 -0.041594617 -15.265448 -0.041094419 -15.258904 -31.778402 -110.02591
75934000 -31.837395 -96.318649 -0.041709613 -15.475343 -0.040987018 -15.468094 -31.680098 -109.96182
76933000 -31.69614 -96.660118 -0.043397266 -15.664334 -0.043363016 -15.658384 -31.515034 -110.30589
77932000 -31.597076 -97.411377 -0.044034488 -15.865961 -0.044493966 -15.855768 -31.41923 -110.24589
78931000 -31.524361 -98.113937 -0.043128494 -16.062849 -0.04339125 -16.058413 -31.315983 -110.00954
79930000 -31.415485 -99.031578 -0.045121409 -16.256258 -0.045820363 -16.252918 -31.229189 -110.42512
80929000 -31.309595 -99.814255 -0.047186155 -16.451059 -0.047520082 -16.451931 -31.121496 -110.64988
81928000 -31.206837 -100.47905 -0.047335844 -16.641146 -0.047984116 -16.640701 -30.997559 -110.62471
82927000 -31.107817 -101.2402 -0.049485691 -16.841682 -0.049261834 -16.842731 -30.883984 -110.93005
83926000 -30.996685 -101.94749 -0.050290879 -17.038849 -0.050044201 -17.038315 -30.778471 -111.13902
84925000 -30.883181 -102.34538 -0.05154413 -17.236761 -0.050228029 -17.238382 -30.676949 -111.12909
85924000 -30.785721 -102.76673 -0.051444855 -17.440088 -0.051523961 -17.438917 -30.596008 -111.16912
86923000 -30.686644 -103.24934 -0.052718874 -17.637735 -0.052556161 -17.632233 -30.49189 -110.96465
87922000 -30.566624 -103.58012 -0.051310215 -17.843977 -0.051630314 -17.835655 -30.40921 -111.0952
88921000 -30.507021 -103.87206 -0.053245045 -18.041941 -0.052549087 -18.03915 -30.313662 -111.04517
89920000 -30.397068 -104.37762 -0.0531625 -18.239912 -0.053578652 -18.23373 -30.263599 -111.23918
90919000 -30.300554 -104.64487 -0.053856194 -18.433413 -0.054139785 -18.436686 -30.173737 -111.3942
91918000 -30.201296 -104.97887 -0.055191223 -18.639809 -0.054201644 -18.631464 -30.103643 -111.39227
92917000 -30.114573 -105.28304 -0.056428581 -18.83621 -0.055142723 -18.83149 -30.039017 -111.46243
93916000 -30.020262 -105.67692 -0.056241866 -19.028061 -0.055358492 -19.027456 -29.948372 -112.05092
94915000 -29.936527 -106.29905 -0.057354145 -19.233591 -0.056442481 -19.226614 -29.893375 -111.95919
95914000 -29.872856 -106.45018 -0.058059003 -19.429918 -0.057254206 -19.424362 -29.802624 -112.18204
96913000 -29.790617 -106.66564 -0.05896733 -19.628681 -0.05875453 -19.624819 -29.73144 -112.59151
97912000 -29.700415 -107.1268 -0.060207076 -19.820601 -0.057631142 -19.825459 -29.65509 -112.78122
98911000 -29.604925 -107.30476 -0.060921066 -20.02808 -0.059824672 -20.022213 -29.61252 -112.99329
99910000 -29.53204 -107.40222 -0.061368678 -20.223742 -0.060060095 -20.222803 -29.502466 -113.26918
100909000 -29.438805 -107.66904 -0.061181489 -20.431591 -0.059158098 -20.425781 -29.420946 -113.46965
101908000 -29.353352 -107.90466 -0.061596308 -20.633072 -0.060595032 -20.630665 -29.305744 -113.25809
102907000 -29.216801 -107.85709 -0.062383525 -20.831463 -0.061235309 -20.832333 -29.233936 -113.20729
103906000 -29.124897 -107.91312 -0.062302645 -21.035992 -0.060353279 -21.035774 -29.092054 -113.19672
104905000 -28.982979 -107.83426 -0.062684745 -21.234737 -0.060550932 -21.238836 -28.975971 -112.91888
105904000 -28.839376 -107.89365 -0.063395463 -21.439249 -0.06119094 -21.431892 -28.858236 -112.78088
106903000 -28.740646 -107.96699 -0.063799724 -21.647186 -0.061147358 -21.638807 -28.736031 -112.66651
107902000 -28.572769 -108.27331 -0.063865133 -21.844362 -0.061639629 -21.839071 -28.597767 -112.62018
108901000 -28.463511 -108.5044 -0.064801738 -22.046249 -0.063397825 -22.040876 -28.47422 -112.57331
109900000 -28.337103 -108.99349 -0.065934084 -22.24577 -0.064358503 -22.235849 -28.321711 -112.62323
110899000 -28.214466 -109.56178 -0.067309111 -22.445801 -0.06486401 -22.437199 -28.199594 -112.91705
111898000 -28.129105 -110.20046 -0.068411075 -22.645744 -0.066278912 -22.640715 -28.085701 -113.0107
112897000 -28.001606 -110.76628 -0.070133075 -22.844675 -0.06772951 -22.834652 -27.960463 -113.20383
113896000 -27.901453 -111.31732 -0.071030781 -23.046055 -0.069121942 -23.033485 -27.849611 -113.30876
114895000 -27.801737 -111.99111 -0.071436808 -23.242754 -0.070500605 -23.23086 -27.742699 -113.42652
115894000 -27.678175 -112.32352 -0.073378257 -23.444246 -0.071124457 -23.432602 -27.663696 -113.58458
116893000 -27.596893 -112.81339 -0.074000411 -23.641228 -0.072025515 -23.625376 -27.542242 -113.66981
117892000 -27.518612 -113.28689 -0.073785819 -23.835476 -0.071783654 -23.826204 -27.473866 -113.87704
118891000 -27.464413 -113.72018 -0.07413312 -24.039736 -0.072415844 -24.02499 -27.382833 -113.9968
119890000 -27.374746 -114.1116 -0.075269736 -24.240988 -0.073425643 -24.227146 -27.36396 -114.13001
120889000 -27.32629 -114.57016 -0.076130569 -24.440054 -0.07389798 -24.427988 -27.292986 -114.06841
121888000 -27.284872 -114.90445 -0.076790795 -24.635958 -0.074310862 -24.62508 -27.236256 -114.3519
122887000 -27.247683 -115.08305 -0.076722026 -24.84041 -0.074870989 -24.830524 -27.191156 -114.34042
123886000 -27.198689 -115.5274 -0.077891476 -25.04295 -0.075055614 -25.026405 -27.170839 -114.51244
124885000 -27.159744 -116.02202 -0.077938385 -25.244854 -0.075149111 -25.230095 -27.149385 -114.53503
125884000 -27.110313 -116.20435 -0.07847289 -25.442526 -0.075007945 -25.430231 -27.116976 -114.66231
126883000 -27.091064 -116.56963 -0.078978993 -25.645554 -0.076580279 -25.628244 -27.08465 -114.72642
127882000 -27.03973 -116.89883 -0.079463273 -25.842184 -0.076650359 -25.826397 -27.041666 -114.85105
128881000 -27.012661 -117.19061 -0.079711892 -26.044538 -0.077064022 -26.028624 -26.998291 -114.93923
129880000 -26.958916 -117.55082 -0.080785103 -26.247026 -0.076940186 -26.227903 -26.959047 -114.87318
130879000 -26.901283 -117.67451 -0.080178589 -26.44611 -0.077377595 -26.431452 -26.891874 -114.86055
131878000 -26.831827 -117.88814 -0.080863163 -26.647985 -0.078110747 -26.630785 -26.829885 -114.76247
132877000 -26.768396 -117.9558 -0.08015275 -26.85178 -0.07872963 -26.834642 -26.756546 -114.74509
133876000 -26.693516 -118.12981 -0.080175422 -27.054724 -0.077733092 -27.033785 -26.668745 -114.60378
134875000 -26.589119 -118.21842 -0.080807783 -27.248226 -0.078801855 -27.237558 -26.572409 -114.46867
135874000 -26.509621 -118.28181 -0.080459155 -27.456955 -0.078273103 -27.437536 -26.475391 -114.4399
136873000 -26.402126 -118.19033 -0.080839694 -27.656746 -0.07823199 -27.633787 -26.397722 -114.39275
137872000 -26.322807 -118.33826 -0.081703469 -27.857035 -0.077482998 -27.842367 -26.291245 -114.28723
138871000 -26.254894 -118.52865 -0.081164345 -28.053175 -0.07806094 -28.040308 -26.199446 -114.45904
139870000 -26.153563 -118.79646 -0.081733018 -28.256409 -0.079356499 -28.238882 -26.116013 -114.6012
140869000 -26.076693 -119.33768 -0.083287999 -28.452118 -0.079966068 -28.433409 -26.016951 -114.80909
141868000 -25.9944 -119.74667 -0.083585389 -28.651398 -0.082065389 -28.636963 -25.970713 -115.07639
142867000 -25.915577 -119.93201 -0.082431555 -28.848394 -0.080692008 -28.832251 -25.890278 -115.20628
143866000 -25.844801 -120.41418 -0.0845384 -29.047804 -0.082691684 -29.02977 -25.819841 -115.65878
144865000 -25.785521 -120.93703 -0.086051881 -29.246424 -0.084094726 -29.229498 -25.760866 -115.97212
145864000 -25.728865 -121.25085 -0.086636238 -29.445646 -0.085693061 -29.4394 -25.731567 -116.19875
146863000 -25.684652 -121.61416 -0.087198228 -29.644989 -0.086011484 -29.634047 -25.68218 -116.51188
147862000 -25.646421 -121.94579 -0.088204339 -29.846321 -0.08597029 -29.831367 -25.647583 -116.83503
148861000 -25.613201 -122.43897 -0.089347295 -30.045292 -0.087448612 -30.02737 -25.621737 -116.98277
149860000 -25.583101 -122.57351 -0.090127401 -30.234318 -0.088003308 -30.224394 -25.569645 -117.12933
150859000 -25.552309 -123.04952 -0.089587495 -30.432526 -0.087807044 -30.417219 -25.553431 -117.46854
151858000 -25.543383 -123.38774 -0.089589082 -30.630745 -0.087885231 -30.616774 -25.538334 -117.79832
152857000 -25.529236 -123.74423 -0.089625545 -30.831579 -0.087442011 -30.817448 -25.525436 -117.98151
153856000 -25.523094 -123.95473 -0.089418374 -31.031647 -0.087070398 -31.01952 -25.539608 -118.34032
154855000 -25.519642 -124.11164 -0.089298405 -31.227751 -0.086791255 -31.220932 -25.531404 -118.54759
155854000 -25.534473 -124.33553 -0.089907251 -31.431736 -0.087967381 -31.41914 -25.515867 -118.82721
156853000 -25.518126 -125.06488 -0.087417975 -31.619078 -0.086934917 -31.610697 -25.512005 -119.11189
157852000 -25.522511 -125.27882 -0.088599026 -31.817968 -0.088685952 -31.809629 -25.503422 -119.46586
158851000 -25.521656 -125.46917 -0.089886904 -32.018658 -0.088575512 -32.008759 -25.485426 -119.77403
159850000 -25.506346 -125.57588 -0.090457506 -32.216145 -0.089146473 -32.210751 -25.48237 -119.93329
160849000 -25.490309 -125.65022 -0.090559535 -32.41523 -0.089463823 -32.408718 -25.450085 -120.23804
161848000 -25.472507 -125.74989 -0.0913314 -32.619778 -0.089416787 -32.608677 -25.410498 -120.33775
162847000 -25.430265 -125.93925 -0.091065988 -32.813835 -0.090088017 -32.81065 -25.381411 -120.54749
163846000 -25.393156 -126.1229 -0.091551349 -33.014599 -0.089959577 -33.006714 -25.306932 -120.55186
164845000 -25.336224 -126.07979 -0.09161903 -33.217831 -0.090325095 -33.211285 -25.244383 -120.66442
165844000 -25.281317 -126.12695 -0.091758095 -33.416561 -0.091128372 -33.413956 -25.164856 -120.79784
166843000 -25.220484 -126.17537 -0.091207676 -33.615246 -0.090491869 -33.612183 -25.094488 -120.98395
167842000 -25.161764 -126.28587 -0.091242574 -33.813675 -0.090759359 -33.812561 -25.020733 -120.86442
168841000 -25.087027 -126.42279 -0.092070617 -34.011284 -0.09122248 -34.008636 -24.950598 -120.95365
169840000 -25.022753 -126.67978 -0.092093088 -34.207516 -0.091968819 -34.205296 -24.865664 -121.12435
170839000 -24.961479 -126.88227 -0.092934512 -34.408852 -0.09183424 -34.4048 -24.779249 -121.26892
171838000 -24.905611 -127.29252 -0.093188137 -34.610264 -0.092886649 -34.603687 -24.725721 -121.5131
172837000 -24.834663 -127.60049 -0.094795384 -34.803925 -0.093794882 -34.800232 -24.655333 -121.7087
173836000 -24.772039 -128.02588 -0.095818333 -35.004757 -0.094498537 -35.002052 -24.613045 -121.9164
174835000 -24.71443 -128.42293 -0.096138552 -35.203186 -0.095157593 -35.202103 -24.57423 -122.23186
175834000 -24.669538 -128.78973 -0.096958794 -35.403851 -0.096093036 -35.397339 -24.51185 -122.52657
176833000 -24.61787 -129.12393 -0.098338388 -35.599571 -0.096314289 -35.598019 -24.459686 -122.64783
177832000 -24.574648 -129.55112 -0.098885208 -35.800858 -0.097485326 -35.80125 -24.441761 -122.75373
178831000 -24.528629 -129.76521 -0.10089752 -35.994869 -0.098955654 -35.991703 -24.4046 -122.84751
179830000 -24.459171 -130.19388 -0.10153662 -36.176086 -0.10013402 -36.175606 -24.341703 -122.91124
180829000 -24.412853 -130.55731 -0.10090229 -36.371246 -0.099217042 -36.371521 -24.301619 -123.25597
181828000 -24.390684 -131.01567 -0.099739343 -36.574478 -0.098158337 -36.569149 -24.284828 -123.41943
182827000 -24.364441 -131.35277 -0.1001417 -36.772289 -0.098772131 -36.767925 -24.270521 -123.56366
183826000 -24.327961 -131.66568 -0.10058039 -36.966915 -0.098366186 -36.96294 -24.266102 -123.71067
184825000 -24.330442 -132.03818 -0.10036979 -37.165268 -0.099781983 -37.166351 -24.248055 -123.82305
185824000 -24.304375 -132.40117 -0.0999576 -37.359333 -0.09949778 -37.363686 -24.237995 -123.87164
186823000 -24.284569 -132.75294 -0.10023151 -37.55862 -0.099612735 -37.559925 -24.236168 -123.91341
187822000 -24.26046 -133.08107 -0.10066544 -37.757694 -0.10000422 -37.756771 -24.199219 -123.99034
188821000 -24.239191 -133.34563 -0.1007873 -37.951836 -0.10029481 -37.955975 -24.175938 -124.1319
189820000 -24.217482 -133.65819 -0.1009362 -38.14875 -0.10049482 -38.150543 -24.161795 -124.31125
190819000 -24.184155 -133.95996 -0.10155676 -38.348557 -0.10064133 -38.348213 -24.124908 -124.3306
191818000 -24.15349 -134.27582 -0.10158484 -38.547024 -0.10095793 -38.549614 -24.096087 -124.36899
192817000 -24.112505 -134.54745 -0.10215937 -38.739574 -0.10115373 -38.747356 -24.052032 -124.45184
193816000 -24.079323 -134.78307 -0.10237192 -38.93935 -0.10120169 -38.938133 -24.001123 -124.60604
194815000 -24.016041 -135.13565 -0.10306345 -39.133102 -0.1022834 -39.138695 -23.935389 -124.67411
195814000 -23.963554 -135.35373 -0.10395472 -39.332249 -0.10272258 -39.335812 -23.880314 -124.74789
196813000 -23.910755 -135.66489 -0.10282091 -39.526871 -0.1029272 -39.530937 -23.8025 -124.87804
197812000 -23.854103 -135.89061 -0.10292269 -39.727646 -0.10241114 -39.721375 -23.73243 -124.98611
198811000 -23.799566 -136.02589 -0.10342158 -39.92131 -0.10231759 -39.924255 -23.664368 -125.1498
199810000 -23.728439 -136.39281 -0.10388128 -40.115307 -0.10245461 -40.116135 -23.585022 -125.24621
200809000 -23.669874 -136.6564 -0.10316285 -40.310375 -0.1024138 -40.315464 -23.50712 -125.40767
201808000 -23.616266 -136.82906 -0.10424399 -40.515087 -0.10327366 -40.514679 -23.443438 -125.48422
202807000 -23.558685 -137.16263 -0.10523364 -40.716007 -0.10481092 -40.717369 -23.389721 -125.66373
