!Keysight Technologies,E5080B,MY59205177,A.15.75.32
!Date: Friday, February 23, 2024 03:41:49
!Correction: S11(Cdelta 2-Port  ) 
!S21(Cdelta 2-Port  ) 
!S12(Cdelta 2-Port  ) 
!S22(Cdelta 2-Port  ) 
!S2P File: Measurements: S11, S21, S12, S22:
# Hz S  dB   R 50
10000000 -46.041557 -2.9896228 -0.015238333 -2.0463228 -0.018327052 -2.0995219 -45.918922 -157.27405
10999000 -45.276917 -5.1844378 -0.016347691 -2.2597799 -0.018043451 -2.3129754 -45.82896 -151.06259
11998000 -44.336197 -8.1406136 -0.016381729 -2.4849405 -0.018056188 -2.5293157 -45.98238 -146.68703
12997000 -43.572224 -13.480187 -0.015479925 -2.6657724 -0.017610937 -2.6981618 -45.608932 -141.06013
13996000 -43.321491 -17.34519 -0.014627658 -2.8450096 -0.017914783 -2.8662996 -45.336674 -135.93658
14995000 -42.884193 -21.792194 -0.016353408 -3.0537126 -0.01746097 -3.0796771 -45.039394 -132.41003
15994000 -42.735882 -26.306189 -0.018012779 -3.2738051 -0.020083399 -3.2951341 -44.870152 -129.2036
16993000 -42.660168 -30.989128 -0.01748878 -3.4707038 -0.018811375 -3.4780076 -44.08672 -128.97942
17992000 -42.72707 -36.423702 -0.017759869 -3.6715226 -0.020151015 -3.6721761 -43.533257 -128.77013
18991000 -42.943733 -41.924725 -0.018706601 -3.880038 -0.020814488 -3.8773611 -42.867645 -127.76019
19990000 -42.686596 -47.731709 -0.021624004 -4.087913 -0.023039201 -4.0805402 -42.19537 -128.69586
20989000 -42.542572 -50.6577 -0.022938231 -4.2931881 -0.024825051 -4.2820969 -41.641949 -127.94698
21988000 -42.359474 -56.113914 -0.023867352 -4.4919496 -0.025002349 -4.4776745 -41.425114 -127.14954
22987000 -41.988453 -60.728176 -0.02498126 -4.6864638 -0.026179569 -4.679451 -41.183132 -126.71118
23986000 -41.898411 -65.442123 -0.024611834 -4.8876452 -0.025949361 -4.8844638 -41.022972 -126.6265
24985000 -41.504223 -67.781372 -0.025085142 -5.096005 -0.025573865 -5.0907059 -40.797062 -124.34849
25984000 -41.176594 -69.745041 -0.026638722 -5.2972779 -0.02677989 -5.2971029 -40.455906 -122.89227
26983000 -40.849083 -71.571846 -0.027257081 -5.496644 -0.027631421 -5.5100946 -40.374424 -122.38741
27982000 -40.696835 -72.765068 -0.028129026 -5.6993809 -0.028635809 -5.7323022 -40.073112 -120.61549
28981000 -40.632214 -74.387871 -0.026553556 -5.8967881 -0.028513081 -5.9214983 -39.83247 -119.77927
29980000 -40.260067 -75.53212 -0.026684042 -6.0921063 -0.028952677 -6.0990591 -39.625172 -119.14136
30979000 -39.881954 -74.417534 -0.024418414 -6.4447174 -0.023589896 -6.4325829 -39.11549 -119.46047
31978000 -39.6395 -75.480896 -0.024012335 -6.63732 -0.02508332 -6.6267395 -38.889259 -118.88339
32977000 -39.48074 -76.801918 -0.023379343 -6.850934 -0.025237976 -6.844852 -38.632416 -118.92552
33976000 -39.288822 -77.958542 -0.024444705 -7.0492525 -0.02542909 -7.0459781 -38.346569 -118.12653
34975000 -38.990986 -78.724625 -0.024323398 -7.2455621 -0.02681401 -7.2501578 -38.108414 -117.76812
35974000 -38.792004 -79.245773 -0.023525089 -7.4432917 -0.026972637 -7.4496379 -37.850697 -117.0185
36973000 -38.555779 -79.86451 -0.023707019 -7.637949 -0.027129443 -7.6503334 -37.596382 -115.92033
37972000 -38.387329 -79.719963 -0.023249738 -7.8518667 -0.02650954 -7.8603182 -37.36879 -115.21652
38971000 -38.074429 -79.242981 -0.024716228 -8.0540161 -0.027517317 -8.0659914 -37.202633 -113.71036
39970000 -37.754681 -79.477028 -0.024155239 -8.2471085 -0.026412657 -8.2679939 -36.945415 -113.02037
40969000 -37.479313 -79.0476 -0.022885405 -8.4468708 -0.026225666 -8.4641876 -36.717579 -111.62517
41968000 -37.128914 -78.99688 -0.023812432 -8.6500225 -0.026279313 -8.673028 -36.531116 -110.52767
42967000 -36.867657 -79.023933 -0.022917932 -8.8681726 -0.027210975 -8.8822193 -36.337181 -108.52742
43966000 -36.557941 -79.680885 -0.02449625 -9.0554695 -0.028487025 -9.0777283 -36.063446 -107.91014
44965000 -36.326408 -80.474281 -0.024494167 -9.2605686 -0.028473476 -9.2869577 -35.864944 -107.6387
45964000 -36.106144 -81.409836 -0.025814209 -9.464448 -0.029292502 -9.4847794 -35.631084 -107.34309
46963000 -35.906796 -83.30809 -0.026082953 -9.6595449 -0.029793946 -9.6819105 -35.45866 -107.59757
47962000 -35.73428 -84.852715 -0.027173726 -9.8578005 -0.030782674 -9.8800058 -35.253967 -107.63821
48961000 -35.522827 -86.190331 -0.029692037 -10.059043 -0.032316647 -10.078099 -35.010559 -107.77785
49960000 -35.292107 -87.455261 -0.031031389 -10.256426 -0.033450462 -10.28015 -34.88192 -107.86042
50959000 -35.061657 -88.891655 -0.031587269 -10.469408 -0.034616407 -10.480916 -34.691677 -108.18053
51958000 -34.859093 -89.831139 -0.033697244 -10.668027 -0.035881847 -10.67824 -34.527954 -108.58569
52957000 -34.632023 -90.811363 -0.034845773 -10.867651 -0.03657018 -10.876335 -34.37608 -108.35215
53956000 -34.469803 -91.502022 -0.035515409 -11.073236 -0.037382901 -11.074583 -34.236668 -108.37039
54955000 -34.301373 -92.048737 -0.037252352 -11.270783 -0.038417492 -11.267885 -34.084534 -108.34615
55954000 -34.119007 -92.859802 -0.038299188 -11.473586 -0.038957343 -11.468017 -33.965706 -108.03511
56953000 -34.019104 -92.935524 -0.03764949 -11.671926 -0.037691791 -11.656098 -33.887703 -108.23499
57952000 -33.844574 -93.533714 -0.039448671 -11.870839 -0.039553162 -11.861665 -33.797394 -108.38482
58951000 -33.720116 -93.774231 -0.039689004 -12.07696 -0.040397793 -12.054606 -33.630878 -108.44199
59950000 -33.57777 -94.175835 -0.040902354 -12.274861 -0.040003542 -12.252154 -33.566956 -108.77036
60949000 -33.483074 -94.755539 -0.040858977 -12.471351 -0.041170202 -12.453419 -33.470016 -108.99656
61948000 -33.412395 -95.136795 -0.041635126 -12.676205 -0.041104089 -12.656059 -33.38187 -108.99443
62947000 -33.319309 -95.382797 -0.041348692 -12.882051 -0.041777566 -12.868173 -33.231041 -109.27742
63946000 -33.239357 -96.047157 -0.042949148 -13.08256 -0.04295307 -13.063791 -33.134747 -109.41718
64945000 -33.130299 -96.254463 -0.04276092 -13.285146 -0.043421581 -13.269152 -33.010597 -109.93217
65944000 -33.020855 -96.493469 -0.04369377 -13.485927 -0.043658994 -13.467566 -32.919724 -110.33752
66943000 -32.886868 -96.865875 -0.041137278 -13.687357 -0.042137478 -13.669425 -32.809353 -110.56866
67942000 -32.821815 -96.79039 -0.043889359 -13.882843 -0.043978792 -13.872609 -32.686584 -110.93117
68941000 -32.719105 -96.888863 -0.042761706 -14.076021 -0.04290941 -14.067508 -32.570885 -110.82318
69940000 -32.618885 -96.906654 -0.042717785 -14.275199 -0.043620035 -14.271866 -32.428005 -111.14424
70939000 -32.508492 -96.86985 -0.042715956 -14.474127 -0.043350987 -14.468471 -32.301632 -111.1044
71938000 -32.367096 -96.443359 -0.042851374 -14.672206 -0.043783721 -14.661202 -32.177067 -110.85512
72937000 -32.202755 -96.280785 -0.042890847 -14.865487 -0.043503679 -14.863441 -32.036716 -110.57196
73936000 -32.072098 -95.865601 -0.042142704 -15.066662 -0.042855818 -15.059659 -31.930595 -110.33517
74935000 -31.949148 -96.046951 -0.041897532 -15.260154 -0.041648716 -15.261921 -31.778397 -110.07038
75934000 -31.831526 -96.319679 -0.041825395 -15.475037 -0.041285709 -15.467137 -31.680332 -110.0441
76933000 -31.691032 -96.690224 -0.043115683 -15.664155 -0.042513885 -15.656583 -31.517317 -110.25979
77932000 -31.591995 -97.440765 -0.043456879 -15.859879 -0.044469118 -15.856472 -31.417894 -110.26557
78931000 -31.52733 -98.207405 -0.042997252 -16.062143 -0.043724101 -16.05477 -31.319817 -110.13003
79930000 -31.411377 -98.927765 -0.044626035 -16.255001 -0.045870591 -16.253983 -31.226479 -110.42424
80929000 -31.298504 -99.771622 -0.047009259 -16.451788 -0.047470618 -16.449991 -31.115259 -110.66311
81928000 -31.19908 -100.52409 -0.046752039 -16.643536 -0.048233818 -16.638329 -30.997297 -110.64474
82927000 -31.101095 -101.22997 -0.04846181 -16.844372 -0.049359228 -16.839457 -30.886595 -110.95509
83926000 -30.984234 -101.90096 -0.04973574 -17.037525 -0.050020371 -17.040152 -30.774284 -111.11482
84925000 -30.880329 -102.38221 -0.050645996 -17.240177 -0.050268359 -17.236071 -30.680094 -111.17102
85924000 -30.795309 -102.75414 -0.051917687 -17.440401 -0.051583424 -17.4352 -30.594101 -111.17081
86923000 -30.671572 -103.26007 -0.051913235 -17.637283 -0.051789586 -17.633457 -30.488573 -110.97452
87922000 -30.565413 -103.62618 -0.052050509 -17.844774 -0.051679824 -17.837906 -30.409092 -111.05201
88921000 -30.495611 -103.85329 -0.05315857 -18.04398 -0.052839667 -18.039951 -30.310043 -111.05736
89920000 -30.398386 -104.33479 -0.052849364 -18.239481 -0.053514183 -18.228235 -30.263039 -111.21854
90919000 -30.302414 -104.6352 -0.054382764 -18.436096 -0.05421501 -18.432745 -30.173956 -111.35938
91918000 -30.20071 -105.00713 -0.054753423 -18.637228 -0.054718032 -18.633879 -30.103275 -111.39445
92917000 -30.101107 -105.29575 -0.05613881 -18.837982 -0.055778261 -18.835346 -30.039423 -111.51885
93916000 -30.010555 -105.64838 -0.055118866 -19.027611 -0.055168152 -19.025393 -29.950668 -112.09247
94915000 -29.943346 -106.25021 -0.056473427 -19.231781 -0.056876518 -19.225525 -29.888783 -111.97599
95914000 -29.873808 -106.42477 -0.057484772 -19.426298 -0.057377752 -19.425245 -29.794472 -112.18145
96913000 -29.784172 -106.66273 -0.058639869 -19.627937 -0.05842289 -19.624819 -29.735029 -112.55563
97912000 -29.70826 -107.11831 -0.060153797 -19.821774 -0.05834103 -19.823271 -29.64724 -112.78053
98911000 -29.598679 -107.3196 -0.061081465 -20.024712 -0.060080044 -20.023294 -29.611225 -113.02785
99910000 -29.531185 -107.44036 -0.061399922 -20.224203 -0.060005765 -20.226301 -29.50845 -113.28506
100909000 -29.438917 -107.70936 -0.060472183 -20.430389 -0.059399784 -20.424702 -29.419062 -113.5521
101908000 -29.355007 -107.90574 -0.061195929 -20.630856 -0.060475595 -20.630415 -29.307308 -113.27569
102907000 -29.226536 -107.92133 -0.061956815 -20.83029 -0.060840733 -20.830463 -29.234653 -113.25887
103906000 -29.114983 -107.9505 -0.062088896 -21.037214 -0.060065608 -21.032461 -29.097878 -113.18939
104905000 -28.983562 -107.82083 -0.063104175 -21.23831 -0.060873285 -21.236364 -28.97089 -112.90415
105904000 -28.840118 -107.90837 -0.063089728 -21.441914 -0.061025809 -21.43396 -28.856283 -112.73318
106903000 -28.729305 -107.97974 -0.063019603 -21.64575 -0.061508089 -21.642231 -28.733091 -112.65935
107902000 -28.565432 -108.30666 -0.063311405 -21.84487 -0.061637007 -21.837132 -28.599386 -112.62193
108901000 -28.460072 -108.52237 -0.065000646 -22.043577 -0.063222371 -22.039497 -28.46632 -112.58843
109900000 -28.334311 -108.9793 -0.065862596 -22.246021 -0.065044269 -22.237928 -28.32431 -112.64207
110899000 -28.217216 -109.57879 -0.068027943 -22.442366 -0.064775728 -22.437351 -28.201408 -112.9027
111898000 -28.129107 -110.21877 -0.06835638 -22.644228 -0.065602154 -22.640049 -28.087549 -113.02836
112897000 -28.00255 -110.77047 -0.070263036 -22.845297 -0.067464225 -22.83293 -27.944546 -113.19968
113896000 -27.896214 -111.34226 -0.071000516 -23.046021 -0.068437107 -23.034504 -27.846746 -113.32185
114895000 -27.802759 -111.97893 -0.072122902 -23.244543 -0.069975503 -23.227917 -27.735832 -113.41228
115894000 -27.676859 -112.30195 -0.073057599 -23.44698 -0.07096947 -23.434874 -27.669697 -113.57146
116893000 -27.595551 -112.7986 -0.073835842 -23.646147 -0.072326876 -23.624374 -27.549629 -113.66752
117892000 -27.522964 -113.28686 -0.074017256 -23.83716 -0.072523765 -23.82622 -27.468801 -113.87344
118891000 -27.453743 -113.70152 -0.074336663 -24.039957 -0.072629578 -24.024176 -27.378609 -113.99368
119890000 -27.37748 -114.07566 -0.074628182 -24.237585 -0.073424593 -24.223032 -27.364567 -114.14854
120889000 -27.319595 -114.57581 -0.075685382 -24.438183 -0.073762119 -24.429134 -27.288645 -114.10966
121888000 -27.284132 -114.91782 -0.076875106 -24.64192 -0.074580252 -24.624331 -27.234169 -114.37263
122887000 -27.249813 -115.12521 -0.077452436 -24.841251 -0.074721143 -24.825539 -27.189718 -114.35183
123886000 -27.191214 -115.47243 -0.07790044 -25.044273 -0.075393796 -25.021317 -27.177259 -114.53137
124885000 -27.158197 -116.04295 -0.078032739 -25.242371 -0.075029276 -25.22596 -27.142736 -114.54599
125884000 -27.10614 -116.2115 -0.079168275 -25.438517 -0.075140946 -25.426901 -27.11915 -114.68736
126883000 -27.088049 -116.55759 -0.079475403 -25.64642 -0.076270714 -25.628757 -27.0739 -114.72137
127882000 -27.043613 -116.87249 -0.079052806 -25.842873 -0.077135436 -25.829206 -27.039289 -114.85075
128881000 -27.009777 -117.21616 -0.07965178 -26.042467 -0.076569214 -26.02664 -26.999907 -114.95453
129880000 -26.960108 -117.53539 -0.080704406 -26.247761 -0.076881692 -26.228172 -26.961847 -114.88477
130879000 -26.899946 -117.65965 -0.080504775 -26.447767 -0.077662461 -26.43022 -26.88813 -114.91814
131878000 -26.836674 -117.91065 -0.08004833 -26.649714 -0.07838776 -26.630861 -26.828588 -114.776
132877000 -26.770929 -117.98322 -0.07985796 -26.851894 -0.078727521 -26.832436 -26.751333 -114.7132
133876000 -26.68894 -118.13985 -0.079993486 -27.053938 -0.077500127 -27.033373 -26.668262 -114.63817
134875000 -26.588455 -118.243 -0.081125841 -27.250992 -0.079288222 -27.23241 -26.565908 -114.43727
135874000 -26.507154 -118.24281 -0.080511898 -27.450247 -0.078349538 -27.434626 -26.475645 -114.37518
136873000 -26.404341 -118.23405 -0.081448674 -27.653051 -0.07882373 -27.63607 -26.392389 -114.35923
137872000 -26.325296 -118.34382 -0.081240304 -27.856632 -0.078147911 -27.840954 -26.293381 -114.31118
138871000 -26.254866 -118.54163 -0.081558399 -28.055662 -0.078855366 -28.042568 -26.20035 -114.45249
139870000 -26.149961 -118.79778 -0.082430765 -28.256956 -0.080472074 -28.238747 -26.124277 -114.60499
140869000 -26.072691 -119.35822 -0.083009094 -28.451443 -0.080904044 -28.434025 -26.023153 -114.83033
141868000 -25.991549 -119.76387 -0.083906554 -28.653027 -0.082372725 -28.639666 -25.964743 -115.08935
142867000 -25.913616 -119.95532 -0.082636811 -28.849298 -0.081293844 -28.832666 -25.894304 -115.21854
143866000 -25.842813 -120.43348 -0.084667213 -29.04538 -0.082208894 -29.030687 -25.818727 -115.65701
144865000 -25.782757 -120.96294 -0.085928574 -29.24251 -0.083809964 -29.228771 -25.762852 -115.93457
145864000 -25.732382 -121.29785 -0.086563088 -29.44556 -0.085125461 -29.432751 -25.728594 -116.21581
146863000 -25.684319 -121.61321 -0.087057464 -29.648632 -0.08562389 -29.630857 -25.676571 -116.50021
147862000 -25.649368 -121.95157 -0.088023119 -29.843712 -0.085906923 -29.832474 -25.650351 -116.81541
148861000 -25.608469 -122.40507 -0.088979222 -30.042276 -0.087630861 -30.026318 -25.62475 -117.02538
149860000 -25.578346 -122.59914 -0.09022598 -30.234608 -0.087758176 -30.220535 -25.566954 -117.08755
150859000 -25.553616 -123.06826 -0.089120843 -30.430956 -0.087758705 -30.420691 -25.5536 -117.47968
151858000 -25.541744 -123.40121 -0.089662276 -30.630671 -0.08738628 -30.616423 -25.542141 -117.81234
152857000 -25.52006 -123.72591 -0.089267753 -30.830095 -0.087306775 -30.8174 -25.526615 -117.98558
153856000 -25.523031 -123.93513 -0.088958614 -31.030411 -0.086949445 -31.017538 -25.540226 -118.31381
154855000 -25.51679 -124.11831 -0.088926904 -31.231958 -0.087424316 -31.217831 -25.524782 -118.53072
155854000 -25.534412 -124.34752 -0.090121053 -31.429646 -0.08812324 -31.414452 -25.516735 -118.86513
156853000 -25.519213 -125.06452 -0.087921418 -31.619173 -0.087095752 -31.608654 -25.50675 -119.14864
157852000 -25.521683 -125.23604 -0.088768907 -31.819151 -0.088651605 -31.810991 -25.501356 -119.51138
158851000 -25.520952 -125.47029 -0.08919853 -32.018444 -0.088855572 -32.01144 -25.48415 -119.74443
159850000 -25.501478 -125.58222 -0.089943722 -32.218739 -0.08901991 -32.212166 -25.475185 -119.95148
160849000 -25.487686 -125.68888 -0.090135328 -32.41605 -0.089987591 -32.410973 -25.446186 -120.25469
161848000 -25.477308 -125.76607 -0.090580679 -32.618332 -0.089931041 -32.609497 -25.408955 -120.32877
162847000 -25.426537 -125.92699 -0.090689838 -32.819099 -0.09002988 -32.81226 -25.384171 -120.57275
163846000 -25.389277 -126.11608 -0.090859801 -33.016914 -0.089455895 -33.007183 -25.302767 -120.5959
164845000 -25.330103 -126.10865 -0.091151103 -33.215359 -0.090204835 -33.209919 -25.241133 -120.69051
165844000 -25.280993 -126.11972 -0.090977959 -33.41605 -0.091112509 -33.414513 -25.167515 -120.80534
166843000 -25.215311 -126.19649 -0.091365233 -33.613895 -0.090780765 -33.610958 -25.096828 -120.93339
167842000 -25.163904 -126.27617 -0.091581494 -33.815125 -0.091032676 -33.807358 -25.022131 -120.88232
168841000 -25.084736 -126.42789 -0.091253676 -34.012962 -0.091004133 -34.009624 -24.945541 -120.95955
169840000 -25.019651 -126.65204 -0.092180081 -34.209148 -0.092311762 -34.203648 -24.86285 -121.11976
170839000 -24.960903 -126.8971 -0.093178615 -34.408474 -0.091850631 -34.402599 -24.781759 -121.31114
171838000 -24.906214 -127.29114 -0.093075477 -34.609802 -0.093068071 -34.60207 -24.71722 -121.49931
172837000 -24.837494 -127.63849 -0.094427638 -34.804104 -0.093686968 -34.800034 -24.657154 -121.72587
173836000 -24.770767 -128.01065 -0.095523544 -35.00478 -0.094623938 -35.004047 -24.613884 -121.94094
174835000 -24.716015 -128.43021 -0.096113145 -35.201382 -0.095761441 -35.203983 -24.570917 -122.2675
175834000 -24.667692 -128.776 -0.0966409 -35.403629 -0.096787535 -35.396145 -24.512146 -122.52989
176833000 -24.613626 -129.14656 -0.097947314 -35.596226 -0.097629339 -35.598251 -24.46604 -122.66961
177832000 -24.572668 -129.54883 -0.09893579 -35.797665 -0.098018005 -35.799915 -24.445505 -122.76801
178831000 -24.525749 -129.80464 -0.1003878 -35.994083 -0.10004528 -35.993862 -24.40143 -122.83937
179830000 -24.458563 -130.24316 -0.10120486 -36.178062 -0.1001772 -36.178646 -24.341545 -122.90763
180829000 -24.412914 -130.54297 -0.1004731 -36.367233 -0.099728748 -36.371456 -24.307194 -123.2524
181828000 -24.391659 -130.98538 -0.10006885 -36.571976 -0.099147126 -36.568893 -24.282404 -123.4537
182827000 -24.365528 -131.36012 -0.099629946 -36.771675 -0.099130966 -36.766487 -24.275026 -123.58326
183826000 -24.327656 -131.68953 -0.10071021 -36.966599 -0.099664114 -36.965302 -24.262285 -123.72147
184825000 -24.331068 -132.03839 -0.10028289 -37.167126 -0.100027 -37.163666 -24.244844 -123.83931
185824000 -24.300707 -132.39061 -0.099383898 -37.359627 -0.10000052 -37.360352 -24.239069 -123.89242
186823000 -24.285206 -132.76482 -0.10077459 -37.559395 -0.10017163 -37.559509 -24.235218 -123.93404
187822000 -24.259611 -133.1232 -0.10132993 -37.75634 -0.10082678 -37.757202 -24.198595 -124.00613
188821000 -24.241629 -133.34598 -0.10009746 -37.948681 -0.10084268 -37.954002 -24.178688 -124.13614
189820000 -24.221107 -133.66483 -0.1005441 -38.151661 -0.10055576 -38.151573 -24.163729 -124.30088
190819000 -24.183914 -133.95299 -0.10076611 -38.350433 -0.10133046 -38.348793 -24.12207 -124.36415
191818000 -24.155746 -134.24495 -0.10120593 -38.54771 -0.10171654 -38.549465 -24.09231 -124.40849
192817000 -24.108166 -134.50278 -0.10165109 -38.741508 -0.10176583 -38.74398 -24.050167 -124.45584
193816000 -24.076662 -134.77908 -0.10208941 -38.940887 -0.101216 -38.940868 -24.002392 -124.59977
194815000 -24.014408 -135.18149 -0.10222933 -39.135578 -0.10260621 -39.137375 -23.93581 -124.66046
195814000 -23.96306 -135.33348 -0.10327684 -39.33123 -0.10260039 -39.335976 -23.880186 -124.7657
196813000 -23.909376 -135.68874 -0.10262238 -39.525921 -0.10253598 -39.527851 -23.799742 -124.90564
197812000 -23.852182 -135.87981 -0.10287604 -39.725513 -0.10295848 -39.723137 -23.729589 -125.00978
198811000 -23.799414 -136.05923 -0.10228446 -39.920101 -0.10271224 -39.92469 -23.664257 -125.16328
199810000 -23.726105 -136.40182 -0.10254472 -40.117413 -0.10293913 -40.117016 -23.589092 -125.23052
200809000 -23.670271 -136.64749 -0.10324768 -40.313751 -0.10322488 -40.312538 -23.507364 -125.42681
201808000 -23.613642 -136.84753 -0.10403798 -40.509514 -0.10423392 -40.518295 -23.442911 -125.5
202807000 -23.554758 -137.1917 -0.10473295 -40.712444 -0.10489153 -40.720196 -23.390285 -125.66263
