!Keysight Technologies,E5080B,MY59205177,A.15.75.32
!Date: Friday, February 23, 2024 03:03:36
!Correction: S11(Cdelta 2-Port  ) 
!S21(Cdelta 2-Port  ) 
!S12(Cdelta 2-Port  ) 
!S22(Cdelta 2-Port  ) 
!S2P File: Measurements: S11, S21, S12, S22:
# Hz S  dB   R 50
10000000 -44.170799 -3.5678058 -0.027382899 -2.0359223 -0.030790495 -2.0923624 -48.039944 -150.17101
10999000 -43.542801 -5.2067609 -0.028483378 -2.2543428 -0.030374695 -2.3123069 -47.749275 -142.7137
11998000 -42.734627 -8.0568228 -0.028552689 -2.4809301 -0.029559376 -2.5213351 -47.840244 -137.4696
12997000 -42.121544 -12.605453 -0.027395403 -2.6558928 -0.029530967 -2.6892695 -47.190262 -130.94264
13996000 -41.90947 -16.260107 -0.026461098 -2.8342702 -0.029461119 -2.8548632 -46.740654 -125.50089
14995000 -41.583302 -19.97768 -0.029203372 -3.045706 -0.029224742 -3.0705526 -46.295937 -122.10493
15994000 -41.46777 -23.83247 -0.030073363 -3.2646563 -0.031779185 -3.2875206 -46.109173 -118.83005
16993000 -41.418652 -27.828922 -0.029209107 -3.4615283 -0.030419793 -3.4689405 -45.169544 -119.49593
17992000 -41.523243 -32.636456 -0.029438186 -3.6617143 -0.031027218 -3.6589115 -44.55864 -120.25484
18991000 -41.772667 -37.190506 -0.030489134 -3.8702867 -0.032091849 -3.8653245 -43.811111 -119.74313
19990000 -41.63625 -42.153976 -0.032895386 -4.0763936 -0.033902299 -4.0721235 -43.159584 -121.10393
20989000 -41.527924 -45.002483 -0.034754183 -4.2813249 -0.036056466 -4.2711492 -42.565506 -121.1272
21988000 -41.437122 -49.853676 -0.035270613 -4.4781475 -0.036459494 -4.4631443 -42.263138 -120.25013
22987000 -41.207775 -53.991886 -0.036594979 -4.6733012 -0.037304308 -4.6687665 -42.049366 -120.06945
23986000 -41.180527 -58.018879 -0.036550861 -4.8651724 -0.036674339 -4.8669972 -41.88905 -119.86344
24985000 -40.862572 -60.826641 -0.03739021 -5.0773196 -0.037036698 -5.0701237 -41.706463 -117.49059
25984000 -40.59037 -62.563721 -0.038375705 -5.2820988 -0.037747145 -5.284986 -41.319717 -115.90543
26983000 -40.348499 -64.593903 -0.038996261 -5.4800096 -0.038485393 -5.5003195 -41.177807 -115.20994
27982000 -40.184544 -65.399818 -0.040391523 -5.6828351 -0.040099945 -5.7152786 -40.853657 -113.69784
28981000 -40.185814 -66.672852 -0.038044833 -5.8788323 -0.039710425 -5.9011278 -40.628696 -112.95689
29980000 -39.788296 -68.251503 -0.037941944 -6.0722418 -0.040191129 -6.074451 -40.32983 -112.35436
30979000 -39.443279 -67.375244 -0.035917085 -6.4274755 -0.034850471 -6.4128876 -39.815712 -113.17225
31978000 -39.257523 -68.590874 -0.035114292 -6.6209702 -0.036867525 -6.610496 -39.551556 -112.48999
32977000 -39.096405 -70.076775 -0.035469476 -6.830905 -0.036696527 -6.8244271 -39.316711 -112.80728
33976000 -38.96273 -71.319283 -0.035781883 -7.0306096 -0.037743229 -7.0232863 -38.984821 -112.20476
34975000 -38.669125 -72.290154 -0.035916563 -7.2292867 -0.037771169 -7.2292833 -38.756771 -112.04661
35974000 -38.474846 -73.033974 -0.035055056 -7.4252028 -0.03759126 -7.4247794 -38.477592 -111.27853
36973000 -38.275688 -73.757065 -0.035563432 -7.6206207 -0.038704775 -7.6240468 -38.162701 -110.54622
37972000 -38.079437 -73.758469 -0.035391703 -7.8331537 -0.038527701 -7.8420529 -37.921516 -109.97765
38971000 -37.789635 -73.53376 -0.036930703 -8.0289774 -0.038309895 -8.0387411 -37.742798 -108.4649
39970000 -37.434132 -74.088936 -0.03423677 -8.2234678 -0.037096225 -8.2378149 -37.461441 -107.94605
40969000 -37.184711 -73.989349 -0.035489049 -8.4198179 -0.037700146 -8.436553 -37.169292 -106.73849
41968000 -36.822491 -74.248451 -0.035083763 -8.6222258 -0.037744794 -8.6386242 -36.983585 -105.49912
42967000 -36.602848 -74.523949 -0.03531811 -8.8361044 -0.037714247 -8.8559141 -36.740852 -103.88997
43966000 -36.300751 -75.31562 -0.035410754 -9.0360403 -0.038899098 -9.0514784 -36.46648 -103.32127
44965000 -36.076694 -76.293655 -0.036686607 -9.2377434 -0.038585942 -9.2564287 -36.247997 -103.2657
45964000 -35.865093 -77.434715 -0.037038002 -9.4373617 -0.040862635 -9.4552908 -36.00787 -103.06843
46963000 -35.693592 -79.39341 -0.037175331 -9.6325951 -0.041061494 -9.6555376 -35.833225 -103.44759
47962000 -35.543983 -80.866188 -0.0391616 -9.8299704 -0.042315483 -9.8503056 -35.610855 -103.71027
48961000 -35.337597 -82.32473 -0.04112212 -10.029998 -0.043508649 -10.049173 -35.385067 -103.94907
49960000 -35.122372 -83.969742 -0.042569827 -10.228219 -0.044882607 -10.249303 -35.229939 -104.24117
50959000 -34.91573 -85.0989 -0.043439884 -10.440235 -0.046080928 -10.452559 -35.05732 -104.51147
51958000 -34.727619 -86.255074 -0.045018617 -10.640528 -0.047447328 -10.649516 -34.895 -105.05608
52957000 -34.526672 -87.355804 -0.047078341 -10.839646 -0.04845291 -10.845005 -34.717224 -104.85112
53956000 -34.357319 -88.191605 -0.047938049 -11.041709 -0.049037989 -11.041438 -34.587257 -104.8947
54955000 -34.189495 -88.664009 -0.048601069 -11.243961 -0.04986902 -11.23927 -34.436584 -104.84768
55954000 -34.037884 -89.444626 -0.049467362 -11.443118 -0.050187703 -11.434809 -34.325657 -104.58646
56953000 -33.913349 -89.587914 -0.048787456 -11.637755 -0.049868234 -11.629078 -34.250393 -104.8893
57952000 -33.762573 -90.149185 -0.050182465 -11.835966 -0.049818747 -11.825397 -34.151291 -104.90763
58951000 -33.647518 -90.502289 -0.051797967 -12.039954 -0.05144852 -12.018288 -33.993645 -105.14973
59950000 -33.525425 -90.856613 -0.052062824 -12.241267 -0.052114174 -12.215797 -33.927277 -105.43005
60949000 -33.409111 -91.449074 -0.052280534 -12.443531 -0.052913822 -12.416121 -33.835903 -105.53262
61948000 -33.362015 -91.809608 -0.052690577 -12.643453 -0.052336603 -12.62134 -33.750866 -105.73524
62947000 -33.273788 -91.947731 -0.053303484 -12.851738 -0.053606167 -12.82994 -33.613686 -105.95657
63946000 -33.207535 -92.750793 -0.053665921 -13.046489 -0.054454587 -13.02506 -33.511425 -106.10852
64945000 -33.102909 -92.871071 -0.054400064 -13.250995 -0.054510944 -13.227787 -33.398476 -106.60551
65944000 -33.003319 -93.181366 -0.055355083 -13.449055 -0.05486929 -13.42907 -33.313141 -107.03462
66943000 -32.871937 -93.665443 -0.053561617 -13.647705 -0.052995052 -13.632654 -33.207211 -107.33679
67942000 -32.814587 -93.533119 -0.05515321 -13.84614 -0.055035498 -13.833787 -33.089317 -107.72042
68941000 -32.705738 -93.728279 -0.054544758 -14.037667 -0.053930368 -14.028363 -32.972939 -107.70782
69940000 -32.612251 -93.761909 -0.054893933 -14.239367 -0.055068005 -14.221948 -32.842751 -108.0457
70939000 -32.506641 -93.695602 -0.055433214 -14.434473 -0.055029731 -14.426485 -32.705399 -108.03202
71938000 -32.358532 -93.385574 -0.05496183 -14.632611 -0.054345019 -14.621364 -32.57431 -107.81445
72937000 -32.195679 -93.164734 -0.054216582 -14.830853 -0.054172549 -14.822318 -32.432346 -107.57794
73936000 -32.062672 -92.995834 -0.053370047 -15.025968 -0.053373452 -15.018189 -32.321278 -107.46215
74935000 -31.93243 -93.164551 -0.053688463 -15.218561 -0.052445333 -15.214234 -32.170998 -107.09846
75934000 -31.817724 -93.493279 -0.053866681 -15.432858 -0.052627955 -15.426843 -32.087975 -107.06331
76933000 -31.693468 -93.9272 -0.054353934 -15.624492 -0.054079764 -15.618051 -31.900167 -107.44575
77932000 -31.593969 -94.749664 -0.055526815 -15.820786 -0.054968908 -15.815784 -31.811438 -107.50774
78931000 -31.524918 -95.454155 -0.054865882 -16.020075 -0.054696538 -16.014757 -31.714886 -107.43022
79930000 -31.408424 -96.310204 -0.056523517 -16.207062 -0.057713509 -16.209156 -31.607929 -107.67941
80929000 -31.284906 -97.168495 -0.058607072 -16.404488 -0.058839545 -16.404953 -31.519278 -108.05349
81928000 -31.210464 -98.093773 -0.058431808 -16.599613 -0.059125561 -16.595251 -31.387821 -108.11871
82927000 -31.116783 -98.808693 -0.060072955 -16.795979 -0.060652517 -16.79303 -31.291851 -108.41637
83926000 -30.991806 -99.500839 -0.061334021 -16.993113 -0.061769336 -16.992813 -31.169863 -108.6393
84925000 -30.892767 -99.956856 -0.062355164 -17.192366 -0.061171513 -17.185457 -31.073338 -108.73503
85924000 -30.810514 -100.44059 -0.063560158 -17.392426 -0.062629335 -17.391487 -30.983217 -108.71658
86923000 -30.707972 -100.96959 -0.06372302 -17.592541 -0.064005412 -17.582443 -30.889137 -108.65936
87922000 -30.590597 -101.26593 -0.06332507 -17.797949 -0.062632218 -17.785957 -30.806133 -108.65072
88921000 -30.527075 -101.59635 -0.064414203 -17.993773 -0.064179592 -17.992367 -30.72336 -108.7422
89920000 -30.432863 -102.11594 -0.065183006 -18.192068 -0.0645587 -18.179848 -30.666603 -108.83575
90919000 -30.330778 -102.40158 -0.066398248 -18.389479 -0.064565793 -18.382772 -30.580067 -108.99798
91918000 -30.246124 -102.80005 -0.06653519 -18.58497 -0.06555564 -18.579891 -30.512506 -109.04638
92917000 -30.155285 -103.14563 -0.067483157 -18.784832 -0.066136196 -18.783554 -30.445446 -109.11706
93916000 -30.077965 -103.51785 -0.067413747 -18.976511 -0.066509433 -18.973961 -30.371355 -109.80322
94915000 -29.998987 -104.09682 -0.068141013 -19.181192 -0.067024656 -19.170622 -30.302458 -109.63665
95914000 -29.934845 -104.36829 -0.06986659 -19.374044 -0.068415545 -19.368622 -30.213881 -109.95949
96913000 -29.854939 -104.62867 -0.070822909 -19.574167 -0.069342084 -19.572334 -30.148138 -110.34215
97912000 -29.785456 -105.05592 -0.071581803 -19.768633 -0.069158502 -19.769573 -30.07666 -110.5071
98911000 -29.68228 -105.26648 -0.071974985 -19.968712 -0.07062795 -19.968126 -30.044577 -110.71581
99910000 -29.615393 -105.45444 -0.072418213 -20.169092 -0.071045779 -20.166098 -29.930136 -111.07025
100909000 -29.525614 -105.73947 -0.071935512 -20.377911 -0.069816872 -20.37072 -29.84306 -111.25717
101908000 -29.447035 -106.03262 -0.073043913 -20.575008 -0.071677335 -20.57025 -29.73049 -111.0588
102907000 -29.311506 -106.01653 -0.073321387 -20.775276 -0.07154575 -20.776766 -29.661617 -111.00013
103906000 -29.217257 -106.17146 -0.073860332 -20.982721 -0.071447328 -20.971649 -29.504295 -111.01274
104905000 -29.071945 -106.0271 -0.074884951 -21.180098 -0.072230019 -21.173536 -29.379126 -110.65411
105904000 -28.934088 -106.13447 -0.075400382 -21.381762 -0.071351022 -21.375614 -29.270508 -110.58623
106903000 -28.822878 -106.22702 -0.07394933 -21.587463 -0.071672067 -21.581161 -29.144808 -110.50201
107902000 -28.660883 -106.60237 -0.075202048 -21.78491 -0.072667219 -21.775194 -29.00094 -110.40557
108901000 -28.550766 -106.84253 -0.076547608 -21.98667 -0.073785551 -21.975279 -28.871956 -110.38412
109900000 -28.430925 -107.37711 -0.076729402 -22.183399 -0.074942097 -22.17901 -28.721729 -110.49466
110899000 -28.313227 -108.0098 -0.078529298 -22.38792 -0.075418025 -22.377123 -28.603558 -110.76941
111898000 -28.212147 -108.65086 -0.080133237 -22.586136 -0.076603197 -22.578312 -28.480927 -110.92527
112897000 -28.091026 -109.23451 -0.080995291 -22.784378 -0.077919409 -22.774401 -28.351665 -111.12146
113896000 -27.985491 -109.82751 -0.082019754 -22.984617 -0.079472236 -22.966473 -28.242126 -111.22556
114895000 -27.890057 -110.43679 -0.083526544 -23.18243 -0.080495812 -23.169949 -28.130213 -111.32652
115894000 -27.761436 -110.83083 -0.08438611 -23.384581 -0.082130283 -23.369804 -28.054331 -111.49362
116893000 -27.673983 -111.35633 -0.084965758 -23.577078 -0.082332887 -23.559036 -27.929026 -111.66183
117892000 -27.599346 -111.83169 -0.084582217 -23.772966 -0.082897745 -23.763367 -27.859873 -111.82633
118891000 -27.537962 -112.28108 -0.085711546 -23.972919 -0.083698869 -23.962652 -27.756847 -111.9492
119890000 -27.450937 -112.59497 -0.086008839 -24.178089 -0.084765665 -24.15941 -27.756144 -112.1013
120889000 -27.395615 -113.11337 -0.087733351 -24.378386 -0.084484823 -24.362972 -27.672417 -112.0826
121888000 -27.366264 -113.43031 -0.087627165 -24.568979 -0.084646888 -24.555708 -27.6208 -112.34867
122887000 -27.323387 -113.66248 -0.088206716 -24.77368 -0.085750617 -24.757736 -27.571547 -112.4043
123886000 -27.266321 -114.09746 -0.089003794 -24.973555 -0.085437767 -24.959652 -27.557199 -112.5815
124885000 -27.228556 -114.5757 -0.08860299 -25.172499 -0.086621188 -25.15871 -27.524151 -112.61595
125884000 -27.173824 -114.78117 -0.089802869 -25.374243 -0.087048747 -25.357973 -27.501402 -112.79976
126883000 -27.160109 -115.16062 -0.090004243 -25.575008 -0.087570637 -25.559456 -27.457087 -112.85078
127882000 -27.105879 -115.45081 -0.0901163 -25.774202 -0.087629803 -25.756018 -27.418344 -113.04128
128881000 -27.073853 -115.76878 -0.090112865 -25.972757 -0.087784588 -25.957628 -27.378193 -113.15677
129880000 -27.028055 -116.10137 -0.091097176 -26.177048 -0.087548979 -26.157639 -27.33795 -113.10733
130879000 -26.963251 -116.24941 -0.090721294 -26.372202 -0.088874593 -26.356539 -27.261381 -113.16568
131878000 -26.902962 -116.48027 -0.091329813 -26.578432 -0.088813297 -26.556097 -27.198568 -113.09783
132877000 -26.825474 -116.54632 -0.090520412 -26.7785 -0.088987678 -26.759924 -27.115704 -113.10658
133876000 -26.748409 -116.7218 -0.091028981 -26.978071 -0.088837072 -26.961761 -27.022968 -113.01086
134875000 -26.647881 -116.83816 -0.091256849 -27.180508 -0.089427091 -27.159506 -26.92042 -112.85295
135874000 -26.568262 -116.87806 -0.091909327 -27.375519 -0.089351252 -27.361504 -26.821268 -112.87383
136873000 -26.457056 -116.85052 -0.091921493 -27.580942 -0.088637337 -27.561384 -26.735449 -112.88586
137872000 -26.381493 -116.94034 -0.092095993 -27.778837 -0.089289159 -27.768202 -26.630835 -112.8271
138871000 -26.302933 -117.14426 -0.093206912 -27.979422 -0.089753978 -27.965706 -26.536594 -112.99561
139870000 -26.206299 -117.41753 -0.093178086 -28.17753 -0.090734243 -28.160629 -26.456779 -113.16634
140869000 -26.121477 -117.90023 -0.095023185 -28.378569 -0.09223666 -28.35689 -26.346729 -113.28475
141868000 -26.021032 -118.33337 -0.095909372 -28.569504 -0.093843028 -28.549868 -26.274519 -113.64122
142867000 -25.946194 -118.60149 -0.094097495 -28.765232 -0.092143588 -28.750435 -26.197733 -113.8428
143866000 -25.880398 -119.07146 -0.096291266 -28.963787 -0.093214318 -28.945812 -26.126928 -114.31474
144865000 -25.81596 -119.64354 -0.096861124 -29.162296 -0.094244577 -29.143595 -26.067099 -114.61105
145864000 -25.759113 -119.93481 -0.097577982 -29.360197 -0.095149919 -29.350521 -26.034393 -114.88162
146863000 -25.716442 -120.30135 -0.098653227 -29.561096 -0.095768057 -29.546402 -25.984779 -115.18669
147862000 -25.673647 -120.70087 -0.099066876 -29.754511 -0.096056245 -29.744623 -25.946831 -115.50932
148861000 -25.648758 -121.18439 -0.09926524 -29.95318 -0.097310863 -29.937113 -25.921772 -115.76939
149860000 -25.628296 -121.35488 -0.099773511 -30.152205 -0.09711127 -30.141537 -25.890827 -115.91853
150859000 -25.607534 -121.7096 -0.099782251 -30.352148 -0.097420461 -30.338427 -25.876726 -116.12762
151858000 -25.59222 -122.03443 -0.099724509 -30.553642 -0.09773577 -30.540871 -25.876081 -116.45103
152857000 -25.574261 -122.37324 -0.10059205 -30.748491 -0.098182693 -30.735056 -25.857616 -116.56038
153856000 -25.569559 -122.58329 -0.10094865 -30.945164 -0.097779192 -30.933134 -25.877134 -116.87738
154855000 -25.562136 -122.71294 -0.10088746 -31.146931 -0.097943872 -31.133583 -25.862061 -117.09126
155854000 -25.579676 -122.99326 -0.10127509 -31.346697 -0.098527446 -31.330967 -25.854162 -117.36314
156853000 -25.563311 -123.70753 -0.098819271 -31.5362 -0.097327545 -31.526115 -25.848261 -117.66487
157852000 -25.56638 -123.91145 -0.10010647 -31.736717 -0.099402964 -31.723408 -25.841516 -118.01122
158851000 -25.567715 -124.12425 -0.10069034 -31.931904 -0.099120639 -31.921282 -25.828571 -118.25761
159850000 -25.551273 -124.26542 -0.10160763 -32.130138 -0.099338077 -32.124348 -25.830568 -118.40625
160849000 -25.531794 -124.38976 -0.10134795 -32.328491 -0.1001764 -32.324821 -25.798458 -118.70784
161848000 -25.513514 -124.49503 -0.10202845 -32.529949 -0.10028025 -32.522518 -25.760271 -118.83203
162847000 -25.467236 -124.71951 -0.10141949 -32.726891 -0.1007518 -32.723763 -25.728626 -119.09238
163846000 -25.426216 -124.91425 -0.10216387 -32.930012 -0.0999825 -32.917343 -25.649164 -119.10621
164845000 -25.369493 -124.96284 -0.10219541 -33.128254 -0.10037933 -33.119164 -25.585127 -119.2015
165844000 -25.31369 -125.02425 -0.10248005 -33.324562 -0.10118685 -33.319145 -25.503178 -119.34597
166843000 -25.254227 -125.10534 -0.10236238 -33.522129 -0.10117731 -33.520199 -25.438301 -119.53391
167842000 -25.196041 -125.28259 -0.10252776 -33.721886 -0.10222615 -33.717308 -25.350481 -119.44796
168841000 -25.117966 -125.46829 -0.10315225 -33.920803 -0.10184427 -33.916649 -25.27643 -119.53822
169840000 -25.049324 -125.75262 -0.10377046 -34.118038 -0.10227253 -34.109108 -25.187548 -119.70945
170839000 -24.987028 -126.01718 -0.10380122 -34.311584 -0.10274828 -34.30925 -25.10121 -119.92562
171838000 -24.930281 -126.40354 -0.10415173 -34.51215 -0.10311276 -34.504795 -25.04034 -120.14232
172837000 -24.859922 -126.78946 -0.10528775 -34.709496 -0.10427369 -34.704861 -24.970144 -120.3763
173836000 -24.796528 -127.20852 -0.10661507 -34.909092 -0.10512517 -34.904572 -24.923147 -120.60744
174835000 -24.740334 -127.63879 -0.10661931 -35.104191 -0.10607868 -35.101547 -24.882895 -120.92122
175834000 -24.689003 -128.02176 -0.10811105 -35.301022 -0.10666414 -35.296207 -24.815226 -121.21101
176833000 -24.638994 -128.37233 -0.10854524 -35.498398 -0.10705601 -35.496181 -24.765659 -121.3617
177832000 -24.592697 -128.84344 -0.10907636 -35.692883 -0.10719 -35.695774 -24.73954 -121.54552
178831000 -24.547567 -129.21663 -0.10933464 -35.891357 -0.108037 -35.886932 -24.702374 -121.76827
179830000 -24.511972 -129.67274 -0.11027128 -36.091217 -0.10868272 -36.088505 -24.674774 -121.8736
180829000 -24.474106 -129.84831 -0.11064515 -36.287468 -0.10884304 -36.283554 -24.64612 -122.06149
181828000 -24.450588 -130.22409 -0.11048423 -36.483948 -0.10907821 -36.480629 -24.628296 -122.19252
182827000 -24.426338 -130.54781 -0.11059204 -36.677494 -0.10907371 -36.677616 -24.615147 -122.2488
183826000 -24.382452 -130.86642 -0.11130373 -36.874084 -0.10977055 -36.871586 -24.607548 -122.39046
184825000 -24.392414 -131.1859 -0.11142644 -37.072052 -0.10988285 -37.07328 -24.589584 -122.49353
185824000 -24.364874 -131.5295 -0.11107003 -37.263939 -0.11065789 -37.264862 -24.586922 -122.50253
186823000 -24.348082 -131.87952 -0.11134995 -37.468033 -0.11049273 -37.466446 -24.586876 -122.51933
187822000 -24.3323 -132.22951 -0.11188805 -37.66114 -0.11125912 -37.656231 -24.556421 -122.57053
188821000 -24.310434 -132.42906 -0.11161182 -37.856308 -0.11189203 -37.860687 -24.534664 -122.68718
189820000 -24.298826 -132.68192 -0.11221025 -38.055874 -0.11146999 -38.058418 -24.52792 -122.8483
190819000 -24.266808 -132.96042 -0.11363083 -38.259617 -0.11281355 -38.257175 -24.496664 -122.78604
191818000 -24.234381 -133.15404 -0.11520579 -38.451302 -0.11418729 -38.452076 -24.463902 -122.69561
192817000 -24.162447 -133.41742 -0.11467923 -38.635811 -0.11413839 -38.638142 -24.394386 -122.74054
193816000 -24.128199 -133.7771 -0.11381206 -38.829659 -0.11271977 -38.827843 -24.339415 -123.00542
194815000 -24.071796 -134.2556 -0.11407435 -39.026443 -0.11350674 -39.028271 -24.276773 -123.14442
195814000 -24.02166 -134.46526 -0.11429147 -39.221226 -0.11307126 -39.2197 -24.223001 -123.2523
196813000 -23.971691 -134.81963 -0.11381046 -39.416088 -0.11358194 -39.42054 -24.146299 -123.42934
197812000 -23.909662 -135.07047 -0.11459152 -39.618462 -0.11375998 -39.614784 -24.079405 -123.49385
198811000 -23.857828 -135.22812 -0.11394892 -39.814678 -0.11383119 -39.815228 -24.006966 -123.71375
199810000 -23.788326 -135.62813 -0.11417294 -40.00943 -0.11291397 -40.00415 -23.931044 -123.81467
200809000 -23.734369 -135.87178 -0.11537645 -40.205505 -0.11383119 -40.207195 -23.853085 -123.99474
201808000 -23.673183 -136.10657 -0.11529244 -40.404877 -0.11517283 -40.406662 -23.786682 -124.09441
202807000 -23.6154 -136.48622 -0.11614449 -40.605553 -0.11557689 -40.606915 -23.729403 -124.27319
