!Keysight Technologies,E5080B,MY59205177,A.15.75.32
!Date: Friday, February 23, 2024 03:41:55
!Correction: S11(Cdelta 2-Port  ) 
!S21(Cdelta 2-Port  ) 
!S12(Cdelta 2-Port  ) 
!S22(Cdelta 2-Port  ) 
!S2P File: Measurements: S11, S21, S12, S22:
# Hz S  dB   R 50
10000000 -46.146645 -2.6334233 -0.014276253 -2.0401592 -0.018600533 -2.0961616 -45.9221 -157.36951
10999000 -45.25618 -5.1792912 -0.015722571 -2.2601068 -0.01822515 -2.3133149 -45.7999 -151.38235
11998000 -44.413643 -7.886766 -0.015652684 -2.4855785 -0.017433941 -2.5291533 -45.937424 -146.54674
12997000 -43.565441 -13.492596 -0.015443556 -2.6668255 -0.017868517 -2.6951482 -45.585903 -141.12048
13996000 -43.324181 -17.339384 -0.013698692 -2.8498795 -0.017299315 -2.8669271 -45.399261 -136.07175
14995000 -42.894814 -22.076813 -0.015891442 -3.0540433 -0.017840445 -3.0778396 -45.028206 -132.26003
15994000 -42.700089 -26.255175 -0.017411849 -3.2761867 -0.019823087 -3.2951939 -44.900131 -129.20775
16993000 -42.671093 -30.826365 -0.016714854 -3.4701478 -0.019223988 -3.480679 -44.097813 -129.12047
17992000 -42.683701 -36.341167 -0.016902477 -3.6688247 -0.020019425 -3.6715956 -43.531773 -129.25536
18991000 -42.956566 -41.714649 -0.017845383 -3.8803573 -0.020774953 -3.8804948 -42.88522 -127.90803
19990000 -42.704075 -47.566723 -0.020129949 -4.0885935 -0.022380851 -4.0860248 -42.216831 -128.99403
20989000 -42.536476 -50.863941 -0.02227157 -4.2927756 -0.024563152 -4.2817335 -41.699455 -127.94672
21988000 -42.32806 -56.101944 -0.02311415 -4.4894023 -0.025251515 -4.4789004 -41.446629 -127.22165
22987000 -42.034637 -61.073769 -0.024141703 -4.6891766 -0.026923407 -4.67976 -41.144287 -126.77162
23986000 -41.894588 -64.831154 -0.024112029 -4.8847823 -0.025599122 -4.8822193 -41.040871 -126.77489
24985000 -41.523842 -67.577072 -0.025266096 -5.0943456 -0.026536366 -5.090508 -40.817802 -124.47337
25984000 -41.145927 -70.000717 -0.026342077 -5.2983193 -0.026511885 -5.2985077 -40.477573 -122.65715
26983000 -40.877483 -71.58744 -0.026708003 -5.4999518 -0.027739273 -5.5142469 -40.38427 -122.17168
27982000 -40.703465 -72.684799 -0.02833017 -5.697978 -0.02937277 -5.7264743 -40.103172 -120.66553
28981000 -40.654617 -74.18721 -0.025903789 -5.893837 -0.029129623 -5.917562 -39.866215 -119.90305
29980000 -40.228481 -75.528595 -0.026525687 -6.0895133 -0.02890108 -6.0925889 -39.613758 -119.14824
30979000 -39.853531 -74.340843 -0.023727061 -6.4413023 -0.024005566 -6.4350166 -39.088917 -119.35587
31978000 -39.648758 -75.379059 -0.023325471 -6.6359138 -0.025147889 -6.6265769 -38.862415 -118.70735
32977000 -39.450798 -76.833405 -0.022531768 -6.8485475 -0.025130706 -6.8451071 -38.608143 -118.68349
33976000 -39.289997 -78.043159 -0.023704937 -7.0484519 -0.025645472 -7.0430813 -38.329597 -118.10989
34975000 -38.970215 -78.740814 -0.023925656 -7.2489719 -0.026687689 -7.2446051 -38.141193 -117.86678
35974000 -38.764877 -79.263222 -0.022942133 -7.4431295 -0.026737696 -7.4461679 -37.845058 -117.00912
36973000 -38.527821 -79.988747 -0.023139654 -7.6450844 -0.027703844 -7.6466413 -37.564064 -115.97913
37972000 -38.393318 -79.784698 -0.023854859 -7.8508468 -0.027095059 -7.8718896 -37.383549 -115.17149
38971000 -38.070324 -79.317322 -0.024625633 -8.0527611 -0.027166432 -8.0666513 -37.179184 -113.76215
39970000 -37.755817 -79.513382 -0.022189872 -8.24895 -0.026603822 -8.2653608 -36.955719 -113.12756
40969000 -37.459808 -79.175529 -0.023003029 -8.4476786 -0.025947798 -8.4663105 -36.71376 -111.57858
41968000 -37.112316 -78.899956 -0.022889828 -8.6523275 -0.026389217 -8.6621666 -36.525639 -110.45834
42967000 -36.848202 -79.158966 -0.022316063 -8.8609638 -0.026435835 -8.8837242 -36.336067 -108.55805
43966000 -36.558903 -79.804932 -0.023545651 -9.0608873 -0.028160552 -9.0773048 -36.068623 -107.92471
44965000 -36.318394 -80.567665 -0.024113851 -9.2600222 -0.028334338 -9.279994 -35.859283 -107.73069
45964000 -36.107258 -81.666687 -0.025099201 -9.462163 -0.02949083 -9.4829273 -35.628479 -107.37207
46963000 -35.904324 -83.474129 -0.025728017 -9.6570158 -0.030050686 -9.6809063 -35.454037 -107.56555
47962000 -35.741291 -84.750252 -0.027276618 -9.8595791 -0.031237099 -9.8759699 -35.231983 -107.64163
48961000 -35.527775 -86.245964 -0.02894981 -10.059101 -0.032602746 -10.078198 -35.032425 -107.74734
49960000 -35.291378 -87.535248 -0.030449249 -10.25624 -0.033506028 -10.279467 -34.888596 -107.81916
50959000 -35.06078 -88.813904 -0.031002188 -10.470133 -0.034320522 -10.478608 -34.719673 -108.2194
51958000 -34.86002 -89.860939 -0.032409232 -10.670053 -0.036189586 -10.678952 -34.533878 -108.62136
52957000 -34.650272 -90.885239 -0.034667552 -10.870302 -0.037155751 -10.874477 -34.372105 -108.42769
53956000 -34.471912 -91.636024 -0.035949189 -11.071516 -0.038252443 -11.072602 -34.221794 -108.35926
54955000 -34.301159 -92.024887 -0.036747959 -11.274692 -0.038627729 -11.270836 -34.069321 -108.31669
55954000 -34.137989 -92.857056 -0.038040392 -11.473889 -0.039368477 -11.467665 -33.974194 -107.96284
56953000 -34.000565 -92.918327 -0.03713591 -11.668862 -0.037854988 -11.659973 -33.889729 -108.26749
57952000 -33.841499 -93.476402 -0.037601184 -11.865981 -0.039194249 -11.85883 -33.796616 -108.37035
58951000 -33.723404 -93.803551 -0.038808726 -12.074389 -0.039314408 -12.052081 -33.638088 -108.40259
59950000 -33.593044 -94.153458 -0.039210968 -12.275764 -0.04076726 -12.24998 -33.56266 -108.65508
60949000 -33.473896 -94.775452 -0.039755095 -12.476223 -0.040987279 -12.456757 -33.450504 -108.905
61948000 -33.407753 -95.101646 -0.040415563 -12.673675 -0.041429184 -12.655074 -33.379059 -109.12476
62947000 -33.317768 -95.284416 -0.040609434 -12.884195 -0.04153163 -12.86554 -33.231121 -109.26923
63946000 -33.224895 -96.02253 -0.041577104 -13.087393 -0.042930063 -13.063682 -33.117107 -109.44257
64945000 -33.124184 -96.18895 -0.04247389 -13.286102 -0.043950025 -13.266899 -33.013504 -109.98123
65944000 -33.026093 -96.549171 -0.043568 -13.484837 -0.044041026 -13.464428 -32.914047 -110.35722
66943000 -32.883369 -96.820297 -0.040895037 -13.687297 -0.04190642 -13.669988 -32.808369 -110.58176
67942000 -32.817245 -96.84201 -0.043088231 -13.88265 -0.043502372 -13.870366 -32.679554 -110.88371
68941000 -32.71003 -96.895576 -0.04293137 -14.077427 -0.043269675 -14.07069 -32.577663 -110.83363
69940000 -32.608749 -96.969948 -0.043118037 -14.276301 -0.044004939 -14.269292 -32.437405 -111.11965
70939000 -32.51181 -96.904137 -0.042910196 -14.472536 -0.042876471 -14.466495 -32.302071 -111.03748
71938000 -32.37265 -96.464851 -0.043632846 -14.668806 -0.043351509 -14.661066 -32.179443 -110.8891
72937000 -32.21048 -96.198074 -0.042345021 -14.86937 -0.042582374 -14.862852 -32.036686 -110.58621
73936000 -32.06966 -95.887932 -0.041219592 -15.067021 -0.042377695 -15.055382 -31.921726 -110.36484
74935000 -31.947851 -96.044914 -0.041262452 -15.264221 -0.04232803 -15.26043 -31.774929 -110.04624
75934000 -31.833633 -96.305435 -0.041553322 -15.472161 -0.041640352 -15.466206 -31.686197 -109.93706
76933000 -31.701754 -96.725677 -0.042494018 -15.664143 -0.043079864 -15.657393 -31.516022 -110.2728
77932000 -31.592476 -97.411964 -0.044464935 -15.862723 -0.044873193 -15.853245 -31.422113 -110.25539
78931000 -31.521788 -98.156906 -0.042807978 -16.061739 -0.043677557 -16.058214 -31.309496 -110.10057
79930000 -31.416029 -99.022781 -0.045372777 -16.2544 -0.046232671 -16.254715 -31.210403 -110.37934
80929000 -31.302931 -99.795753 -0.046674587 -16.449537 -0.047892772 -16.450453 -31.117537 -110.62893
81928000 -31.199726 -100.45921 -0.047126491 -16.645937 -0.048393227 -16.645107 -30.993784 -110.70109
82927000 -31.092733 -101.23267 -0.049172033 -16.839495 -0.048961286 -16.838991 -30.885653 -110.94182
83926000 -30.977217 -101.91771 -0.050212841 -17.040081 -0.050202366 -17.04163 -30.763365 -111.14046
84925000 -30.887951 -102.37514 -0.051385917 -17.239477 -0.050099716 -17.23262 -30.676514 -111.15672
85924000 -30.789978 -102.77177 -0.052048415 -17.439013 -0.052214775 -17.433661 -30.596794 -111.20302
86923000 -30.67692 -103.26444 -0.051837262 -17.637602 -0.052185431 -17.631847 -30.495478 -111.04995
87922000 -30.567513 -103.61417 -0.052119151 -17.844507 -0.051544655 -17.83235 -30.398628 -111.0658
88921000 -30.503462 -103.8824 -0.053058468 -18.041971 -0.052887097 -18.040134 -30.315056 -111.10574
89920000 -30.396206 -104.36749 -0.05313446 -18.242468 -0.053157259 -18.234797 -30.260441 -111.21042
90919000 -30.293526 -104.64478 -0.054260619 -18.436611 -0.053950548 -18.435053 -30.171579 -111.38966
91918000 -30.195923 -105.03173 -0.055056993 -18.638273 -0.053968895 -18.633755 -30.106544 -111.36327
92917000 -30.102882 -105.32084 -0.055662632 -18.83733 -0.056210138 -18.833372 -30.036329 -111.52859
93916000 -30.016582 -105.64345 -0.055274855 -19.03161 -0.05540752 -19.02696 -29.941504 -112.06075
94915000 -29.932806 -106.22556 -0.057013951 -19.232185 -0.056335486 -19.224176 -29.892445 -111.92177
95914000 -29.875233 -106.44617 -0.058015455 -19.42585 -0.05690537 -19.422962 -29.79418 -112.22668
96913000 -29.786917 -106.65282 -0.058948699 -19.626732 -0.058397178 -19.625307 -29.731482 -112.63167
97912000 -29.709114 -107.13474 -0.060064033 -19.825109 -0.058635145 -19.823713 -29.657055 -112.81681
98911000 -29.600183 -107.29014 -0.060541745 -20.023363 -0.059621014 -20.023624 -29.612343 -113.01266
99910000 -29.530941 -107.42251 -0.061178073 -20.222574 -0.05997768 -20.224598 -29.504044 -113.28391
100909000 -29.434473 -107.70908 -0.060774319 -20.428694 -0.059521288 -20.425449 -29.420759 -113.52631
101908000 -29.353874 -107.91621 -0.061421711 -20.632504 -0.060220465 -20.630537 -29.309685 -113.27607
102907000 -29.217278 -107.88859 -0.062034275 -20.833204 -0.060655143 -20.833504 -29.24506 -113.26138
103906000 -29.125725 -107.96954 -0.062368032 -21.041328 -0.060926575 -21.033695 -29.095022 -113.21204
104905000 -28.976219 -107.78135 -0.063361578 -21.233202 -0.060584005 -21.237467 -28.969398 -112.91862
105904000 -28.843914 -107.8679 -0.063564099 -21.438442 -0.062146399 -21.431946 -28.860088 -112.75171
106903000 -28.734381 -107.95665 -0.063760579 -21.645733 -0.061853621 -21.637156 -28.735178 -112.66851
107902000 -28.571783 -108.26756 -0.063761637 -21.847075 -0.062401645 -21.835617 -28.598515 -112.62831
108901000 -28.457478 -108.50278 -0.064603105 -22.046091 -0.063533626 -22.039724 -28.472851 -112.55435
109900000 -28.334085 -108.97026 -0.06640061 -22.245012 -0.064679034 -22.240166 -28.323582 -112.65891
110899000 -28.213436 -109.5847 -0.067630917 -22.443293 -0.065404005 -22.437084 -28.205601 -112.87605
111898000 -28.13036 -110.20402 -0.06870167 -22.64502 -0.066347778 -22.639742 -28.082632 -113.05545
112897000 -27.999866 -110.77625 -0.069558829 -22.842363 -0.067103259 -22.835218 -27.950287 -113.26482
113896000 -27.897013 -111.32635 -0.071049727 -23.044186 -0.068168364 -23.033146 -27.841383 -113.32729
114895000 -27.798243 -111.98492 -0.071609437 -23.242397 -0.069712445 -23.231627 -27.74015 -113.39904
115894000 -27.675295 -112.29676 -0.072967306 -23.445702 -0.070723459 -23.432863 -27.668009 -113.637
116893000 -27.595945 -112.84543 -0.07369788 -23.641079 -0.071773656 -23.621647 -27.544344 -113.65767
117892000 -27.520056 -113.30273 -0.07395222 -23.839579 -0.072113954 -23.825788 -27.472094 -113.87093
118891000 -27.45952 -113.74828 -0.074472547 -24.042643 -0.072835423 -24.025038 -27.375881 -113.97687
119890000 -27.365524 -114.06676 -0.075234182 -24.242165 -0.073188178 -24.230118 -27.363417 -114.11501
120889000 -27.318192 -114.59282 -0.076159544 -24.440052 -0.073984347 -24.427889 -27.286936 -114.08293
121888000 -27.284075 -114.92821 -0.076588184 -24.636896 -0.07408651 -24.626484 -27.231421 -114.31635
122887000 -27.245796 -115.08308 -0.077207372 -24.839828 -0.075453587 -24.826466 -27.18932 -114.37019
123886000 -27.194328 -115.52243 -0.077727288 -25.04413 -0.075101174 -25.022121 -27.174234 -114.54665
124885000 -27.152891 -116.0116 -0.078490816 -25.24506 -0.075536557 -25.225077 -27.142166 -114.57708
125884000 -27.10745 -116.22362 -0.078782082 -25.437284 -0.075321361 -25.425695 -27.115635 -114.72028
126883000 -27.088669 -116.60044 -0.079328559 -25.642729 -0.076781303 -25.628092 -27.074306 -114.72573
127882000 -27.037395 -116.8985 -0.079023547 -25.844872 -0.076797381 -25.823992 -27.037207 -114.84768
128881000 -27.012798 -117.17599 -0.07946749 -26.043453 -0.076881163 -26.027685 -26.997246 -114.97143
129880000 -26.954567 -117.51641 -0.07983502 -26.24683 -0.077337012 -26.225252 -26.963005 -114.87272
130879000 -26.89407 -117.69888 -0.080150642 -26.447323 -0.077810042 -26.431438 -26.888935 -114.90236
131878000 -26.828178 -117.87994 -0.080486052 -26.648663 -0.078073852 -26.62965 -26.827106 -114.75942
132877000 -26.768734 -117.95232 -0.079752497 -26.851816 -0.0780048 -26.834736 -26.746271 -114.76646
133876000 -26.684004 -118.1432 -0.080608942 -27.052555 -0.078005858 -27.032274 -26.665432 -114.62334
134875000 -26.585955 -118.23151 -0.080117412 -27.252138 -0.079432957 -27.228882 -26.569666 -114.46764
135874000 -26.509014 -118.25544 -0.080637947 -27.45162 -0.079382338 -27.435366 -26.471569 -114.42168
136873000 -26.401228 -118.18986 -0.080921181 -27.654106 -0.078341894 -27.636494 -26.391222 -114.39187
137872000 -26.321627 -118.30176 -0.080739215 -27.854275 -0.079557396 -27.841063 -26.297043 -114.30866
138871000 -26.249704 -118.54277 -0.081597961 -28.056625 -0.078992173 -28.04108 -26.198755 -114.43319
139870000 -26.150089 -118.81157 -0.081499316 -28.257212 -0.080294877 -28.237976 -26.121613 -114.6163
140869000 -26.069307 -119.33764 -0.082979277 -28.452051 -0.08175306 -28.435268 -26.018286 -114.80137
141868000 -25.994635 -119.74923 -0.083264515 -28.649109 -0.08213371 -28.635132 -25.967648 -115.06863
142867000 -25.913568 -119.94392 -0.08283522 -28.848019 -0.081300437 -28.833395 -25.890512 -115.1914
143866000 -25.8416 -120.42683 -0.084445491 -29.044983 -0.082601458 -29.026228 -25.819099 -115.67367
144865000 -25.7834 -120.94498 -0.0858557 -29.245115 -0.083924241 -29.230007 -25.762226 -115.98899
145864000 -25.732391 -121.24612 -0.086104423 -29.445366 -0.085045211 -29.433031 -25.726484 -116.22283
146863000 -25.681129 -121.61865 -0.087113976 -29.647829 -0.084970772 -29.632694 -25.674152 -116.47643
147862000 -25.642153 -121.96681 -0.087517813 -29.843422 -0.086410992 -29.831678 -25.647411 -116.8076
148861000 -25.610811 -122.44376 -0.08853668 -30.043493 -0.087767161 -30.026653 -25.620268 -117.0097
149860000 -25.573561 -122.58901 -0.089424714 -30.236685 -0.087873876 -30.221207 -25.570019 -117.0944
150859000 -25.556917 -123.06882 -0.090047851 -30.432741 -0.088253736 -30.413952 -25.555099 -117.47639
151858000 -25.53562 -123.41302 -0.088732451 -30.631859 -0.087442011 -30.619297 -25.53964 -117.82159
152857000 -25.524263 -123.72396 -0.088522151 -30.829029 -0.087903455 -30.82213 -25.520979 -118.00014
153856000 -25.519472 -123.94194 -0.088679604 -31.03252 -0.087923534 -31.013887 -25.537996 -118.30025
154855000 -25.521425 -124.09947 -0.088877231 -31.229975 -0.088347524 -31.215614 -25.527172 -118.54401
155854000 -25.533493 -124.36343 -0.089714602 -31.429163 -0.087986402 -31.418293 -25.521639 -118.8061
156853000 -25.517977 -125.0351 -0.087527849 -31.619732 -0.087302022 -31.608221 -25.507143 -119.13545
157852000 -25.521961 -125.24967 -0.088822544 -31.81798 -0.088597178 -31.810694 -25.500534 -119.48404
158851000 -25.514477 -125.4498 -0.089215964 -32.020153 -0.089139871 -32.009331 -25.483185 -119.76525
159850000 -25.502209 -125.56863 -0.090541556 -32.21769 -0.089101024 -32.208866 -25.483612 -119.96533
160849000 -25.491762 -125.66614 -0.090167835 -32.417095 -0.089910157 -32.411213 -25.455336 -120.20994
161848000 -25.471989 -125.76132 -0.090534158 -32.616623 -0.089717247 -32.611389 -25.410477 -120.34663
162847000 -25.432566 -125.89674 -0.090853989 -32.815956 -0.090035163 -32.810081 -25.381186 -120.58723
163846000 -25.392221 -126.10825 -0.090566136 -33.018539 -0.09017127 -33.010071 -25.303152 -120.57005
164845000 -25.333729 -126.10408 -0.090698563 -33.216965 -0.090665787 -33.207676 -25.239695 -120.68291
165844000 -25.279806 -126.11552 -0.091208473 -33.415195 -0.090990648 -33.406895 -25.165182 -120.80634
166843000 -25.216206 -126.17108 -0.091343559 -33.613636 -0.091096655 -33.610722 -25.094122 -120.94565
167842000 -25.165844 -126.26469 -0.091454059 -33.815884 -0.091373168 -33.80941 -25.020245 -120.88781
168841000 -25.084003 -126.45354 -0.091225125 -34.011395 -0.091775544 -34.012611 -24.946909 -120.94061
169840000 -25.019688 -126.67206 -0.091927305 -34.207123 -0.091787182 -34.204231 -24.85972 -121.142
170839000 -24.962391 -126.91924 -0.092757858 -34.40667 -0.092518538 -34.402882 -24.785788 -121.30608
171838000 -24.899849 -127.27206 -0.092902519 -34.604813 -0.093127571 -34.600864 -24.720467 -121.53036
172837000 -24.835487 -127.65521 -0.0941213 -34.803635 -0.093698338 -34.800053 -24.655432 -121.73829
173836000 -24.766096 -128.03044 -0.095600545 -35.002625 -0.095344402 -35.001179 -24.612274 -121.93208
174835000 -24.720711 -128.44955 -0.095707193 -35.202061 -0.095401026 -35.202278 -24.569775 -122.2615
175834000 -24.666563 -128.79736 -0.096408509 -35.40184 -0.096728243 -35.397236 -24.510609 -122.54429
176833000 -24.616888 -129.12541 -0.097992055 -35.601738 -0.097513385 -35.60043 -24.460909 -122.65466
177832000 -24.574963 -129.58014 -0.099168845 -35.796463 -0.098494083 -35.796989 -24.447533 -122.75677
178831000 -24.533489 -129.78285 -0.10036448 -35.994728 -0.099970318 -35.992878 -24.400385 -122.86108
179830000 -24.460785 -130.21809 -0.1017343 -36.178608 -0.10075498 -36.181244 -24.34129 -122.93125
180829000 -24.411142 -130.56523 -0.10072319 -36.371429 -0.099484801 -36.3722 -24.298672 -123.228
181828000 -24.390173 -130.99371 -0.09967418 -36.576485 -0.099356882 -36.569466 -24.283339 -123.45721
182827000 -24.362513 -131.3492 -0.099193737 -36.769135 -0.099399254 -36.768635 -24.275225 -123.56774
183826000 -24.321386 -131.71141 -0.10026329 -36.970837 -0.099435806 -36.968925 -24.265152 -123.70184
184825000 -24.328634 -132.05791 -0.10029508 -37.166885 -0.10009826 -37.168385 -24.243622 -123.83916
185824000 -24.299875 -132.39899 -0.099729538 -37.357189 -0.10026912 -37.361 -24.240108 -123.89273
186823000 -24.281763 -132.77348 -0.099843174 -37.564301 -0.10020501 -37.558762 -24.235096 -123.93485
187822000 -24.257957 -133.12837 -0.10097515 -37.756588 -0.10082095 -37.753735 -24.195309 -123.97725
188821000 -24.237068 -133.37531 -0.10007045 -37.952427 -0.10054357 -37.957588 -24.177616 -124.11631
189820000 -24.214436 -133.65999 -0.10039416 -38.149994 -0.10023442 -38.153862 -24.160406 -124.30873
190819000 -24.186424 -133.97346 -0.10072584 -38.3489 -0.10093673 -38.347416 -24.12331 -124.32753
191818000 -24.154135 -134.26146 -0.10106762 -38.546753 -0.10160604 -38.545647 -24.093222 -124.40157
192817000 -24.104433 -134.51488 -0.10140518 -38.745178 -0.10173748 -38.744896 -24.049389 -124.45302
193816000 -24.074589 -134.7603 -0.10198791 -38.93858 -0.10135034 -38.939949 -24.000139 -124.61439
194815000 -24.013985 -135.173 -0.10236158 -39.13311 -0.10269448 -39.137009 -23.936956 -124.67838
195814000 -23.96125 -135.37056 -0.10281111 -39.333836 -0.10275491 -39.331848 -23.881151 -124.74994
196813000 -23.90803 -135.66988 -0.10239948 -39.527603 -0.10234966 -39.525867 -23.800741 -124.90431
197812000 -23.851492 -135.89667 -0.1030046 -39.729038 -0.1030661 -39.724342 -23.732121 -124.96381
198811000 -23.799465 -136.06441 -0.10256513 -39.924072 -0.10260357 -39.928276 -23.663252 -125.12583
199810000 -23.727327 -136.3927 -0.10296166 -40.115116 -0.10288612 -40.112144 -23.586123 -125.23332
200809000 -23.671925 -136.63579 -0.10356314 -40.31332 -0.10340541 -40.312721 -23.510258 -125.41885
201808000 -23.612328 -136.85286 -0.10443491 -40.516079 -0.10333092 -40.514359 -23.440868 -125.496
202807000 -23.56085 -137.16824 -0.10485017 -40.716198 -0.10450915 -40.719692 -23.388355 -125.68185
