!Keysight Technologies,E5080B,MY59205177,A.15.75.32
!Date: Friday, February 23, 2024 03:03:43
!Correction: S11(Cdelta 2-Port  ) 
!S21(Cdelta 2-Port  ) 
!S12(Cdelta 2-Port  ) 
!S22(Cdelta 2-Port  ) 
!S2P File: Measurements: S11, S21, S12, S22:
# Hz S  dB   R 50
10000000 -44.190968 -4.067555 -0.027250569 -2.0396674 -0.030044431 -2.0899796 -48.01067 -150.26855
10999000 -43.536274 -5.5425992 -0.02847478 -2.2548668 -0.030046254 -2.3122931 -47.856087 -142.7382
11998000 -42.771259 -8.0735264 -0.028855478 -2.4775405 -0.030059027 -2.5214136 -47.881481 -137.30766
12997000 -42.125355 -12.805765 -0.027932322 -2.6564362 -0.029235689 -2.6904173 -47.221287 -131.27798
13996000 -41.89048 -15.890881 -0.026694199 -2.8379595 -0.02966832 -2.8594415 -46.779099 -125.48374
14995000 -41.573639 -19.957703 -0.028787987 -3.0462637 -0.029384498 -3.0735173 -46.349213 -122.28149
15994000 -41.435905 -24.009462 -0.030409366 -3.2665367 -0.032073595 -3.2855892 -46.091156 -118.66204
16993000 -41.436165 -27.864006 -0.02910695 -3.4621804 -0.030943789 -3.4679191 -45.173046 -119.48125
17992000 -41.503216 -32.50565 -0.030235495 -3.6597123 -0.031494707 -3.6611483 -44.600651 -119.96699
18991000 -41.774609 -37.116116 -0.030945875 -3.869312 -0.032391757 -3.8647866 -43.861782 -119.7648
19990000 -41.612755 -42.125122 -0.032913383 -4.0791187 -0.034152757 -4.0756783 -43.182808 -121.11841
20989000 -41.538956 -44.930286 -0.034565266 -4.2808094 -0.03578084 -4.2715096 -42.593937 -121.03938
21988000 -41.419579 -49.81591 -0.035198063 -4.4750834 -0.036681388 -4.4647775 -42.308083 -120.45773
22987000 -41.215599 -53.893673 -0.036915559 -4.6777363 -0.037984509 -4.6664982 -42.036285 -119.89617
23986000 -41.210163 -57.749279 -0.03640233 -4.8685398 -0.037115544 -4.8686185 -41.903019 -119.75701
24985000 -40.838127 -60.58173 -0.037365668 -5.0745234 -0.037771169 -5.074327 -41.64238 -117.37112
25984000 -40.627151 -62.711193 -0.037995216 -5.2821369 -0.038234159 -5.2849302 -41.312908 -116.14193
26983000 -40.304401 -64.513214 -0.038676307 -5.4810009 -0.038899358 -5.5025005 -41.154354 -115.1033
27982000 -40.18486 -65.423248 -0.040182766 -5.6774096 -0.040444564 -5.7123857 -40.873131 -113.7673
28981000 -40.170002 -66.709877 -0.038614672 -5.876853 -0.039954428 -5.9027123 -40.63839 -112.99725
29980000 -39.827511 -68.473312 -0.039294817 -6.0716181 -0.041239977 -6.0790191 -40.313362 -112.30225
30979000 -39.431877 -67.541977 -0.036418252 -6.4264345 -0.035291228 -6.4146481 -39.817154 -113.10394
31978000 -39.262146 -68.547096 -0.035539683 -6.6199598 -0.036803041 -6.6083527 -39.550438 -112.47051
32977000 -39.106335 -70.201889 -0.036089353 -6.8286538 -0.03749961 -6.8223939 -39.306671 -112.83106
33976000 -38.967167 -71.443687 -0.036419816 -7.0282788 -0.03666259 -7.0212517 -39.012836 -112.25646
34975000 -38.677681 -72.301064 -0.036486644 -7.2272649 -0.038245913 -7.225728 -38.756123 -112.20898
35974000 -38.480843 -72.989471 -0.035703585 -7.418931 -0.038242519 -7.4265909 -38.460831 -111.26277
36973000 -38.274944 -73.883263 -0.03594397 -7.6211762 -0.038620938 -7.6270885 -38.156551 -110.62982
37972000 -38.090271 -73.785034 -0.035312109 -7.831542 -0.038863312 -7.8400078 -37.940945 -109.92081
38971000 -37.772934 -73.580879 -0.035879239 -8.0338478 -0.038935661 -8.0430689 -37.742409 -108.41151
39970000 -37.464424 -74.178787 -0.034346353 -8.2291269 -0.037610061 -8.2419348 -37.452301 -108.05974
40969000 -37.180138 -73.965599 -0.034826986 -8.4217844 -0.037738007 -8.4393559 -37.185692 -106.69401
41968000 -36.823219 -74.155312 -0.035295404 -8.6278315 -0.037702493 -8.6458483 -36.981094 -105.67657
42967000 -36.585644 -74.537331 -0.034771144 -8.8350391 -0.037482642 -8.8578053 -36.752354 -103.89904
43966000 -36.305744 -75.46833 -0.03515083 -9.0386333 -0.039296642 -9.0517368 -36.468521 -103.28272
44965000 -36.07238 -76.294708 -0.037026256 -9.2404661 -0.039029691 -9.2586823 -36.24596 -103.30942
45964000 -35.86377 -77.436844 -0.037994172 -9.4331408 -0.040137306 -9.4589825 -35.99398 -103.05566
46963000 -35.684734 -79.424553 -0.03838772 -9.6337652 -0.041486681 -9.6557188 -35.81583 -103.40034
47962000 -35.54483 -80.938362 -0.039794806 -9.8354597 -0.042567212 -9.8497019 -35.61071 -103.63297
48961000 -35.338882 -82.371918 -0.041651066 -10.027655 -0.044033442 -10.052088 -35.38895 -103.97183
49960000 -35.111847 -83.836639 -0.043241438 -10.226053 -0.044337053 -10.250458 -35.232727 -104.08459
50959000 -34.911495 -85.189346 -0.043764371 -10.441694 -0.045495462 -10.452377 -35.054062 -104.48114
51958000 -34.721828 -86.251572 -0.045847569 -10.639347 -0.046748113 -10.648418 -34.878532 -105.03294
52957000 -34.523861 -87.379295 -0.046977594 -10.839854 -0.048576463 -10.847178 -34.716351 -104.91555
53956000 -34.355988 -88.09549 -0.047812156 -11.041554 -0.048812062 -11.041393 -34.583317 -104.86996
54955000 -34.18708 -88.646454 -0.049533606 -11.237444 -0.049904633 -11.236693 -34.431107 -105.00501
55954000 -34.031128 -89.507645 -0.049772922 -11.438751 -0.050069865 -11.440547 -34.320263 -104.6334
56953000 -33.920216 -89.595657 -0.049639646 -11.640031 -0.048634838 -11.626151 -34.24369 -104.89346
57952000 -33.759071 -90.134193 -0.050914709 -11.836339 -0.050329115 -11.824512 -34.154465 -104.92799
58951000 -33.657871 -90.512039 -0.051234256 -12.038739 -0.051190775 -12.019813 -33.987583 -105.05997
59950000 -33.523487 -90.912773 -0.052183073 -12.238976 -0.051609881 -12.214559 -33.928825 -105.33038
60949000 -33.408886 -91.418503 -0.052792504 -12.44213 -0.052414678 -12.417747 -33.836334 -105.58796
61948000 -33.35363 -91.744789 -0.053169835 -12.640928 -0.052259836 -12.618094 -33.755089 -105.82788
62947000 -33.276482 -91.922417 -0.053215694 -12.848232 -0.052658085 -12.828211 -33.609779 -106.05259
63946000 -33.208519 -92.702179 -0.053864583 -13.047682 -0.054236241 -13.027217 -33.498978 -106.03564
64945000 -33.108398 -92.848503 -0.054648302 -13.248034 -0.054853562 -13.228949 -33.387974 -106.7234
65944000 -33.015358 -93.123093 -0.055540185 -13.448133 -0.054604262 -13.429703 -33.314789 -107.18251
66943000 -32.866215 -93.619682 -0.05328016 -13.647589 -0.053140227 -13.632789 -33.199066 -107.40341
67942000 -32.80851 -93.554939 -0.055474378 -13.844326 -0.054779373 -13.832953 -33.087685 -107.69834
68941000 -32.70163 -93.702934 -0.054443579 -14.04015 -0.054077666 -14.028411 -32.980213 -107.65994
69940000 -32.607376 -93.722954 -0.055097893 -14.235997 -0.055112049 -14.228173 -32.834316 -107.9934
70939000 -32.506916 -93.726654 -0.055177066 -14.429685 -0.05456337 -14.43076 -32.709045 -108.00747
71938000 -32.358284 -93.36264 -0.054691557 -14.626302 -0.054051455 -14.621299 -32.578506 -107.8728
72937000 -32.20779 -93.221527 -0.054062989 -14.829109 -0.054935876 -14.821352 -32.43549 -107.53535
73936000 -32.058033 -92.904739 -0.053397037 -15.026314 -0.053762369 -15.015805 -32.306225 -107.4131
74935000 -31.935404 -93.292488 -0.053765774 -15.217692 -0.052554589 -15.218567 -32.160419 -107.08721
75934000 -31.817284 -93.516335 -0.053470939 -15.425823 -0.05269346 -15.42063 -32.082615 -107.05189
76933000 -31.685829 -93.906731 -0.054636244 -15.619448 -0.054353409 -15.614786 -31.902925 -107.46903
77932000 -31.586649 -94.680634 -0.055956304 -15.81791 -0.055036809 -15.811114 -31.808367 -107.52966
78931000 -31.521797 -95.484222 -0.054710954 -16.01684 -0.055059616 -16.013872 -31.706779 -107.40132
79930000 -31.404825 -96.354797 -0.057322666 -16.207621 -0.057673376 -16.206717 -31.605076 -107.67826
80929000 -31.277843 -97.215561 -0.058753483 -16.404625 -0.059267525 -16.402744 -31.511564 -108.00924
81928000 -31.195795 -98.081596 -0.05883377 -16.596083 -0.059070192 -16.595356 -31.389217 -108.11848
82927000 -31.107849 -98.80883 -0.060614981 -16.796434 -0.06054857 -16.792116 -31.289015 -108.46216
83926000 -30.995522 -99.533592 -0.062151391 -16.992283 -0.060595557 -16.991137 -31.163698 -108.65021
84925000 -30.887974 -100.00283 -0.063098662 -17.191595 -0.06182579 -17.187546 -31.075686 -108.70198
85924000 -30.812395 -100.41634 -0.063556217 -17.388542 -0.062796101 -17.3902 -30.99069 -108.74091
86923000 -30.697744 -100.95082 -0.062704705 -17.589348 -0.062790059 -17.584999 -30.897661 -108.63189
87922000 -30.590061 -101.33379 -0.063678622 -17.799376 -0.063520491 -17.786585 -30.795204 -108.7165
88921000 -30.527763 -101.56685 -0.064696118 -17.990583 -0.062726237 -17.98913 -30.711039 -108.65467
89920000 -30.426624 -102.12362 -0.065397963 -18.192322 -0.064833008 -18.1819 -30.657358 -108.91596
90919000 -30.330235 -102.45178 -0.066682391 -18.388891 -0.06481225 -18.381939 -30.568415 -109.02187
91918000 -30.241215 -102.80425 -0.066512585 -18.586588 -0.064798847 -18.578974 -30.51609 -108.99435
92917000 -30.154423 -103.12794 -0.068017431 -18.784975 -0.066575937 -18.782377 -30.445261 -109.18716
93916000 -30.072586 -103.52552 -0.067411378 -18.981106 -0.066144079 -18.972723 -30.358337 -109.73893
94915000 -29.996859 -104.17844 -0.069384173 -19.178354 -0.067353018 -19.175718 -30.301647 -109.65198
95914000 -29.934034 -104.38438 -0.070062838 -19.373116 -0.068430535 -19.372427 -30.207785 -109.93456
96913000 -29.853127 -104.63656 -0.070828438 -19.571619 -0.069123253 -19.570198 -30.149136 -110.27116
97912000 -29.777943 -105.05887 -0.071874447 -19.767691 -0.069495171 -19.770494 -30.062819 -110.51341
98911000 -29.674501 -105.30521 -0.072606944 -19.969423 -0.070326708 -19.965244 -30.03266 -110.76071
99910000 -29.611168 -105.45863 -0.073075242 -20.168869 -0.071438648 -20.164501 -29.930714 -111.06137
100909000 -29.52516 -105.73141 -0.071983673 -20.376932 -0.070257515 -20.367992 -29.833784 -111.28478
101908000 -29.437019 -106.00356 -0.073193178 -20.575695 -0.071612068 -20.571421 -29.726046 -111.06488
102907000 -29.304293 -106.04742 -0.073804244 -20.773031 -0.071804971 -20.777031 -29.656467 -111.04619
103906000 -29.213087 -106.10014 -0.074369319 -20.982962 -0.071376808 -20.971992 -29.503317 -111.01394
104905000 -29.064734 -106.02626 -0.074621595 -21.177822 -0.071209975 -21.176128 -29.374031 -110.70879
105904000 -28.932882 -106.13107 -0.07530424 -21.377163 -0.071832076 -21.372595 -29.266066 -110.55459
106903000 -28.815962 -106.28885 -0.07454101 -21.58606 -0.072065786 -21.579716 -29.138014 -110.47703
107902000 -28.654785 -106.64283 -0.075739644 -21.784931 -0.072837003 -21.777372 -29.000296 -110.45329
108901000 -28.547575 -106.85556 -0.076405868 -21.987982 -0.073992774 -21.97867 -28.870897 -110.41723
109900000 -28.423756 -107.36722 -0.077750221 -22.187418 -0.075181507 -22.174942 -28.723761 -110.49519
110899000 -28.307962 -108.00684 -0.079143494 -22.384527 -0.075678535 -22.375507 -28.595118 -110.74808
111898000 -28.221046 -108.69016 -0.079719543 -22.585571 -0.076692253 -22.578732 -28.479708 -110.90112
112897000 -28.094006 -109.2201 -0.082006298 -22.783535 -0.077792384 -22.770187 -28.340393 -111.06831
113896000 -27.990141 -109.80596 -0.082664773 -22.980955 -0.079507567 -22.973825 -28.235043 -111.22081
114895000 -27.883362 -110.46931 -0.084147774 -23.182606 -0.081066765 -23.166649 -28.131361 -111.35017
115894000 -27.756443 -110.78463 -0.084698625 -23.379517 -0.081842221 -23.365334 -28.054625 -111.49819
116893000 -27.679878 -111.39439 -0.085288078 -23.57543 -0.082656071 -23.560408 -27.928329 -111.67917
117892000 -27.596035 -111.86821 -0.085094579 -23.773405 -0.082402535 -23.76153 -27.857729 -111.84152
118891000 -27.538977 -112.25233 -0.085618086 -23.973646 -0.083213061 -23.956532 -27.762163 -111.93771
119890000 -27.453539 -112.65829 -0.08686731 -24.174431 -0.083869085 -24.155451 -27.750164 -112.10121
120889000 -27.398855 -113.1384 -0.088265888 -24.373047 -0.083942711 -24.360773 -27.67119 -112.06573
121888000 -27.362564 -113.44462 -0.086914584 -24.569609 -0.085101701 -24.558083 -27.622746 -112.37756
122887000 -27.31859 -113.66895 -0.088913165 -24.773592 -0.084703639 -24.760902 -27.571766 -112.40322
123886000 -27.263496 -114.07793 -0.088822804 -24.979435 -0.085675642 -24.95649 -27.556864 -112.55185
124885000 -27.232655 -114.58897 -0.089957729 -25.175762 -0.086104423 -25.161562 -27.528534 -112.63248
125884000 -27.181265 -114.74835 -0.089919411 -25.371506 -0.086189978 -25.357756 -27.503365 -112.82849
126883000 -27.15605 -115.15588 -0.09029866 -25.576523 -0.087314442 -25.55905 -27.460991 -112.86678
127882000 -27.104834 -115.46531 -0.090702794 -25.77173 -0.08706063 -25.757196 -27.418009 -113.04446
128881000 -27.077255 -115.76395 -0.090884648 -25.975803 -0.087726742 -25.958174 -27.372227 -113.15195
129880000 -27.019398 -116.09283 -0.091596298 -26.175924 -0.087159142 -26.155537 -27.335712 -113.09869
130879000 -26.959635 -116.28104 -0.091694377 -26.375856 -0.088819899 -26.359005 -27.261551 -113.19502
131878000 -26.895519 -116.51856 -0.091070741 -26.57556 -0.089569524 -26.558928 -27.195379 -113.105
132877000 -26.822935 -116.56284 -0.091341175 -26.776772 -0.088816993 -26.759211 -27.113792 -113.10992
133876000 -26.746311 -116.74367 -0.091592595 -26.978502 -0.089005113 -26.959263 -27.022985 -113.04388
134875000 -26.651161 -116.87447 -0.091306545 -27.182869 -0.089066148 -27.161835 -26.922354 -112.9166
135874000 -26.568628 -116.88255 -0.091855131 -27.378332 -0.089255601 -27.360565 -26.821299 -112.87326
136873000 -26.45821 -116.83913 -0.092581213 -27.584478 -0.089544684 -27.559166 -26.729143 -112.86014
137872000 -26.376471 -116.95898 -0.091730602 -27.780989 -0.090176292 -27.76474 -26.626078 -112.8121
138871000 -26.302517 -117.15575 -0.092981063 -27.981649 -0.089713812 -27.965458 -26.534534 -112.99417
139870000 -26.207539 -117.41692 -0.094354093 -28.180885 -0.090972148 -28.164366 -26.449274 -113.18322
140869000 -26.119341 -117.86179 -0.095355518 -28.376297 -0.091731392 -28.357433 -26.349041 -113.29679
141868000 -26.026304 -118.35802 -0.095918372 -28.571653 -0.092348516 -28.552485 -26.280359 -113.63806
142867000 -25.94895 -118.62275 -0.094219975 -28.768246 -0.091931537 -28.747299 -26.200012 -113.79079
143866000 -25.877119 -119.11541 -0.095578849 -28.961437 -0.09286496 -28.946386 -26.129641 -114.29973
144865000 -25.81669 -119.61511 -0.097079501 -29.160254 -0.094474204 -29.145077 -26.068697 -114.60078
145864000 -25.764387 -119.91967 -0.097501472 -29.358755 -0.095914662 -29.348467 -26.037584 -114.8969
146863000 -25.720957 -120.29947 -0.098392405 -29.558746 -0.095921546 -29.54743 -25.984287 -115.18044
147862000 -25.680035 -120.6599 -0.09953592 -29.759811 -0.096107595 -29.744539 -25.947613 -115.55287
148861000 -25.649204 -121.172 -0.099398725 -29.956709 -0.0970705 -29.937881 -25.92804 -115.73142
149860000 -25.632229 -121.39371 -0.099466793 -30.15451 -0.096700184 -30.139183 -25.892733 -115.89782
150859000 -25.611319 -121.76998 -0.10004846 -30.354591 -0.09764602 -30.337051 -25.88773 -116.17934
151858000 -25.592606 -122.052 -0.10014568 -30.548738 -0.097902037 -30.538801 -25.873373 -116.48917
152857000 -25.57612 -122.36654 -0.099515267 -30.748539 -0.098258689 -30.7344 -25.863014 -116.61266
153856000 -25.5672 -122.57503 -0.099954426 -30.950155 -0.096989237 -30.937195 -25.874937 -116.87858
154855000 -25.561882 -122.73826 -0.10074015 -31.146845 -0.097712211 -31.138391 -25.866634 -117.13907
155854000 -25.572161 -122.98134 -0.10083605 -31.348516 -0.098347388 -31.335285 -25.858614 -117.37138
156853000 -25.561581 -123.6768 -0.098580942 -31.533245 -0.097243361 -31.528198 -25.85157 -117.66708
157852000 -25.566536 -123.90611 -0.1000021 -31.734571 -0.098816358 -31.722094 -25.843773 -118.02319
158851000 -25.564205 -124.13409 -0.10046701 -31.932692 -0.099130176 -31.921692 -25.826088 -118.25097
159850000 -25.55101 -124.30123 -0.10118341 -32.129356 -0.099309735 -32.1203 -25.824364 -118.44083
160849000 -25.533661 -124.40765 -0.10182758 -32.33083 -0.1001621 -32.325466 -25.791241 -118.72321
161848000 -25.509148 -124.54122 -0.10207191 -32.528942 -0.099849001 -32.527119 -25.757267 -118.83382
162847000 -25.469913 -124.71957 -0.10150296 -32.728298 -0.10107133 -32.722527 -25.726788 -119.10136
163846000 -25.427753 -124.95712 -0.10175867 -32.927586 -0.10024448 -32.921875 -25.643196 -119.11043
164845000 -25.368542 -124.99446 -0.10247078 -33.125206 -0.10048608 -33.118362 -25.580706 -119.20445
165844000 -25.311493 -125.03423 -0.10177033 -33.322006 -0.10095793 -33.318859 -25.501307 -119.35718
166843000 -25.254061 -125.12089 -0.10168368 -33.521713 -0.10127614 -33.518536 -25.435757 -119.50436
167842000 -25.198759 -125.2739 -0.10235761 -33.726128 -0.10167017 -33.713917 -25.353275 -119.46146
168841000 -25.110874 -125.44209 -0.10295133 -33.920994 -0.10222801 -33.916573 -25.275599 -119.51039
169840000 -25.04796 -125.74485 -0.10306796 -34.117065 -0.10258608 -34.113312 -25.18778 -119.71738
170839000 -24.987991 -126.01212 -0.10381024 -34.311749 -0.10322753 -34.309914 -25.102556 -119.90873
171838000 -24.931273 -126.38882 -0.10386114 -34.516186 -0.10287233 -34.506081 -25.037287 -120.17945
172837000 -24.862555 -126.78529 -0.10470856 -34.709999 -0.10460461 -34.70314 -24.971888 -120.37431
173836000 -24.796137 -127.20038 -0.10606701 -34.90873 -0.10577894 -34.903942 -24.923943 -120.60868
174835000 -24.74423 -127.60797 -0.10679334 -35.099987 -0.10589326 -35.102951 -24.879171 -120.95951
175834000 -24.690983 -128.00652 -0.10807601 -35.30151 -0.10719955 -35.29578 -24.816172 -121.22111
176833000 -24.641224 -128.38803 -0.10877828 -35.49939 -0.10821773 -35.494385 -24.768604 -121.39063
177832000 -24.587992 -128.87251 -0.1089747 -35.695713 -0.10790405 -35.694931 -24.738297 -121.53883
178831000 -24.551373 -129.20671 -0.10943286 -35.888538 -0.10838068 -35.891098 -24.701815 -121.78357
179830000 -24.516613 -129.65353 -0.10989639 -36.09116 -0.10843722 -36.091984 -24.676805 -121.87977
180829000 -24.474983 -129.82991 -0.11029305 -36.284065 -0.10915706 -36.285011 -24.646702 -122.05137
181828000 -24.452322 -130.20451 -0.11012048 -36.480152 -0.10883296 -36.478329 -24.632597 -122.17406
182827000 -24.423891 -130.55484 -0.11025111 -36.679314 -0.11003976 -36.678986 -24.618927 -122.28342
183826000 -24.383858 -130.87613 -0.11181793 -36.875065 -0.10999621 -36.877197 -24.606018 -122.39719
184825000 -24.390158 -131.16455 -0.11071578 -37.072624 -0.11076889 -37.071362 -24.592026 -122.45719
185824000 -24.36515 -131.54839 -0.11123999 -37.267147 -0.11113217 -37.266102 -24.588749 -122.52301
186823000 -24.35132 -131.88466 -0.11097177 -37.464378 -0.11092928 -37.462593 -24.583704 -122.50813
187822000 -24.324686 -132.22272 -0.11204477 -37.661217 -0.11138181 -37.658875 -24.549681 -122.57655
188821000 -24.311853 -132.44101 -0.1118073 -37.854782 -0.11179163 -37.860958 -24.534737 -122.68319
189820000 -24.294138 -132.70555 -0.11244322 -38.058582 -0.11163014 -38.055767 -24.529058 -122.84426
190819000 -24.268547 -132.97513 -0.1139715 -38.256004 -0.11277742 -38.253914 -24.497959 -122.79784
191818000 -24.231655 -133.14494 -0.11492589 -38.449589 -0.11444455 -38.450726 -24.463886 -122.69737
192817000 -24.16297 -133.43613 -0.11487459 -38.632881 -0.11432682 -38.63641 -24.390987 -122.79398
193816000 -24.126364 -133.80579 -0.11432708 -38.826519 -0.11260872 -38.829258 -24.335112 -123.03563
194815000 -24.068949 -134.2153 -0.11429891 -39.026192 -0.11353783 -39.026566 -24.273703 -123.16786
195814000 -24.018988 -134.47867 -0.11468216 -39.221935 -0.1128093 -39.220829 -24.225719 -123.2532
196813000 -23.964901 -134.81461 -0.11368743 -39.418644 -0.11301228 -39.426083 -24.146488 -123.43527
197812000 -23.908148 -135.03885 -0.11411713 -39.616531 -0.11326203 -39.609966 -24.0774 -123.54362
198811000 -23.856922 -135.21541 -0.11485466 -39.812199 -0.11308561 -39.811737 -24.00775 -123.71591
199810000 -23.788565 -135.59964 -0.11508272 -40.007061 -0.11301494 -40.006031 -23.929192 -123.78726
200809000 -23.728231 -135.86754 -0.11506385 -40.20269 -0.11422795 -40.202202 -23.848358 -124.02159
201808000 -23.674402 -136.08977 -0.11572789 -40.406933 -0.11461411 -40.407753 -23.789854 -124.07388
202807000 -23.618446 -136.46989 -0.11604533 -40.604584 -0.11521164 -40.606129 -23.728678 -124.29028
