!Keysight Technologies,E5080B,MY59205177,A.15.75.32
!Date: Friday, February 23, 2024 03:03:50
!Correction: S11(Cdelta 2-Port  ) 
!S21(Cdelta 2-Port  ) 
!S12(Cdelta 2-Port  ) 
!S22(Cdelta 2-Port  ) 
!S2P File: Measurements: S11, S21, S12, S22:
# Hz S  dB   R 50
10000000 -44.216484 -3.7810297 -0.026537407 -2.0379212 -0.030204738 -2.0935264 -48.068832 -150.47395
10999000 -43.545502 -5.5555787 -0.027657211 -2.2575963 -0.029987087 -2.3072238 -47.792614 -142.71614
11998000 -42.751572 -7.9149113 -0.027988857 -2.481581 -0.030158078 -2.5209422 -47.858841 -137.83591
12997000 -42.162685 -12.787483 -0.027200816 -2.6590459 -0.028778605 -2.6920223 -47.209198 -130.98857
13996000 -41.927441 -16.058887 -0.026533762 -2.8348823 -0.029532271 -2.8603811 -46.794056 -125.33886
14995000 -41.59259 -19.997562 -0.028605323 -3.0449181 -0.029493699 -3.0693555 -46.363644 -122.1708
15994000 -41.458458 -23.888023 -0.030026706 -3.2657895 -0.031422481 -3.2851074 -46.121284 -118.72161
16993000 -41.455975 -27.789127 -0.028906813 -3.4587929 -0.0308966 -3.4706295 -45.156612 -119.62305
17992000 -41.526726 -32.761005 -0.029187215 -3.6574554 -0.031579711 -3.6595013 -44.548187 -119.98351
18991000 -41.753201 -37.1651 -0.030493565 -3.8676279 -0.032546151 -3.8655496 -43.872013 -119.37925
19990000 -41.622528 -41.990173 -0.033122573 -4.0779314 -0.034642503 -4.0719743 -43.166199 -121.12054
20989000 -41.513981 -45.130306 -0.035311583 -4.2766352 -0.036103971 -4.2687292 -42.599583 -120.77124
21988000 -41.435413 -49.834625 -0.035919171 -4.4761896 -0.037824176 -4.463613 -42.30275 -120.25831
22987000 -41.174294 -54.098408 -0.036722634 -4.6753626 -0.038451966 -4.6641722 -42.026314 -120.06448
23986000 -41.179367 -57.916775 -0.0360348 -4.8709059 -0.03746384 -4.8694301 -41.910637 -119.8185
24985000 -40.887096 -60.37265 -0.0376756 -5.0771031 -0.037932545 -5.0747738 -41.642712 -117.44103
25984000 -40.606262 -62.629829 -0.038424019 -5.2847614 -0.037996523 -5.2839189 -41.29681 -116.10268
26983000 -40.297607 -64.655807 -0.039732628 -5.4806857 -0.038697202 -5.5005002 -41.169601 -114.96391
27982000 -40.214962 -65.60215 -0.04075785 -5.680347 -0.040440384 -5.7126279 -40.869461 -113.96473
28981000 -40.160378 -66.803398 -0.038311724 -5.8788133 -0.040188514 -5.9028325 -40.65802 -113.04371
29980000 -39.83564 -68.389641 -0.038789921 -6.0705862 -0.040568151 -6.0742888 -40.331146 -112.32319
30979000 -39.426395 -67.601563 -0.036224041 -6.4243021 -0.035359606 -6.4133739 -39.784561 -113.16098
31978000 -39.256859 -68.65374 -0.035093676 -6.6192737 -0.036741693 -6.6119328 -39.543797 -112.507
32977000 -39.089947 -70.137245 -0.035194408 -6.8291502 -0.03685708 -6.8256283 -39.308746 -112.7272
33976000 -38.954231 -71.428658 -0.03588707 -7.0285616 -0.036537547 -7.0229373 -39.006729 -112.28652
34975000 -38.675446 -72.371002 -0.036151998 -7.2306886 -0.038003571 -7.232214 -38.755016 -112.17819
35974000 -38.470612 -73.141953 -0.035384398 -7.4208903 -0.037919488 -7.4270916 -38.444317 -111.32378
36973000 -38.270535 -73.922035 -0.035671219 -7.62325 -0.038691197 -7.6246171 -38.149796 -110.62318
37972000 -38.092949 -73.621078 -0.035103593 -7.8329372 -0.038017415 -7.839489 -37.94038 -109.93916
38971000 -37.774689 -73.476654 -0.036395282 -8.032855 -0.038880028 -8.0435514 -37.736065 -108.37571
39970000 -37.447723 -74.179497 -0.034297302 -8.2277727 -0.037303526 -8.2427883 -37.445034 -108.05135
40969000 -37.174835 -74.034981 -0.034483075 -8.4203291 -0.037273761 -8.4389648 -37.194771 -106.80253
41968000 -36.843987 -74.294403 -0.034363836 -8.6264362 -0.037782397 -8.643796 -36.967934 -105.59858
42967000 -36.570477 -74.593391 -0.034776885 -8.8346758 -0.037527811 -8.8530397 -36.754799 -103.94671
43966000 -36.3148 -75.405525 -0.0349846 -9.0343084 -0.038606837 -9.0563402 -36.465824 -103.36465
44965000 -36.084339 -76.309029 -0.036366045 -9.2401743 -0.03962918 -9.2608595 -36.227303 -103.25739
45964000 -35.87722 -77.429115 -0.037296738 -9.435503 -0.04059663 -9.4591532 -36.003654 -103.12215
46963000 -35.692444 -79.534409 -0.037265148 -9.6337881 -0.041028306 -9.6539345 -35.80685 -103.40727
47962000 -35.558887 -80.909256 -0.039114323 -9.8343592 -0.042712558 -9.8495007 -35.617401 -103.63026
48961000 -35.327431 -82.359917 -0.041651852 -10.027257 -0.04407816 -10.047331 -35.3615 -103.94001
49960000 -35.122734 -83.81694 -0.042244643 -10.229802 -0.044394586 -10.24754 -35.241154 -104.08257
50959000 -34.923889 -85.130737 -0.042773467 -10.440796 -0.045842074 -10.451052 -35.06012 -104.4465
51958000 -34.712532 -86.236458 -0.044888102 -10.637659 -0.047496006 -10.648193 -34.89101 -104.97679
52957000 -34.513046 -87.44416 -0.046336539 -10.841874 -0.048483796 -10.845739 -34.722324 -104.88
53956000 -34.360367 -88.067139 -0.047499407 -11.037083 -0.048914161 -11.039182 -34.586788 -104.86104
54955000 -34.202393 -88.644821 -0.048438773 -11.237051 -0.050382014 -11.235534 -34.431343 -104.90991
55954000 -34.033318 -89.470688 -0.049448248 -11.440443 -0.050230648 -11.434827 -34.323818 -104.64642
56953000 -33.917809 -89.570633 -0.049431752 -11.63742 -0.0492079 -11.626939 -34.248428 -104.83849
57952000 -33.764805 -90.165192 -0.050262075 -11.834753 -0.050571617 -11.829375 -34.151974 -104.98315
58951000 -33.648636 -90.537674 -0.051236611 -12.041039 -0.051534176 -12.017768 -33.997055 -105.02809
59950000 -33.520943 -90.842316 -0.051766269 -12.240177 -0.051368367 -12.215584 -33.924961 -105.34203
60949000 -33.416592 -91.52636 -0.052450575 -12.439816 -0.051882844 -12.417378 -33.834831 -105.67197
61948000 -33.359943 -91.72435 -0.053184513 -12.64139 -0.052060727 -12.620423 -33.754478 -105.76939
62947000 -33.274708 -92.065308 -0.052564807 -12.847401 -0.05353567 -12.825962 -33.610561 -105.99436
63946000 -33.204662 -92.756432 -0.054552101 -13.050793 -0.053862747 -13.026869 -33.500481 -106.10083
64945000 -33.100037 -92.934471 -0.054880824 -13.247811 -0.054611079 -13.230077 -33.403954 -106.6092
65944000 -33.014389 -93.238281 -0.055614125 -13.447184 -0.054851726 -13.431409 -33.312538 -107.15364
66943000 -32.867233 -93.659637 -0.05333598 -13.650424 -0.053149659 -13.632797 -33.214088 -107.41743
67942000 -32.809231 -93.652489 -0.0551304 -13.846981 -0.05513538 -13.834519 -33.092136 -107.6722
68941000 -32.698009 -93.749176 -0.05486824 -14.034789 -0.053511038 -14.026966 -32.974216 -107.71117
69940000 -32.607075 -93.775352 -0.055020291 -14.236684 -0.054673992 -14.229756 -32.831753 -108.02495
70939000 -32.498852 -93.739891 -0.054873224 -14.431722 -0.054795366 -14.423984 -32.699646 -107.93638
71938000 -32.352757 -93.371223 -0.054777801 -14.628963 -0.05486064 -14.620923 -32.570171 -107.78376
72937000 -32.211414 -93.259636 -0.054035731 -14.825487 -0.053929318 -14.819864 -32.431789 -107.57691
73936000 -32.063286 -92.975204 -0.05389813 -15.026029 -0.05347959 -15.014547 -32.312603 -107.41253
74935000 -31.94721 -93.199081 -0.05365701 -15.221505 -0.052250408 -15.22039 -32.156044 -107.13384
75934000 -31.813461 -93.530594 -0.053906254 -15.431015 -0.052156877 -15.423071 -32.074795 -107.02873
76933000 -31.691338 -93.89093 -0.054577265 -15.623412 -0.054745033 -15.620045 -31.909359 -107.47462
77932000 -31.597588 -94.646133 -0.055822313 -15.818054 -0.055555917 -15.811963 -31.811436 -107.54852
78931000 -31.513815 -95.527321 -0.054587226 -16.02079 -0.054486565 -16.010809 -31.707586 -107.35409
79930000 -31.410398 -96.23336 -0.057271257 -16.208893 -0.057354145 -16.20853 -31.615507 -107.60812
80929000 -31.274866 -97.180862 -0.058776833 -16.405754 -0.058889136 -16.402834 -31.507818 -108.0469
81928000 -31.201551 -98.058487 -0.058156334 -16.599209 -0.058673717 -16.594994 -31.393543 -108.17162
82927000 -31.112347 -98.857307 -0.060008127 -16.795626 -0.059810761 -16.791597 -31.282898 -108.44821
83926000 -30.996668 -99.488533 -0.061533034 -16.99346 -0.061451904 -16.994356 -31.16794 -108.65021
84925000 -30.894152 -100.03076 -0.062806606 -17.190834 -0.061723124 -17.186365 -31.073992 -108.74199
85924000 -30.8022 -100.38935 -0.062823415 -17.393354 -0.063046657 -17.387959 -30.992107 -108.71111
86923000 -30.702507 -100.97834 -0.063489497 -17.592255 -0.062886968 -17.579424 -30.896282 -108.59953
87922000 -30.598433 -101.33666 -0.063193478 -17.797693 -0.062512204 -17.78356 -30.809618 -108.73492
88921000 -30.525839 -101.59393 -0.064204022 -17.993591 -0.063685715 -17.990929 -30.717657 -108.64903
89920000 -30.425344 -102.16358 -0.065050051 -18.192804 -0.064713195 -18.182041 -30.660183 -108.86605
90919000 -30.327318 -102.45277 -0.065738022 -18.386095 -0.064852186 -18.383553 -30.569042 -109.05412
91918000 -30.241167 -102.87505 -0.066492349 -18.584839 -0.065401644 -18.583132 -30.509817 -109.05368
92917000 -30.14887 -103.13872 -0.067586482 -18.785862 -0.066534929 -18.782593 -30.452587 -109.19844
93916000 -30.067129 -103.55589 -0.067127973 -18.97789 -0.066852473 -18.971296 -30.365191 -109.79945
94915000 -29.988686 -104.1703 -0.068513632 -19.17774 -0.067344598 -19.173941 -30.296041 -109.70732
95914000 -29.933056 -104.36359 -0.069268174 -19.374136 -0.068756372 -19.368509 -30.205553 -109.91005
96913000 -29.847458 -104.64755 -0.071015254 -19.572941 -0.069201894 -19.569632 -30.144169 -110.30524
97912000 -29.776754 -105.11671 -0.071834974 -19.76803 -0.069687188 -19.767525 -30.066423 -110.56245
98911000 -29.673216 -105.32654 -0.072059207 -19.971752 -0.070479035 -19.966608 -30.023022 -110.7397
99910000 -29.608917 -105.50626 -0.072586149 -20.171032 -0.070924476 -20.165808 -29.923498 -111.05521
100909000 -29.52149 -105.76265 -0.071632072 -20.379307 -0.070516661 -20.366407 -29.835157 -111.3269
101908000 -29.436949 -106.01402 -0.073205814 -20.574718 -0.071587071 -20.568747 -29.719898 -111.07552
102907000 -29.307125 -106.09283 -0.073458292 -20.774069 -0.072015777 -20.775856 -29.650339 -111.04079
103906000 -29.2132 -106.13866 -0.073627844 -20.982594 -0.070852116 -20.974173 -29.504734 -111.02211
104905000 -29.067829 -106.02726 -0.074423566 -21.178713 -0.072357148 -21.176756 -29.38217 -110.66109
105904000 -28.92449 -106.15292 -0.074249238 -21.381372 -0.071359441 -21.371065 -29.258249 -110.57916
106903000 -28.820959 -106.26656 -0.074324816 -21.588898 -0.073130786 -21.579489 -29.139944 -110.47829
107902000 -28.657486 -106.60459 -0.075619005 -21.783358 -0.072642475 -21.777117 -29.001341 -110.43201
108901000 -28.548695 -106.86279 -0.075895064 -21.985735 -0.074470967 -21.978477 -28.869301 -110.40987
109900000 -28.416758 -107.3921 -0.076756015 -22.18471 -0.075052448 -22.179852 -28.720167 -110.49606
110899000 -28.301544 -107.98791 -0.078167945 -22.384115 -0.075605832 -22.373457 -28.596642 -110.74601
111898000 -28.215237 -108.68477 -0.079681307 -22.587248 -0.077215798 -22.577787 -28.481155 -110.87753
112897000 -28.090424 -109.26168 -0.08142335 -22.783316 -0.078807123 -22.770956 -28.345949 -111.03137
113896000 -27.986712 -109.81404 -0.082120784 -22.983145 -0.079179868 -22.970743 -28.239277 -111.25941
114895000 -27.882481 -110.41716 -0.083185613 -23.184099 -0.081304662 -23.167997 -28.133242 -111.30581
115894000 -27.758066 -110.82749 -0.085076891 -23.381994 -0.082444213 -23.367878 -28.0641 -111.47026
116893000 -27.678164 -111.38161 -0.084737949 -23.579893 -0.082295686 -23.55913 -27.923683 -111.60839
117892000 -27.597534 -111.90235 -0.084825322 -23.771156 -0.082760282 -23.758417 -27.858534 -111.85674
118891000 -27.540297 -112.29784 -0.085693061 -23.972382 -0.082849994 -23.958654 -27.761997 -111.96056
119890000 -27.45146 -112.63587 -0.086155385 -24.175474 -0.084225632 -24.160124 -27.750584 -112.13879
120889000 -27.395609 -113.15582 -0.087343492 -24.37249 -0.084305078 -24.355919 -27.684444 -112.07803
121888000 -27.36557 -113.44868 -0.087277465 -24.566481 -0.084762238 -24.560244 -27.615757 -112.34997
122887000 -27.319374 -113.65546 -0.087926701 -24.775145 -0.084935926 -24.759476 -27.570829 -112.39282
123886000 -27.264357 -114.11204 -0.089359976 -24.972324 -0.085765138 -24.958132 -27.557373 -112.58955
124885000 -27.233124 -114.5978 -0.089192979 -25.173468 -0.085929364 -25.158966 -27.527878 -112.61636
125884000 -27.181057 -114.76465 -0.089705884 -25.369808 -0.086572595 -25.356031 -27.498144 -112.80983
126883000 -27.154137 -115.18417 -0.090537064 -25.576193 -0.087657541 -25.560879 -27.458084 -112.87626
127882000 -27.10524 -115.4719 -0.090486318 -25.772322 -0.088067502 -25.757435 -27.417511 -113.03364
128881000 -27.072485 -115.77615 -0.090707287 -25.975588 -0.088114522 -25.957806 -27.379246 -113.14468
129880000 -27.02368 -116.14163 -0.091099821 -26.177084 -0.087733872 -26.159584 -27.334229 -113.09534
130879000 -26.966717 -116.26277 -0.091264248 -26.37513 -0.088929549 -26.358753 -27.257896 -113.22123
131878000 -26.899321 -116.50967 -0.091662921 -26.575729 -0.089555785 -26.558985 -27.192566 -113.11415
132877000 -26.828547 -116.57906 -0.090934344 -26.779179 -0.089441627 -26.757486 -27.110397 -113.07397
133876000 -26.746243 -116.75021 -0.091317125 -26.979259 -0.088507883 -26.957918 -27.022526 -113.03298
134875000 -26.650152 -116.90415 -0.091585189 -27.180082 -0.089427091 -27.159101 -26.920969 -112.88332
135874000 -26.574226 -116.8774 -0.091784269 -27.378281 -0.090013757 -27.361012 -26.819366 -112.90158
136873000 -26.45747 -116.84686 -0.092192769 -27.580664 -0.089637965 -27.564264 -26.737148 -112.86488
137872000 -26.379168 -116.96845 -0.091690943 -27.782417 -0.089389041 -27.767351 -26.626038 -112.82217
138871000 -26.307774 -117.16679 -0.092408009 -27.982637 -0.090022214 -27.964911 -26.533751 -112.98715
139870000 -26.2069 -117.40189 -0.093186021 -28.180689 -0.091221422 -28.161814 -26.453136 -113.18729
140869000 -26.120674 -117.88129 -0.094978996 -28.377672 -0.092725858 -28.358521 -26.348122 -113.29603
141868000 -26.022682 -118.37589 -0.095435426 -28.567669 -0.093516894 -28.553072 -26.274733 -113.60885
142867000 -25.946684 -118.61594 -0.09361317 -28.766613 -0.091484465 -28.750343 -26.200987 -113.84574
143866000 -25.877493 -119.06923 -0.095874175 -28.96365 -0.093155876 -28.946854 -26.126547 -114.32206
144865000 -25.819113 -119.60918 -0.097082682 -29.161579 -0.095029265 -29.146524 -26.06872 -114.64771
145864000 -25.758217 -119.9223 -0.097560771 -29.360905 -0.095806167 -29.349314 -26.039814 -114.9139
146863000 -25.714668 -120.29403 -0.098168135 -29.56109 -0.095868088 -29.545971 -25.984991 -115.20249
147862000 -25.674059 -120.67476 -0.098385252 -29.759405 -0.096429683 -29.745935 -25.949017 -115.52758
148861000 -25.637693 -121.18452 -0.098586231 -29.958624 -0.096792303 -29.940556 -25.92293 -115.78355
149860000 -25.626759 -121.35857 -0.099422298 -30.152086 -0.096859269 -30.143684 -25.891481 -115.92457
150859000 -25.604933 -121.76095 -0.1006771 -30.355141 -0.097299218 -30.33979 -25.883001 -116.16998
151858000 -25.591413 -122.05565 -0.10013958 -30.550846 -0.097298689 -30.535856 -25.87537 -116.46055
152857000 -25.575895 -122.34358 -0.10096137 -30.745649 -0.098283045 -30.737436 -25.858124 -116.6242
153856000 -25.569094 -122.58327 -0.099952042 -30.949469 -0.097581953 -30.935293 -25.873539 -116.91273
154855000 -25.562353 -122.75095 -0.10117573 -31.146032 -0.098064072 -31.13747 -25.865541 -117.12759
155854000 -25.578135 -122.99837 -0.10103583 -31.345528 -0.09843 -31.335724 -25.850504 -117.38005
156853000 -25.558548 -123.72113 -0.098785371 -31.532768 -0.097571097 -31.524128 -25.854473 -117.68243
157852000 -25.567026 -123.92333 -0.10028183 -31.735071 -0.099529564 -31.725071 -25.838739 -118.03578
158851000 -25.56395 -124.13288 -0.10055999 -31.930937 -0.099458054 -31.921795 -25.822773 -118.28489
159850000 -25.545895 -124.25459 -0.10128833 -32.130276 -0.099161424 -32.120235 -25.825977 -118.4307
160849000 -25.529594 -124.40144 -0.10172979 -32.327061 -0.099932969 -32.324486 -25.792624 -118.77262
161848000 -25.514618 -124.49329 -0.10178941 -32.529041 -0.09995389 -32.524044 -25.751925 -118.83154
162847000 -25.468815 -124.70966 -0.10167971 -32.727383 -0.10110047 -32.722893 -25.722374 -119.0843
163846000 -25.425402 -124.9706 -0.10176344 -32.925999 -0.10053138 -32.919834 -25.642551 -119.13537
164845000 -25.368877 -124.95723 -0.10234648 -33.122871 -0.10048953 -33.117023 -25.579863 -119.2196
165844000 -25.31094 -125.05336 -0.10245408 -33.325104 -0.10160445 -33.314716 -25.505163 -119.3553
166843000 -25.251066 -125.09464 -0.10235019 -33.526192 -0.1007677 -33.5201 -25.427645 -119.53315
167842000 -25.191702 -125.25117 -0.10263193 -33.722862 -0.10100111 -33.718884 -25.35173 -119.46786
168841000 -25.107424 -125.45148 -0.10377312 -33.917145 -0.10134689 -33.917503 -25.275482 -119.5191
169840000 -25.046677 -125.74058 -0.1028771 -34.116589 -0.10241327 -34.111179 -25.186592 -119.72323
170839000 -24.989952 -125.98255 -0.10388288 -34.312019 -0.10238411 -34.311409 -25.103245 -119.92406
171838000 -24.929199 -126.41875 -0.10420104 -34.512966 -0.10340488 -34.509823 -25.036133 -120.17259
172837000 -24.862413 -126.75846 -0.10551875 -34.710293 -0.10445294 -34.703529 -24.966696 -120.35031
173836000 -24.790136 -127.16344 -0.10653813 -34.905464 -0.10524531 -34.903915 -24.924158 -120.61568
174835000 -24.741585 -127.59272 -0.10685755 -35.101585 -0.10619486 -35.100342 -24.875158 -120.95702
175834000 -24.688137 -128.01956 -0.10782099 -35.302216 -0.10691884 -35.296745 -24.814924 -121.22176
176833000 -24.637363 -128.3636 -0.10820048 -35.497402 -0.10739484 -35.492989 -24.762493 -121.37548
177832000 -24.591967 -128.86984 -0.10865034 -35.695957 -0.1077029 -35.695881 -24.742863 -121.56389
178831000 -24.551649 -129.2502 -0.10919342 -35.890926 -0.10849162 -35.887123 -24.708485 -121.77741
179830000 -24.514137 -129.63718 -0.10965161 -36.089493 -0.10899274 -36.088581 -24.676014 -121.88094
180829000 -24.476997 -129.85764 -0.11004879 -36.286629 -0.10928766 -36.286076 -24.646791 -122.06447
181828000 -24.446722 -130.24565 -0.11053309 -36.482628 -0.10948516 -36.479012 -24.626104 -122.21953
182827000 -24.426142 -130.56757 -0.1102604 -36.678436 -0.10919926 -36.678074 -24.613579 -122.2562
183826000 -24.387138 -130.87862 -0.11137624 -36.874016 -0.11053309 -36.869194 -24.606783 -122.39426
184825000 -24.387341 -131.15131 -0.1108783 -37.073093 -0.1098863 -37.072197 -24.589281 -122.47215
185824000 -24.361288 -131.55707 -0.11101851 -37.266254 -0.11045821 -37.265823 -24.585279 -122.51488
186823000 -24.349144 -131.89748 -0.1110371 -37.467194 -0.11045157 -37.465214 -24.586338 -122.49844
187822000 -24.330912 -132.21779 -0.11183599 -37.660465 -0.11069241 -37.660282 -24.550854 -122.57828
188821000 -24.308239 -132.44402 -0.11195339 -37.856064 -0.11114598 -37.858192 -24.533686 -122.69241
189820000 -24.291899 -132.73611 -0.11196773 -38.057953 -0.11140174 -38.057827 -24.523649 -122.85072
190819000 -24.266079 -132.97345 -0.11378788 -38.256649 -0.11257711 -38.253391 -24.491524 -122.80052
191818000 -24.231619 -133.14359 -0.11435206 -38.449039 -0.11405707 -38.452297 -24.463036 -122.71584
192817000 -24.161592 -133.42935 -0.11471352 -38.637215 -0.1145886 -38.637814 -24.3925 -122.75504
193816000 -24.124304 -133.79811 -0.11403076 -38.827297 -0.11309756 -38.824753 -24.334 -123.04595
194815000 -24.067375 -134.22476 -0.11373659 -39.025856 -0.11364784 -39.02597 -24.273289 -123.18063
195814000 -24.013836 -134.46484 -0.11487938 -39.223984 -0.11344085 -39.225872 -24.224306 -123.26175
196813000 -23.963209 -134.82072 -0.11397947 -39.417587 -0.11313024 -39.42062 -24.142546 -123.42776
197812000 -23.906111 -135.04221 -0.11455325 -39.615353 -0.11360001 -39.613789 -24.076973 -123.55255
198811000 -23.851784 -135.21304 -0.11461545 -39.808567 -0.11330693 -39.811596 -24.008333 -123.72862
199810000 -23.786976 -135.61894 -0.11431539 -40.00536 -0.11327983 -40.005814 -23.927 -123.81977
200809000 -23.725058 -135.88632 -0.11466196 -40.20322 -0.11352853 -40.203625 -23.850159 -123.98222
201808000 -23.673971 -136.12122 -0.11540144 -40.404819 -0.11457372 -40.407375 -23.784164 -124.0807
202807000 -23.61257 -136.48872 -0.11600917 -40.603195 -0.11512657 -40.607517 -23.729418 -124.29383
203806000 -23.563393 -136.91504 -0.11731531 -40.805237 -0.11596822 -40.806679 -23.666637 -124.47815
