!Keysight Technologies,E5080B,MY59205177,A.15.75.32
!Date: Friday, February 23, 2024 03:42:01
!Correction: S11(Cdelta 2-Port  ) 
!S21(Cdelta 2-Port  ) 
!S12(Cdelta 2-Port  ) 
!S22(Cdelta 2-Port  ) 
!S2P File: Measurements: S11, S21, S12, S22:
# Hz S  dB   R 50
10000000 -46.110752 -2.9806733 -0.014706617 -2.0401952 -0.018308336 -2.0951321 -45.95636 -157.0105
10999000 -45.311653 -4.8178415 -0.015143258 -2.2635698 -0.018701663 -2.3168843 -45.831017 -151.23781
11998000 -44.403191 -7.573525 -0.015965749 -2.4850473 -0.017810553 -2.5294864 -45.981995 -146.83952
12997000 -43.572865 -13.446127 -0.015768295 -2.6653371 -0.017266827 -2.6973517 -45.631237 -141.04395
13996000 -43.298096 -17.565474 -0.014739864 -2.8449125 -0.017197177 -2.8658776 -45.35532 -135.89619
14995000 -42.901443 -21.823013 -0.016681593 -3.0548935 -0.017242657 -3.0801854 -45.107735 -132.62939
15994000 -42.729904 -26.628178 -0.018200455 -3.2738988 -0.02066493 -3.2946787 -44.988037 -129.10895
16993000 -42.711506 -30.990234 -0.017679034 -3.4738607 -0.01930277 -3.4803395 -44.11816 -129.07526
17992000 -42.708652 -36.407837 -0.017807694 -3.6720161 -0.019906301 -3.6732163 -43.541969 -128.97771
18991000 -42.967094 -41.968117 -0.018789275 -3.8819702 -0.021331605 -3.8776782 -42.904995 -127.72969
19990000 -42.714516 -47.660915 -0.021585243 -4.0928063 -0.022436013 -4.0878668 -42.239464 -128.5737
20989000 -42.549843 -50.949306 -0.023415519 -4.2957773 -0.024944291 -4.2810802 -41.719521 -128.19669
21988000 -42.347958 -56.302578 -0.02391004 -4.4912486 -0.025351757 -4.4761233 -41.45113 -127.53195
22987000 -41.9673 -60.961121 -0.025527515 -4.6877232 -0.026509801 -4.6787806 -41.152527 -127.25499
23986000 -41.901302 -65.068871 -0.025358528 -4.8828998 -0.024683166 -4.8848667 -41.044838 -126.67304
24985000 -41.514645 -67.553291 -0.026291033 -5.0936475 -0.025524911 -5.0877614 -40.833439 -124.47741
25984000 -41.142204 -69.736031 -0.026866624 -5.2998462 -0.02622176 -5.2979226 -40.480953 -122.96858
26983000 -40.860126 -71.954742 -0.027983908 -5.4981256 -0.027418327 -5.5132461 -40.408794 -122.639
27982000 -40.652557 -72.600998 -0.029193731 -5.6972785 -0.028127724 -5.7301164 -40.107014 -120.60496
28981000 -40.617588 -73.97052 -0.02743604 -5.8985982 -0.028821602 -5.9197793 -39.844547 -120.15282
29980000 -40.210289 -75.431122 -0.026673624 -6.0861301 -0.029343059 -6.0954242 -39.622169 -119.21273
30979000 -39.852139 -74.444839 -0.024784438 -6.4435029 -0.023609936 -6.4323893 -39.094337 -119.35887
31978000 -39.634869 -75.277748 -0.023712745 -6.6370349 -0.025088787 -6.6254592 -38.833527 -118.85163
32977000 -39.453575 -76.785095 -0.022979086 -6.8501019 -0.025029685 -6.8483992 -38.616062 -118.76348
33976000 -39.280521 -78.032928 -0.023854338 -7.0496583 -0.025178092 -7.0426064 -38.33923 -118.03374
34975000 -38.983635 -78.662323 -0.02412973 -7.2513924 -0.026299367 -7.2467446 -38.111118 -117.92856
35974000 -38.762768 -79.256706 -0.023077196 -7.4442496 -0.026588976 -7.4472184 -37.844307 -116.9487
36973000 -38.556595 -79.819633 -0.023467051 -7.6419754 -0.027088026 -7.6446834 -37.570969 -115.98097
37972000 -38.385818 -79.615593 -0.023673704 -7.8534713 -0.027366748 -7.8636045 -37.356358 -115.32377
38971000 -38.075687 -79.038223 -0.02486228 -8.0543423 -0.027608495 -8.0690994 -37.174015 -113.70551
39970000 -37.763245 -79.45871 -0.023153447 -8.2502871 -0.025794679 -8.263463 -36.941578 -112.98405
40969000 -37.461411 -79.181137 -0.023198988 -8.4434357 -0.025823845 -8.4651213 -36.700809 -111.63327
41968000 -37.121986 -78.909874 -0.024270294 -8.6493073 -0.026927313 -8.663373 -36.503544 -110.44238
42967000 -36.86359 -79.099312 -0.023166198 -8.8628159 -0.026599916 -8.8805237 -36.329914 -108.60497
43966000 -36.557369 -79.843506 -0.024015719 -9.060009 -0.027316213 -9.073904 -36.069023 -107.91518
44965000 -36.346554 -80.636589 -0.024804745 -9.2651062 -0.027421713 -9.287652 -35.860985 -107.63731
45964000 -36.112736 -81.508766 -0.026004829 -9.4679441 -0.029588306 -9.4859314 -35.615284 -107.28046
46963000 -35.88763 -83.368286 -0.026635598 -9.6565466 -0.030099168 -9.6809521 -35.438309 -107.58164
47962000 -35.737118 -84.716286 -0.028069623 -9.8600941 -0.030805094 -9.8800354 -35.251255 -107.57288
48961000 -35.503605 -86.254585 -0.029458513 -10.058695 -0.032468691 -10.076487 -35.01989 -107.76523
49960000 -35.284622 -87.479744 -0.031508002 -10.256641 -0.033294734 -10.282434 -34.890743 -107.96644
50959000 -35.060558 -88.886124 -0.031458464 -10.470037 -0.034770101 -10.481333 -34.707203 -108.04213
51958000 -34.855217 -89.932167 -0.032981198 -10.671474 -0.035923351 -10.677646 -34.514149 -108.69312
52957000 -34.635681 -90.932846 -0.035283662 -10.870236 -0.036827058 -10.877692 -34.364571 -108.45616
53956000 -34.467468 -91.514961 -0.036070038 -11.069871 -0.037933588 -11.073456 -34.232529 -108.37413
54955000 -34.289772 -92.080582 -0.037062544 -11.270822 -0.038073037 -11.268753 -34.081505 -108.33796
55954000 -34.129036 -92.868149 -0.038398426 -11.474529 -0.038286392 -11.469932 -33.965645 -108.05183
56953000 -34.003902 -92.856621 -0.037651576 -11.66955 -0.037672728 -11.658816 -33.893421 -108.2951
57952000 -33.83392 -93.526115 -0.038994431 -11.870593 -0.038703732 -11.85792 -33.787609 -108.37675
58951000 -33.71365 -93.778358 -0.040185902 -12.075018 -0.040109873 -12.057151 -33.628696 -108.43915
59950000 -33.590405 -94.199356 -0.040681031 -12.271175 -0.040669009 -12.248837 -33.561462 -108.75011
60949000 -33.471058 -94.728951 -0.040733811 -12.474224 -0.04066065 -12.454644 -33.460464 -108.97927
61948000 -33.402706 -95.100632 -0.04125252 -12.674054 -0.040536013 -12.656089 -33.374638 -109.03003
62947000 -33.310505 -95.284706 -0.041257747 -12.886592 -0.042103235 -12.863841 -33.23101 -109.3231
63946000 -33.248749 -96.053207 -0.042347632 -13.084294 -0.043009799 -13.065985 -33.115322 -109.49469
64945000 -33.135838 -96.190956 -0.042714126 -13.285813 -0.043169279 -13.267382 -33.009064 -109.9603
65944000 -33.035702 -96.499191 -0.043543685 -13.484079 -0.043515187 -13.470273 -32.914841 -110.37413
66943000 -32.887409 -96.9226 -0.042026911 -13.687947 -0.042417165 -13.670781 -32.805958 -110.60089
67942000 -32.825718 -96.853462 -0.043551531 -13.885777 -0.044084959 -13.874516 -32.679928 -110.94766
68941000 -32.715755 -96.920631 -0.043297127 -14.076465 -0.043261569 -14.068418 -32.580894 -110.87631
69940000 -32.618904 -96.913086 -0.043562774 -14.279867 -0.044344112 -14.267596 -32.427456 -111.09685
70939000 -32.49979 -96.900909 -0.043250591 -14.470244 -0.044019844 -14.464374 -32.293846 -111.02704
71938000 -32.373993 -96.380394 -0.044178836 -14.67161 -0.043350987 -14.66477 -32.172272 -110.83652
72937000 -32.20977 -96.197861 -0.042702362 -14.87472 -0.043091107 -14.861744 -32.02877 -110.5304
73936000 -32.076855 -95.841255 -0.043287978 -15.068319 -0.042447489 -15.054454 -31.922972 -110.31921
74935000 -31.958693 -96.046745 -0.042772945 -15.260246 -0.041249122 -15.262782 -31.770744 -110.04449
75934000 -31.835413 -96.265701 -0.042052265 -15.473944 -0.041733395 -15.466709 -31.675488 -109.93367
76933000 -31.695 -96.641457 -0.043801241 -15.666437 -0.043154117 -15.656016 -31.52389 -110.22431
77932000 -31.59944 -97.420586 -0.044799961 -15.861131 -0.044639897 -15.85625 -31.423197 -110.1951
78931000 -31.521309 -98.177635 -0.043902434 -16.06304 -0.043713644 -16.057837 -31.319141 -110.06643
79930000 -31.419842 -99.009651 -0.045338772 -16.255831 -0.04632058 -16.251787 -31.214382 -110.37434
80929000 -31.289606 -99.794838 -0.047010828 -16.451553 -0.047812682 -16.451008 -31.123251 -110.64351
81928000 -31.199032 -100.56703 -0.047297899 -16.646116 -0.048194032 -16.638357 -30.998205 -110.61581
82927000 -31.089005 -101.25416 -0.048515994 -16.842695 -0.049111031 -16.840029 -30.884741 -110.92434
83926000 -30.972944 -101.9603 -0.050113071 -17.039757 -0.050383583 -17.040201 -30.774187 -111.11474
84925000 -30.879835 -102.39677 -0.051508244 -17.240007 -0.051758412 -17.23464 -30.675753 -111.24355
85924000 -30.783188 -102.79628 -0.052015144 -17.440706 -0.051320169 -17.437597 -30.59992 -111.10029
86923000 -30.676445 -103.23194 -0.052220277 -17.636499 -0.052077234 -17.635128 -30.498312 -111.01538
87922000 -30.561071 -103.60713 -0.051357102 -17.845592 -0.051485978 -17.836039 -30.40864 -111.02997
88921000 -30.501713 -103.89116 -0.053665921 -18.041937 -0.052351013 -18.038534 -30.314661 -111.0658
89920000 -30.387856 -104.37358 -0.054311994 -18.237209 -0.052588653 -18.230532 -30.263855 -111.22089
90919000 -30.296329 -104.66565 -0.05447346 -18.436499 -0.053850953 -18.433861 -30.169552 -111.42001
91918000 -30.193569 -104.99262 -0.054390106 -18.637337 -0.054063514 -18.63496 -30.102497 -111.39771
92917000 -30.10318 -105.32374 -0.05688465 -18.839169 -0.055625137 -18.834641 -30.034552 -111.55625
93916000 -30.014418 -105.66026 -0.055934802 -19.0317 -0.054986734 -19.024216 -29.944407 -112.15019
94915000 -29.942625 -106.2802 -0.056655955 -19.232521 -0.055942405 -19.225111 -29.889215 -111.99509
95914000 -29.868773 -106.40835 -0.058262061 -19.427526 -0.057252634 -19.424484 -29.790792 -112.25204
96913000 -29.782499 -106.63587 -0.059224226 -19.626251 -0.058756366 -19.622656 -29.725807 -112.59927
97912000 -29.707861 -107.14771 -0.060320467 -19.824858 -0.058595527 -19.823454 -29.649305 -112.80801
98911000 -29.60413 -107.31206 -0.060672205 -20.023804 -0.059996054 -20.023479 -29.612778 -113.03275
99910000 -29.536905 -107.44148 -0.060996145 -20.2243 -0.06023385 -20.224926 -29.495598 -113.25886
100909000 -29.446547 -107.69545 -0.060120724 -20.430624 -0.059798952 -20.426224 -29.412378 -113.49788
101908000 -29.355776 -107.86656 -0.061747018 -20.633595 -0.060879324 -20.624788 -29.307138 -113.27625
102907000 -29.223392 -107.87891 -0.062263254 -20.830332 -0.061175976 -20.829399 -29.231913 -113.26347
103906000 -29.129179 -107.9305 -0.062684745 -21.036732 -0.060341205 -21.033051 -29.091589 -113.21143
104905000 -28.981628 -107.83636 -0.06317693 -21.23914 -0.061184902 -21.23465 -28.968649 -112.90334
105904000 -28.841619 -107.91829 -0.063119933 -21.435452 -0.061859399 -21.435181 -28.857567 -112.80271
106903000 -28.732611 -108.00739 -0.06313543 -21.642742 -0.061762247 -21.643152 -28.736778 -112.66902
107902000 -28.567024 -108.29551 -0.064060055 -21.846235 -0.062808439 -21.838179 -28.600965 -112.57536
108901000 -28.460691 -108.52619 -0.065372474 -22.046238 -0.063738778 -22.03861 -28.469936 -112.57274
109900000 -28.335571 -108.96638 -0.066578567 -22.249388 -0.064681143 -22.235399 -28.320787 -112.59167
110899000 -28.216824 -109.62579 -0.067318313 -22.446589 -0.065478906 -22.439749 -28.204672 -112.86935
111898000 -28.124454 -110.22015 -0.068657748 -22.646921 -0.066672146 -22.639456 -28.08523 -113.01939
112897000 -28.006401 -110.75501 -0.070113346 -22.846064 -0.067577541 -22.83548 -27.951122 -113.22439
113896000 -27.896147 -111.3092 -0.070773184 -23.045279 -0.069318943 -23.033529 -27.848335 -113.33562
114895000 -27.787415 -111.97575 -0.071638383 -23.243584 -0.069955505 -23.23086 -27.737808 -113.41182
115894000 -27.672079 -112.34041 -0.072778828 -23.446657 -0.071615227 -23.431021 -27.669218 -113.60447
116893000 -27.596003 -112.82973 -0.074168667 -23.643278 -0.072522186 -23.625059 -27.546293 -113.66278
117892000 -27.509598 -113.3039 -0.073833734 -23.840351 -0.072316349 -23.827499 -27.47365 -113.89567
118891000 -27.456615 -113.74342 -0.074714296 -24.036386 -0.073078662 -24.025372 -27.379095 -114.03043
119890000 -27.370405 -114.09406 -0.075421184 -24.235291 -0.073354036 -24.227896 -27.367868 -114.13416
120889000 -27.315994 -114.54654 -0.076413773 -24.443396 -0.073503576 -24.424381 -27.290064 -114.09846
121888000 -27.279593 -114.88122 -0.076179564 -24.637732 -0.073679186 -24.624048 -27.231186 -114.37746
122887000 -27.241156 -115.11445 -0.077235825 -24.841127 -0.074361943 -24.82605 -27.186029 -114.36958
123886000 -27.187277 -115.51163 -0.077718064 -25.044292 -0.074915498 -25.026249 -27.168087 -114.53351
124885000 -27.155247 -116.00245 -0.077864334 -25.241148 -0.074985296 -25.228355 -27.139961 -114.55788
125884000 -27.104872 -116.21606 -0.078572527 -25.441677 -0.075866349 -25.426832 -27.111601 -114.71398
126883000 -27.084135 -116.54519 -0.079233125 -25.645491 -0.076273613 -25.629448 -27.071564 -114.74277
127882000 -27.037476 -116.86871 -0.079382867 -25.842527 -0.077301703 -25.826458 -27.034489 -114.82516
128881000 -27.009939 -117.22672 -0.079793625 -26.042004 -0.076730981 -26.024548 -26.994183 -114.94095
129880000 -26.95767 -117.51525 -0.080126643 -26.245169 -0.077062972 -26.229895 -26.956232 -114.87896
130879000 -26.894617 -117.6964 -0.079794154 -26.446234 -0.077936806 -26.432112 -26.88168 -114.92911
131878000 -26.832371 -117.90457 -0.080521651 -26.651125 -0.078072801 -26.63061 -26.826323 -114.78336
132877000 -26.767059 -117.97357 -0.079926513 -26.850685 -0.078608379 -26.831781 -26.746708 -114.77348
133876000 -26.682941 -118.12699 -0.080493435 -27.049133 -0.078878298 -27.033539 -26.665842 -114.58745
134875000 -26.590931 -118.2659 -0.081281453 -27.251787 -0.078657143 -27.233002 -26.561871 -114.47863
135874000 -26.510874 -118.26305 -0.080428831 -27.452524 -0.078453392 -27.438261 -26.466703 -114.40288
136873000 -26.401625 -118.23354 -0.081206284 -27.658398 -0.078408055 -27.632647 -26.382536 -114.37904
137872000 -26.321665 -118.3353 -0.08077693 -27.85334 -0.078579381 -27.843493 -26.286179 -114.31547
138871000 -26.247524 -118.55644 -0.081601128 -28.056795 -0.078774437 -28.042784 -26.197092 -114.46532
139870000 -26.151501 -118.84621 -0.08198493 -28.257854 -0.07967788 -28.23527 -26.113369 -114.59467
140869000 -26.068045 -119.37437 -0.083255276 -28.455244 -0.080300145 -28.431105 -26.013538 -114.84445
141868000 -25.990587 -119.76819 -0.083432868 -28.651541 -0.082021073 -28.637465 -25.966986 -115.08996
142867000 -25.908567 -119.96424 -0.082204409 -28.848965 -0.080782197 -28.832306 -25.888824 -115.18204
143866000 -25.836609 -120.46015 -0.084194757 -29.045469 -0.082135029 -29.029463 -25.817099 -115.6477
144865000 -25.782047 -120.9407 -0.08567854 -29.244701 -0.083608881 -29.228289 -25.762711 -115.95887
145864000 -25.729197 -121.28625 -0.086578146 -29.445093 -0.084930643 -29.434721 -25.731678 -116.20081
146863000 -25.675493 -121.6401 -0.087141976 -29.646091 -0.085495055 -29.628105 -25.676702 -116.48962
147862000 -25.640068 -121.96932 -0.087755539 -29.84384 -0.086632542 -29.827129 -25.646677 -116.78326
148861000 -25.608677 -122.40213 -0.089181088 -30.040432 -0.087085716 -30.028732 -25.621761 -117.02189
149860000 -25.576321 -122.5969 -0.089983895 -30.229872 -0.087468423 -30.221136 -25.573004 -117.10001
150859000 -25.550266 -123.08247 -0.090051018 -30.436029 -0.087985083 -30.41556 -25.552624 -117.46382
151858000 -25.537228 -123.41526 -0.088756226 -30.632452 -0.087155968 -30.61743 -25.536079 -117.80908
152857000 -25.521286 -123.7224 -0.089525923 -30.830078 -0.087498799 -30.816643 -25.52285 -117.98975
153856000 -25.51787 -123.93634 -0.088873006 -31.033285 -0.086826116 -31.016798 -25.542389 -118.31669
154855000 -25.513979 -124.10215 -0.089492626 -31.231876 -0.087363034 -31.219702 -25.524567 -118.54549
155854000 -25.532034 -124.36069 -0.089649856 -31.430523 -0.087771386 -31.415623 -25.516603 -118.82861
156853000 -25.518101 -125.03841 -0.087884441 -31.621183 -0.086476743 -31.608442 -25.513128 -119.13447
157852000 -25.522015 -125.27049 -0.088294424 -31.821247 -0.088551208 -31.809198 -25.500465 -119.48196
158851000 -25.521145 -125.48529 -0.089273572 -32.017612 -0.088491499 -32.009552 -25.479921 -119.74496
159850000 -25.505341 -125.56202 -0.089644305 -32.218113 -0.08872135 -32.207413 -25.481113 -119.94665
160849000 -25.491734 -125.67049 -0.089820042 -32.415413 -0.089415729 -32.411266 -25.447674 -120.21518
161848000 -25.472431 -125.74772 -0.090166517 -32.618309 -0.089158364 -32.609509 -25.409246 -120.35017
162847000 -25.434755 -125.93435 -0.090596534 -32.815376 -0.090516716 -32.812191 -25.378254 -120.56468
163846000 -25.39661 -126.12836 -0.090663143 -33.017078 -0.089967512 -33.009583 -25.303204 -120.58832
164845000 -25.3349 -126.08763 -0.091030039 -33.213966 -0.090381913 -33.21027 -25.243755 -120.69681
165844000 -25.283024 -126.13895 -0.091218516 -33.416637 -0.090348348 -33.405396 -25.165659 -120.80381
166843000 -25.219194 -126.15898 -0.091127843 -33.616451 -0.090570368 -33.608768 -25.097912 -120.96418
167842000 -25.168613 -126.28704 -0.090832315 -33.813984 -0.09065257 -33.808475 -25.022535 -120.89877
168841000 -25.089266 -126.45527 -0.092171088 -34.015182 -0.091373168 -34.010685 -24.950691 -120.92842
169840000 -25.023579 -126.67789 -0.091625378 -34.207222 -0.091742501 -34.205097 -24.869541 -121.1274
170839000 -24.966652 -126.9284 -0.092927374 -34.408504 -0.09219224 -34.404919 -24.781645 -121.29446
171838000 -24.904261 -127.31611 -0.092840366 -34.608688 -0.093134977 -34.60223 -24.720619 -121.51195
172837000 -24.832634 -127.66326 -0.094416797 -34.803562 -0.093812339 -34.800457 -24.654095 -121.73827
173836000 -24.766243 -128.03912 -0.095148601 -35.003967 -0.094920263 -35.000526 -24.614954 -121.95976
174835000 -24.712549 -128.44951 -0.095667496 -35.199852 -0.09586703 -35.200886 -24.565062 -122.26817
175834000 -24.669462 -128.78383 -0.097217418 -35.403507 -0.096712366 -35.395092 -24.504387 -122.5081
176833000 -24.614786 -129.1386 -0.097976968 -35.602825 -0.097355872 -35.59557 -24.462856 -122.66413
177832000 -24.576902 -129.56531 -0.099327482 -35.799995 -0.098536983 -35.797935 -24.443676 -122.73518
178831000 -24.523979 -129.81403 -0.10012607 -35.996067 -0.1003168 -35.993858 -24.40163 -122.84038
179830000 -24.459759 -130.20079 -0.10132145 -36.177692 -0.10093408 -36.180912 -24.347124 -122.93439
180829000 -24.40967 -130.57935 -0.10007495 -36.372997 -0.10057218 -36.369289 -24.301613 -123.25366
181828000 -24.385994 -130.98439 -0.099168308 -36.572914 -0.099375419 -36.566704 -24.28598 -123.46072
182827000 -24.365959 -131.38188 -0.099855356 -36.770397 -0.099423356 -36.768242 -24.273453 -123.58073
183826000 -24.323366 -131.69406 -0.10038833 -36.971539 -0.099214926 -36.96653 -24.260052 -123.74038
184825000 -24.325449 -132.03926 -0.10043707 -37.162449 -0.099532217 -37.161171 -24.245665 -123.82832
185824000 -24.297907 -132.41386 -0.10039045 -37.361557 -0.10012978 -37.367168 -24.237059 -123.91256
186823000 -24.285658 -132.76134 -0.10051761 -37.560848 -0.099315301 -37.557446 -24.234434 -123.92969
187822000 -24.25618 -133.08437 -0.099939853 -37.755215 -0.10066385 -37.754375 -24.196548 -124.00083
188821000 -24.235046 -133.36751 -0.10050251 -37.951496 -0.10063153 -37.956242 -24.174152 -124.12334
189820000 -24.214695 -133.6711 -0.1013196 -38.153118 -0.10037562 -38.152023 -24.161921 -124.34517
190819000 -24.184599 -133.95958 -0.10133258 -38.345234 -0.10055204 -38.346928 -24.119923 -124.36776
191818000 -24.15439 -134.25099 -0.10170276 -38.546204 -0.10123666 -38.546093 -24.091959 -124.37738
192817000 -24.112562 -134.53561 -0.10154457 -38.745975 -0.10123242 -38.745415 -24.047449 -124.49802
193816000 -24.072887 -134.77592 -0.10192457 -38.940514 -0.10097966 -38.938084 -23.997644 -124.59708
194815000 -24.017641 -135.18982 -0.10207482 -39.133484 -0.10227863 -39.137875 -23.931723 -124.68915
195814000 -23.961985 -135.38147 -0.10284424 -39.33012 -0.10250603 -39.331863 -23.876204 -124.77286
196813000 -23.90777 -135.68289 -0.10264624 -39.526733 -0.10256275 -39.530216 -23.800129 -124.91509
197812000 -23.848179 -135.90181 -0.10312309 -39.724045 -0.10282197 -39.726654 -23.73188 -124.97321
198811000 -23.793705 -136.06047 -0.10310958 -39.922913 -0.10245726 -39.924171 -23.663574 -125.15494
199810000 -23.726633 -136.38643 -0.10363685 -40.116642 -0.10195557 -40.11245 -23.587538 -125.25459
200809000 -23.671604 -136.6304 -0.10363923 -40.313992 -0.10332323 -40.314312 -23.507826 -125.42352
201808000 -23.609783 -136.83551 -0.10472314 -40.513409 -0.10428138 -40.515194 -23.442253 -125.49516
202807000 -23.554495 -137.19884 -0.10529464 -40.715168 -0.10462503 -40.716221 -23.385719 -125.67502
