!Keysight Technologies,E5080B,MY59205177,A.15.75.32
!Date: Friday, February 23, 2024 03:26:50
!Correction: S11(Cdelta 2-Port  ) 
!S21(Cdelta 2-Port  ) 
!S12(Cdelta 2-Port  ) 
!S22(Cdelta 2-Port  ) 
!S2P File: Measurements: S11, S21, S12, S22:
# Hz S  dB   R 50
10000000 -45.909809 -0.35566771 -0.016671197 -2.0597928 -0.019106725 -2.114501 -46.162495 -159.35915
10999000 -45.125866 -2.5772943 -0.017750772 -2.2760394 -0.01944188 -2.3294601 -46.162384 -152.73428
11998000 -44.22459 -5.2837038 -0.018072825 -2.4976218 -0.018840233 -2.5442276 -46.407261 -148.67468
12997000 -43.454712 -11.224192 -0.017832646 -2.6814113 -0.018692562 -2.7169049 -46.055729 -142.51161
13996000 -43.242577 -15.30366 -0.016658206 -2.8608501 -0.019429918 -2.8833594 -45.823334 -137.11891
14995000 -42.842396 -19.556725 -0.018790316 -3.0756779 -0.019213846 -3.0993724 -45.559277 -133.69795
15994000 -42.70327 -23.906141 -0.020640742 -3.2952824 -0.021404183 -3.31703 -45.508034 -129.83298
16993000 -42.685444 -28.153681 -0.01955629 -3.4923904 -0.020937519 -3.5016897 -44.636806 -129.68459
17992000 -42.724541 -33.715412 -0.019643141 -3.6929984 -0.021131305 -3.6965466 -44.076668 -129.8544
18991000 -43.052364 -38.609989 -0.020424351 -3.9045079 -0.022344425 -3.9029567 -43.440681 -128.59276
19990000 -42.816498 -44.172939 -0.023414217 -4.114634 -0.024013637 -4.1104622 -42.728207 -129.4359
20989000 -42.688503 -47.352432 -0.025757963 -4.3190961 -0.026078787 -4.3075371 -42.164452 -128.70844
21988000 -42.570724 -52.939545 -0.026549129 -4.5146646 -0.026964821 -4.5029035 -41.918816 -127.96072
22987000 -42.266994 -57.778885 -0.027455319 -4.7148752 -0.028114175 -4.7088447 -41.645134 -127.50896
23986000 -42.223106 -61.771877 -0.027406866 -4.9129405 -0.026956486 -4.9085784 -41.553127 -127.46275
24985000 -41.832577 -64.85376 -0.027999017 -5.1219134 -0.027824203 -5.1176405 -41.365089 -124.97262
25984000 -41.480713 -66.77417 -0.029447569 -5.3264232 -0.028059201 -5.3279696 -41.028576 -122.84518
26983000 -41.226025 -68.610657 -0.030227937 -5.5254741 -0.028960755 -5.5463729 -40.885044 -122.43677
27982000 -41.034077 -69.782654 -0.030874701 -5.7295465 -0.031225627 -5.7617612 -40.646065 -120.58168
28981000 -40.983997 -71.063011 -0.02932612 -5.9221616 -0.030274075 -5.9498773 -40.429035 -119.98161
29980000 -40.576206 -72.699806 -0.028965967 -6.1228757 -0.031135676 -6.1271949 -40.17321 -119.04993
30979000 -40.217739 -71.488083 -0.027036712 -6.4772491 -0.025599122 -6.4688764 -39.634567 -119.52547
31978000 -39.975334 -72.597885 -0.025428308 -6.6732059 -0.027236242 -6.6640072 -39.380077 -118.75218
32977000 -39.83144 -74.247108 -0.026246499 -6.8848639 -0.027659556 -6.8812318 -39.152618 -118.83024
33976000 -39.633781 -75.319702 -0.026737176 -7.0843463 -0.028064674 -7.0819426 -38.827469 -118.09534
34975000 -39.339996 -76.10675 -0.027289642 -7.288384 -0.029048314 -7.2860456 -38.603401 -117.71967
35974000 -39.13467 -76.772728 -0.026425939 -7.4805059 -0.028613921 -7.4854631 -38.336338 -116.70866
36973000 -38.911915 -77.452034 -0.026390258 -7.6828427 -0.029392578 -7.6883221 -38.055305 -115.86811
37972000 -38.740368 -77.292313 -0.026788225 -7.8907342 -0.029588826 -7.9010487 -37.824802 -115.03606
38971000 -38.397804 -76.880516 -0.028179571 -8.0989485 -0.029535919 -8.1086445 -37.67157 -113.42863
39970000 -38.071896 -77.241898 -0.025701977 -8.2929201 -0.029082192 -8.3099546 -37.395512 -112.79242
40969000 -37.763035 -76.7313 -0.026369164 -8.4888382 -0.029407693 -8.5067701 -37.150356 -111.32212
41968000 -37.416847 -76.909363 -0.026201967 -8.6948566 -0.029777005 -8.7093182 -36.947281 -110.00323
42967000 -37.134861 -76.9104 -0.026905956 -8.9075909 -0.029678224 -8.9222965 -36.740917 -107.9798
43966000 -36.834488 -77.636475 -0.028298382 -9.1051702 -0.030415101 -9.1265154 -36.494602 -107.27906
44965000 -36.603828 -78.331123 -0.029184088 -9.3086567 -0.031018354 -9.3279762 -36.269524 -106.96156
45964000 -36.372131 -79.418427 -0.029474672 -9.5102091 -0.03192652 -9.5293493 -36.026417 -106.5259
46963000 -36.175343 -81.496399 -0.029870575 -9.705409 -0.03317083 -9.7259493 -35.865864 -106.88828
47962000 -36.008804 -82.896584 -0.031442296 -9.9084492 -0.034534477 -9.9250889 -35.644253 -106.84146
48961000 -35.79855 -84.289146 -0.033911951 -10.104039 -0.035863057 -10.126844 -35.412457 -107.03666
49960000 -35.569149 -85.627625 -0.034762532 -10.303955 -0.036849249 -10.327964 -35.279346 -107.10406
50959000 -35.338844 -86.973015 -0.035655301 -10.51949 -0.038524047 -10.533377 -35.09235 -107.46
51958000 -35.139458 -88.055252 -0.037559927 -10.719293 -0.03978122 -10.728682 -34.911072 -107.89222
52957000 -34.924522 -89.099319 -0.03894167 -10.918729 -0.040621195 -10.927726 -34.754215 -107.58553
53956000 -34.761471 -89.798004 -0.039943453 -11.123956 -0.041596968 -11.126433 -34.611187 -107.59239
54955000 -34.583317 -90.305412 -0.041468125 -11.328055 -0.042449318 -11.319022 -34.471378 -107.48917
55954000 -34.419025 -91.146896 -0.042353906 -11.527512 -0.043200653 -11.522816 -34.361813 -107.16518
56953000 -34.308834 -91.067924 -0.042712819 -11.72464 -0.041880284 -11.717286 -34.28698 -107.41047
57952000 -34.148899 -91.670357 -0.043374781 -11.92135 -0.04322575 -11.912957 -34.189884 -107.36919
58951000 -34.012257 -91.999405 -0.044473827 -12.132301 -0.044575561 -12.106784 -34.028355 -107.49868
59950000 -33.895176 -92.419121 -0.045463286 -12.32545 -0.04450338 -12.308747 -33.961136 -107.77188
60949000 -33.782749 -93.037155 -0.045686945 -12.533084 -0.045428235 -12.51062 -33.865406 -107.9835
61948000 -33.731335 -93.246109 -0.046582747 -12.732001 -0.045354992 -12.715362 -33.777905 -108.09517
62947000 -33.635582 -93.597 -0.046536174 -12.942812 -0.04669892 -12.923584 -33.647903 -108.36368
63946000 -33.561562 -94.164467 -0.047125183 -13.141473 -0.0476088 -13.124624 -33.535057 -108.47938
64945000 -33.450596 -94.407547 -0.048091952 -13.345417 -0.048029918 -13.326593 -33.406178 -108.90459
65944000 -33.343773 -94.707207 -0.049477313 -13.543628 -0.048470709 -13.526031 -33.333076 -109.43114
66943000 -33.204926 -95.13311 -0.046907205 -13.748333 -0.046707295 -13.731601 -33.223389 -109.66488
67942000 -33.153675 -95.02092 -0.049377032 -13.943892 -0.049273618 -13.932626 -33.10627 -109.98633
68941000 -33.02816 -95.133919 -0.049187742 -14.136433 -0.047775254 -14.131655 -32.991116 -109.8178
69940000 -32.936573 -95.045883 -0.0491236 -14.336815 -0.049066789 -14.326918 -32.84782 -110.16802
70939000 -32.83334 -95.056366 -0.049118362 -14.535987 -0.049360014 -14.529427 -32.704735 -110.11565
71938000 -32.680237 -94.662437 -0.048702899 -14.734058 -0.048507355 -14.727057 -32.571548 -109.93208
72937000 -32.517258 -94.399719 -0.048970185 -14.936069 -0.048450813 -14.928735 -32.439182 -109.57753
73936000 -32.374557 -94.045464 -0.048041437 -15.130683 -0.048007149 -15.121725 -32.315098 -109.40562
74935000 -32.247063 -94.320335 -0.04819534 -15.32947 -0.047813203 -15.324017 -32.159538 -108.98822
75934000 -32.11668 -94.559631 -0.049039036 -15.53728 -0.047358088 -15.527119 -32.065792 -108.95712
76933000 -31.987837 -94.937553 -0.049349543 -15.73044 -0.048685886 -15.725559 -31.885208 -109.34451
77932000 -31.869478 -95.712845 -0.050476816 -15.924883 -0.050239291 -15.921536 -31.788313 -109.24777
78931000 -31.803478 -96.5037 -0.049310531 -16.128393 -0.049334619 -16.123909 -31.684181 -109.13826
79930000 -31.690262 -97.360962 -0.051844075 -16.322685 -0.051561419 -16.321365 -31.581217 -109.45226
80929000 -31.569872 -98.112549 -0.053846497 -16.519617 -0.053610623 -16.519299 -31.481701 -109.68179
81928000 -31.475433 -98.828087 -0.054048572 -16.712103 -0.054493122 -16.709372 -31.349867 -109.6846
82927000 -31.369221 -99.632179 -0.056193355 -16.909782 -0.055147443 -16.906834 -31.239771 -109.96267
83926000 -31.266882 -100.36823 -0.057389814 -17.107111 -0.056168705 -17.108438 -31.116247 -110.17874
84925000 -31.142965 -100.74316 -0.058046672 -17.308037 -0.056774233 -17.304533 -31.019737 -110.13324
85924000 -31.050459 -101.11723 -0.058705203 -17.512508 -0.058554597 -17.509478 -30.932219 -110.16776
86923000 -30.950747 -101.65687 -0.059128709 -17.7087 -0.058389831 -17.70274 -30.831882 -110.01389
87922000 -30.836485 -101.95528 -0.059144977 -17.913103 -0.058378812 -17.906313 -30.748596 -110.04848
88921000 -30.756523 -102.23776 -0.060670368 -18.114027 -0.059624687 -18.110012 -30.647781 -110.05933
89920000 -30.657196 -102.85243 -0.061429586 -18.311613 -0.059787665 -18.31115 -30.599733 -110.17077
90919000 -30.563799 -103.05501 -0.062020358 -18.512573 -0.060299207 -18.500641 -30.511229 -110.32498
91918000 -30.455879 -103.45194 -0.062511683 -18.712202 -0.06210386 -18.70624 -30.436951 -110.3112
92917000 -30.366463 -103.74882 -0.063544661 -18.912058 -0.062301856 -18.905054 -30.373938 -110.40388
93916000 -30.272121 -104.11229 -0.063011721 -19.102545 -0.062798202 -19.099384 -30.286062 -111.00434
94915000 -30.203508 -104.72827 -0.064597324 -19.307968 -0.063241802 -19.302288 -30.22118 -110.90462
95914000 -30.128593 -104.94431 -0.065137811 -19.502655 -0.064458601 -19.49873 -30.127054 -111.16918
96913000 -30.041862 -105.14619 -0.06631282 -19.703287 -0.065789007 -19.700758 -30.062788 -111.48965
97912000 -29.97323 -105.60664 -0.067945644 -19.897614 -0.066051826 -19.89982 -29.98267 -111.77141
98911000 -29.857851 -105.77792 -0.067951165 -20.10174 -0.066935539 -20.100201 -29.936844 -111.96775
99910000 -29.796852 -105.95898 -0.068549402 -20.298061 -0.067117192 -20.299629 -29.825937 -112.25928
100909000 -29.705566 -106.17827 -0.068609886 -20.507799 -0.06644582 -20.505407 -29.7451 -112.43694
101908000 -29.612116 -106.42648 -0.069518842 -20.7104 -0.068777405 -20.70466 -29.633249 -112.2595
102907000 -29.4748 -106.41956 -0.070464566 -20.907829 -0.068257764 -20.908878 -29.561453 -112.22592
103906000 -29.378124 -106.45633 -0.070497975 -21.116259 -0.067855984 -21.113695 -29.412142 -112.13908
104905000 -29.226254 -106.3283 -0.071949981 -21.315071 -0.068446837 -21.31595 -29.27717 -111.79017
105904000 -29.093903 -106.4632 -0.0717097 -21.51899 -0.068234101 -21.510096 -29.163044 -111.72669
106903000 -28.972403 -106.54761 -0.071741544 -21.722692 -0.069406264 -21.713453 -29.039032 -111.5952
107902000 -28.803608 -106.86269 -0.072795413 -21.922291 -0.070356168 -21.916769 -28.903919 -111.57143
108901000 -28.698521 -107.13258 -0.073070236 -22.126236 -0.071069986 -22.122364 -28.77066 -111.51994
109900000 -28.56547 -107.60552 -0.074694544 -22.328606 -0.07269723 -22.319843 -28.61968 -111.59763
110899000 -28.440878 -108.1875 -0.075892687 -22.523888 -0.072910972 -22.517401 -28.487059 -111.86198
111898000 -28.359762 -108.91237 -0.077165209 -22.729006 -0.074390911 -22.72294 -28.373758 -111.99255
112897000 -28.225571 -109.47502 -0.07852719 -22.926985 -0.075211793 -22.915928 -28.237944 -112.18038
113896000 -28.127968 -110.04137 -0.080029875 -23.128462 -0.07717786 -23.115776 -28.127836 -112.30721
114895000 -28.02187 -110.66517 -0.080894813 -23.326073 -0.078013502 -23.31316 -28.01379 -112.40462
115894000 -27.894735 -111.03458 -0.08209493 -23.525196 -0.079758301 -23.514849 -27.950462 -112.60489
116893000 -27.830036 -111.45992 -0.082925715 -23.725548 -0.08040905 -23.709908 -27.826025 -112.62333
117892000 -27.737087 -111.96192 -0.08302334 -23.921244 -0.081338421 -23.910555 -27.746653 -112.85389
118891000 -27.67889 -112.38097 -0.083994173 -24.122475 -0.081653088 -24.109755 -27.650005 -112.96401
119890000 -27.594135 -112.7716 -0.084455259 -24.326704 -0.081986777 -24.309288 -27.634897 -113.10742
120889000 -27.541048 -113.29342 -0.085096687 -24.521368 -0.082937323 -24.511288 -27.561235 -113.01969
121888000 -27.508999 -113.60777 -0.085934915 -24.720673 -0.08305949 -24.708641 -27.502766 -113.32406
122887000 -27.465885 -113.81225 -0.086583428 -24.924459 -0.083613366 -24.916119 -27.456509 -113.33921
123886000 -27.406155 -114.19899 -0.087368056 -25.131886 -0.083985731 -25.109961 -27.442087 -113.50366
124885000 -27.373077 -114.7102 -0.088314496 -25.32782 -0.085011952 -25.313431 -27.402277 -113.55344
125884000 -27.326982 -114.89785 -0.088900745 -25.524986 -0.08475168 -25.513302 -27.373394 -113.65881
126883000 -27.304626 -115.25626 -0.088660322 -25.729301 -0.085546009 -25.718124 -27.337223 -113.65782
127882000 -27.252672 -115.55994 -0.089149117 -25.929024 -0.086140066 -25.912687 -27.290514 -113.80152
128881000 -27.219761 -115.94488 -0.089519314 -26.131914 -0.08637587 -26.114346 -27.254906 -113.91785
129880000 -27.163073 -116.25726 -0.090105467 -26.335732 -0.087037914 -26.316607 -27.209686 -113.84209
130879000 -27.101706 -116.40481 -0.090093039 -26.531294 -0.087373339 -26.519075 -27.136 -113.89275
131878000 -27.031822 -116.65641 -0.090306059 -26.739317 -0.087645918 -26.714951 -27.07412 -113.75669
132877000 -26.961388 -116.7383 -0.090214349 -26.938805 -0.087865949 -26.921574 -26.985186 -113.72537
133876000 -26.881622 -116.86827 -0.09087196 -27.140862 -0.087800175 -27.123329 -26.899023 -113.62945
134875000 -26.781816 -117.04394 -0.090673454 -27.340696 -0.088725053 -27.324099 -26.794605 -113.46767
135874000 -26.696236 -117.07848 -0.090893373 -27.542454 -0.089531206 -27.527458 -26.696531 -113.40009
136873000 -26.583942 -117.00334 -0.092147559 -27.74374 -0.088386357 -27.729301 -26.611862 -113.34552
137872000 -26.50396 -117.16077 -0.091248386 -27.946905 -0.088786878 -27.929419 -26.504238 -113.29533
138871000 -26.419378 -117.36108 -0.092313871 -28.14464 -0.089094952 -28.130611 -26.409252 -113.45961
139870000 -26.321804 -117.66482 -0.092532292 -28.349663 -0.090339363 -28.33378 -26.326822 -113.62386
140869000 -26.241568 -118.17759 -0.094193257 -28.542938 -0.09056244 -28.523672 -26.22164 -113.87527
141868000 -26.156128 -118.66961 -0.094498277 -28.744234 -0.092243008 -28.727623 -26.174305 -114.10349
142867000 -26.080797 -118.80283 -0.093693316 -28.940922 -0.091301262 -28.923973 -26.092911 -114.22594
143866000 -26.00589 -119.26838 -0.095502377 -29.139469 -0.092635155 -29.121489 -26.020178 -114.6714
144865000 -25.945545 -119.84365 -0.097630933 -29.336008 -0.094164424 -29.322105 -25.960539 -114.99525
145864000 -25.890869 -120.15154 -0.097280949 -29.54073 -0.095544711 -29.526245 -25.928881 -115.2464
146863000 -25.84429 -120.50835 -0.098710693 -29.738132 -0.09587656 -29.725489 -25.874472 -115.5007
147862000 -25.807673 -120.82153 -0.098983988 -29.935244 -0.095991142 -29.925098 -25.845917 -115.82287
148861000 -25.775858 -121.30765 -0.10027415 -30.134287 -0.09739849 -30.117353 -25.824236 -116.00641
149860000 -25.743263 -121.4016 -0.10133682 -30.328465 -0.098260008 -30.320524 -25.771961 -116.08942
150859000 -25.724176 -121.91701 -0.10131986 -30.523287 -0.098695338 -30.508591 -25.75614 -116.44934
151858000 -25.714483 -122.28544 -0.10036025 -30.72366 -0.098548107 -30.709326 -25.748625 -116.76543
152857000 -25.701365 -122.5723 -0.10142612 -30.925495 -0.098290987 -30.912285 -25.731325 -116.9454
153856000 -25.697622 -122.79282 -0.10121414 -31.129816 -0.097572155 -31.112246 -25.749325 -117.23277
154855000 -25.697758 -122.94437 -0.10201228 -31.324375 -0.097931691 -31.316015 -25.742823 -117.47437
155854000 -25.716213 -123.18323 -0.10188826 -31.524899 -0.098824561 -31.510962 -25.734705 -117.69608
156853000 -25.705332 -123.8904 -0.099517383 -31.715328 -0.097858883 -31.705051 -25.729895 -118.03708
157852000 -25.713243 -124.09258 -0.10110259 -31.916258 -0.099575125 -31.90807 -25.723576 -118.4034
158851000 -25.709536 -124.37444 -0.10184268 -32.114353 -0.099348672 -32.10413 -25.710587 -118.64812
159850000 -25.698755 -124.44206 -0.10228314 -32.312157 -0.099943563 -32.304482 -25.707634 -118.82878
160849000 -25.690395 -124.52204 -0.10260992 -32.511093 -0.10111743 -32.507393 -25.684885 -119.10018
161848000 -25.676344 -124.63184 -0.10287233 -32.713898 -0.10097383 -32.709778 -25.644901 -119.23969
162847000 -25.63419 -124.80664 -0.10292455 -32.914566 -0.10158325 -32.910492 -25.616758 -119.46384
163846000 -25.591827 -125.00525 -0.10360981 -33.117931 -0.10140359 -33.104061 -25.543068 -119.49847
164845000 -25.532949 -124.97998 -0.10317346 -33.316029 -0.1023698 -33.307556 -25.478994 -119.6106
165844000 -25.480463 -125.02039 -0.10371214 -33.514885 -0.10282118 -33.506737 -25.398439 -119.75723
166843000 -25.420061 -125.1066 -0.10407589 -33.716801 -0.10218269 -33.708858 -25.334164 -119.90948
167842000 -25.361567 -125.20735 -0.10430286 -33.914719 -0.10271807 -33.905098 -25.256386 -119.85101
168841000 -25.280991 -125.40649 -0.10396401 -34.115387 -0.10384629 -34.110104 -25.181963 -119.93253
169840000 -25.217844 -125.62218 -0.10466825 -34.308384 -0.10357322 -34.305328 -25.093828 -120.10209
170839000 -25.154949 -125.87992 -0.10511536 -34.508366 -0.10405415 -34.505463 -25.012732 -120.30134
171838000 -25.099068 -126.26833 -0.10514904 -34.711456 -0.10553122 -34.701553 -24.949465 -120.51422
172837000 -25.027832 -126.62492 -0.1071701 -34.907722 -0.10628824 -34.898083 -24.880766 -120.73499
173836000 -24.953636 -127.01353 -0.10851657 -35.106766 -0.10724014 -35.103233 -24.838818 -120.91064
174835000 -24.900457 -127.4267 -0.10907158 -35.302006 -0.10867476 -35.301601 -24.791746 -121.26623
175834000 -24.847641 -127.82092 -0.10987834 -35.504101 -0.10953799 -35.49358 -24.727152 -121.54362
176833000 -24.797176 -128.15086 -0.11098637 -35.700092 -0.11011861 -35.698437 -24.680353 -121.67574
177832000 -24.752716 -128.59753 -0.11135685 -35.899509 -0.11052778 -35.8965 -24.660192 -121.77695
178831000 -24.713724 -128.83377 -0.11345068 -36.098267 -0.11199005 -36.095806 -24.617832 -121.92722
179830000 -24.649233 -129.1913 -0.11496682 -36.287113 -0.11380994 -36.2878 -24.573677 -121.91833
180829000 -24.586187 -129.50131 -0.11487167 -36.474945 -0.11393244 -36.474834 -24.511139 -122.2355
181828000 -24.559313 -129.9469 -0.11308986 -36.673756 -0.11291584 -36.672791 -24.488546 -122.46942
182827000 -24.537836 -130.36028 -0.11331384 -36.868446 -0.11298146 -36.869865 -24.478018 -122.58571
183826000 -24.498104 -130.64812 -0.11419261 -37.06744 -0.1127466 -37.069122 -24.462675 -122.75242
184825000 -24.503149 -130.99321 -0.11342836 -37.264858 -0.11316877 -37.270657 -24.446524 -122.85445
185824000 -24.471321 -131.36192 -0.11396672 -37.464123 -0.11308242 -37.46526 -24.437733 -122.94714
186823000 -24.450003 -131.7328 -0.11381631 -37.664307 -0.11368318 -37.664577 -24.434 -122.94517
187822000 -24.427446 -132.06868 -0.11432815 -37.857136 -0.11375573 -37.859699 -24.39189 -123.02463
188821000 -24.404905 -132.31732 -0.11416603 -38.055511 -0.1150253 -38.059227 -24.372623 -123.16487
189820000 -24.38393 -132.59727 -0.11507075 -38.258026 -0.11436376 -38.257362 -24.354488 -123.38422
190819000 -24.350496 -132.92955 -0.11558646 -38.454414 -0.1144217 -38.454102 -24.314045 -123.41011
191818000 -24.313305 -133.21992 -0.1161429 -38.653343 -0.11510505 -38.650764 -24.285833 -123.4832
192817000 -24.271803 -133.49289 -0.11639682 -38.846424 -0.11554818 -38.850193 -24.237242 -123.56573
193816000 -24.234955 -133.75316 -0.1164383 -39.044621 -0.11525629 -39.044235 -24.190468 -123.70378
194815000 -24.175131 -134.16496 -0.11646223 -39.244724 -0.11636385 -39.242992 -24.118063 -123.77829
195814000 -24.11865 -134.34019 -0.11728925 -39.437294 -0.11674727 -39.44112 -24.062216 -123.87057
196813000 -24.063295 -134.67812 -0.11728659 -39.635365 -0.1158454 -39.634853 -23.980099 -124.02819
197812000 -24.004816 -134.93454 -0.11695416 -39.83477 -0.11681083 -39.831722 -23.909876 -124.13198
198811000 -23.947269 -135.0696 -0.11712303 -40.027805 -0.117014 -40.029167 -23.835295 -124.29876
199810000 -23.878878 -135.43355 -0.11818238 -40.223164 -0.11755387 -40.223862 -23.755013 -124.4053
200809000 -23.820934 -135.71904 -0.11819462 -40.423843 -0.11739881 -40.420841 -23.684023 -124.6
201808000 -23.76 -135.87871 -0.11912678 -40.621677 -0.11868994 -40.623859 -23.612778 -124.66786
202807000 -23.700121 -136.24771 -0.11968421 -40.822563 -0.11891128 -40.824043 -23.554359 -124.87267
203806000 -23.649843 -136.66959 -0.12147938 -41.023098 -0.1191933 -41.025711 -23.491667 -125.02817
