!Keysight Technologies,E5080B,MY59205177,A.15.75.32
!Date: Friday, February 23, 2024 02:47:34
!Correction: S11(Cdelta 2-Port  ) 
!S21(Cdelta 2-Port  ) 
!S12(Cdelta 2-Port  ) 
!S22(Cdelta 2-Port  ) 
!S2P File: Measurements: S11, S21, S12, S22:
# Hz S  dB   R 50
10000000 -40.438866 -3.4676127 -0.057439655 -2.0538201 -0.060369551 -2.1084282 -54.990646 -91.061066
10999000 -40.011864 -4.7098751 -0.058867358 -2.2695313 -0.060291596 -2.3263226 -52.685131 -85.719597
11998000 -39.465214 -6.4705925 -0.059084363 -2.4928095 -0.059867188 -2.5375414 -51.651169 -79.420647
12997000 -39.044525 -9.8306284 -0.057356503 -2.6780181 -0.060130436 -2.7068989 -50.075279 -79.397034
13996000 -38.877369 -12.472467 -0.057311911 -2.8539371 -0.05946644 -2.8731649 -48.982456 -76.311287
14995000 -38.677025 -14.912437 -0.059321582 -3.0618927 -0.059607103 -3.0919886 -48.188843 -76.416496
15994000 -38.620491 -17.746866 -0.060480583 -3.2863877 -0.061803732 -3.3031838 -47.447117 -73.92942
16993000 -38.643196 -20.569706 -0.059312399 -3.4787378 -0.061660111 -3.4921489 -46.848309 -79.72525
17992000 -38.756302 -23.866203 -0.06046221 -3.6817865 -0.061751481 -3.6825097 -46.439457 -83.276588
18991000 -39.040688 -26.998074 -0.06129149 -3.8924026 -0.062444977 -3.8877869 -45.712643 -85.982071
19990000 -39.016449 -30.718246 -0.063806556 -4.0991168 -0.065338835 -4.0914931 -45.181835 -89.887177
20989000 -38.972382 -33.161812 -0.065652348 -4.3022552 -0.067026235 -4.2954659 -44.552341 -92.399361
21988000 -39.040184 -36.543335 -0.066265777 -4.4996409 -0.06712193 -4.4879718 -44.174011 -92.89357
22987000 -39.035259 -40.24081 -0.068421066 -4.7035117 -0.068803184 -4.6912556 -43.946445 -93.194939
23986000 -39.098557 -43.098839 -0.066906624 -4.8931494 -0.067889899 -4.8913331 -43.801678 -93.764206
24985000 -38.952732 -45.540352 -0.068131812 -5.1007342 -0.068611726 -5.1037502 -43.30722 -92.079453
25984000 -38.824322 -47.392918 -0.069505952 -5.308733 -0.068625398 -5.3124967 -42.88945 -92.057014
26983000 -38.646919 -49.434826 -0.070046 -5.5092578 -0.069423363 -5.5277433 -42.720631 -91.246696
27982000 -38.543457 -50.468723 -0.071569435 -5.7095203 -0.071491279 -5.7394042 -42.257984 -90.919327
28981000 -38.57275 -51.673054 -0.069620378 -5.9066362 -0.071782604 -5.9343209 -41.937634 -90.489464
29980000 -38.307972 -53.695675 -0.069913946 -6.0977063 -0.071915768 -6.1096168 -41.575523 -90.895515
30979000 -37.971565 -53.61702 -0.067910939 -6.4577708 -0.066563316 -6.4441943 -41.139267 -92.955093
31978000 -37.850098 -54.763992 -0.067376941 -6.6530032 -0.067975886 -6.6448059 -40.753311 -93.136246
32977000 -37.757191 -56.229073 -0.067315154 -6.8623033 -0.068163365 -6.857667 -40.510777 -93.73719
33976000 -37.668156 -57.54451 -0.06772925 -7.063025 -0.068999112 -7.0572042 -40.19479 -93.957199
34975000 -37.414921 -58.773514 -0.067508131 -7.2617712 -0.069709025 -7.2639217 -39.949951 -94.427773
35974000 -37.284725 -59.631317 -0.066508904 -7.4596362 -0.069161922 -7.4622293 -39.547585 -94.036018
36973000 -37.116367 -60.522285 -0.067253374 -7.6650934 -0.070967101 -7.661541 -39.212959 -93.764801
37972000 -36.943279 -60.895725 -0.066650063 -7.8671837 -0.070290133 -7.8764086 -38.904217 -93.581932
38971000 -36.653362 -60.998672 -0.06812261 -8.0695057 -0.069958135 -8.0821133 -38.657955 -92.293915
39970000 -36.386612 -61.905148 -0.067125872 -8.2689857 -0.069267124 -8.2783003 -38.351002 -92.451393
40969000 -36.128132 -62.171333 -0.067124292 -8.4599648 -0.06896282 -8.4814539 -38.015503 -91.244469
41968000 -35.830723 -62.786339 -0.067521542 -8.6661777 -0.069608808 -8.6824045 -37.755028 -90.528679
42967000 -35.602028 -63.389462 -0.066632189 -8.8780174 -0.069994442 -8.8917389 -37.458141 -88.94368
43966000 -35.364998 -64.405815 -0.067824692 -9.076355 -0.070680045 -9.0954332 -37.125229 -88.860329
44965000 -35.174248 -65.454758 -0.069261074 -9.2780962 -0.071237601 -9.3009491 -36.901035 -89.018707
45964000 -35.011623 -66.684532 -0.070223048 -9.4795494 -0.072573774 -9.5000668 -36.655819 -89.165993
46963000 -34.895702 -68.596886 -0.070105195 -9.6784277 -0.073348239 -9.6991596 -36.494751 -89.774574
47962000 -34.805359 -70.087486 -0.071976826 -9.8785 -0.07436958 -9.8950481 -36.288151 -90.350731
48961000 -34.645237 -71.675072 -0.074153394 -10.073478 -0.076501504 -10.097818 -36.076889 -90.96788
49960000 -34.475758 -73.251122 -0.075724363 -10.272516 -0.077198938 -10.295445 -35.933323 -91.270088
50959000 -34.316151 -74.656731 -0.075840533 -10.489375 -0.078882255 -10.498631 -35.768707 -92.00843
51958000 -34.167065 -75.94101 -0.077773146 -10.687991 -0.07988143 -10.698187 -35.620312 -92.819801
52957000 -33.996761 -77.197685 -0.079559766 -10.885086 -0.081429414 -10.895224 -35.464298 -92.899925
53956000 -33.872555 -78.075172 -0.080876611 -11.090375 -0.081750691 -11.089925 -35.310955 -92.954918
54955000 -33.735481 -78.77536 -0.081898406 -11.293273 -0.083320454 -11.285308 -35.158535 -93.274284
55954000 -33.595253 -79.751244 -0.083237067 -11.49019 -0.083476409 -11.489819 -35.03474 -93.161972
56953000 -33.493076 -79.950218 -0.082117885 -11.688694 -0.082309932 -11.683547 -34.968838 -93.463837
57952000 -33.350788 -80.681465 -0.08366324 -11.88861 -0.08418341 -11.878527 -34.869102 -93.699722
58951000 -33.249863 -81.214699 -0.08503861 -12.092221 -0.085007198 -12.072212 -34.728794 -94.087601
59950000 -33.143196 -81.624779 -0.086052671 -12.291668 -0.085405819 -12.270523 -34.656353 -94.43856
60949000 -33.038845 -82.319366 -0.085724749 -12.494655 -0.085910618 -12.470809 -34.575317 -94.879715
61948000 -32.98859 -82.68409 -0.086409405 -12.691262 -0.085895039 -12.675902 -34.481575 -95.119637
62947000 -32.902012 -82.960403 -0.086382203 -12.906164 -0.086889498 -12.882158 -34.345528 -95.528564
63946000 -32.84013 -83.77459 -0.087577239 -13.1059 -0.087958403 -13.082998 -34.240837 -95.866409
64945000 -32.746708 -84.067612 -0.088372089 -13.304403 -0.088412508 -13.285733 -34.151726 -96.467987
65944000 -32.653069 -84.418625 -0.089462504 -13.506663 -0.088885956 -13.485056 -34.067356 -96.958824
66943000 -32.522095 -84.960098 -0.087090738 -13.708748 -0.087296478 -13.688892 -33.96759 -97.364792
67942000 -32.463783 -84.909767 -0.089332491 -13.902476 -0.089213856 -13.888168 -33.86021 -97.773842
68941000 -32.353062 -85.175713 -0.08915519 -14.096907 -0.088205658 -14.087237 -33.728798 -97.898926
69940000 -32.254227 -85.265579 -0.089182407 -14.292668 -0.089751862 -14.287011 -33.607777 -98.36248
70939000 -32.141624 -85.406517 -0.089632414 -14.492157 -0.088518716 -14.483119 -33.456921 -98.329575
71938000 -31.982237 -85.162437 -0.08875411 -14.690002 -0.088243172 -14.67954 -33.313431 -98.35701
72937000 -31.82659 -85.080078 -0.088394813 -14.888537 -0.088683039 -14.88073 -33.162369 -98.210587
73936000 -31.683542 -84.973427 -0.088920034 -15.08219 -0.088219926 -15.075996 -33.032707 -98.087311
74935000 -31.568913 -85.284401 -0.088015199 -15.284383 -0.087630332 -15.276514 -32.874813 -97.8339
75934000 -31.44903 -85.648422 -0.088073574 -15.490876 -0.087966852 -15.484102 -32.780193 -97.862892
76933000 -31.330263 -86.218575 -0.088996924 -15.684717 -0.088272229 -15.677263 -32.604965 -98.474541
77932000 -31.244123 -87.038437 -0.09018369 -15.876867 -0.090354167 -15.874085 -32.511387 -98.512978
78931000 -31.191076 -87.774628 -0.089445323 -16.081593 -0.089554198 -16.07551 -32.405857 -98.543045
79930000 -31.099957 -88.676521 -0.092002399 -16.27733 -0.09247914 -16.270397 -32.3148 -98.904945
80929000 -30.979567 -89.635803 -0.093694374 -16.468672 -0.093672946 -16.464996 -32.215538 -99.390663
81928000 -30.92263 -90.551704 -0.093865775 -16.662163 -0.094465204 -16.660711 -32.104332 -99.630058
82927000 -30.842285 -91.283401 -0.09588211 -16.86272 -0.095210247 -16.859375 -32.002022 -100.06358
83926000 -30.751553 -92.083145 -0.09736222 -17.054752 -0.096715011 -17.061649 -31.891266 -100.39704
84925000 -30.658056 -92.675323 -0.098248623 -17.258724 -0.097445875 -17.253487 -31.793148 -100.54187
85924000 -30.570686 -93.257912 -0.099151097 -17.457066 -0.098442711 -17.45517 -31.701784 -100.66827
86923000 -30.47286 -93.807907 -0.098924138 -17.658339 -0.098880969 -17.647825 -31.601749 -100.64948
87922000 -30.368622 -94.334846 -0.098875672 -17.865248 -0.098701954 -17.855967 -31.502365 -100.8122
88921000 -30.309381 -94.671684 -0.10008845 -18.056738 -0.099696696 -18.057426 -31.422535 -100.93564
89920000 -30.21777 -95.307175 -0.10050675 -18.256413 -0.09999045 -18.252886 -31.368843 -101.13832
90919000 -30.125404 -95.69783 -0.10172369 -18.456438 -0.10103847 -18.448071 -31.288755 -101.44761
91918000 -30.035328 -96.139923 -0.10227651 -18.655893 -0.10115744 -18.64698 -31.213112 -101.47258
92917000 -29.954813 -96.592171 -0.10357136 -18.852463 -0.10314059 -18.856392 -31.140236 -101.6809
93916000 -29.874687 -97.024048 -0.10358329 -19.045624 -0.102972 -19.045467 -31.071068 -102.43642
94915000 -29.803623 -97.667297 -0.10487085 -19.252466 -0.10284556 -19.240446 -31.003174 -102.29149
95914000 -29.746292 -97.95916 -0.10575295 -19.443264 -0.10428907 -19.442955 -30.911062 -102.64241
96913000 -29.658226 -98.258881 -0.10720406 -19.647682 -0.10593173 -19.639008 -30.847065 -103.09338
97912000 -29.591417 -98.74334 -0.10775332 -19.840467 -0.10593624 -19.842627 -30.762686 -103.35932
98911000 -29.48587 -99.007301 -0.1087804 -20.040808 -0.10761348 -20.040886 -30.729343 -103.57165
99910000 -29.425138 -99.195137 -0.10932402 -20.24008 -0.10775279 -20.241703 -30.625862 -104.03147
100909000 -29.340141 -99.52169 -0.10874085 -20.447897 -0.10705017 -20.439093 -30.533415 -104.23631
101908000 -29.257339 -99.84243 -0.11042529 -20.650888 -0.10829602 -20.647005 -30.406528 -104.03403
102907000 -29.120283 -99.940498 -0.11053415 -20.850645 -0.10797729 -20.848457 -30.329239 -104.06342
103906000 -29.022701 -100.04285 -0.11148725 -21.056009 -0.10821296 -21.047699 -30.17033 -104.13278
104905000 -28.869078 -100.0543 -0.11142749 -21.253244 -0.10873236 -21.250814 -30.027994 -103.79751
105904000 -28.731302 -100.3128 -0.11160146 -21.457102 -0.10831858 -21.450233 -29.912947 -103.78816
106903000 -28.615547 -100.46507 -0.11185883 -21.661753 -0.10904689 -21.654877 -29.767666 -103.73861
107902000 -28.463095 -100.9154 -0.11255904 -21.861259 -0.10942809 -21.851974 -29.623007 -103.76241
108901000 -28.351725 -101.19759 -0.11366884 -22.06142 -0.11055752 -22.052065 -29.48345 -103.78776
109900000 -28.23107 -101.72935 -0.11458435 -22.261511 -0.11259092 -22.251644 -29.331461 -104.02612
110899000 -28.127895 -102.48642 -0.11608335 -22.462326 -0.11285075 -22.452278 -29.20377 -104.38406
111898000 -28.046974 -103.19519 -0.11717036 -22.663895 -0.11377008 -22.653219 -29.080107 -104.6332
112897000 -27.927923 -103.82107 -0.11873383 -22.861 -0.11518612 -22.849878 -28.938728 -104.91238
113896000 -27.829111 -104.46988 -0.11947374 -23.063778 -0.11675632 -23.049459 -28.839724 -105.16886
114895000 -27.73452 -105.18385 -0.12081685 -23.261011 -0.11806481 -23.248821 -28.719088 -105.36221
115894000 -27.605732 -105.5897 -0.12171923 -23.462137 -0.11960465 -23.445974 -28.646866 -105.57803
116893000 -27.533884 -106.24174 -0.12195271 -23.656225 -0.11983217 -23.638105 -28.514624 -105.82851
117892000 -27.454746 -106.76605 -0.12288569 -23.85556 -0.12050039 -23.839489 -28.446304 -106.1209
118891000 -27.400322 -107.23779 -0.12298981 -24.056173 -0.12064731 -24.039644 -28.338427 -106.32952
119890000 -27.309122 -107.65934 -0.12448158 -24.253275 -0.12237604 -24.237736 -28.336483 -106.53838
120889000 -27.261969 -108.19855 -0.12520649 -24.456337 -0.12230096 -24.438915 -28.255592 -106.55621
121888000 -27.217484 -108.57945 -0.12586196 -24.652826 -0.123193 -24.639214 -28.191153 -106.86761
122887000 -27.174559 -108.76582 -0.12618946 -24.852058 -0.12362816 -24.839613 -28.145103 -106.99384
123886000 -27.119133 -109.26246 -0.12688719 -25.058283 -0.12377679 -25.04003 -28.130884 -107.14825
124885000 -27.082142 -109.76229 -0.12681442 -25.253372 -0.12417738 -25.241766 -28.101168 -107.2412
125884000 -27.029408 -109.98863 -0.12835525 -25.454166 -0.12481165 -25.438417 -28.065975 -107.47826
126883000 -27.003481 -110.37001 -0.12846483 -25.655998 -0.12601838 -25.638336 -28.023355 -107.50884
127882000 -26.959661 -110.68488 -0.12876213 -25.854511 -0.12579294 -25.837343 -27.979343 -107.75642
128881000 -26.923206 -111.05529 -0.1287376 -26.055641 -0.12615322 -26.038671 -27.933218 -107.86127
129880000 -26.869078 -111.41355 -0.12964083 -26.258797 -0.12621877 -26.238991 -27.884922 -107.84086
130879000 -26.809294 -111.56302 -0.1296899 -26.459681 -0.1268696 -26.442423 -27.808945 -107.94846
131878000 -26.738115 -111.78246 -0.13013826 -26.658504 -0.12784976 -26.640631 -27.737944 -107.83472
132877000 -26.672087 -111.91216 -0.13025376 -26.860308 -0.12815714 -26.84514 -27.645899 -107.86509
133876000 -26.581678 -112.13672 -0.1310946 -27.063896 -0.1272417 -27.042727 -27.548479 -107.82884
134875000 -26.483429 -112.32262 -0.1304965 -27.262112 -0.12845522 -27.244724 -27.441135 -107.73234
135874000 -26.397385 -112.36697 -0.13053037 -27.463205 -0.12826379 -27.44706 -27.330374 -107.77808
136873000 -26.289003 -112.37643 -0.13072431 -27.666716 -0.12807956 -27.646046 -27.239567 -107.72406
137872000 -26.207653 -112.53485 -0.13102898 -27.867895 -0.12874347 -27.850079 -27.131069 -107.79009
138871000 -26.13159 -112.7653 -0.13206531 -28.062201 -0.12892559 -28.05258 -27.033846 -107.95865
139870000 -26.035057 -113.06593 -0.13203382 -28.269447 -0.12994169 -28.247416 -26.95142 -108.24686
140869000 -25.95068 -113.58324 -0.13409118 -28.463377 -0.1310858 -28.441418 -26.833153 -108.41034
141868000 -25.860804 -114.06332 -0.13514106 -28.653572 -0.13178992 -28.640766 -26.773518 -108.76354
142867000 -25.784935 -114.38682 -0.13324282 -28.852962 -0.1302975 -28.83749 -26.69665 -109.01114
143866000 -25.718632 -114.93854 -0.13518487 -29.047281 -0.13215844 -29.032375 -26.625938 -109.5985
144865000 -25.669247 -115.46996 -0.13707487 -29.246338 -0.13347398 -29.234211 -26.573568 -109.94285
145864000 -25.617672 -115.80526 -0.13676231 -29.44611 -0.13529596 -29.438696 -26.542744 -110.22639
146863000 -25.572903 -116.23087 -0.13748953 -29.649773 -0.13477123 -29.632431 -26.492823 -110.59447
147862000 -25.532228 -116.61145 -0.13881712 -29.844511 -0.13579857 -29.831173 -26.465187 -110.92252
148861000 -25.507536 -117.15035 -0.13888447 -30.042721 -0.13677487 -30.025055 -26.443462 -111.18436
149860000 -25.488827 -117.37157 -0.14037316 -30.242849 -0.13675429 -30.230379 -26.413979 -111.35715
150859000 -25.4729 -117.77715 -0.14059962 -30.441584 -0.1372245 -30.427616 -26.411476 -111.6591
151858000 -25.45723 -118.09172 -0.14010607 -30.642414 -0.13753042 -30.627016 -26.401918 -111.95473
152857000 -25.43959 -118.41193 -0.14032903 -30.837505 -0.13782994 -30.822807 -26.386518 -112.11106
153856000 -25.436569 -118.65812 -0.14109536 -31.033747 -0.13751785 -31.023149 -26.41083 -112.41252
154855000 -25.42704 -118.8381 -0.14136198 -31.234558 -0.13806883 -31.223145 -26.402798 -112.61668
155854000 -25.442348 -119.09988 -0.14155319 -31.433163 -0.13832216 -31.422138 -26.401571 -112.89065
156853000 -25.429188 -119.78024 -0.13868776 -31.623001 -0.13780749 -31.614464 -26.404028 -113.22837
157852000 -25.432934 -120.01081 -0.140744 -31.82266 -0.13917607 -31.813829 -26.392225 -113.55125
158851000 -25.430859 -120.24217 -0.1412518 -32.021019 -0.14006275 -32.011051 -26.382463 -113.78132
159850000 -25.412436 -120.37945 -0.14202015 -32.220451 -0.13995796 -32.212914 -26.383842 -113.95431
160849000 -25.390965 -120.49955 -0.14213999 -32.420303 -0.14082903 -32.414791 -26.35243 -114.2721
161848000 -25.367826 -120.62627 -0.14221434 -32.620796 -0.14083786 -32.611877 -26.311232 -114.38888
162847000 -25.329605 -120.8255 -0.14267014 -32.817982 -0.14171526 -32.813515 -26.287329 -114.65498
163846000 -25.28241 -121.09816 -0.14318752 -33.01572 -0.14138632 -33.012386 -26.201687 -114.67639
164845000 -25.225111 -121.12133 -0.14243795 -33.215076 -0.14150451 -33.210167 -26.130846 -114.84967
165844000 -25.173836 -121.19566 -0.14327796 -33.421059 -0.14237109 -33.408119 -26.046989 -115.01134
166843000 -25.102617 -121.32108 -0.14367394 -33.613045 -0.14191584 -33.611698 -25.97871 -115.21789
167842000 -25.047249 -121.50042 -0.14346123 -33.813396 -0.14286998 -33.809155 -25.894951 -115.16617
168841000 -24.966114 -121.7196 -0.14432363 -34.015537 -0.14346042 -34.009758 -25.810081 -115.26962
169840000 -24.899931 -122.04444 -0.14454147 -34.210316 -0.14326726 -34.206566 -25.721325 -115.47965
170839000 -24.840528 -122.32209 -0.14573736 -34.407642 -0.1436512 -34.403652 -25.634317 -115.76989
171838000 -24.78756 -122.77607 -0.14506818 -34.60574 -0.14479786 -34.600464 -25.572191 -116.01444
172837000 -24.720501 -123.15871 -0.14680614 -34.799343 -0.14567928 -34.797298 -25.502884 -116.29974
173836000 -24.652412 -123.61245 -0.14816977 -35.002022 -0.14729133 -34.997856 -25.459581 -116.56733
174835000 -24.604111 -124.0533 -0.1488148 -35.193893 -0.14764322 -35.195435 -25.413025 -116.91575
175834000 -24.557119 -124.48012 -0.14953063 -35.395031 -0.14862514 -35.393528 -25.353718 -117.27573
176833000 -24.50316 -124.88473 -0.15048349 -35.593552 -0.14887212 -35.589142 -25.296124 -117.48975
177832000 -24.458546 -125.38569 -0.15074719 -35.788216 -0.14980072 -35.792229 -25.276768 -117.64849
178831000 -24.417963 -125.76657 -0.15076837 -35.986572 -0.15016781 -35.984097 -25.236664 -117.92078
179830000 -24.384365 -126.22747 -0.15238152 -36.182758 -0.15154591 -36.187386 -25.210453 -118.09955
180829000 -24.347027 -126.4605 -0.1520732 -36.382942 -0.15105568 -36.380859 -25.181271 -118.28636
181828000 -24.321245 -126.8341 -0.15301187 -36.580368 -0.15182845 -36.578629 -25.158714 -118.4024
182827000 -24.297205 -127.19355 -0.1530387 -36.773403 -0.15200646 -36.775517 -25.150127 -118.53561
183826000 -24.25415 -127.5165 -0.15441288 -36.972168 -0.15252174 -36.970547 -25.141459 -118.67013
184825000 -24.258123 -127.85647 -0.15428548 -37.164913 -0.1527046 -37.168301 -25.123522 -118.80466
185824000 -24.22867 -128.21745 -0.15352379 -37.357643 -0.15268958 -37.361588 -25.121357 -118.80595
186823000 -24.223068 -128.5761 -0.15419079 -37.565228 -0.1532945 -37.558529 -25.116762 -118.82825
187822000 -24.197245 -128.91734 -0.15418597 -37.755669 -0.15435575 -37.755817 -25.080034 -118.90544
188821000 -24.172174 -129.13989 -0.1548434 -37.953793 -0.15416558 -37.955933 -25.063177 -119.00768
189820000 -24.162481 -129.42628 -0.15508592 -38.154552 -0.15444829 -38.154297 -25.050194 -119.14689
190819000 -24.122944 -129.70352 -0.15661292 -38.354237 -0.15537566 -38.353054 -25.012089 -119.14675
191818000 -24.093447 -129.88756 -0.15746425 -38.548531 -0.1568896 -38.548481 -24.981644 -119.05331
192817000 -24.02212 -130.17314 -0.15829508 -38.732521 -0.15769993 -38.733994 -24.902447 -119.1176
193816000 -23.982918 -130.55954 -0.15753403 -38.924984 -0.15628068 -38.92696 -24.845278 -119.41554
194815000 -23.92523 -130.9971 -0.15741056 -39.125 -0.15631612 -39.123688 -24.776695 -119.55028
195814000 -23.871597 -131.24339 -0.15780461 -39.323189 -0.15671569 -39.32233 -24.718296 -119.66795
196813000 -23.818054 -131.58647 -0.1578524 -39.519032 -0.15646827 -39.518929 -24.644194 -119.87732
197812000 -23.763889 -131.84366 -0.15786529 -39.715626 -0.15748304 -39.712585 -24.566206 -120.01349
198811000 -23.70705 -132.04926 -0.1580779 -39.912079 -0.15712954 -39.913898 -24.496973 -120.20109
199810000 -23.64082 -132.43527 -0.15821105 -40.106213 -0.15673824 -40.106171 -24.418564 -120.34727
200809000 -23.580811 -132.74632 -0.15902001 -40.302002 -0.15789266 -40.304615 -24.330929 -120.56623
201808000 -23.520044 -132.98392 -0.15958259 -40.500072 -0.15848221 -40.508171 -24.256311 -120.69138
202807000 -23.46772 -133.39246 -0.15976225 -40.708496 -0.15923187 -40.708309 -24.208582 -120.88775
203806000 -23.417042 -133.84076 -0.16195504 -40.906204 -0.15941823 -40.907673 -24.137222 -121.10393
204805000 -23.362162 -134.24341 -0.16291493 -41.104015 -0.16101311 -41.10387 -24.081179 -121.32056
