!Keysight Technologies,E5080B,MY59205177,A.15.75.32
!Date: Friday, February 23, 2024 03:03:57
!Correction: S11(Cdelta 2-Port  ) 
!S21(Cdelta 2-Port  ) 
!S12(Cdelta 2-Port  ) 
!S22(Cdelta 2-Port  ) 
!S2P File: Measurements: S11, S21, S12, S22:
# Hz S  dB   R 50
10000000 -44.166782 -3.8863618 -0.02796567 -2.040113 -0.030084834 -2.0928252 -47.950237 -150.10495
10999000 -43.550987 -5.2745175 -0.028128766 -2.2563577 -0.029522367 -2.3101661 -47.727261 -142.67525
11998000 -42.76453 -8.0299578 -0.028296819 -2.4790764 -0.029522628 -2.5256841 -47.876083 -136.98755
12997000 -42.119228 -12.746634 -0.02812564 -2.6585515 -0.029646687 -2.6913569 -47.260311 -131.0811
13996000 -41.883629 -16.003592 -0.027698372 -2.8369694 -0.029463727 -2.85706 -46.798874 -125.79386
14995000 -41.576859 -20.302752 -0.029508814 -3.0474467 -0.029363649 -3.0707424 -46.259335 -122.13866
15994000 -41.434658 -23.79319 -0.030959172 -3.2651019 -0.031631079 -3.2857761 -46.161438 -118.59309
16993000 -41.464344 -27.676052 -0.030280853 -3.4604058 -0.030475577 -3.4703748 -45.128994 -119.37082
17992000 -41.520203 -32.543674 -0.030277204 -3.6598554 -0.03135886 -3.661895 -44.557449 -120.06712
18991000 -41.742966 -36.910362 -0.031260826 -3.8669517 -0.031728078 -3.87024 -43.872864 -119.76308
19990000 -41.632561 -42.113773 -0.033333078 -4.0791888 -0.034280602 -4.0723119 -43.153877 -121.16579
20989000 -41.553288 -44.951283 -0.035711937 -4.2796268 -0.035687663 -4.2729464 -42.569786 -121.22429
21988000 -41.41243 -49.707577 -0.036456626 -4.4796185 -0.036650844 -4.465919 -42.320427 -120.27692
22987000 -41.193554 -54.035069 -0.037312143 -4.6777539 -0.037453659 -4.6751394 -42.01741 -120.16644
23986000 -41.206543 -57.695511 -0.036961507 -4.8676629 -0.036343593 -4.8682537 -41.891155 -119.77806
24985000 -40.857018 -60.789333 -0.038413312 -5.0784497 -0.037305616 -5.0745745 -41.659241 -117.43808
25984000 -40.635559 -62.64011 -0.039085068 -5.2805967 -0.036817137 -5.2829599 -41.303577 -116.11588
26983000 -40.322136 -64.414612 -0.039854106 -5.4805298 -0.037702233 -5.5011988 -41.157448 -115.16525
27982000 -40.22327 -65.300613 -0.041255917 -5.6792116 -0.039918113 -5.7165565 -40.84557 -113.61385
28981000 -40.205441 -66.740379 -0.039277576 -5.8808427 -0.039650861 -5.9029236 -40.608856 -113.03002
29980000 -39.796177 -68.703033 -0.03993196 -6.0687156 -0.040349718 -6.078269 -40.309975 -112.33604
30979000 -39.425663 -67.816475 -0.037386034 -6.4255986 -0.035017479 -6.4140763 -39.815079 -113.32713
31978000 -39.250103 -68.604248 -0.035896465 -6.6208181 -0.036563914 -6.6075454 -39.55806 -112.52454
32977000 -39.081123 -70.339233 -0.036150694 -6.8284206 -0.036640923 -6.8238096 -39.3013 -112.85447
33976000 -38.950829 -71.456207 -0.036265805 -7.0316925 -0.037407443 -7.0225286 -39.005527 -112.13462
34975000 -38.668499 -72.401443 -0.036936969 -7.2282896 -0.038117427 -7.2243109 -38.762939 -112.0425
35974000 -38.483189 -73.133331 -0.035957802 -7.4243464 -0.037259925 -7.4260054 -38.45789 -111.35165
36973000 -38.267784 -73.927963 -0.036450882 -7.6199245 -0.038417492 -7.6267047 -38.16325 -110.49812
37972000 -38.106537 -73.814644 -0.036083352 -7.8322949 -0.038440213 -7.8405833 -37.924953 -109.94028
38971000 -37.769962 -73.556488 -0.036996491 -8.0342875 -0.038729589 -8.0435028 -37.745804 -108.32432
39970000 -37.451164 -74.175758 -0.0355496 -8.2282944 -0.03728551 -8.241394 -37.46545 -107.80757
40969000 -37.188488 -74.018707 -0.035782404 -8.4198017 -0.037584472 -8.4388075 -37.178776 -106.80147
41968000 -36.82761 -74.303856 -0.035714284 -8.6230145 -0.037732262 -8.6407137 -36.983192 -105.54467
42967000 -36.584225 -74.563805 -0.035490878 -8.8354998 -0.037340604 -8.8555059 -36.748089 -103.8472
43966000 -36.308125 -75.378113 -0.03583017 -9.0304556 -0.039263468 -9.0557928 -36.461288 -103.2026
44965000 -36.082901 -76.268959 -0.036922608 -9.2348022 -0.039209399 -9.2568483 -36.238491 -103.21319
45964000 -35.871967 -77.449745 -0.03784376 -9.4393034 -0.040652812 -9.4556952 -35.988308 -103.04119
46963000 -35.677822 -79.398972 -0.038441516 -9.6302185 -0.040469646 -9.6517391 -35.823971 -103.49545
47962000 -35.535042 -80.963661 -0.039525211 -9.8321428 -0.042088073 -9.8482666 -35.598518 -103.71674
48961000 -35.340237 -82.405151 -0.041573968 -10.028002 -0.043293469 -10.04939 -35.363564 -103.94241
49960000 -35.122677 -83.774216 -0.043429688 -10.227415 -0.044115294 -10.250796 -35.236942 -104.1365
50959000 -34.912491 -85.176476 -0.044014875 -10.440468 -0.045515604 -10.454054 -35.067886 -104.46268
51958000 -34.72094 -86.248932 -0.046133775 -10.641023 -0.047486585 -10.647923 -34.877506 -105.06003
52957000 -34.509289 -87.499741 -0.046459772 -10.841329 -0.048193246 -10.843282 -34.715252 -104.79366
53956000 -34.365704 -88.13047 -0.04838014 -11.039535 -0.048730124 -11.03904 -34.576992 -104.95404
54955000 -34.200325 -88.621864 -0.048946101 -11.239661 -0.049322575 -11.235042 -34.425526 -104.91862
55954000 -34.037506 -89.487503 -0.050551452 -11.440802 -0.050830375 -11.43893 -34.317505 -104.57814
56953000 -33.920132 -89.56543 -0.049672637 -11.639386 -0.049162086 -11.629251 -34.238167 -104.84566
57952000 -33.766968 -90.201515 -0.051932096 -11.832498 -0.05002692 -11.826148 -34.144924 -104.9853
58951000 -33.649258 -90.523987 -0.052146658 -12.042311 -0.051620621 -12.013918 -34 -105.13103
59950000 -33.516685 -90.909004 -0.053148348 -12.239408 -0.051724881 -12.221262 -33.932751 -105.37965
60949000 -33.421871 -91.545609 -0.053037766 -12.441112 -0.05209662 -12.416437 -33.835884 -105.61073
61948000 -33.358475 -91.828468 -0.053730655 -12.638896 -0.052146133 -12.624397 -33.753563 -105.64501
62947000 -33.280006 -92.014046 -0.05360486 -12.850502 -0.052051295 -12.828168 -33.613712 -105.96508
63946000 -33.207706 -92.700211 -0.054578312 -13.048351 -0.053044055 -13.02748 -33.493679 -106.08749
64945000 -33.102383 -92.916832 -0.055089239 -13.248344 -0.054441482 -13.22847 -33.399853 -106.60593
65944000 -33.01144 -93.194473 -0.05573526 -13.447208 -0.054473724 -13.4313 -33.3195 -107.08547
66943000 -32.868328 -93.579117 -0.053654917 -13.650292 -0.053186346 -13.63249 -33.207699 -107.33353
67942000 -32.80724 -93.583633 -0.055567194 -13.84607 -0.055233169 -13.832542 -33.089928 -107.76218
68941000 -32.699707 -93.722939 -0.054995123 -14.039248 -0.053859077 -14.027587 -32.986153 -107.64085
69940000 -32.596127 -93.786911 -0.055420365 -14.237027 -0.054897077 -14.225588 -32.84684 -108.00375
70939000 -32.494789 -93.787582 -0.055674169 -14.435396 -0.054242007 -14.424025 -32.716019 -107.93207
71938000 -32.363136 -93.356201 -0.055777214 -14.628693 -0.054283421 -14.617793 -32.580841 -107.86601
72937000 -32.194988 -93.267914 -0.054536108 -14.828124 -0.053819504 -14.819382 -32.439995 -107.60711
73936000 -32.063946 -92.943855 -0.055247065 -15.027368 -0.052854866 -15.017015 -32.310787 -107.43348
74935000 -31.931614 -93.236847 -0.053805873 -15.220134 -0.05219958 -15.216938 -32.158794 -107.16756
75934000 -31.812639 -93.559082 -0.053888693 -15.425706 -0.052426729 -15.422522 -32.072624 -107.06726
76933000 -31.687891 -93.895668 -0.054891311 -15.62353 -0.054700993 -15.614495 -31.909916 -107.5689
77932000 -31.588047 -94.73912 -0.056716535 -15.819111 -0.055307105 -15.813339 -31.807003 -107.46919
78931000 -31.517332 -95.439644 -0.054927487 -16.016872 -0.054691292 -16.012617 -31.707933 -107.35418
79930000 -31.407383 -96.255463 -0.057512838 -16.211088 -0.057227191 -16.206421 -31.606297 -107.69576
80929000 -31.289804 -97.221245 -0.059877425 -16.406183 -0.058829051 -16.402727 -31.507261 -108.03447
81928000 -31.201952 -98.07679 -0.059511315 -16.596306 -0.058735114 -16.591768 -31.389065 -108.12235
82927000 -31.114895 -98.840645 -0.060811594 -16.794712 -0.059752237 -16.792416 -31.273867 -108.435
83926000 -30.998812 -99.550812 -0.06256368 -16.991764 -0.061013997 -16.991533 -31.158443 -108.69254
84925000 -30.894718 -99.977585 -0.063763998 -17.194004 -0.060887724 -17.189837 -31.07185 -108.73155
85924000 -30.800119 -100.40811 -0.064185895 -17.394697 -0.062948689 -17.387903 -30.985632 -108.71559
86923000 -30.70001 -100.93488 -0.064517714 -17.589642 -0.063129649 -17.579689 -30.883078 -108.66273
87922000 -30.59 -101.32244 -0.064102881 -17.796915 -0.062461782 -17.784096 -30.804052 -108.76121
88921000 -30.525339 -101.62934 -0.06599322 -17.993156 -0.06313359 -17.983583 -30.711756 -108.7085
89920000 -30.42688 -102.11657 -0.065858915 -18.189371 -0.064395808 -18.180946 -30.662022 -108.88787
90919000 -30.331436 -102.46191 -0.066957094 -18.388184 -0.065094717 -18.382694 -30.572065 -109.07599
91918000 -30.235983 -102.82357 -0.067536786 -18.588663 -0.065392442 -18.578167 -30.507927 -109.06905
92917000 -30.153486 -103.10886 -0.068251453 -18.785679 -0.06662719 -18.781555 -30.446188 -109.20589
93916000 -30.074009 -103.50498 -0.067964837 -18.978741 -0.065992951 -18.973007 -30.36796 -109.73836
94915000 -29.985983 -104.14114 -0.069160603 -19.181778 -0.067061462 -19.173473 -30.304234 -109.67846
95914000 -29.933592 -104.3935 -0.07018701 -19.370794 -0.068158366 -19.368906 -30.212677 -109.98077
96913000 -29.850578 -104.64857 -0.071632862 -19.572493 -0.069104053 -19.569338 -30.139666 -110.34918
97912000 -29.783621 -105.11968 -0.072234228 -19.768063 -0.069792412 -19.76948 -30.067074 -110.53019
98911000 -29.674122 -105.33258 -0.07255245 -19.972105 -0.070301183 -19.967403 -30.031168 -110.81709
99910000 -29.602522 -105.50417 -0.073699459 -20.168022 -0.070847645 -20.16468 -29.921955 -111.03904
100909000 -29.523335 -105.76618 -0.073140793 -20.375917 -0.070281982 -20.368692 -29.842987 -111.28504
101908000 -29.427212 -105.97621 -0.073688395 -20.5737 -0.071717069 -20.572338 -29.724525 -111.05828
102907000 -29.305311 -106.00521 -0.074969493 -20.776255 -0.07137154 -20.774515 -29.648682 -111.03161
103906000 -29.205202 -106.16058 -0.074322708 -20.981806 -0.071069725 -20.975359 -29.500813 -111.02415
104905000 -29.063873 -106.04617 -0.074870728 -21.176476 -0.071513906 -21.176527 -29.37664 -110.71376
105904000 -28.926205 -106.1841 -0.075655088 -21.378185 -0.071236551 -21.37735 -29.266842 -110.56899
106903000 -28.817282 -106.29352 -0.074984238 -21.586502 -0.072518237 -21.578527 -29.137848 -110.4548
107902000 -28.64994 -106.60938 -0.075929835 -21.785332 -0.072784357 -21.77681 -28.997526 -110.43261
108901000 -28.553047 -106.88999 -0.077540979 -21.984751 -0.073894821 -21.975344 -28.870174 -110.37131
109900000 -28.421608 -107.35546 -0.077519365 -22.185225 -0.075442262 -22.174 -28.721682 -110.48429
110899000 -28.302759 -107.97052 -0.079157725 -22.382542 -0.075472817 -22.373894 -28.599091 -110.75169
111898000 -28.217117 -108.63834 -0.080785632 -22.584978 -0.07685376 -22.578482 -28.479794 -110.92818
112897000 -28.092274 -109.26371 -0.081659682 -22.783554 -0.077671953 -22.771534 -28.343973 -111.10696
113896000 -27.992575 -109.79826 -0.083021492 -22.983351 -0.079164848 -22.9713 -28.23797 -111.23914
114895000 -27.889345 -110.47326 -0.084093146 -23.180782 -0.080613688 -23.167313 -28.123814 -111.32754
115894000 -27.759621 -110.77848 -0.084986873 -23.382288 -0.081737496 -23.369551 -28.055447 -111.53483
116893000 -27.677231 -111.34747 -0.085541524 -23.575308 -0.082432345 -23.559635 -27.927689 -111.65797
117892000 -27.599604 -111.87561 -0.085987985 -23.771761 -0.08228223 -23.757889 -27.849276 -111.80196
118891000 -27.535954 -112.29113 -0.085783362 -23.975502 -0.083421521 -23.959354 -27.759323 -111.96203
119890000 -27.450819 -112.65349 -0.086723648 -24.178486 -0.084120326 -24.159752 -27.747046 -112.10779
120889000 -27.39784 -113.16353 -0.087784857 -24.37323 -0.084054351 -24.360418 -27.669926 -112.05412
121888000 -27.355778 -113.44754 -0.087688707 -24.572636 -0.084350213 -24.557621 -27.61088 -112.33553
122887000 -27.32305 -113.69475 -0.08835122 -24.77401 -0.085321605 -24.757378 -27.574371 -112.36502
123886000 -27.264149 -114.05453 -0.089310825 -24.974556 -0.08547499 -24.95586 -27.556543 -112.56377
124885000 -27.230028 -114.58932 -0.089588024 -25.173685 -0.086597949 -25.157932 -27.528015 -112.61614
125884000 -27.173458 -114.78922 -0.090091191 -25.37076 -0.08639013 -25.356232 -27.500126 -112.84449
126883000 -27.154003 -115.17797 -0.090394601 -25.574186 -0.087473176 -25.560034 -27.459835 -112.84282
127882000 -27.106945 -115.44003 -0.090796627 -25.771338 -0.087938324 -25.754829 -27.416758 -113.00122
128881000 -27.075645 -115.803 -0.09063407 -25.974958 -0.087747611 -25.957539 -27.377052 -113.13286
129880000 -27.020189 -116.12045 -0.09190616 -26.17486 -0.088269323 -26.155563 -27.333237 -113.12984
130879000 -26.96455 -116.30956 -0.09177158 -26.375458 -0.08843708 -26.358683 -27.259663 -113.18983
131878000 -26.892031 -116.48298 -0.092121646 -26.578564 -0.088966012 -26.557106 -27.19466 -113.08141
132877000 -26.829874 -116.56541 -0.091789827 -26.778627 -0.089366317 -26.75893 -27.110703 -113.11682
133876000 -26.741936 -116.73826 -0.092359886 -26.978357 -0.088708937 -26.958643 -27.020536 -113.0242
134875000 -26.649796 -116.84403 -0.091970667 -27.17836 -0.089204602 -27.158815 -26.916237 -112.92566
135874000 -26.569445 -116.92229 -0.091857769 -27.376759 -0.089335136 -27.359129 -26.815964 -112.87495
136873000 -26.452242 -116.82528 -0.092606068 -27.579348 -0.088878289 -27.560091 -26.732264 -112.90184
137872000 -26.374189 -116.95482 -0.092690952 -27.783133 -0.089248732 -27.765869 -26.627981 -112.786
138871000 -26.303637 -117.16328 -0.093092926 -27.981203 -0.088996127 -27.961514 -26.532127 -112.99004
139870000 -26.204119 -117.40415 -0.093984015 -28.179352 -0.090960518 -28.162058 -26.452036 -113.15957
140869000 -26.117287 -117.86202 -0.095818333 -28.377012 -0.091913298 -28.355364 -26.344799 -113.31773
141868000 -26.020603 -118.35374 -0.095990613 -28.568295 -0.09318655 -28.550495 -26.271347 -113.63439
142867000 -25.949577 -118.59114 -0.094189815 -28.763939 -0.091865443 -28.748573 -26.200089 -113.83485
143866000 -25.876389 -119.09885 -0.095926575 -28.963213 -0.092548683 -28.946287 -26.127415 -114.31371
144865000 -25.819267 -119.65153 -0.097067587 -29.162535 -0.094377376 -29.146862 -26.063698 -114.63547
145864000 -25.763733 -119.93581 -0.097739212 -29.361637 -0.095231414 -29.350573 -26.028107 -114.92458
146863000 -25.712271 -120.33419 -0.098022237 -29.562967 -0.095540747 -29.548584 -25.979174 -115.20441
147862000 -25.673143 -120.66574 -0.099467061 -29.757687 -0.096111558 -29.743025 -25.943155 -115.54739
148861000 -25.646458 -121.18159 -0.099277958 -29.951227 -0.096813478 -29.938707 -25.916803 -115.80283
149860000 -25.628977 -121.3635 -0.099905156 -30.15242 -0.097126089 -30.143923 -25.889238 -115.95522
150859000 -25.611639 -121.74353 -0.1001531 -30.355936 -0.097462289 -30.33811 -25.880472 -116.18378
151858000 -25.590519 -122.05659 -0.1004376 -30.552643 -0.097246006 -30.537704 -25.867168 -116.48663
152857000 -25.578049 -122.38017 -0.10080718 -30.748095 -0.0981308 -30.738102 -25.85741 -116.60924
153856000 -25.568022 -122.61358 -0.10027654 -30.947342 -0.097025767 -30.93429 -25.868622 -116.88336
154855000 -25.563347 -122.74604 -0.1006559 -31.147593 -0.097465999 -31.135523 -25.860035 -117.11859
155854000 -25.576504 -123.02011 -0.10081778 -31.349722 -0.0981488 -31.335426 -25.84889 -117.36446
156853000 -25.557095 -123.69302 -0.099014707 -31.5326 -0.097273275 -31.526712 -25.850718 -117.66863
157852000 -25.569201 -123.9285 -0.1001221 -31.732769 -0.098917782 -31.724949 -25.838293 -118.02654
158851000 -25.558367 -124.17311 -0.10111822 -31.932428 -0.099543869 -31.924717 -25.820395 -118.2861
159850000 -25.545567 -124.27718 -0.10111134 -32.131828 -0.099360056 -32.122829 -25.825319 -118.48418
160849000 -25.53047 -124.42166 -0.10184056 -32.332005 -0.1001123 -32.323944 -25.794178 -118.72511
161848000 -25.504465 -124.53074 -0.10174172 -32.528671 -0.10002065 -32.521729 -25.756823 -118.85918
162847000 -25.464718 -124.70193 -0.1020682 -32.727463 -0.10122924 -32.721169 -25.723471 -119.12842
163846000 -25.428261 -124.96313 -0.10287181 -32.927376 -0.10093462 -32.920433 -25.646765 -119.09304
164845000 -25.363569 -124.94691 -0.10280713 -33.124714 -0.10109464 -33.119362 -25.58156 -119.22549
165844000 -25.309246 -125.03268 -0.1029667 -33.321655 -0.10181856 -33.316235 -25.50082 -119.3699
166843000 -25.250227 -125.13655 -0.10275677 -33.52335 -0.10149845 -33.516815 -25.430624 -119.51553
167842000 -25.195465 -125.28884 -0.10284264 -33.724262 -0.10064901 -33.714756 -25.352205 -119.48335
168841000 -25.117149 -125.47791 -0.1025002 -33.919598 -0.10224365 -33.916729 -25.275969 -119.54454
169840000 -25.048855 -125.74058 -0.10334364 -34.117546 -0.10278937 -34.113297 -25.18733 -119.71332
170839000 -24.985451 -126.00653 -0.10419097 -34.308628 -0.10266002 -34.307289 -25.100309 -119.92757
171838000 -24.926538 -126.39608 -0.10375615 -34.513615 -0.10311911 -34.506012 -25.039532 -120.19604
172837000 -24.860086 -126.75597 -0.1054665 -34.707375 -0.10420687 -34.705811 -24.966101 -120.3768
173836000 -24.794552 -127.20591 -0.1068411 -34.909424 -0.10524398 -34.902596 -24.927532 -120.62654
174835000 -24.740585 -127.62233 -0.10712738 -35.103897 -0.1058853 -35.102539 -24.876352 -120.96108
175834000 -24.687485 -128.04233 -0.10783532 -35.302601 -0.10651532 -35.29808 -24.820669 -121.21656
176833000 -24.639133 -128.38281 -0.10912494 -35.498089 -0.10699578 -35.496326 -24.761772 -121.38619
177832000 -24.590082 -128.84908 -0.10932774 -35.694817 -0.10781011 -35.695084 -24.741161 -121.54536
178831000 -24.54925 -129.22697 -0.10890488 -35.891129 -0.10769335 -35.887688 -24.701347 -121.80925
179830000 -24.517422 -129.65207 -0.1103297 -36.086552 -0.10774642 -36.089409 -24.674658 -121.9243
180829000 -24.473909 -129.85475 -0.11070728 -36.285469 -0.10835706 -36.283829 -24.647587 -122.06853
181828000 -24.450024 -130.21103 -0.1104221 -36.481682 -0.10880136 -36.479839 -24.627789 -122.15422
182827000 -24.424831 -130.5696 -0.11007162 -36.681259 -0.10969356 -36.677776 -24.613281 -122.27872
183826000 -24.38785 -130.88623 -0.11204397 -36.874134 -0.10932455 -36.872665 -24.605816 -122.3961
184825000 -24.390589 -131.20233 -0.11105648 -37.066807 -0.10983798 -37.067123 -24.591679 -122.4852
185824000 -24.363173 -131.55905 -0.11147743 -37.265743 -0.1101449 -37.26754 -24.588593 -122.50095
186823000 -24.343884 -131.89096 -0.11112739 -37.466309 -0.10994949 -37.463818 -24.580927 -122.49951
187822000 -24.331125 -132.26276 -0.11206096 -37.658756 -0.11086077 -37.65839 -24.548908 -122.58784
188821000 -24.310904 -132.45718 -0.11180943 -37.856014 -0.11091308 -37.859047 -24.534595 -122.69794
189820000 -24.293839 -132.71812 -0.11244747 -38.056812 -0.11091123 -38.05423 -24.527401 -122.83127
190819000 -24.2616 -132.966 -0.11366405 -38.255104 -0.11235183 -38.25391 -24.492908 -122.78632
191818000 -24.230396 -133.13814 -0.11489586 -38.44635 -0.11379346 -38.44994 -24.457438 -122.69798
192817000 -24.160412 -133.4306 -0.11522705 -38.63538 -0.11398479 -38.638187 -24.392435 -122.77305
193816000 -24.126217 -133.77615 -0.11430264 -38.827831 -0.11275935 -38.828846 -24.332367 -123.05554
194815000 -24.066832 -134.23872 -0.11477359 -39.02346 -0.11300059 -39.027328 -24.273745 -123.1448
195814000 -24.015545 -134.4709 -0.11478688 -39.223381 -0.11338107 -39.2239 -24.223608 -123.26653
196813000 -23.965681 -134.80516 -0.11453465 -39.414364 -0.1124929 -39.419094 -24.147207 -123.4648
197812000 -23.904505 -135.07156 -0.11459073 -39.616066 -0.11324981 -39.610538 -24.074467 -123.55077
198811000 -23.856627 -135.22177 -0.11417347 -39.81279 -0.11371268 -39.817265 -24.00738 -123.71845
199810000 -23.785555 -135.60834 -0.11507102 -40.00732 -0.11291557 -40.00642 -23.926659 -123.82758
200809000 -23.729229 -135.89561 -0.1147425 -40.206375 -0.11295914 -40.202801 -23.851128 -124.03011
201808000 -23.67141 -136.11996 -0.11630801 -40.398846 -0.11396141 -40.406536 -23.779669 -124.08189
202807000 -23.615442 -136.48659 -0.11644681 -40.607536 -0.11472681 -40.604115 -23.729568 -124.28611
203806000 -23.557186 -136.94864 -0.11780122 -40.804279 -0.11534295 -40.806389 -23.659197 -124.51074
