!Keysight Technologies,E5080B,MY59205177,A.15.75.32
!Date: Friday, February 23, 2024 03:42:07
!Correction: S11(Cdelta 2-Port  ) 
!S21(Cdelta 2-Port  ) 
!S12(Cdelta 2-Port  ) 
!S22(Cdelta 2-Port  ) 
!S2P File: Measurements: S11, S21, S12, S22:
# Hz S  dB   R 50
10000000 -46.122086 -2.9988515 -0.015200666 -2.0400238 -0.017693069 -2.0976665 -45.885498 -157.33456
10999000 -45.310379 -5.0477805 -0.016121639 -2.2637904 -0.017091146 -2.313915 -45.841324 -151.36453
11998000 -44.359364 -7.9755583 -0.016814642 -2.4837997 -0.017135844 -2.5284097 -45.91444 -147.08208
12997000 -43.590305 -13.641478 -0.015591375 -2.6681604 -0.016953669 -2.6934974 -45.547207 -141.22899
13996000 -43.295555 -17.322132 -0.014791292 -2.8461041 -0.017270206 -2.8661706 -45.344795 -136.25862
14995000 -42.901531 -21.861504 -0.01668757 -3.055624 -0.016438115 -3.0788515 -45.078278 -132.89569
15994000 -42.720417 -26.306257 -0.017999522 -3.2753425 -0.019721411 -3.2959995 -44.920536 -129.50369
16993000 -42.691872 -30.847618 -0.01716703 -3.471225 -0.01853398 -3.4774292 -44.115955 -128.79956
17992000 -42.679195 -36.450241 -0.017884113 -3.6700132 -0.018860511 -3.6737685 -43.486561 -129.24373
18991000 -42.96648 -41.630367 -0.019069025 -3.8847849 -0.020388199 -3.8745542 -42.928024 -127.99737
19990000 -42.677998 -47.575405 -0.02136386 -4.087924 -0.021947645 -4.0888858 -42.240185 -128.85251
20989000 -42.552841 -50.661381 -0.023494639 -4.2940669 -0.02439915 -4.2803493 -41.668941 -128.20596
21988000 -42.331451 -56.126564 -0.023659389 -4.4907393 -0.024942208 -4.4811869 -41.417847 -127.50133
22987000 -41.965336 -60.918541 -0.024682125 -4.6918621 -0.025816552 -4.6815681 -41.152985 -126.93262
23986000 -41.913712 -65.212013 -0.024700088 -4.8845325 -0.024553781 -4.8836441 -41.038635 -126.79003
24985000 -41.535004 -67.767868 -0.02608113 -5.0905809 -0.024618603 -5.089921 -40.820839 -124.33854
25984000 -41.138565 -69.872383 -0.026506415 -5.2991958 -0.025455648 -5.2990813 -40.485294 -122.69966
26983000 -40.832401 -71.794914 -0.027762199 -5.4988937 -0.026116287 -5.512713 -40.378128 -122.1249
27982000 -40.696121 -72.502083 -0.029547386 -5.6974068 -0.027516536 -5.7296624 -40.101494 -120.49007
28981000 -40.662739 -74.204941 -0.02670644 -5.8917303 -0.02783801 -5.9212341 -39.889359 -119.95287
29980000 -40.239388 -75.5504 -0.026989045 -6.0907788 -0.028550083 -6.09657 -39.617851 -119.10946
30979000 -39.856823 -74.373497 -0.024291901 -6.4416642 -0.023062102 -6.4352212 -39.093494 -119.43069
31978000 -39.653862 -75.309525 -0.024046693 -6.6360383 -0.024157321 -6.6293173 -38.840473 -118.69007
32977000 -39.445534 -76.929131 -0.024446268 -6.8475199 -0.024629537 -6.8462434 -38.617645 -118.72994
33976000 -39.286133 -77.901672 -0.024099534 -7.0476842 -0.025264012 -7.042614 -38.362976 -118.20557
34975000 -38.975807 -78.763039 -0.024726121 -7.2464595 -0.026405625 -7.2466354 -38.103973 -117.85731
35974000 -38.770416 -79.230141 -0.022870831 -7.4452419 -0.025637399 -7.4462509 -37.841606 -116.95748
36973000 -38.557529 -79.95517 -0.023705197 -7.6439576 -0.026059255 -7.6463165 -37.548172 -116.07971
37972000 -38.402645 -79.68457 -0.023409273 -7.8544955 -0.026349369 -7.8642426 -37.368698 -115.3242
38971000 -38.06802 -79.179237 -0.02430908 -8.0600376 -0.026414219 -8.0643263 -37.196243 -113.72321
39970000 -37.736614 -79.595245 -0.023354359 -8.2481804 -0.025395241 -8.2674475 -36.951801 -113.1406
40969000 -37.454056 -79.037956 -0.023482667 -8.4432039 -0.025428569 -8.4635792 -36.688271 -111.72477
41968000 -37.102776 -78.957695 -0.023587555 -8.6492395 -0.025971236 -8.663187 -36.527534 -110.42816
42967000 -36.835503 -79.035385 -0.02365132 -8.8626919 -0.025793638 -8.8757544 -36.311581 -108.66047
43966000 -36.569168 -79.863228 -0.023875421 -9.0597496 -0.027079951 -9.0810738 -36.053875 -107.91193
44965000 -36.322151 -80.543358 -0.024355417 -9.2621689 -0.027779654 -9.2835407 -35.840294 -107.60804
45964000 -36.095898 -81.540993 -0.025539232 -9.4575377 -0.028338768 -9.4837809 -35.608212 -107.39239
46963000 -35.906185 -83.463249 -0.026217852 -9.6597567 -0.029397007 -9.6814852 -35.438446 -107.62614
47962000 -35.748798 -84.809471 -0.02733054 -9.8612995 -0.030392682 -9.8795004 -35.243893 -107.73402
48961000 -35.513767 -86.158752 -0.029669622 -10.056714 -0.031933039 -10.075295 -35.020947 -107.76971
49960000 -35.282074 -87.625656 -0.030711763 -10.255315 -0.032924078 -10.278733 -34.870659 -107.81846
50959000 -35.053604 -88.871429 -0.031673059 -10.470727 -0.034046832 -10.480706 -34.688549 -108.17012
51958000 -34.850788 -89.887589 -0.033873077 -10.66816 -0.035332464 -10.678753 -34.527424 -108.63865
52957000 -34.628487 -90.860451 -0.035497401 -10.865976 -0.036546163 -10.878288 -34.375767 -108.46215
53956000 -34.459259 -91.640694 -0.035927262 -11.07021 -0.036922608 -11.071663 -34.231556 -108.38873
54955000 -34.279408 -92.040009 -0.036498129 -11.273024 -0.038065203 -11.269176 -34.078964 -108.30359
55954000 -34.119038 -92.822563 -0.038006183 -11.474538 -0.038686495 -11.467204 -33.963184 -108.01799
56953000 -33.994453 -92.866783 -0.037675079 -11.671755 -0.03752755 -11.658598 -33.892101 -108.25472
57952000 -33.839806 -93.549896 -0.038722798 -11.869288 -0.03956544 -11.85796 -33.783871 -108.35422
58951000 -33.721779 -93.806602 -0.039849404 -12.072816 -0.039324071 -12.058958 -33.630615 -108.3818
59950000 -33.584892 -94.205765 -0.040608913 -12.272637 -0.040692266 -12.25083 -33.557083 -108.70967
60949000 -33.457607 -94.717537 -0.041060448 -12.473614 -0.041261405 -12.455285 -33.461868 -108.95298
61948000 -33.40189 -95.098511 -0.041737579 -12.677076 -0.040235542 -12.658636 -33.378685 -109.03178
62947000 -33.316032 -95.284851 -0.04107064 -12.884691 -0.041051302 -12.864911 -33.234581 -109.30075
63946000 -33.235828 -95.978561 -0.042684846 -13.082582 -0.041892566 -13.065911 -33.131168 -109.47096
64945000 -33.129478 -96.203171 -0.043078296 -13.2872 -0.042398084 -13.268206 -33.003658 -109.88177
65944000 -33.038437 -96.519264 -0.04334759 -13.485331 -0.043025225 -13.467482 -32.91927 -110.31519
66943000 -32.876251 -96.896149 -0.042072654 -13.687705 -0.041612387 -13.668386 -32.810028 -110.5618
67942000 -32.833157 -96.826363 -0.043446682 -13.881508 -0.04299856 -13.871594 -32.686569 -110.91046
68941000 -32.694336 -96.988754 -0.043561205 -14.072766 -0.041856498 -14.068255 -32.568798 -110.86525
69940000 -32.617607 -96.926445 -0.043520678 -14.277074 -0.043311507 -14.26949 -32.435444 -111.10749
70939000 -32.522732 -96.806503 -0.043684881 -14.470415 -0.042918038 -14.462538 -32.303406 -110.96229
71938000 -32.374859 -96.405113 -0.043345235 -14.667389 -0.042801965 -14.662475 -32.173641 -110.8801
72937000 -32.215462 -96.197357 -0.04246657 -14.867657 -0.042297445 -14.860142 -32.035618 -110.60576
73936000 -32.077858 -95.858536 -0.042979736 -15.065677 -0.041709352 -15.058708 -31.927006 -110.41608
74935000 -31.948601 -96.11496 -0.041674327 -15.265454 -0.041293029 -15.25922 -31.770529 -110.03771
75934000 -31.833542 -96.367188 -0.040911239 -15.473145 -0.040941287 -15.465934 -31.693731 -109.93427
76933000 -31.701345 -96.702263 -0.042964835 -15.664223 -0.041512292 -15.656215 -31.519081 -110.31186
77932000 -31.605085 -97.510757 -0.044370003 -15.864529 -0.043542899 -15.852571 -31.414886 -110.23724
78931000 -31.531784 -98.148674 -0.043508127 -16.061239 -0.04241978 -16.05739 -31.3174 -110.1376
79930000 -31.414251 -99.036896 -0.045479767 -16.256161 -0.045009986 -16.250395 -31.23032 -110.41913
80929000 -31.296818 -99.770111 -0.046847545 -16.452805 -0.046855398 -16.448769 -31.126844 -110.64945
81928000 -31.20479 -100.53362 -0.046785008 -16.64674 -0.047609325 -16.639597 -30.996384 -110.66837
82927000 -31.101881 -101.28054 -0.048959188 -16.84223 -0.048699234 -16.839546 -30.888826 -110.96522
83926000 -30.985018 -101.93366 -0.050109405 -17.037159 -0.04996093 -17.041 -30.770105 -111.11205
84925000 -30.872208 -102.35385 -0.05086809 -17.237894 -0.049280945 -17.23494 -30.67996 -111.16462
85924000 -30.791452 -102.77556 -0.0514514 -17.441679 -0.050935924 -17.437794 -30.592186 -111.097
86923000 -30.683935 -103.2016 -0.051779106 -17.639582 -0.051024452 -17.630653 -30.488274 -111.0139
87922000 -30.566484 -103.63474 -0.051149651 -17.845005 -0.05093671 -17.835508 -30.398088 -111.0279
88921000 -30.497231 -103.92531 -0.053296931 -18.042295 -0.052023266 -18.03986 -30.308603 -110.99209
89920000 -30.402645 -104.36864 -0.053979903 -18.241684 -0.051959865 -18.232103 -30.25672 -111.21314
90919000 -30.288792 -104.6292 -0.054545023 -18.437256 -0.053051654 -18.434685 -30.167316 -111.35126
91918000 -30.200459 -104.993 -0.055947125 -18.637617 -0.053101182 -18.635157 -30.103859 -111.36544
92917000 -30.10799 -105.30701 -0.056810688 -18.83342 -0.054300461 -18.833179 -30.036327 -111.47484
93916000 -30.01178 -105.62372 -0.055778261 -19.029383 -0.054584604 -19.027353 -29.955372 -112.08081
94915000 -29.939363 -106.29715 -0.057725579 -19.232752 -0.055269349 -19.227289 -29.887133 -111.9143
95914000 -29.874771 -106.46699 -0.058612321 -19.425468 -0.056574918 -19.424736 -29.795469 -112.23398
96913000 -29.786507 -106.70203 -0.059251782 -19.626499 -0.057603862 -19.625362 -29.736631 -112.52721
97912000 -29.707052 -107.17161 -0.060228337 -19.822588 -0.057692524 -19.824018 -29.654379 -112.76783
98911000 -29.592623 -107.32398 -0.060800832 -20.025808 -0.058793887 -20.022951 -29.614248 -113.01364
99910000 -29.53476 -107.45772 -0.061333496 -20.225832 -0.059018761 -20.223505 -29.500942 -113.3058
100909000 -29.440142 -107.72923 -0.060554605 -20.431965 -0.058012042 -20.425364 -29.41995 -113.51736
101908000 -29.35434 -107.91695 -0.06257996 -20.634001 -0.060275584 -20.628784 -29.306034 -113.27961
102907000 -29.220453 -107.90205 -0.062698402 -20.831306 -0.059970595 -20.831089 -29.239359 -113.30566
103906000 -29.122496 -107.96294 -0.06296996 -21.038017 -0.059254143 -21.03405 -29.09235 -113.21993
104905000 -28.981842 -107.79948 -0.063397564 -21.232742 -0.059309773 -21.23032 -28.967369 -112.92464
105904000 -28.840019 -107.94237 -0.063391261 -21.436813 -0.059872437 -21.433256 -28.856419 -112.81528
106903000 -28.729235 -107.99743 -0.06341096 -21.644396 -0.0603748 -21.640053 -28.731167 -112.67907
107902000 -28.565071 -108.25856 -0.064300701 -21.841516 -0.061491549 -21.837385 -28.595974 -112.64888
108901000 -28.460941 -108.54345 -0.065573506 -22.048351 -0.062818944 -22.040188 -28.465822 -112.57566
109900000 -28.328779 -109.00739 -0.066344097 -22.246563 -0.063990176 -22.235235 -28.326204 -112.64971
110899000 -28.213638 -109.56841 -0.067647219 -22.445646 -0.064039305 -22.438799 -28.197721 -112.91192
111898000 -28.12628 -110.23534 -0.068834476 -22.646078 -0.065687567 -22.641174 -28.081001 -113.02213
112897000 -28.001978 -110.78919 -0.070166752 -22.844673 -0.06636171 -22.832899 -27.945045 -113.21994
113896000 -27.89073 -111.38918 -0.071268655 -23.046728 -0.067573339 -23.034853 -27.840303 -113.36046
114895000 -27.792248 -112.00127 -0.072287925 -23.242779 -0.068730332 -23.229422 -27.735264 -113.42436
115894000 -27.671551 -112.3515 -0.073230036 -23.44412 -0.070225947 -23.432598 -27.665335 -113.60555
116893000 -27.592985 -112.81792 -0.07449019 -23.641838 -0.071017094 -23.625383 -27.536589 -113.68346
117892000 -27.514067 -113.32023 -0.073719464 -23.837797 -0.071299441 -23.828131 -27.459459 -113.88641
118891000 -27.450937 -113.72391 -0.074837022 -24.037828 -0.07181339 -24.024702 -27.369545 -113.97334
119890000 -27.370903 -114.07266 -0.075616628 -24.241575 -0.072293982 -24.227346 -27.354506 -114.1484
120889000 -27.321835 -114.58205 -0.076737039 -24.438747 -0.072290294 -24.427282 -27.284246 -114.08556
121888000 -27.276066 -114.88313 -0.07638637 -24.639753 -0.072979681 -24.627441 -27.227381 -114.32617
122887000 -27.238955 -115.09151 -0.077595793 -24.838573 -0.073259257 -24.826773 -27.180815 -114.35364
123886000 -27.188623 -115.51932 -0.077835605 -25.042261 -0.074014097 -25.023424 -27.168306 -114.52216
124885000 -27.153601 -116.00981 -0.078253865 -25.238688 -0.074051224 -25.230669 -27.142214 -114.55659
125884000 -27.098169 -116.20653 -0.078812927 -25.442076 -0.074861251 -25.423607 -27.11043 -114.6628
126883000 -27.082773 -116.59923 -0.079269767 -25.642248 -0.075625584 -25.631681 -27.06568 -114.73378
127882000 -27.037374 -116.8718 -0.079837129 -25.843458 -0.076033883 -25.824835 -27.030392 -114.84731
128881000 -27.00639 -117.21143 -0.080041476 -26.043829 -0.075776786 -26.029028 -26.997374 -114.94929
129880000 -26.95063 -117.50767 -0.080712318 -26.24658 -0.07567168 -26.228481 -26.95471 -114.88328
130879000 -26.895311 -117.68374 -0.080515854 -26.443277 -0.076628231 -26.430504 -26.878843 -114.90971
131878000 -26.827377 -117.89591 -0.080272727 -26.646629 -0.077227399 -26.630661 -26.825045 -114.80437
132877000 -26.760773 -117.96694 -0.080111086 -26.851257 -0.076898031 -26.833332 -26.750706 -114.7493
133876000 -26.678404 -118.15364 -0.081043556 -27.052891 -0.076982081 -27.032522 -26.660034 -114.656
134875000 -26.580692 -118.26552 -0.080485523 -27.249821 -0.077677481 -27.230652 -26.560049 -114.48282
135874000 -26.50378 -118.28558 -0.080158547 -27.454285 -0.078239635 -27.436445 -26.466551 -114.43887
136873000 -26.396975 -118.25963 -0.080354996 -27.654823 -0.077455595 -27.637531 -26.390579 -114.39229
137872000 -26.320469 -118.35625 -0.080813847 -27.855247 -0.07823357 -27.839691 -26.287271 -114.27746
138871000 -26.246714 -118.5562 -0.08134871 -28.052132 -0.077947348 -28.040926 -26.191193 -114.44271
139870000 -26.14489 -118.84197 -0.082189903 -28.255005 -0.078996919 -28.237209 -26.110933 -114.65781
140869000 -26.069241 -119.39584 -0.083230212 -28.454399 -0.079138219 -28.433432 -26.014977 -114.85753
141868000 -25.985632 -119.76781 -0.08364556 -28.64987 -0.081194945 -28.635962 -25.964792 -115.07385
142867000 -25.908133 -119.98711 -0.083024926 -28.848448 -0.080117151 -28.832289 -25.884047 -115.21251
143866000 -25.839634 -120.43076 -0.084324613 -29.043457 -0.081638582 -29.030104 -25.811859 -115.68734
144865000 -25.782232 -120.96423 -0.086201333 -29.24338 -0.083001181 -29.229259 -25.752493 -115.97679
145864000 -25.725258 -121.25262 -0.087081492 -29.444256 -0.084100269 -29.432142 -25.723793 -116.21921
146863000 -25.678913 -121.66165 -0.087305456 -29.646799 -0.084533386 -29.633497 -25.674118 -116.50861
147862000 -25.640125 -121.97759 -0.087981649 -29.845097 -0.085633129 -29.832846 -25.642149 -116.85073
148861000 -25.60482 -122.4283 -0.089497909 -30.041178 -0.08659029 -30.026045 -25.61861 -117.00799
149860000 -25.573563 -122.59549 -0.089923374 -30.24015 -0.086456142 -30.22407 -25.56881 -117.1058
150859000 -25.55061 -123.0653 -0.089511916 -30.426706 -0.086938351 -30.415995 -25.546957 -117.45225
151858000 -25.537292 -123.40646 -0.088975519 -30.628031 -0.086555697 -30.61997 -25.536381 -117.7895
152857000 -25.525707 -123.72373 -0.089081213 -30.82836 -0.086540647 -30.817274 -25.518822 -117.9747
153856000 -25.522079 -123.94576 -0.089403577 -31.031099 -0.086270243 -31.020271 -25.537132 -118.28239
154855000 -25.51491 -124.13201 -0.089805506 -31.231464 -0.086194202 -31.216927 -25.52286 -118.52898
155854000 -25.532173 -124.37286 -0.090429492 -31.429081 -0.086271301 -31.417702 -25.516081 -118.79626
156853000 -25.516676 -125.07695 -0.087729648 -31.618387 -0.086163044 -31.611174 -25.509075 -119.12672
157852000 -25.519438 -125.27866 -0.089357071 -31.817894 -0.087400541 -31.812273 -25.498446 -119.45773
158851000 -25.518297 -125.47649 -0.089634001 -32.016842 -0.087328173 -32.009686 -25.484695 -119.74244
159850000 -25.510859 -125.56131 -0.090486847 -32.214176 -0.087494306 -32.209789 -25.486891 -119.86749
160849000 -25.494596 -125.6713 -0.090201139 -32.415798 -0.088287555 -32.408916 -25.453461 -120.19505
161848000 -25.475658 -125.7837 -0.090676889 -32.617229 -0.088819109 -32.608429 -25.411097 -120.35067
162847000 -25.435097 -125.94985 -0.090866409 -32.817699 -0.088981859 -32.810184 -25.383438 -120.57668
163846000 -25.394899 -126.11848 -0.090838656 -33.015472 -0.088883571 -33.009342 -25.305096 -120.57674
164845000 -25.339241 -126.104 -0.091331929 -33.217606 -0.0898026 -33.206642 -25.2444 -120.67014
165844000 -25.282179 -126.14451 -0.091695704 -33.413502 -0.089922585 -33.411423 -25.167929 -120.8159
166843000 -25.225132 -126.19705 -0.091487639 -33.609901 -0.089506894 -33.609184 -25.101332 -120.9482
167842000 -25.166086 -126.28873 -0.092427045 -33.811028 -0.0902384 -33.809715 -25.024822 -120.89091
168841000 -25.09017 -126.45956 -0.091542363 -34.012527 -0.090613715 -34.00325 -24.95105 -120.95026
169840000 -25.025913 -126.69968 -0.092493683 -34.208035 -0.090155147 -34.207432 -24.868502 -121.12514
170839000 -24.965513 -126.93098 -0.093136832 -34.404713 -0.090635657 -34.402046 -24.786776 -121.34244
171838000 -24.910074 -127.3094 -0.093025751 -34.609238 -0.092257552 -34.603695 -24.725252 -121.51015
172837000 -24.837732 -127.65253 -0.094213888 -34.803238 -0.092998512 -34.799152 -24.656616 -121.72449
173836000 -24.773752 -128.0498 -0.09568046 -35.003021 -0.093943544 -35.00148 -24.616055 -121.92628
174835000 -24.717651 -128.43802 -0.096511208 -35.198406 -0.094489016 -35.200764 -24.57126 -122.28834
175834000 -24.668831 -128.81279 -0.097190946 -35.401138 -0.095367424 -35.398315 -24.511812 -122.53921
176833000 -24.619654 -129.13776 -0.097920574 -35.597275 -0.096108124 -35.596531 -24.462029 -122.65816
177832000 -24.577295 -129.58072 -0.098833039 -35.797813 -0.09698765 -35.797272 -24.439823 -122.77108
178831000 -24.530712 -129.83066 -0.10004766 -35.994942 -0.098653495 -35.989761 -24.405104 -122.85442
179830000 -24.457491 -130.18945 -0.10147884 -36.181385 -0.099159308 -36.178734 -24.34149 -122.90685
180829000 -24.414572 -130.57289 -0.10030726 -36.369308 -0.098721288 -36.37281 -24.295721 -123.25128
181828000 -24.379145 -130.99236 -0.099663325 -36.571121 -0.097770721 -36.572155 -24.280083 -123.44547
182827000 -24.363682 -131.3549 -0.099317946 -36.768635 -0.098253652 -36.767174 -24.272463 -123.57006
183826000 -24.324482 -131.69897 -0.10147726 -36.970112 -0.097368576 -36.966007 -24.262686 -123.7148
184825000 -24.328794 -132.00723 -0.099775627 -37.163799 -0.098315611 -37.159992 -24.245214 -123.82905
185824000 -24.298634 -132.37741 -0.10041429 -37.356159 -0.098647669 -37.360565 -24.238873 -123.89957
186823000 -24.286703 -132.75613 -0.1006151 -37.562283 -0.098226644 -37.559471 -24.230408 -123.89649
187822000 -24.261112 -133.06317 -0.10092243 -37.755337 -0.09908542 -37.755871 -24.195929 -124.00874
188821000 -24.232765 -133.34187 -0.10046887 -37.94936 -0.099631801 -37.954334 -24.174902 -124.11981
189820000 -24.216806 -133.62526 -0.10053033 -38.151806 -0.099509969 -38.152843 -24.15568 -124.32214
190819000 -24.185448 -133.96007 -0.10156841 -38.349083 -0.10082493 -38.347462 -24.120266 -124.35349
191818000 -24.1544 -134.26361 -0.10185381 -38.54599 -0.10033376 -38.547226 -24.092096 -124.40189
192817000 -24.107504 -134.49686 -0.10191397 -38.742119 -0.10087474 -38.745049 -24.050209 -124.46735
193816000 -24.076284 -134.7574 -0.10179895 -38.936504 -0.1003531 -38.937241 -23.999573 -124.62697
194815000 -24.016947 -135.181 -0.10267778 -39.131165 -0.10172687 -39.13826 -23.931225 -124.6616
195814000 -23.96216 -135.37682 -0.10341628 -39.329742 -0.10141684 -39.334621 -23.87677 -124.75092
196813000 -23.909031 -135.67336 -0.10366495 -39.523476 -0.10158139 -39.525085 -23.797247 -124.91774
197812000 -23.854092 -135.9097 -0.10340408 -39.721748 -0.10237404 -39.725323 -23.727894 -125.02309
198811000 -23.796474 -136.05591 -0.10323337 -39.919262 -0.10208569 -39.92379 -23.658983 -125.17738
199810000 -23.726357 -136.41309 -0.10356845 -40.1134 -0.10172158 -40.111095 -23.583395 -125.2791
200809000 -23.670776 -136.64461 -0.10383409 -40.313065 -0.10234754 -40.315113 -23.504955 -125.43826
201808000 -23.612122 -136.84671 -0.10486661 -40.515911 -0.10299744 -40.513908 -23.437399 -125.49027
202807000 -23.554789 -137.19746 -0.10533416 -40.713524 -0.1039534 -40.71442 -23.385 -125.69814
