!Keysight Technologies,E5080B,MY59205177,A.15.75.32
!Date: Friday, February 23, 2024 03:04:03
!Correction: S11(Cdelta 2-Port  ) 
!S21(Cdelta 2-Port  ) 
!S12(Cdelta 2-Port  ) 
!S22(Cdelta 2-Port  ) 
!S2P File: Measurements: S11, S21, S12, S22:
# Hz S  dB   R 50
10000000 -44.210739 -3.5294306 -0.027059374 -2.0389214 -0.030100994 -2.0922616 -47.978439 -150.38739
10999000 -43.581978 -5.3599548 -0.028600112 -2.2533357 -0.030086396 -2.3095498 -47.7659 -143.12442
11998000 -42.804718 -7.9409418 -0.028961277 -2.4804175 -0.029724095 -2.5220501 -47.896069 -137.30217
12997000 -42.119286 -12.470559 -0.027797369 -2.6578021 -0.029449914 -2.6934125 -47.153976 -131.15794
13996000 -41.926815 -15.891279 -0.02701379 -2.8399231 -0.029258622 -2.8572564 -46.80941 -125.69496
14995000 -41.581779 -20.032038 -0.029951638 -3.0469675 -0.029690214 -3.0703809 -46.387695 -122.23215
15994000 -41.469467 -23.862776 -0.031121338 -3.2678614 -0.031651415 -3.2836604 -46.077244 -118.44772
16993000 -41.427044 -28.03371 -0.02947415 -3.4587686 -0.030481573 -3.4678752 -45.198311 -119.46111
17992000 -41.514023 -32.355904 -0.030166941 -3.6578152 -0.03184855 -3.664803 -44.549496 -120.07276
18991000 -41.798649 -36.775845 -0.031185735 -3.86726 -0.032138791 -3.8655412 -43.836819 -119.23397
19990000 -41.650066 -41.99892 -0.033759594 -4.0756845 -0.034565788 -4.0712285 -43.19635 -121.17737
20989000 -41.52346 -45.223324 -0.035585094 -4.2811189 -0.036150955 -4.2721705 -42.606068 -120.89794
21988000 -41.433689 -49.971397 -0.036149651 -4.4783502 -0.036618996 -4.4647298 -42.326965 -120.33813
22987000 -41.206833 -54.021122 -0.037626248 -4.672452 -0.038377274 -4.6652474 -41.996452 -119.72543
23986000 -41.200588 -58.034996 -0.036387973 -4.8697395 -0.037749756 -4.8673191 -41.89595 -119.95847
24985000 -40.858536 -60.5056 -0.037824176 -5.0754428 -0.037439819 -5.0736313 -41.652241 -117.22199
25984000 -40.631844 -62.822285 -0.038886297 -5.2881789 -0.038099147 -5.2871075 -41.308506 -116.24414
26983000 -40.326996 -64.653107 -0.039578501 -5.4792008 -0.038934879 -5.4977875 -41.182121 -115.22507
27982000 -40.188759 -65.267899 -0.041222729 -5.6775532 -0.040278129 -5.7172046 -40.869514 -113.86708
28981000 -40.204876 -66.788368 -0.038485132 -5.8755651 -0.039807867 -5.9030132 -40.615711 -113.06727
29980000 -39.810535 -68.344284 -0.038556952 -6.0703435 -0.040570766 -6.0776076 -40.294193 -112.41908
30979000 -39.436218 -67.55072 -0.03685917 -6.4246235 -0.034902919 -6.4094267 -39.789406 -113.17108
31978000 -39.25684 -68.579964 -0.035798587 -6.6175933 -0.036299482 -6.6077266 -39.545269 -112.66005
32977000 -39.101925 -70.238693 -0.03599878 -6.8273492 -0.03645584 -6.8253322 -39.303905 -112.67535
33976000 -38.937675 -71.261597 -0.03606534 -7.0283074 -0.036878228 -7.0239773 -38.980938 -112.23047
34975000 -38.663864 -72.327438 -0.036319058 -7.2277727 -0.037919749 -7.2273197 -38.741772 -112.18238
35974000 -38.463894 -73.083733 -0.03558718 -7.4238896 -0.038120825 -7.4270139 -38.449928 -111.34773
36973000 -38.258217 -73.97831 -0.03628904 -7.6250911 -0.038605269 -7.6248946 -38.161766 -110.53793
37972000 -38.089912 -73.846535 -0.035570741 -7.833497 -0.038170964 -7.8366647 -37.932838 -109.99674
38971000 -37.784321 -73.62088 -0.036971692 -8.0298328 -0.038989469 -8.040801 -37.713421 -108.45258
39970000 -37.451519 -74.13089 -0.034779493 -8.224122 -0.036754746 -8.2472219 -37.448448 -108.07116
40969000 -37.184681 -74.03157 -0.035091069 -8.4191303 -0.03632741 -8.4415665 -37.180672 -106.78219
41968000 -36.832802 -74.27404 -0.03478967 -8.6216888 -0.037586298 -8.6397238 -36.959717 -105.6058
42967000 -36.57098 -74.490746 -0.03486117 -8.8368387 -0.037834361 -8.8518057 -36.75428 -103.99744
43966000 -36.284416 -75.416672 -0.035587441 -9.0326185 -0.039156634 -9.0539827 -36.454674 -103.35312
44965000 -36.073021 -76.341652 -0.036977172 -9.2351608 -0.03950797 -9.2562084 -36.226475 -103.29887
45964000 -35.840752 -77.475441 -0.038742386 -9.4365978 -0.04015664 -9.4529085 -35.995697 -103.14245
46963000 -35.677563 -79.52739 -0.037850551 -9.6286983 -0.040677633 -9.6521873 -35.819229 -103.53262
47962000 -35.524498 -80.993706 -0.0394505 -9.8279123 -0.041863814 -9.847724 -35.606369 -103.63005
48961000 -35.346951 -82.437744 -0.041891258 -10.031404 -0.043435179 -10.050926 -35.396469 -103.84137
49960000 -35.120716 -83.792664 -0.042761967 -10.2286 -0.044462319 -10.249577 -35.229855 -104.04402
50959000 -34.904404 -85.209641 -0.043021563 -10.44299 -0.045337465 -10.448887 -35.056255 -104.52234
51958000 -34.713585 -86.285698 -0.045196738 -10.638291 -0.046316393 -10.649342 -34.875473 -105.03551
52957000 -34.512257 -87.382004 -0.046589024 -10.838573 -0.048366003 -10.845045 -34.706245 -104.93327
53956000 -34.356232 -88.180305 -0.048277006 -11.041805 -0.048827246 -11.039825 -34.571156 -104.93729
54955000 -34.204777 -88.642052 -0.049039822 -11.24089 -0.05003975 -11.233821 -34.434032 -104.86485
55954000 -34.038189 -89.558258 -0.049965907 -11.441709 -0.050522383 -11.440722 -34.303036 -104.64308
56953000 -33.914188 -89.536835 -0.049832884 -11.636105 -0.049170725 -11.629516 -34.250195 -104.89265
57952000 -33.751961 -90.182961 -0.050598856 -11.837885 -0.050559834 -11.826192 -34.143822 -105.04739
58951000 -33.651295 -90.468231 -0.051531296 -12.041665 -0.050848708 -12.021973 -33.988667 -105.06621
59950000 -33.532124 -90.926468 -0.05175684 -12.242488 -0.051432803 -12.214477 -33.924519 -105.39748
60949000 -33.416317 -91.493637 -0.052342366 -12.438705 -0.051914543 -12.416361 -33.8423 -105.68864
61948000 -33.346497 -91.772728 -0.053216219 -12.641765 -0.052238617 -12.621832 -33.744198 -105.73124
62947000 -33.272686 -92.013458 -0.053100657 -12.847389 -0.052562974 -12.830087 -33.613091 -105.98207
63946000 -33.207153 -92.713501 -0.054849893 -13.049004 -0.053721745 -13.029931 -33.500706 -106.16491
64945000 -33.093124 -92.945686 -0.054875582 -13.247027 -0.054175958 -13.232012 -33.397728 -106.63913
65944000 -33.01387 -93.236526 -0.0556802 -13.448867 -0.054370183 -13.43138 -33.297741 -107.15257
66943000 -32.869015 -93.700798 -0.053370308 -13.650989 -0.052920897 -13.632499 -33.198116 -107.37185
67942000 -32.795006 -93.636185 -0.055137478 -13.845264 -0.054551315 -13.83411 -33.087486 -107.68025
68941000 -32.698853 -93.676834 -0.055016361 -14.03873 -0.054245155 -14.029968 -32.979824 -107.64909
69940000 -32.598831 -93.788376 -0.05494348 -14.23918 -0.054292072 -14.227829 -32.820671 -107.98933
70939000 -32.495663 -93.754623 -0.054660622 -14.432605 -0.054530341 -14.427622 -32.703789 -107.9276
71938000 -32.355999 -93.397606 -0.054885544 -14.629375 -0.054338206 -14.623092 -32.573132 -107.90577
72937000 -32.201172 -93.265778 -0.054564945 -14.830832 -0.05379644 -14.817129 -32.438007 -107.56902
73936000 -32.069206 -92.984383 -0.0542905 -15.021174 -0.052373808 -15.019905 -32.315018 -107.44756
74935000 -31.937414 -93.238716 -0.053382888 -15.220129 -0.052705511 -15.215505 -32.157841 -107.10922
75934000 -31.815712 -93.538879 -0.053991172 -15.427354 -0.052078806 -15.420377 -32.074917 -107.05148
76933000 -31.691504 -93.944748 -0.054955278 -15.62086 -0.053671688 -15.61543 -31.907482 -107.50335
77932000 -31.595005 -94.763702 -0.056460313 -15.817834 -0.055193845 -15.811669 -31.807402 -107.48089
78931000 -31.525711 -95.530624 -0.054388531 -16.017513 -0.054298364 -16.011995 -31.702616 -107.39755
79930000 -31.409119 -96.371933 -0.05747113 -16.212635 -0.056928974 -16.207157 -31.610315 -107.66027
80929000 -31.287699 -97.221115 -0.058830362 -16.403141 -0.058305349 -16.401836 -31.506462 -108.07864
81928000 -31.210005 -98.104507 -0.058625963 -16.596144 -0.058696546 -16.593779 -31.383772 -108.12663
82927000 -31.114098 -98.772751 -0.060408924 -16.795975 -0.059716541 -16.792295 -31.285166 -108.46557
83926000 -31.006231 -99.504738 -0.062049504 -16.993162 -0.060863573 -16.993526 -31.162971 -108.67429
84925000 -30.899313 -99.979385 -0.063246533 -17.190189 -0.061245546 -17.1901 -31.074474 -108.76381
85924000 -30.809959 -100.40918 -0.06412521 -17.391836 -0.06277246 -17.390467 -30.985647 -108.77902
86923000 -30.704491 -100.93874 -0.063378125 -17.589472 -0.063417263 -17.585161 -30.886507 -108.63794
87922000 -30.597128 -101.35391 -0.063489497 -17.795879 -0.06283287 -17.785294 -30.805922 -108.64186
88921000 -30.526041 -101.59155 -0.064189307 -17.9911 -0.063336097 -17.984789 -30.719152 -108.70599
89920000 -30.426332 -102.19086 -0.065420561 -18.191954 -0.064083964 -18.1784 -30.653454 -108.87099
90919000 -30.323912 -102.44226 -0.065699652 -18.390448 -0.064636208 -18.383234 -30.571894 -108.99053
91918000 -30.234177 -102.84139 -0.066342525 -18.58609 -0.064494334 -18.583338 -30.510284 -109.09299
92917000 -30.154692 -103.17446 -0.067544416 -18.788219 -0.066390097 -18.779154 -30.445475 -109.1778
93916000 -30.068127 -103.50134 -0.066713937 -18.979053 -0.065606095 -18.97093 -30.3643 -109.78014
94915000 -29.990025 -104.17791 -0.068592265 -19.180452 -0.067189753 -19.172546 -30.299219 -109.6619
95914000 -29.931301 -104.39118 -0.06903699 -19.376804 -0.067984819 -19.369911 -30.202034 -109.94831
96913000 -29.844578 -104.64266 -0.070904478 -19.571905 -0.069524892 -19.569105 -30.140656 -110.31113
97912000 -29.771103 -105.09247 -0.07124155 -19.768831 -0.069495961 -19.768238 -30.071182 -110.55717
98911000 -29.670382 -105.33308 -0.072274238 -19.97044 -0.070270665 -19.965153 -30.032598 -110.79306
99910000 -29.609781 -105.45931 -0.072320566 -20.16968 -0.071257077 -20.165226 -29.918844 -111.07063
100909000 -29.515079 -105.75894 -0.071916297 -20.375637 -0.070184641 -20.368713 -29.831045 -111.27734
101908000 -29.432697 -106.03738 -0.073336922 -20.576487 -0.071501538 -20.571678 -29.72357 -111.05684
102907000 -29.302807 -106.04282 -0.073706828 -20.777542 -0.072005779 -20.77763 -29.655499 -111.06133
103906000 -29.219412 -106.13799 -0.073613621 -20.980164 -0.071184449 -20.974026 -29.502832 -111.04379
104905000 -29.070982 -106.04087 -0.074457005 -21.17642 -0.071854189 -21.177343 -29.378063 -110.70987
105904000 -28.927996 -106.15172 -0.074301116 -21.379005 -0.072534814 -21.371485 -29.266701 -110.5938
106903000 -28.816963 -106.26961 -0.075096436 -21.586672 -0.072597198 -21.582861 -29.136457 -110.44655
107902000 -28.651211 -106.63765 -0.075380363 -21.782724 -0.07230214 -21.774633 -28.999668 -110.4592
108901000 -28.546297 -106.86481 -0.076275989 -21.98242 -0.07337036 -21.976282 -28.864033 -110.37765
109900000 -28.424629 -107.36911 -0.077324629 -22.188927 -0.074762225 -22.175671 -28.720072 -110.48299
110899000 -28.304209 -108.00093 -0.078877769 -22.380583 -0.075531818 -22.375837 -28.59914 -110.7563
111898000 -28.218639 -108.65602 -0.08005809 -22.584822 -0.076776564 -22.577063 -28.477938 -110.96388
112897000 -28.097353 -109.25117 -0.082052462 -22.785074 -0.078001641 -22.771215 -28.347105 -111.07812
113896000 -27.991032 -109.8609 -0.082206257 -22.984541 -0.079486743 -22.970797 -28.230581 -111.22164
114895000 -27.891521 -110.45794 -0.082982972 -23.182589 -0.080659837 -23.167263 -28.12553 -111.34671
115894000 -27.756876 -110.79388 -0.084415935 -23.381683 -0.081758864 -23.36799 -28.060909 -111.54801
116893000 -27.686447 -111.38731 -0.084343351 -23.577358 -0.082733899 -23.557981 -27.931084 -111.66285
117892000 -27.601665 -111.87904 -0.085207827 -23.770679 -0.08238934 -23.759117 -27.856264 -111.85279
118891000 -27.545504 -112.29019 -0.08573214 -23.967844 -0.082644194 -23.959064 -27.765272 -111.9771
119890000 -27.453798 -112.66783 -0.086936243 -24.172035 -0.084140912 -24.160007 -27.747541 -112.14561
120889000 -27.399456 -113.11464 -0.087135635 -24.379513 -0.084190272 -24.358158 -27.67408 -112.08872
121888000 -27.360559 -113.45116 -0.088230491 -24.570246 -0.08425995 -24.556 -27.61314 -112.37383
122887000 -27.320549 -113.64976 -0.089179769 -24.768984 -0.08535672 -24.758526 -27.573858 -112.41884
123886000 -27.263432 -114.08276 -0.089454837 -24.974648 -0.085966595 -24.955605 -27.558147 -112.56538
124885000 -27.226234 -114.60667 -0.088990055 -25.17028 -0.085649498 -25.157248 -27.531155 -112.62847
125884000 -27.176817 -114.77156 -0.089847267 -25.372694 -0.08658316 -25.354128 -27.498335 -112.82273
126883000 -27.155315 -115.1329 -0.090901569 -25.577839 -0.087075949 -25.559259 -27.458641 -112.8631
127882000 -27.100401 -115.50249 -0.091316067 -25.772396 -0.087338738 -25.754999 -27.413164 -113.05542
128881000 -27.074884 -115.78295 -0.090938576 -25.97294 -0.087191626 -25.958178 -27.373592 -113.13008
129880000 -27.021202 -116.1208 -0.091634892 -26.175461 -0.087515697 -26.152998 -27.329617 -113.13946
130879000 -26.956985 -116.25429 -0.091225654 -26.37517 -0.088852398 -26.359232 -27.253265 -113.23399
131878000 -26.89447 -116.50362 -0.091781363 -26.575806 -0.088910259 -26.558828 -27.190023 -113.11246
132877000 -26.825073 -116.58065 -0.091974899 -26.778906 -0.088958085 -26.759827 -27.105608 -113.1069
133876000 -26.741718 -116.76476 -0.09207987 -26.978359 -0.088861115 -26.959583 -27.013514 -113.03554
134875000 -26.640867 -116.89627 -0.092387915 -27.17746 -0.089154668 -27.159895 -26.911539 -112.93025
135874000 -26.568081 -116.92022 -0.092331059 -27.375977 -0.090215407 -27.357281 -26.814072 -112.85065
136873000 -26.449091 -116.85148 -0.092333704 -27.579842 -0.08914832 -27.558388 -26.731386 -112.84155
137872000 -26.37689 -116.9496 -0.092516422 -27.779823 -0.089033917 -27.76774 -26.627419 -112.85268
138871000 -26.299931 -117.16768 -0.092852801 -27.981174 -0.090077981 -27.964869 -26.531584 -113.03042
139870000 -26.202766 -117.41675 -0.094299071 -28.17782 -0.090949148 -28.162498 -26.448092 -113.14252
140869000 -26.118044 -117.88364 -0.096160524 -28.37541 -0.092268392 -28.35767 -26.344149 -113.31288
141868000 -26.020863 -118.39488 -0.096224569 -28.566082 -0.092878185 -28.552776 -26.272644 -113.61703
142867000 -25.945564 -118.61761 -0.093572967 -28.766657 -0.09142445 -28.747122 -26.191647 -113.84019
143866000 -25.874491 -119.10507 -0.09599141 -28.963854 -0.092419907 -28.944805 -26.122789 -114.34314
144865000 -25.823692 -119.60709 -0.096500352 -29.160181 -0.094141409 -29.145456 -26.064226 -114.62955
145864000 -25.764116 -119.94473 -0.097784221 -29.36059 -0.095249936 -29.35046 -26.026247 -114.87716
146863000 -25.711739 -120.31654 -0.098102205 -29.562366 -0.095972888 -29.545961 -25.976582 -115.20203
147862000 -25.673433 -120.65771 -0.09903907 -29.755146 -0.095898256 -29.744511 -25.946775 -115.53185
148861000 -25.642756 -121.17905 -0.099453025 -29.955795 -0.096745975 -29.941093 -25.917002 -115.77779
149860000 -25.633665 -121.35659 -0.1001976 -30.152731 -0.096709184 -30.140512 -25.89226 -115.93542
150859000 -25.606516 -121.74568 -0.10054781 -30.352859 -0.097081356 -30.337877 -25.884008 -116.19648
151858000 -25.588074 -122.05178 -0.10029534 -30.553833 -0.097752452 -30.540142 -25.869717 -116.46598
152857000 -25.56917 -122.35591 -0.10104457 -30.75053 -0.097709827 -30.733303 -25.854235 -116.60054
153856000 -25.566788 -122.59879 -0.10044608 -30.947741 -0.09737096 -30.932434 -25.874401 -116.87322
154855000 -25.561867 -122.75986 -0.10142426 -31.147066 -0.097593337 -31.133465 -25.862049 -117.11102
155854000 -25.576183 -122.98414 -0.10100032 -31.34754 -0.097997881 -31.334778 -25.850937 -117.39053
156853000 -25.56217 -123.71407 -0.099016823 -31.533737 -0.097172417 -31.523752 -25.84709 -117.67477
157852000 -25.564651 -123.94269 -0.10019176 -31.736822 -0.098658793 -31.72501 -25.838034 -118.04695
158851000 -25.562868 -124.20038 -0.10105649 -31.931213 -0.098636284 -31.921928 -25.821524 -118.28679
159850000 -25.548477 -124.29995 -0.10191688 -32.128437 -0.098649785 -32.119312 -25.823431 -118.44455
160849000 -25.529222 -124.40089 -0.10128754 -32.328026 -0.10007574 -32.321739 -25.791454 -118.74675
161848000 -25.511419 -124.51736 -0.10193729 -32.529591 -0.09996555 -32.523605 -25.753189 -118.83913
162847000 -25.460974 -124.75079 -0.10188959 -32.726257 -0.10063868 -32.725094 -25.725563 -119.11701
163846000 -25.428982 -124.9691 -0.10270376 -32.925716 -0.1000074 -32.918007 -25.644825 -119.12279
164845000 -25.364794 -124.98814 -0.10284795 -33.127224 -0.10009959 -33.118469 -25.582579 -119.20534
165844000 -25.316425 -125.04202 -0.10281853 -33.324745 -0.10152178 -33.317024 -25.504507 -119.36356
166843000 -25.246693 -125.11697 -0.10239948 -33.523922 -0.10107239 -33.517197 -25.4305 -119.50531
167842000 -25.189751 -125.26984 -0.10224047 -33.722328 -0.10093886 -33.71064 -25.346195 -119.4646
168841000 -25.113693 -125.4471 -0.10335902 -33.919731 -0.10180531 -33.917347 -25.274885 -119.56483
169840000 -25.047007 -125.71653 -0.10323019 -34.116047 -0.10174119 -34.110786 -25.185347 -119.73446
170839000 -24.989441 -126.00143 -0.10455847 -34.314037 -0.10202792 -34.311867 -25.102318 -119.94158
171838000 -24.934387 -126.40186 -0.10385981 -34.514553 -0.10348918 -34.507854 -25.036049 -120.16366
172837000 -24.861746 -126.80853 -0.10497189 -34.707184 -0.10373335 -34.70311 -24.962112 -120.40022
173836000 -24.797359 -127.18194 -0.10601873 -34.908035 -0.10488358 -34.905746 -24.925503 -120.58382
174835000 -24.740572 -127.62392 -0.10698967 -35.100658 -0.10526016 -35.099998 -24.877321 -120.93902
175834000 -24.689602 -128.01535 -0.10755855 -35.302155 -0.10644157 -35.29583 -24.812935 -121.21329
176833000 -24.638931 -128.38377 -0.10874669 -35.498581 -0.10710084 -35.497299 -24.763517 -121.39639
177832000 -24.58526 -128.87863 -0.10891258 -35.695972 -0.10778569 -35.693905 -24.74152 -121.55712
178831000 -24.552042 -129.23164 -0.10913821 -35.887215 -0.10768327 -35.892757 -24.701286 -121.77512
179830000 -24.51609 -129.66299 -0.10985019 -36.08812 -0.1076769 -36.085384 -24.67771 -121.91542
180829000 -24.4751 -129.88261 -0.11095186 -36.288441 -0.10843854 -36.28252 -24.646734 -122.08455
181828000 -24.448734 -130.21823 -0.10980559 -36.483643 -0.1084627 -36.478359 -24.627447 -122.16901
182827000 -24.42145 -130.55313 -0.1101433 -36.676575 -0.10869281 -36.675262 -24.612774 -122.26969
183826000 -24.385986 -130.87746 -0.11115023 -36.874542 -0.10901398 -36.873447 -24.602383 -122.38062
184825000 -24.39016 -131.18228 -0.11112262 -37.069542 -0.10968294 -37.068794 -24.586 -122.48748
185824000 -24.364765 -131.56023 -0.11135499 -37.26667 -0.10989984 -37.265072 -24.585079 -122.5237
186823000 -24.347775 -131.88177 -0.11128461 -37.468586 -0.10962135 -37.462761 -24.579569 -122.50169
187822000 -24.324324 -132.1902 -0.11164103 -37.661751 -0.11021394 -37.660667 -24.544178 -122.57209
188821000 -24.305904 -132.45192 -0.1115093 -37.856834 -0.11079332 -37.859425 -24.527506 -122.69373
189820000 -24.295231 -132.74446 -0.11197729 -38.056572 -0.1107742 -38.056683 -24.523294 -122.85216
190819000 -24.269613 -132.97536 -0.11351339 -38.257977 -0.11221211 -38.253895 -24.496731 -122.82935
191818000 -24.22855 -133.1279 -0.1149134 -38.450245 -0.11331889 -38.450214 -24.460184 -122.71098
192817000 -24.16099 -133.40955 -0.11483897 -38.635899 -0.11379001 -38.636761 -24.386347 -122.79195
193816000 -24.122812 -133.80997 -0.11457638 -38.830208 -0.11243259 -38.825336 -24.33593 -123.06157
194815000 -24.063732 -134.23894 -0.11351126 -39.026245 -0.11313317 -39.029037 -24.271736 -123.16816
195814000 -24.017904 -134.46988 -0.11449053 -39.223194 -0.11323546 -39.221123 -24.220407 -123.28416
196813000 -23.964512 -134.83521 -0.11418836 -39.414246 -0.113473 -39.419239 -24.141846 -123.45993
197812000 -23.905167 -135.04987 -0.11480655 -39.616314 -0.11306515 -39.614059 -24.076199 -123.53399
198811000 -23.851244 -135.2514 -0.11482728 -39.810638 -0.11291318 -39.81448 -24.005096 -123.71164
199810000 -23.784416 -135.60211 -0.11470422 -40.004028 -0.11274926 -40.006401 -23.929823 -123.82813
200809000 -23.729347 -135.88612 -0.1148932 -40.204338 -0.11304097 -40.203876 -23.84931 -124.0561
201808000 -23.669203 -136.13264 -0.11543227 -40.401569 -0.11449558 -40.402191 -23.782824 -124.09799
202807000 -23.617058 -136.48972 -0.11614529 -40.605885 -0.11530308 -40.604599 -23.727119 -124.28372
203806000 -23.561155 -136.92142 -0.1172802 -40.804298 -0.11565664 -40.805569 -23.66258 -124.48226
