!Keysight Technologies,E5080B,MY59205177,A.15.75.32
!Date: Friday, February 23, 2024 03:42:13
!Correction: S11(Cdelta 2-Port  ) 
!S21(Cdelta 2-Port  ) 
!S12(Cdelta 2-Port  ) 
!S22(Cdelta 2-Port  ) 
!S2P File: Measurements: S11, S21, S12, S22:
# Hz S  dB   R 50
10000000 -46.121284 -2.437017 -0.014595191 -2.0404735 -0.018589353 -2.0942411 -45.88504 -157.17258
10999000 -45.304996 -4.5386443 -0.015134687 -2.2618163 -0.017510612 -2.3127511 -45.82468 -151.28064
11998000 -44.364227 -8.0147848 -0.016097216 -2.4835901 -0.017678255 -2.5286121 -46.016979 -146.95808
12997000 -43.604355 -13.44543 -0.014419616 -2.6674948 -0.017244997 -2.6967213 -45.595932 -141.45865
13996000 -43.344349 -17.380329 -0.014164318 -2.8425577 -0.017657461 -2.8692298 -45.353008 -136.01846
14995000 -42.904377 -21.54393 -0.016103191 -3.0561206 -0.017065417 -3.0804036 -45.070953 -132.95174
15994000 -42.746666 -26.342339 -0.017800676 -3.2746701 -0.020144774 -3.2948284 -44.936054 -129.14882
16993000 -42.668907 -31.208391 -0.016295204 -3.4704812 -0.019262729 -3.4800348 -44.069019 -129.24208
17992000 -42.721382 -36.578434 -0.016878828 -3.6699717 -0.01943538 -3.6695204 -43.554989 -129.12936
18991000 -42.982655 -42.04467 -0.018054888 -3.8825383 -0.020066494 -3.87767 -42.884174 -128.10956
19990000 -42.731705 -47.34853 -0.020237356 -4.0898867 -0.022468019 -4.0830336 -42.202061 -128.76825
20989000 -42.548077 -50.828281 -0.022539316 -4.2929091 -0.024065435 -4.2782865 -41.689419 -128.22543
21988000 -42.358715 -56.45462 -0.023425149 -4.4914713 -0.025229383 -4.4749417 -41.420593 -127.56718
22987000 -42.018574 -61.192028 -0.024881285 -4.6899304 -0.026475683 -4.6783395 -41.170013 -126.74092
23986000 -41.884056 -64.987534 -0.024499374 -4.882885 -0.025199441 -4.8841939 -41.029415 -126.68146
24985000 -41.521244 -67.894493 -0.025489498 -5.0947456 -0.02541451 -5.0906248 -40.791225 -124.16566
25984000 -41.131821 -69.994995 -0.02642021 -5.296864 -0.025928266 -5.2972307 -40.478642 -122.69333
26983000 -40.831924 -71.45681 -0.027260989 -5.49792 -0.026877044 -5.5117793 -40.37212 -122.22797
27982000 -40.65601 -72.647453 -0.027899494 -5.7001662 -0.027866408 -5.7318683 -40.052303 -120.54559
28981000 -40.656597 -74.311661 -0.026589237 -5.8958988 -0.028994894 -5.9158974 -39.840656 -119.93744
29980000 -40.194817 -75.540421 -0.026008995 -6.0866117 -0.029086884 -6.0960989 -39.608036 -119.03289
30979000 -39.826054 -74.386833 -0.024318451 -6.4380927 -0.022606969 -6.4419823 -39.082088 -119.47696
31978000 -39.630821 -75.443222 -0.023245834 -6.6368957 -0.024328344 -6.6276727 -38.852749 -118.65636
32977000 -39.426476 -76.871407 -0.023141995 -6.8452516 -0.024656612 -6.8501587 -38.632046 -118.7725
33976000 -39.290966 -77.92997 -0.024385093 -7.0469694 -0.024900552 -7.0437117 -38.318642 -118.21264
34975000 -38.970749 -78.719841 -0.024152115 -7.2466021 -0.026217591 -7.2491965 -38.102364 -117.85014
35974000 -38.778133 -79.327118 -0.023504268 -7.4442849 -0.025554596 -7.4476171 -37.841793 -116.90363
36973000 -38.535484 -79.929405 -0.023635965 -7.6434708 -0.026824951 -7.644743 -37.586998 -116.02512
37972000 -38.394093 -79.629967 -0.02291611 -7.8553715 -0.026059255 -7.8623838 -37.359859 -115.28507
38971000 -38.082237 -79.090187 -0.024359321 -8.0567694 -0.026938774 -8.0643263 -37.185055 -113.6712
39970000 -37.751785 -79.495499 -0.022222655 -8.2486963 -0.025848322 -8.2641125 -36.939098 -113.18378
40969000 -37.438099 -79.147766 -0.023357483 -8.4432163 -0.025586363 -8.4613581 -36.696362 -111.6206
41968000 -37.107449 -78.988358 -0.022689456 -8.6496143 -0.025244744 -8.6644449 -36.507534 -110.47422
42967000 -36.845238 -79.174759 -0.023154747 -8.8632927 -0.02581525 -8.8790579 -36.33226 -108.74332
43966000 -36.579815 -79.798935 -0.023308294 -9.058567 -0.027671279 -9.0792828 -36.055569 -107.94366
44965000 -36.325882 -80.526291 -0.024313506 -9.2655268 -0.027395142 -9.2808409 -35.8367 -107.72295
45964000 -36.099873 -81.54393 -0.025816552 -9.4663258 -0.029080629 -9.4808989 -35.625046 -107.326
46963000 -35.895149 -83.378288 -0.026055869 -9.6584949 -0.029522888 -9.6826363 -35.447639 -107.61239
47962000 -35.716721 -84.948288 -0.027030461 -9.8571215 -0.030164596 -9.8788862 -35.237244 -107.81873
48961000 -35.512199 -86.286758 -0.029023819 -10.055393 -0.031732511 -10.079942 -35.005913 -107.92591
49960000 -35.279427 -87.636604 -0.030448988 -10.25627 -0.032286394 -10.280462 -34.867104 -107.93096
50959000 -35.055168 -88.781563 -0.030645287 -10.470017 -0.033953171 -10.480205 -34.688095 -108.20332
51958000 -34.839348 -89.869095 -0.032736283 -10.666884 -0.035466604 -10.678406 -34.51733 -108.57269
52957000 -34.627392 -90.947685 -0.034313999 -10.868529 -0.036740124 -10.878061 -34.348549 -108.35563
53956000 -34.45858 -91.540634 -0.03521581 -11.067262 -0.036897287 -11.072498 -34.209423 -108.34753
54955000 -34.280056 -92.064034 -0.0365352 -11.272223 -0.038403127 -11.270309 -34.066895 -108.30444
55954000 -34.118809 -92.920158 -0.0382245 -11.473287 -0.037975371 -11.463551 -33.960438 -108.01134
56953000 -34.000557 -92.903076 -0.037405092 -11.670259 -0.037436165 -11.659668 -33.888775 -108.2002
57952000 -33.83099 -93.454552 -0.038266543 -11.870949 -0.038196556 -11.857959 -33.783321 -108.32864
58951000 -33.709484 -93.80619 -0.039668366 -12.074364 -0.039769724 -12.052526 -33.62978 -108.46164
59950000 -33.589657 -94.185997 -0.040045343 -12.270597 -0.040407985 -12.250474 -33.556919 -108.70555
60949000 -33.470547 -94.752289 -0.039868474 -12.473097 -0.04073564 -12.455411 -33.46035 -108.96983
61948000 -33.390984 -95.010498 -0.040704284 -12.671388 -0.040002499 -12.658433 -33.372444 -109.03766
62947000 -33.305401 -95.330704 -0.040311836 -12.884928 -0.04165734 -12.866975 -33.227856 -109.25542
63946000 -33.234245 -96.024231 -0.041463159 -13.083567 -0.042817388 -13.066097 -33.117989 -109.39467
64945000 -33.135258 -96.183052 -0.042502381 -13.286665 -0.04306104 -13.263819 -33.009109 -109.88496
65944000 -33.021858 -96.470818 -0.042810328 -13.48481 -0.043195423 -13.467526 -32.919037 -110.33452
66943000 -32.881462 -96.851242 -0.041147992 -13.68813 -0.041690271 -13.672212 -32.808144 -110.65379
67942000 -32.826462 -96.822258 -0.043248758 -13.882253 -0.043271504 -13.869746 -32.685936 -110.84706
68941000 -32.711533 -96.848259 -0.042794645 -14.073287 -0.042202298 -14.066097 -32.573921 -110.76979
69940000 -32.608765 -96.99334 -0.043097381 -14.272385 -0.042935815 -14.269434 -32.434566 -111.11314
70939000 -32.507942 -96.82975 -0.042958822 -14.472359 -0.0427421 -14.467843 -32.307022 -111.0708
71938000 -32.379398 -96.466927 -0.043538716 -14.668113 -0.04272772 -14.665873 -32.174244 -110.90571
72937000 -32.212959 -96.272247 -0.042899735 -14.865106 -0.04281399 -14.863615 -32.036381 -110.55446
73936000 -32.080292 -95.917809 -0.042469446 -15.063869 -0.041847348 -15.056037 -31.918306 -110.31429
74935000 -31.957188 -96.109314 -0.04125043 -15.263436 -0.041141197 -15.261983 -31.773857 -110.04757
75934000 -31.83485 -96.394058 -0.040832844 -15.474321 -0.041339021 -15.465821 -31.687832 -109.99009
76933000 -31.707977 -96.706985 -0.042395208 -15.666547 -0.042663936 -15.654986 -31.517073 -110.28976
77932000 -31.607658 -97.445747 -0.044098035 -15.860934 -0.043953165 -15.856539 -31.413927 -110.28877
78931000 -31.525423 -98.173439 -0.042672299 -16.062407 -0.043299221 -16.057428 -31.320677 -110.10696
79930000 -31.411045 -99.056 -0.044718619 -16.255329 -0.045580216 -16.254885 -31.229183 -110.39878
80929000 -31.299189 -99.862152 -0.046652347 -16.449224 -0.047067091 -16.450029 -31.129599 -110.6888
81928000 -31.196041 -100.62843 -0.046312731 -16.644457 -0.047604091 -16.64146 -30.993919 -110.7005
82927000 -31.102543 -101.30617 -0.04820136 -16.837933 -0.048478037 -16.83979 -30.881899 -110.95084
83926000 -30.981848 -101.96613 -0.049510039 -17.039511 -0.049245078 -17.039858 -30.772709 -111.13805
84925000 -30.877535 -102.36016 -0.051044881 -17.238619 -0.049845193 -17.23493 -30.678791 -111.22048
85924000 -30.787971 -102.77139 -0.051251803 -17.442968 -0.051213562 -17.441067 -30.596638 -111.12239
86923000 -30.683979 -103.23177 -0.051543869 -17.637304 -0.051246304 -17.632614 -30.496412 -111.00317
87922000 -30.574245 -103.59307 -0.050671138 -17.843134 -0.050884329 -17.832457 -30.404007 -111.0218
88921000 -30.491568 -103.86292 -0.052248836 -18.042732 -0.051910616 -18.040321 -30.313408 -111.01276
89920000 -30.396698 -104.37502 -0.052626383 -18.238457 -0.052743506 -18.234119 -30.260609 -111.18552
90919000 -30.290916 -104.66803 -0.054283421 -18.438271 -0.053257622 -18.433399 -30.167849 -111.30256
91918000 -30.194216 -104.97129 -0.054664817 -18.638136 -0.053638142 -18.631838 -30.107433 -111.3314
92917000 -30.103819 -105.31207 -0.055480406 -18.836184 -0.0543251 -18.832344 -30.045444 -111.48218
93916000 -30.023266 -105.62194 -0.054726157 -19.031265 -0.054766268 -19.026497 -29.951128 -112.0863
94915000 -29.939205 -106.26144 -0.056598518 -19.232834 -0.05531523 -19.223597 -29.897449 -111.91821
95914000 -29.874195 -106.4403 -0.057662621 -19.426941 -0.056596421 -19.424887 -29.801275 -112.18704
96913000 -29.788374 -106.69769 -0.058765814 -19.624975 -0.058078941 -19.624527 -29.736137 -112.56203
97912000 -29.710323 -107.07862 -0.059933327 -19.820753 -0.057317946 -19.824059 -29.655186 -112.82283
98911000 -29.595354 -107.28485 -0.060269546 -20.024525 -0.05927461 -20.023003 -29.609415 -113.01707
99910000 -29.53739 -107.40833 -0.061060727 -20.224388 -0.059466705 -20.223366 -29.503956 -113.33136
100909000 -29.442968 -107.67249 -0.06024041 -20.434811 -0.058699429 -20.424763 -29.422808 -113.49609
101908000 -29.349396 -107.9034 -0.061697394 -20.634295 -0.060302094 -20.628832 -29.311007 -113.30576
102907000 -29.217844 -107.8714 -0.061849684 -20.83173 -0.059929129 -20.830315 -29.238079 -113.26694
103906000 -29.130335 -107.9435 -0.061938696 -21.038076 -0.059927553 -21.031271 -29.089825 -113.24644
104905000 -28.984137 -107.83852 -0.063055061 -21.234138 -0.06047691 -21.2379 -28.967766 -112.89983
105904000 -28.840895 -107.90945 -0.062954202 -21.437408 -0.060300782 -21.431505 -28.858452 -112.79354
106903000 -28.734289 -108.00041 -0.062937394 -21.642454 -0.061581079 -21.638193 -28.731632 -112.7103
107902000 -28.568104 -108.27394 -0.063713297 -21.843996 -0.061178863 -21.837002 -28.595215 -112.6711
108901000 -28.457232 -108.5331 -0.064266548 -22.048115 -0.063247584 -22.036707 -28.470461 -112.57118
109900000 -28.322784 -108.99937 -0.065287068 -22.245275 -0.064284943 -22.23897 -28.3228 -112.6882
110899000 -28.208042 -109.57074 -0.066707894 -22.44338 -0.064337224 -22.436438 -28.195793 -112.95541
111898000 -28.120178 -110.26174 -0.068270914 -22.644966 -0.065290488 -22.639904 -28.080465 -113.04617
112897000 -27.993336 -110.77657 -0.069289483 -22.844416 -0.066660836 -22.832888 -27.946678 -113.20599
113896000 -27.890591 -111.35936 -0.070448518 -23.046114 -0.067860454 -23.034941 -27.838905 -113.32258
114895000 -27.789282 -111.9728 -0.071451545 -23.241858 -0.069121942 -23.229353 -27.727026 -113.43572
115894000 -27.663101 -112.32085 -0.072804101 -23.445744 -0.07002864 -23.432364 -27.660532 -113.63565
116893000 -27.58987 -112.81478 -0.07364469 -23.641172 -0.07148917 -23.62604 -27.535696 -113.69108
117892000 -27.50823 -113.29171 -0.072960988 -23.837231 -0.071211025 -23.826906 -27.461868 -113.88824
118891000 -27.451733 -113.6961 -0.074662417 -24.040525 -0.071397334 -24.023338 -27.369999 -114.00608
119890000 -27.366283 -114.1014 -0.075047977 -24.240404 -0.072859377 -24.225637 -27.358294 -114.12673
120889000 -27.31469 -114.56801 -0.075701445 -24.439684 -0.072523765 -24.426086 -27.284033 -114.07906
121888000 -27.277149 -114.89747 -0.076121874 -24.635481 -0.073291637 -24.623707 -27.225012 -114.34188
122887000 -27.235828 -115.08961 -0.077437676 -24.839285 -0.074350886 -24.829931 -27.180115 -114.35549
123886000 -27.182686 -115.51499 -0.076856926 -25.044252 -0.074766442 -25.025911 -27.167862 -114.51856
124885000 -27.150459 -116.02063 -0.077529378 -25.237076 -0.074878626 -25.224663 -27.138054 -114.53241
125884000 -27.100729 -116.21684 -0.078475006 -25.436314 -0.074633181 -25.429611 -27.10162 -114.70872
126883000 -27.07966 -116.581 -0.07838697 -25.642029 -0.075711459 -25.631355 -27.072622 -114.67564
127882000 -27.035923 -116.89641 -0.078995869 -25.841488 -0.07622198 -25.824875 -27.031994 -114.84529
128881000 -27.003418 -117.19862 -0.079092346 -26.0459 -0.076004907 -26.027031 -26.989746 -114.94573
129880000 -26.947063 -117.53812 -0.079948135 -26.24649 -0.076423779 -26.226343 -26.952824 -114.89011
130879000 -26.889805 -117.68446 -0.079471976 -26.444981 -0.077134907 -26.428459 -26.882868 -114.93516
131878000 -26.831602 -117.90957 -0.080151692 -26.647787 -0.077458762 -26.629026 -26.825001 -114.79891
132877000 -26.764193 -117.98846 -0.07965152 -26.854128 -0.077912033 -26.83231 -26.747431 -114.75903
133876000 -26.680874 -118.14301 -0.079914384 -27.052538 -0.077747054 -27.030041 -26.66091 -114.64448
134875000 -26.583889 -118.27052 -0.080705196 -27.25025 -0.079412133 -27.237368 -26.565857 -114.46721
135874000 -26.506144 -118.29774 -0.079982676 -27.450109 -0.077967644 -27.431105 -26.468433 -114.41952
136873000 -26.393671 -118.22181 -0.080368444 -27.6562 -0.078140005 -27.633436 -26.388866 -114.39241
137872000 -26.317701 -118.34982 -0.080685943 -27.856754 -0.077780791 -27.842924 -26.285397 -114.31342
138871000 -26.245527 -118.5858 -0.080881625 -28.051741 -0.078136846 -28.039803 -26.193752 -114.47301
139870000 -26.140455 -118.85656 -0.081613258 -28.256342 -0.07963939 -28.237169 -26.115198 -114.64487
140869000 -26.0679 -119.40076 -0.082887985 -28.452175 -0.079732463 -28.436441 -26.015167 -114.86926
141868000 -25.986525 -119.78635 -0.083256334 -28.652729 -0.081808455 -28.636198 -25.961559 -115.0798
142867000 -25.904465 -119.98102 -0.082025819 -28.848114 -0.080546439 -28.831072 -25.884766 -115.21358
143866000 -25.8284 -120.46556 -0.083833985 -29.043631 -0.081849076 -29.029469 -25.8109 -115.66785
144865000 -25.776627 -120.96409 -0.0853488 -29.245514 -0.08333312 -29.228901 -25.752064 -115.97404
145864000 -25.720648 -121.28071 -0.086108387 -29.44438 -0.084827438 -29.432245 -25.723036 -116.20405
146863000 -25.671545 -121.6331 -0.086806044 -29.6427 -0.084814765 -29.632711 -25.674261 -116.49622
147862000 -25.634367 -121.98255 -0.087492988 -29.842163 -0.085486874 -29.830128 -25.640032 -116.81756
148861000 -25.606001 -122.42185 -0.088526905 -30.042543 -0.086875238 -30.025642 -25.621956 -116.95736
149860000 -25.571875 -122.59148 -0.090167306 -30.23233 -0.0869027 -30.220039 -25.564419 -117.09021
150859000 -25.551277 -123.03826 -0.089523278 -30.431643 -0.086268395 -30.417257 -25.544706 -117.44838
151858000 -25.536932 -123.41017 -0.088729806 -30.632204 -0.086817928 -30.618916 -25.535858 -117.78274
152857000 -25.523088 -123.73388 -0.088924795 -30.825829 -0.086484663 -30.816372 -25.523846 -117.97185
153856000 -25.515318 -123.96093 -0.088127464 -31.02804 -0.08629401 -31.015217 -25.535152 -118.30723
154855000 -25.514664 -124.10976 -0.089047916 -31.231092 -0.086459838 -31.215023 -25.524004 -118.5386
155854000 -25.530069 -124.36081 -0.08942128 -31.428968 -0.087138541 -31.414732 -25.515842 -118.81389
156853000 -25.518425 -125.05522 -0.087453365 -31.616045 -0.086169906 -31.609365 -25.509892 -119.1229
157852000 -25.525576 -125.26655 -0.08860933 -31.820807 -0.087753683 -31.810364 -25.503582 -119.479
158851000 -25.518734 -125.49535 -0.089359708 -32.017025 -0.087633237 -32.006374 -25.486107 -119.73846
159850000 -25.50873 -125.58927 -0.090142995 -32.215347 -0.087875985 -32.208282 -25.48444 -119.92686
160849000 -25.491962 -125.67252 -0.090293638 -32.414669 -0.088772081 -32.409424 -25.451611 -120.1911
161848000 -25.474388 -125.77333 -0.090444028 -32.617378 -0.088485688 -32.61063 -25.411295 -120.31827
162847000 -25.434582 -125.94275 -0.09052676 -32.817314 -0.088856094 -32.809593 -25.386822 -120.55257
163846000 -25.394854 -126.13007 -0.090583846 -33.017616 -0.089055844 -33.013958 -25.305382 -120.56497
164845000 -25.340696 -126.1247 -0.091012329 -33.213516 -0.089681037 -33.210007 -25.24243 -120.69779
165844000 -25.284277 -126.14865 -0.090629309 -33.414539 -0.089536756 -33.409687 -25.167578 -120.81306
166843000 -25.221928 -126.21199 -0.090228356 -33.61026 -0.08968474 -33.607647 -25.098137 -120.96746
167842000 -25.170446 -126.29263 -0.091485523 -33.814598 -0.089709051 -33.808006 -25.022842 -120.88712
168841000 -25.089025 -126.48912 -0.091341175 -34.015285 -0.090780504 -34.006199 -24.950228 -120.93234
169840000 -25.024746 -126.70463 -0.091273241 -34.210888 -0.0913314 -34.208729 -24.866665 -121.11817
170839000 -24.967293 -126.92774 -0.092406951 -34.40868 -0.091192342 -34.406303 -24.786695 -121.28323
171838000 -24.911226 -127.32864 -0.091952428 -34.608559 -0.092514835 -34.604195 -24.721655 -121.51912
172837000 -24.836355 -127.67633 -0.093645968 -34.805035 -0.093791179 -34.796906 -24.653502 -121.72488
173836000 -24.766134 -128.03008 -0.094840094 -35.005543 -0.094316266 -35.002228 -24.615368 -121.95423
174835000 -24.720005 -128.46953 -0.095370069 -35.200871 -0.09533038 -35.200943 -24.570522 -122.25485
175834000 -24.668867 -128.82394 -0.095915191 -35.399441 -0.096594311 -35.396618 -24.51091 -122.52614
176833000 -24.614517 -129.15627 -0.097034238 -35.600891 -0.097147532 -35.599281 -24.468256 -122.65708
177832000 -24.577868 -129.56961 -0.098318264 -35.794769 -0.097674347 -35.796471 -24.445179 -122.75141
178831000 -24.52354 -129.7883 -0.099353172 -35.99416 -0.099429712 -35.991619 -24.408432 -122.82926
179830000 -24.44956 -130.2175 -0.10045509 -36.178978 -0.099817745 -36.182533 -24.336237 -122.92094
180829000 -24.408161 -130.54103 -0.10025481 -36.374249 -0.099586777 -36.375278 -24.297966 -123.2383
181828000 -24.382694 -130.987 -0.099074297 -36.571617 -0.098943733 -36.571644 -24.285816 -123.44296
182827000 -24.360527 -131.38872 -0.09855181 -36.766922 -0.099186324 -36.768764 -24.271788 -123.57581
183826000 -24.325394 -131.69249 -0.10038886 -36.967403 -0.099044368 -36.960903 -24.265051 -123.73184
184825000 -24.325272 -132.0146 -0.099671006 -37.163601 -0.099926874 -37.162697 -24.243769 -123.84413
185824000 -24.29681 -132.37767 -0.099816687 -37.355137 -0.099609025 -37.360561 -24.241932 -123.91216
186823000 -24.282822 -132.73596 -0.1000225 -37.561207 -0.099496193 -37.55899 -24.231672 -123.93294
187822000 -24.261827 -133.06839 -0.10073273 -37.754341 -0.10044237 -37.75771 -24.194275 -124.0414
188821000 -24.237213 -133.34813 -0.10066491 -37.949444 -0.10058198 -37.95327 -24.172974 -124.13744
189820000 -24.21866 -133.65025 -0.10054649 -38.150303 -0.10036025 -38.151398 -24.156433 -124.32119
190819000 -24.183289 -133.94781 -0.10086308 -38.348972 -0.10080823 -38.347649 -24.120951 -124.34948
191818000 -24.153276 -134.24377 -0.10102311 -38.546227 -0.10068425 -38.548492 -24.092299 -124.37441
192817000 -24.109047 -134.53383 -0.10184109 -38.741146 -0.10136597 -38.746132 -24.048246 -124.47304
193816000 -24.073425 -134.77281 -0.10241565 -38.938938 -0.10072955 -38.937397 -23.999376 -124.62333
194815000 -24.015642 -135.14214 -0.10226379 -39.132469 -0.10215618 -39.136501 -23.932501 -124.67016
195814000 -23.963869 -135.37123 -0.10271436 -39.329205 -0.10216785 -39.332401 -23.873167 -124.79264
196813000 -23.90539 -135.69066 -0.10215672 -39.52449 -0.10216467 -39.527538 -23.798151 -124.92023
197812000 -23.849323 -135.88982 -0.10349051 -39.724747 -0.1029826 -39.722801 -23.732325 -124.98976
198811000 -23.795153 -136.05133 -0.10287923 -39.917892 -0.10232739 -39.921883 -23.66046 -125.16555
199810000 -23.725883 -136.42093 -0.10326306 -40.118416 -0.10231944 -40.111897 -23.582781 -125.27203
200809000 -23.668716 -136.65926 -0.10301574 -40.313156 -0.1030327 -40.313419 -23.506983 -125.42685
201808000 -23.613279 -136.88783 -0.10363261 -40.517227 -0.10350271 -40.516567 -23.437344 -125.49207
202807000 -23.553017 -137.19177 -0.10469636 -40.713921 -0.10442589 -40.716869 -23.384136 -125.69648
