!Keysight Technologies,E5080B,MY59205177,A.15.75.32
!Date: Friday, February 23, 2024 03:04:10
!Correction: S11(Cdelta 2-Port  ) 
!S21(Cdelta 2-Port  ) 
!S12(Cdelta 2-Port  ) 
!S22(Cdelta 2-Port  ) 
!S2P File: Measurements: S11, S21, S12, S22:
# Hz S  dB   R 50
10000000 -44.151699 -3.8785102 -0.026754625 -2.0382121 -0.029862236 -2.0914428 -48.000782 -150.49788
10999000 -43.543701 -5.5396357 -0.028427096 -2.2566977 -0.029996991 -2.3087146 -47.755882 -142.99661
11998000 -42.79789 -8.003705 -0.028399738 -2.480336 -0.028810136 -2.5219662 -47.865696 -137.61797
12997000 -42.135548 -12.767697 -0.027933884 -2.6586704 -0.029493699 -2.6881304 -47.208084 -131.43031
13996000 -41.906128 -16.257673 -0.026865844 -2.8375683 -0.029261749 -2.8573825 -46.770443 -125.68779
14995000 -41.592514 -19.826687 -0.028220737 -3.0485194 -0.029062908 -3.0707765 -46.307934 -122.68359
15994000 -41.476326 -23.6908 -0.030214643 -3.2654166 -0.031774491 -3.2877789 -46.098526 -118.47292
16993000 -41.429001 -27.9494 -0.029765015 -3.4599793 -0.030968817 -3.4675388 -45.148483 -119.2939
17992000 -41.498081 -32.561142 -0.030294668 -3.6573026 -0.031059286 -3.6589553 -44.513512 -119.83809
18991000 -41.806843 -36.965927 -0.031232927 -3.8713021 -0.032144267 -3.8678389 -43.866066 -119.65367
19990000 -41.588726 -41.956463 -0.032963723 -4.0750885 -0.034447327 -4.0724897 -43.165375 -121.14561
20989000 -41.523174 -45.15554 -0.035141174 -4.279984 -0.036459755 -4.2698879 -42.558594 -121.08499
21988000 -41.434795 -49.694405 -0.035708543 -4.4779439 -0.036960725 -4.465487 -42.34959 -120.03603
22987000 -41.204838 -54.1329 -0.037469324 -4.6759324 -0.037501179 -4.6675825 -42.030392 -120.07793
23986000 -41.193619 -58.037472 -0.036375441 -4.8687015 -0.03682993 -4.8687744 -41.931591 -119.99915
24985000 -40.903126 -60.507862 -0.038018718 -5.0735316 -0.036850031 -5.0746875 -41.686176 -117.43942
25984000 -40.62043 -62.603813 -0.038083218 -5.2864451 -0.037571676 -5.2881346 -41.310204 -116.20328
26983000 -40.335476 -64.40448 -0.039368477 -5.4806137 -0.038746566 -5.4966516 -41.157379 -115.37968
27982000 -40.150043 -65.503197 -0.040783722 -5.680438 -0.040241815 -5.7088108 -40.8969 -113.66047
28981000 -40.182114 -66.794258 -0.038651757 -5.878624 -0.040333521 -5.9007983 -40.592426 -113.12939
29980000 -39.807339 -68.589714 -0.039076969 -6.0685897 -0.041274734 -6.074368 -40.326611 -112.44932
30979000 -39.431953 -67.724533 -0.036707494 -6.4239955 -0.034792017 -6.411644 -39.799183 -113.13334
31978000 -39.272781 -68.751213 -0.035879239 -6.6185989 -0.036788423 -6.6076255 -39.55463 -112.52483
32977000 -39.078983 -70.36972 -0.035621371 -6.8275142 -0.037424676 -6.8245816 -39.289326 -112.74067
33976000 -38.939751 -71.425385 -0.03594736 -7.0290155 -0.037272457 -7.0246725 -39.005119 -112.21751
34975000 -38.664688 -72.381531 -0.036272071 -7.2287011 -0.037751585 -7.2258425 -38.764523 -112.03188
35974000 -38.493744 -73.191864 -0.035985991 -7.4210372 -0.03772939 -7.4256606 -38.457436 -111.26828
36973000 -38.253365 -73.885262 -0.036193762 -7.6199036 -0.038344108 -7.6253772 -38.160057 -110.47338
37972000 -38.099133 -73.89579 -0.035681661 -7.8336945 -0.038335748 -7.8389792 -37.938831 -110.00674
38971000 -37.771137 -73.619431 -0.036853164 -8.0333881 -0.038700599 -8.045948 -37.709118 -108.49237
39970000 -37.451889 -74.16391 -0.034676421 -8.2258787 -0.037436426 -8.2420425 -37.466614 -108.07938
40969000 -37.164978 -74.079979 -0.034939714 -8.4188738 -0.037306398 -8.441123 -37.186832 -106.62872
41968000 -36.832939 -74.244484 -0.035263043 -8.6239271 -0.037478983 -8.6407013 -36.955383 -105.60793
42967000 -36.563873 -74.487488 -0.035971899 -8.8378534 -0.038407046 -8.8520699 -36.743534 -103.81052
43966000 -36.307442 -75.41819 -0.036007393 -9.0382166 -0.039201826 -9.0518246 -36.446831 -103.31092
44965000 -36.073647 -76.282677 -0.036965426 -9.2382727 -0.039361686 -9.2529602 -36.24297 -103.31669
45964000 -35.86935 -77.386253 -0.038021069 -9.4361763 -0.040297203 -9.45961 -35.999279 -103.18968
46963000 -35.676952 -79.45369 -0.037938811 -9.6268158 -0.040531572 -9.6543255 -35.819233 -103.51217
47962000 -35.545834 -80.810425 -0.039677247 -9.8324299 -0.041644797 -9.8473587 -35.598591 -103.74942
48961000 -35.334469 -82.347191 -0.041526143 -10.028844 -0.043352816 -10.048037 -35.363052 -103.98169
49960000 -35.108292 -83.751305 -0.042895291 -10.229915 -0.044546008 -10.247267 -35.232811 -104.1609
50959000 -34.91217 -85.224243 -0.043231767 -10.439297 -0.045901198 -10.450099 -35.053982 -104.53999
51958000 -34.710403 -86.323624 -0.045072757 -10.639153 -0.047072846 -10.645474 -34.877354 -105.07669
52957000 -34.521133 -87.418571 -0.046807773 -10.838107 -0.047680512 -10.846064 -34.709312 -104.86764
53956000 -34.349258 -88.160408 -0.048098233 -11.040246 -0.049252409 -11.042835 -34.580845 -104.8709
54955000 -34.187565 -88.615685 -0.048335902 -11.238792 -0.050074838 -11.238317 -34.430267 -104.90511
55954000 -34.047031 -89.487999 -0.049919557 -11.438251 -0.049869806 -11.435192 -34.316944 -104.58517
56953000 -33.920773 -89.48893 -0.049594086 -11.639363 -0.049406618 -11.625813 -34.253368 -104.89854
57952000 -33.770817 -90.157982 -0.050064102 -11.835462 -0.050565332 -11.823024 -34.145313 -105.00639
58951000 -33.648945 -90.566154 -0.051480476 -12.038716 -0.051181868 -12.01676 -33.98349 -105.03162
59950000 -33.5243 -90.892555 -0.052356515 -12.237426 -0.052520528 -12.21631 -33.923256 -105.40615
60949000 -33.424564 -91.532776 -0.052779663 -12.441943 -0.052712586 -12.417093 -33.818947 -105.59801
61948000 -33.357815 -91.820381 -0.052925091 -12.637662 -0.052040294 -12.620807 -33.752151 -105.74097
62947000 -33.270958 -91.964195 -0.052328482 -12.847902 -0.052920375 -12.826205 -33.605473 -105.97964
63946000 -33.210026 -92.728409 -0.054369923 -13.050139 -0.053788576 -13.024744 -33.502682 -106.12379
64945000 -33.094532 -92.89151 -0.054146864 -13.248111 -0.054368351 -13.228207 -33.391479 -106.71102
65944000 -33.003628 -93.159546 -0.054982018 -13.447538 -0.05471148 -13.428326 -33.307888 -107.09788
66943000 -32.862396 -93.684364 -0.053190015 -13.649949 -0.053156994 -13.629414 -33.213806 -107.44905
67942000 -32.803864 -93.618256 -0.054885544 -13.843188 -0.055173658 -13.833181 -33.084816 -107.69582
68941000 -32.706131 -93.740265 -0.054492071 -14.041723 -0.053747952 -14.028862 -32.983128 -107.74435
69940000 -32.601608 -93.704941 -0.055257551 -14.234104 -0.054764431 -14.223243 -32.833626 -108.05495
70939000 -32.494205 -93.755951 -0.055251524 -14.434594 -0.054493122 -14.42656 -32.694313 -108.00368
71938000 -32.343987 -93.387352 -0.055317331 -14.628284 -0.054176219 -14.618393 -32.567039 -107.78539
72937000 -32.185127 -93.271599 -0.05416888 -14.830709 -0.054100733 -14.817689 -32.430637 -107.62795
73936000 -32.046001 -92.927444 -0.053796176 -15.024142 -0.053511824 -15.020624 -32.318203 -107.48093
74935000 -31.932343 -93.235252 -0.053963915 -15.219105 -0.052562714 -15.216491 -32.148964 -107.09422
75934000 -31.818623 -93.517113 -0.053917263 -15.428864 -0.052782021 -15.422542 -32.071835 -107.05818
76933000 -31.676506 -93.883392 -0.054934304 -15.621575 -0.054805849 -15.614471 -31.904573 -107.50632
77932000 -31.587774 -94.763466 -0.055206429 -15.816664 -0.056370888 -15.811309 -31.801001 -107.47711
78931000 -31.525345 -95.506554 -0.054392464 -16.016535 -0.055060402 -16.013992 -31.709282 -107.35976
79930000 -31.408491 -96.30677 -0.057145093 -16.20949 -0.057641372 -16.205786 -31.606155 -107.69075
80929000 -31.280645 -97.267868 -0.059099581 -16.405336 -0.059171218 -16.400978 -31.504072 -108.02882
81928000 -31.210892 -98.139633 -0.058620717 -16.59672 -0.058690771 -16.59182 -31.375149 -108.1458
82927000 -31.109629 -98.807716 -0.060300782 -16.794197 -0.060210228 -16.791786 -31.276257 -108.47223
83926000 -30.991535 -99.56192 -0.061856773 -16.99016 -0.061801895 -16.993164 -31.164505 -108.69292
84925000 -30.900845 -99.976585 -0.063389681 -17.187874 -0.061617315 -17.184662 -31.070925 -108.72668
85924000 -30.80781 -100.42371 -0.063584849 -17.394787 -0.063531525 -17.390249 -30.981556 -108.73524
86923000 -30.701826 -100.89934 -0.063460074 -17.59026 -0.063830458 -17.580059 -30.888868 -108.64561
87922000 -30.594656 -101.27007 -0.063641325 -17.793356 -0.062636949 -17.782148 -30.795242 -108.71266
88921000 -30.531538 -101.61012 -0.064832479 -17.996769 -0.064112075 -17.985861 -30.71073 -108.68843
89920000 -30.424524 -102.20108 -0.065163828 -18.187786 -0.064586818 -18.184057 -30.654696 -108.85219
90919000 -30.328051 -102.45947 -0.065527521 -18.384819 -0.06507948 -18.383595 -30.576838 -109.02644
91918000 -30.235397 -102.80938 -0.0664085 -18.586559 -0.065028764 -18.581068 -30.50209 -109.01425
92917000 -30.148277 -103.20853 -0.067926183 -18.788103 -0.067309633 -18.781723 -30.445417 -109.14199
93916000 -30.062727 -103.54262 -0.067441352 -18.978506 -0.066793852 -18.971336 -30.348522 -109.84798
94915000 -30.001104 -104.20649 -0.069083013 -19.179928 -0.067453444 -19.171717 -30.298357 -109.6416
95914000 -29.93202 -104.45306 -0.069967084 -19.37199 -0.068894178 -19.366985 -30.208654 -110.00827
96913000 -29.844072 -104.60833 -0.07104104 -19.572609 -0.06960354 -19.57032 -30.144691 -110.30907
97912000 -29.773386 -105.15445 -0.071932353 -19.768208 -0.069825552 -19.769268 -30.069794 -110.5906
98911000 -29.676075 -105.33418 -0.07195314 -19.96883 -0.071019731 -19.962389 -30.026667 -110.76436
99910000 -29.606619 -105.50445 -0.072940461 -20.168303 -0.07124681 -20.163824 -29.923798 -111.09947
100909000 -29.522697 -105.77022 -0.071813919 -20.378887 -0.070941053 -20.370338 -29.842258 -111.26788
101908000 -29.434263 -106.00562 -0.073894031 -20.572433 -0.071977094 -20.571472 -29.721706 -111.08097
102907000 -29.302034 -106.05189 -0.073321126 -20.773073 -0.072455324 -20.771496 -29.6513 -111.04237
103906000 -29.209 -106.11338 -0.074143648 -20.979252 -0.071882345 -20.971558 -29.501917 -111.00997
104905000 -29.066259 -106.0288 -0.074930772 -21.177961 -0.072031833 -21.181273 -29.379084 -110.69088
105904000 -28.933863 -106.1521 -0.074979499 -21.377003 -0.072456904 -21.375002 -29.260054 -110.60587
106903000 -28.82885 -106.26781 -0.074824117 -21.585489 -0.072198436 -21.577127 -29.13628 -110.48939
107902000 -28.654861 -106.59665 -0.076076038 -21.782007 -0.073415905 -21.773897 -29.000343 -110.41684
108901000 -28.55015 -106.88237 -0.076912254 -21.986406 -0.074329555 -21.976522 -28.867064 -110.39124
109900000 -28.419886 -107.37627 -0.078107059 -22.184019 -0.075297922 -22.175165 -28.716181 -110.49094
110899000 -28.307081 -108.00659 -0.078833483 -22.382957 -0.075858973 -22.375982 -28.598322 -110.76181
111898000 -28.22035 -108.72919 -0.080073647 -22.585697 -0.076562099 -22.57674 -28.474222 -110.93929
112897000 -28.08959 -109.27602 -0.081839316 -22.783051 -0.078299724 -22.770134 -28.344202 -111.11472
113896000 -27.989935 -109.80485 -0.082657918 -22.981953 -0.079584815 -22.969824 -28.232546 -111.27214
114895000 -27.88612 -110.44114 -0.083282717 -23.17939 -0.080948085 -23.167953 -28.123419 -111.35454
115894000 -27.76169 -110.82594 -0.084887885 -23.3813 -0.082298063 -23.367666 -28.059471 -111.53275
116893000 -27.679394 -111.4009 -0.08576382 -23.580233 -0.082853951 -23.559223 -27.921791 -111.64457
117892000 -27.60079 -111.84508 -0.085432224 -23.775148 -0.082659237 -23.757467 -27.855499 -111.83195
118891000 -27.542767 -112.29694 -0.085868374 -23.973047 -0.083193004 -23.96096 -27.759933 -112.0028
119890000 -27.449188 -112.68364 -0.086252287 -24.175182 -0.083903387 -24.158279 -27.749651 -112.12819
120889000 -27.401594 -113.15981 -0.087303877 -24.371965 -0.084295049 -24.359011 -27.674702 -112.08253
121888000 -27.359732 -113.4646 -0.087351941 -24.570776 -0.08519832 -24.556293 -27.614809 -112.37798
122887000 -27.324488 -113.6818 -0.088234983 -24.772245 -0.085619137 -24.76049 -27.566095 -112.42471
123886000 -27.263687 -114.09983 -0.089070641 -24.977549 -0.086092278 -24.955891 -27.548223 -112.57439
124885000 -27.225424 -114.59248 -0.088782117 -25.178934 -0.086402535 -25.158964 -27.526073 -112.6047
125884000 -27.176075 -114.80458 -0.090300776 -25.372017 -0.08560805 -25.356314 -27.48991 -112.78926
126883000 -27.156542 -115.17271 -0.090157531 -25.573496 -0.087466046 -25.558342 -27.450533 -112.84004
127882000 -27.101057 -115.45723 -0.090807997 -25.771376 -0.08776927 -25.754738 -27.415918 -113.03683
128881000 -27.071535 -115.80521 -0.091546066 -25.975779 -0.087606564 -25.958557 -27.36904 -113.15628
129880000 -27.014303 -116.13487 -0.091825254 -26.176386 -0.08788497 -26.155506 -27.338062 -113.15836
130879000 -26.960682 -116.27299 -0.091104053 -26.375397 -0.088455573 -26.356915 -27.26025 -113.18621
131878000 -26.89003 -116.51068 -0.091927834 -26.577341 -0.088817261 -26.559639 -27.19507 -113.10965
132877000 -26.824911 -116.58406 -0.09179379 -26.777925 -0.088905767 -26.759613 -27.106146 -113.11912
133876000 -26.744675 -116.75944 -0.091909327 -26.980051 -0.089105256 -26.959333 -27.0228 -113.01538
134875000 -26.643883 -116.8792 -0.091932863 -27.175716 -0.08972121 -27.158796 -26.918776 -112.89145
135874000 -26.564756 -116.89064 -0.092710525 -27.378756 -0.089267224 -27.355762 -26.817787 -112.89751
136873000 -26.456917 -116.82967 -0.092362002 -27.580729 -0.088818312 -27.560989 -26.734186 -112.88605
137872000 -26.37911 -116.9689 -0.09232498 -27.778812 -0.089511387 -27.764486 -26.62085 -112.8462
138871000 -26.302866 -117.15164 -0.092860997 -27.97691 -0.089489192 -27.964201 -26.528353 -113.03133
139870000 -26.200222 -117.41597 -0.094129771 -28.176426 -0.091147937 -28.160181 -26.451221 -113.159
140869000 -26.121227 -117.86662 -0.095254436 -28.378666 -0.092220008 -28.355917 -26.344496 -113.289
141868000 -26.023685 -118.35307 -0.095788434 -28.56814 -0.092600249 -28.551113 -26.273115 -113.62183
142867000 -25.94483 -118.61965 -0.093714207 -28.766256 -0.092192769 -28.748516 -26.195755 -113.83037
143866000 -25.878672 -119.10179 -0.095572233 -28.962746 -0.093305834 -28.945963 -26.12081 -114.32031
144865000 -25.816929 -119.65531 -0.097253159 -29.161425 -0.094539016 -29.145582 -26.067007 -114.64302
145864000 -25.762384 -119.96531 -0.097728886 -29.36092 -0.095913075 -29.349207 -26.025599 -114.89792
146863000 -25.715303 -120.32549 -0.097897269 -29.560038 -0.096387334 -29.548235 -25.979473 -115.23992
147862000 -25.675341 -120.67188 -0.098762065 -29.757795 -0.096237801 -29.740757 -25.946888 -115.54752
148861000 -25.643518 -121.18324 -0.099186055 -29.951408 -0.097120002 -29.939373 -25.921141 -115.77828
149860000 -25.629128 -121.38929 -0.099520564 -30.152895 -0.097443759 -30.14422 -25.885815 -115.95607
150859000 -25.609692 -121.7375 -0.099997334 -30.352156 -0.097541444 -30.338436 -25.879704 -116.18705
151858000 -25.59384 -122.04333 -0.10052503 -30.551943 -0.097723059 -30.532961 -25.86677 -116.4694
152857000 -25.57691 -122.3684 -0.10056318 -30.750418 -0.098207317 -30.734936 -25.849356 -116.60065
153856000 -25.565838 -122.59343 -0.099989921 -30.948694 -0.097154416 -30.93667 -25.868788 -116.91403
154855000 -25.564323 -122.7606 -0.10066967 -31.144939 -0.09709274 -31.134697 -25.857224 -117.09477
155854000 -25.57556 -123.014 -0.10094256 -31.34717 -0.098278016 -31.331867 -25.850222 -117.37839
156853000 -25.559256 -123.71732 -0.098826416 -31.536777 -0.097283073 -31.522858 -25.846577 -117.6768
157852000 -25.565477 -123.92347 -0.10013667 -31.735613 -0.098914601 -31.723091 -25.842138 -118.01711
158851000 -25.556084 -124.19396 -0.10087474 -31.930851 -0.099453285 -31.923103 -25.821224 -118.29082
159850000 -25.543158 -124.29308 -0.10153025 -32.127865 -0.099383101 -32.124531 -25.821171 -118.43862
160849000 -25.52474 -124.41599 -0.1008848 -32.329224 -0.10010806 -32.32262 -25.789511 -118.73862
161848000 -25.506735 -124.52734 -0.10148918 -32.529831 -0.10016793 -32.523445 -25.755314 -118.89805
162847000 -25.466133 -124.7291 -0.10144202 -32.727364 -0.10080426 -32.722382 -25.721189 -119.12895
163846000 -25.426453 -124.95235 -0.1019728 -32.926823 -0.10059974 -32.917206 -25.644487 -119.10368
164845000 -25.367563 -124.97513 -0.10237855 -33.125179 -0.1011063 -33.119083 -25.576876 -119.2336
165844000 -25.313688 -125.04553 -0.10203428 -33.324215 -0.10212386 -33.317371 -25.497549 -119.36224
166843000 -25.251202 -125.14495 -0.10177457 -33.52367 -0.10078519 -33.516804 -25.423079 -119.55916
167842000 -25.188282 -125.26947 -0.10258819 -33.722057 -0.10231388 -33.714161 -25.347725 -119.45206
168841000 -25.116533 -125.46424 -0.10256911 -33.914982 -0.10186203 -33.91795 -25.272497 -119.55088
169840000 -25.047144 -125.74072 -0.10266718 -34.117306 -0.10202368 -34.112938 -25.182753 -119.77026
170839000 -24.986427 -126.02907 -0.10382243 -34.313538 -0.10269316 -34.309917 -25.102665 -119.95914
171838000 -24.927561 -126.4174 -0.10372964 -34.51247 -0.10316869 -34.50824 -25.039877 -120.17382
172837000 -24.857164 -126.76231 -0.10559328 -34.709312 -0.10465632 -34.703995 -24.966558 -120.39201
173836000 -24.790648 -127.21369 -0.10668404 -34.906239 -0.10621264 -34.903351 -24.922014 -120.62852
174835000 -24.74015 -127.63214 -0.10702576 -35.101383 -0.10563704 -35.099754 -24.873913 -120.95958
175834000 -24.686466 -128.02888 -0.10720406 -35.299747 -0.10677106 -35.298264 -24.814491 -121.2542
176833000 -24.635206 -128.38245 -0.10847358 -35.49926 -0.10750017 -35.495758 -24.761999 -121.40786
177832000 -24.589447 -128.86284 -0.10872891 -35.694664 -0.10785363 -35.69442 -24.739443 -121.59354
178831000 -24.547937 -129.22589 -0.10968347 -35.888859 -0.10907663 -35.886375 -24.699326 -121.80988
179830000 -24.513033 -129.6571 -0.10968612 -36.086948 -0.10848313 -36.089371 -24.676826 -121.89755
180829000 -24.475632 -129.87035 -0.11012366 -36.286098 -0.10944694 -36.2826 -24.645847 -122.08387
181828000 -24.451529 -130.23894 -0.11035864 -36.482677 -0.10913873 -36.478611 -24.622932 -122.19673
182827000 -24.42453 -130.56813 -0.11080819 -36.676918 -0.10914723 -36.676395 -24.613567 -122.27828
183826000 -24.379772 -130.88016 -0.11071286 -36.874733 -0.11023384 -36.873226 -24.604805 -122.3904
184825000 -24.38784 -131.20795 -0.11078694 -37.068321 -0.11006604 -37.072426 -24.588875 -122.47758
185824000 -24.364666 -131.53717 -0.11073304 -37.264305 -0.11018287 -37.265118 -24.583639 -122.55362
186823000 -24.348148 -131.9003 -0.11122831 -37.466217 -0.10986639 -37.464966 -24.580976 -122.51607
187822000 -24.327549 -132.22508 -0.11173931 -37.662292 -0.11137757 -37.654861 -24.5462 -122.60792
188821000 -24.307274 -132.4767 -0.11144184 -37.855194 -0.11122672 -37.857864 -24.535242 -122.6924
189820000 -24.294109 -132.75987 -0.11206681 -38.057587 -0.11109765 -38.058792 -24.52635 -122.86199
190819000 -24.268064 -132.98203 -0.11311775 -38.255455 -0.11236113 -38.252872 -24.490932 -122.77327
191818000 -24.227798 -133.16107 -0.11416125 -38.450424 -0.11407727 -38.448917 -24.456488 -122.68295
192817000 -24.159174 -133.45491 -0.11485279 -38.634007 -0.11410916 -38.636105 -24.388317 -122.76716
193816000 -24.126301 -133.80977 -0.11372437 -38.827503 -0.1130245 -38.828266 -24.333046 -123.04923
194815000 -24.067759 -134.25626 -0.11389603 -39.025204 -0.11339223 -39.026226 -24.274357 -123.15819
195814000 -24.012629 -134.47516 -0.11412457 -39.222462 -0.11349904 -39.223949 -24.218454 -123.25399
196813000 -23.963354 -134.84462 -0.11366485 -39.41515 -0.11302716 -39.417786 -24.144234 -123.44977
197812000 -23.909418 -135.05666 -0.11433027 -39.615955 -0.11364784 -39.613071 -24.074501 -123.54115
198811000 -23.853611 -135.26492 -0.11418676 -39.811974 -0.11350701 -39.812077 -24.003319 -123.72047
199810000 -23.785034 -135.59856 -0.11437173 -40.001038 -0.11359204 -40.003803 -23.926485 -123.82419
200809000 -23.726746 -135.87698 -0.11474409 -40.207855 -0.11400233 -40.201008 -23.849621 -124.02458
201808000 -23.669062 -136.12006 -0.11541101 -40.401836 -0.11535412 -40.407383 -23.781622 -124.09759
202807000 -23.614346 -136.46823 -0.11614157 -40.601757 -0.11503036 -40.608662 -23.726509 -124.33235
203806000 -23.560843 -136.93143 -0.11720893 -40.805073 -0.11545566 -40.806011 -23.660299 -124.47141
