!Keysight Technologies,E5080B,MY59205177,A.15.75.32
!Date: Friday, February 23, 2024 03:42:19
!Correction: S11(Cdelta 2-Port  ) 
!S21(Cdelta 2-Port  ) 
!S12(Cdelta 2-Port  ) 
!S22(Cdelta 2-Port  ) 
!S2P File: Measurements: S11, S21, S12, S22:
# Hz S  dB   R 50
10000000 -46.043686 -2.7582421 -0.01388904 -2.0434396 -0.017359089 -2.0946 -45.883705 -157.42598
10999000 -45.359928 -4.9890985 -0.01513053 -2.2613287 -0.01719432 -2.3146036 -45.777046 -151.01846
11998000 -44.402775 -7.4665895 -0.015737638 -2.48387 -0.01712415 -2.5289209 -46.006031 -147.27061
12997000 -43.607647 -13.533051 -0.015345359 -2.6659417 -0.01672213 -2.6964579 -45.583157 -141.32716
13996000 -43.318432 -17.570478 -0.013922021 -2.8458724 -0.01685518 -2.8675325 -45.377483 -136.40785
14995000 -42.923752 -21.860317 -0.016260907 -3.0565271 -0.016814901 -3.0808098 -45.063179 -132.90092
15994000 -42.773804 -26.357546 -0.017451353 -3.2742152 -0.018789275 -3.2976987 -44.910114 -129.37549
16993000 -42.673553 -31.029016 -0.016076431 -3.4715579 -0.018451571 -3.4790492 -44.100887 -128.71704
17992000 -42.690102 -36.644348 -0.017418087 -3.6693306 -0.019224767 -3.6716108 -43.514271 -129.15363
18991000 -42.93697 -41.861 -0.018313535 -3.8790557 -0.019625459 -3.8769648 -42.882557 -128.45819
19990000 -42.717216 -47.586296 -0.020480007 -4.0895047 -0.02190836 -4.0821004 -42.248623 -128.78957
20989000 -42.494015 -50.99332 -0.022780534 -4.2916031 -0.023362167 -4.282506 -41.636993 -128.16354
21988000 -42.36713 -56.212658 -0.02323178 -4.493679 -0.024298407 -4.4808731 -41.429253 -127.38487
22987000 -42.010216 -60.87434 -0.024711542 -4.6913471 -0.025981912 -4.6795988 -41.126225 -126.75927
23986000 -41.905445 -65.447952 -0.024074025 -4.8856306 -0.024441581 -4.8847737 -41.023693 -126.83923
24985000 -41.516258 -67.809822 -0.025100503 -5.0943317 -0.024852127 -5.0907903 -40.824802 -124.48119
25984000 -41.142147 -69.772156 -0.026282439 -5.2977018 -0.025446797 -5.3009143 -40.464146 -122.76532
26983000 -40.851101 -71.662041 -0.02718154 -5.4973907 -0.026303794 -5.5107589 -40.379974 -122.11809
27982000 -40.608006 -72.836754 -0.02806806 -5.6962972 -0.027905228 -5.7335005 -40.090984 -120.49552
28981000 -40.663242 -74.062782 -0.025506945 -5.8941951 -0.027767411 -5.9217062 -39.850803 -119.77873
29980000 -40.215687 -75.380081 -0.026131392 -6.090271 -0.027983125 -6.0966849 -39.632519 -119.0789
30979000 -39.847603 -74.255676 -0.024136236 -6.4407744 -0.022223957 -6.4372005 -39.122929 -119.32979
31978000 -39.620148 -75.273033 -0.022437576 -6.6404529 -0.023416821 -6.6269274 -38.838268 -118.56879
32977000 -39.444649 -76.895508 -0.023240888 -6.8488126 -0.024721175 -6.8414392 -38.621071 -118.84718
33976000 -39.266682 -77.886337 -0.023420725 -7.0477695 -0.02450484 -7.0432792 -38.327728 -118.01425
34975000 -38.958363 -78.720947 -0.023777034 -7.2481036 -0.025546523 -7.2498283 -38.100338 -117.89458
35974000 -38.778061 -79.227585 -0.022887485 -7.4438047 -0.025346551 -7.4452434 -37.826675 -116.96176
36973000 -38.550114 -79.893936 -0.02354617 -7.6448517 -0.026525687 -7.6460528 -37.568592 -116.0078
37972000 -38.367268 -79.763763 -0.022920534 -7.8537827 -0.026432971 -7.8622489 -37.357738 -115.31758
38971000 -38.079285 -79.25766 -0.024132332 -8.0536098 -0.026786141 -8.0660639 -37.205292 -113.73743
39970000 -37.729885 -79.522682 -0.022348847 -8.248785 -0.025137214 -8.2602425 -36.94006 -113.13254
40969000 -37.469864 -79.163734 -0.022873694 -8.444149 -0.02527729 -8.4662189 -36.69418 -111.83048
41968000 -37.099751 -79.196083 -0.023369193 -8.6478682 -0.025035154 -8.669466 -36.510777 -110.42481
42967000 -36.867573 -79.17395 -0.022253618 -8.8569479 -0.02502604 -8.8827047 -36.344738 -108.75131
43966000 -36.564869 -79.874718 -0.023847051 -9.0643187 -0.026873136 -9.0784359 -36.053959 -107.91
44965000 -36.33353 -80.624504 -0.024405397 -9.268466 -0.027473032 -9.282836 -35.854 -107.6379
45964000 -36.10627 -81.645882 -0.025377536 -9.4700184 -0.02855764 -9.4798403 -35.620586 -107.32426
46963000 -35.890568 -83.463829 -0.026448077 -9.6592779 -0.02886069 -9.6776133 -35.446411 -107.57059
47962000 -35.736534 -84.909523 -0.027481107 -9.8630085 -0.029944861 -9.8773422 -35.232632 -107.7224
48961000 -35.507408 -86.267761 -0.028788768 -10.059319 -0.031971373 -10.077969 -35.018711 -107.88946
49960000 -35.280685 -87.573769 -0.030946136 -10.252135 -0.032957725 -10.279489 -34.85907 -107.90044
50959000 -35.048267 -88.87513 -0.030962039 -10.469812 -0.033673245 -10.481363 -34.692429 -108.22565
51958000 -34.843716 -89.915634 -0.033477332 -10.669185 -0.035025567 -10.679166 -34.531563 -108.63337
52957000 -34.632515 -90.970871 -0.034789931 -10.872388 -0.036429998 -10.874936 -34.359287 -108.37025
53956000 -34.446831 -91.614334 -0.03527505 -11.07282 -0.036856037 -11.073528 -34.208832 -108.37001
54955000 -34.280212 -92.072365 -0.036484033 -11.273284 -0.038105417 -11.268066 -34.068165 -108.36507
55954000 -34.130299 -92.867935 -0.037534598 -11.473083 -0.037795454 -11.473025 -33.956398 -108.02239
56953000 -34.002136 -92.924507 -0.03746593 -11.669456 -0.037525982 -11.662112 -33.878666 -108.26878
57952000 -33.835598 -93.465111 -0.03860971 -11.867398 -0.037674293 -11.862027 -33.793781 -108.29774
58951000 -33.714577 -93.859245 -0.038933311 -12.073222 -0.039941102 -12.052615 -33.633987 -108.39619
59950000 -33.577209 -94.182091 -0.040122155 -12.270754 -0.040614661 -12.254648 -33.556774 -108.6525
60949000 -33.470432 -94.785614 -0.040198706 -12.476513 -0.040583305 -12.456805 -33.454544 -109.02165
61948000 -33.397228 -95.090752 -0.04079365 -12.674235 -0.040674496 -12.658223 -33.369545 -108.94504
62947000 -33.309109 -95.29818 -0.040805146 -12.883033 -0.04127761 -12.864618 -33.228451 -109.34229
63946000 -33.230846 -95.926262 -0.041850224 -13.08343 -0.042481471 -13.063045 -33.114906 -109.45781
64945000 -33.13065 -96.139351 -0.041898053 -13.28783 -0.043232027 -13.264253 -33.010025 -109.90651
65944000 -33.029457 -96.445465 -0.042623937 -13.485169 -0.04317477 -13.467241 -32.908981 -110.39627
66943000 -32.884285 -96.872452 -0.041195028 -13.68768 -0.04161657 -13.668973 -32.808731 -110.55895
67942000 -32.821289 -96.849113 -0.04307542 -13.884634 -0.042819738 -13.871247 -32.682545 -110.89424
68941000 -32.706291 -96.959274 -0.042402789 -14.077361 -0.041898318 -14.068569 -32.58411 -110.86087
69940000 -32.613693 -96.923897 -0.042702362 -14.278116 -0.042368546 -14.266534 -32.434631 -111.16572
70939000 -32.505161 -96.903526 -0.043151241 -14.469679 -0.043005615 -14.462258 -32.30415 -111.01521
71938000 -32.360111 -96.427017 -0.04290235 -14.669525 -0.042576622 -14.659456 -32.169922 -110.87916
72937000 -32.223988 -96.221466 -0.042534534 -14.869384 -0.042502381 -14.858422 -32.037682 -110.54623
73936000 -32.076862 -95.933434 -0.042000253 -15.065637 -0.04132282 -15.055315 -31.925791 -110.35957
74935000 -31.954489 -96.123741 -0.041785143 -15.262631 -0.040949911 -15.257504 -31.766171 -110.06795
75934000 -31.828941 -96.352791 -0.041706476 -15.472038 -0.040981006 -15.468227 -31.683832 -109.9689
76933000 -31.712881 -96.687035 -0.042832028 -15.666836 -0.041943535 -15.658429 -31.518612 -110.34108
77932000 -31.592571 -97.513931 -0.043918908 -15.862254 -0.04362971 -15.859105 -31.418228 -110.33007
78931000 -31.525127 -98.229149 -0.042638838 -16.060516 -0.042707328 -16.057348 -31.319345 -110.11772
79930000 -31.412258 -99.043549 -0.04473196 -16.253693 -0.044746604 -16.253456 -31.219103 -110.46745
80929000 -31.295422 -99.824951 -0.047075726 -16.451572 -0.047026005 -16.451797 -31.117889 -110.69839
81928000 -31.194735 -100.57635 -0.046856966 -16.64138 -0.04729031 -16.638407 -30.995581 -110.64954
82927000 -31.097795 -101.29905 -0.048891123 -16.840826 -0.048156865 -16.839912 -30.883795 -110.99258
83926000 -30.977545 -101.93434 -0.050134283 -17.039661 -0.049617652 -17.03804 -30.771231 -111.09032
84925000 -30.88035 -102.30894 -0.051163796 -17.239399 -0.050358705 -17.233898 -30.6745 -111.21144
85924000 -30.783247 -102.7629 -0.051435687 -17.440392 -0.050392751 -17.43705 -30.58749 -111.13475
86923000 -30.6744 -103.22846 -0.051468953 -17.640865 -0.051367842 -17.630478 -30.494297 -111.02383
87922000 -30.56949 -103.60744 -0.051573731 -17.843597 -0.050651494 -17.835897 -30.404373 -111.04659
88921000 -30.502287 -103.88736 -0.052645508 -18.043831 -0.051723048 -18.037651 -30.307978 -111.0337
89920000 -30.390528 -104.41328 -0.052937143 -18.242765 -0.052840192 -18.233124 -30.257998 -111.21748
90919000 -30.284475 -104.63683 -0.053665921 -18.440111 -0.053132102 -18.434505 -30.173868 -111.38358
91918000 -30.199738 -105.00095 -0.054861687 -18.633476 -0.053136557 -18.632896 -30.098278 -111.38117
92917000 -30.097311 -105.28242 -0.055820476 -18.838673 -0.055079278 -18.830719 -30.038597 -111.5251
93916000 -30.022495 -105.6404 -0.055449206 -19.029034 -0.054759189 -19.025103 -29.946697 -112.09896
94915000 -29.939737 -106.27229 -0.056803346 -19.228683 -0.055492204 -19.227856 -29.894035 -111.95406
95914000 -29.863871 -106.47406 -0.057652388 -19.426771 -0.056288544 -19.424397 -29.795963 -112.21571
96913000 -29.782072 -106.70696 -0.059107978 -19.627523 -0.057571333 -19.624418 -29.735874 -112.54971
97912000 -29.709803 -107.12975 -0.059855379 -19.822903 -0.057817128 -19.825331 -29.646973 -112.78226
98911000 -29.599846 -107.34203 -0.060293432 -20.023592 -0.059126608 -20.023407 -29.609722 -113.00638
99910000 -29.530409 -107.42881 -0.060698193 -20.222036 -0.058788378 -20.224546 -29.499876 -113.30521
100909000 -29.441813 -107.68887 -0.060099464 -20.431711 -0.058822751 -20.424841 -29.41478 -113.46767
101908000 -29.349003 -107.96677 -0.062143251 -20.633318 -0.05990367 -20.627653 -29.308691 -113.27614
102907000 -29.227928 -107.8718 -0.061923206 -20.83058 -0.060151696 -20.829618 -29.239882 -113.29029
103906000 -29.125715 -107.95456 -0.061806098 -21.040913 -0.059103519 -21.033274 -29.096415 -113.24825
104905000 -28.988783 -107.83661 -0.063478731 -21.237127 -0.059865352 -21.236382 -28.970066 -112.91648
105904000 -28.848257 -107.93931 -0.063536778 -21.436384 -0.059883986 -21.437078 -28.863647 -112.82989
106903000 -28.731365 -108.01373 -0.062176336 -21.646828 -0.060256422 -21.640566 -28.729076 -112.70065
107902000 -28.56863 -108.30719 -0.063622937 -21.842997 -0.062188152 -21.834074 -28.595152 -112.64114
108901000 -28.453896 -108.55143 -0.064759962 -22.046614 -0.062611736 -22.037447 -28.467127 -112.64601
109900000 -28.336868 -109.01472 -0.065183796 -22.248524 -0.063850686 -22.236883 -28.321756 -112.66534
110899000 -28.210884 -109.60979 -0.066471055 -22.445295 -0.064097621 -22.437727 -28.194319 -112.92921
111898000 -28.124178 -110.2733 -0.068276964 -22.649609 -0.065009318 -22.638494 -28.084909 -113.07195
112897000 -27.995892 -110.8186 -0.069890268 -22.843325 -0.066084154 -22.833977 -27.953176 -113.25073
113896000 -27.894733 -111.3448 -0.070995256 -23.044315 -0.06774082 -23.033146 -27.839687 -113.33989
114895000 -27.79244 -111.9814 -0.071893662 -23.241125 -0.068821855 -23.229845 -27.728254 -113.44931
115894000 -27.669212 -112.31718 -0.072504811 -23.444075 -0.070047319 -23.433826 -27.664688 -113.6256
116893000 -27.587265 -112.79963 -0.073058657 -23.639677 -0.071291551 -23.621485 -27.537518 -113.65605
117892000 -27.510927 -113.30837 -0.073466979 -23.836605 -0.071398646 -23.824068 -27.465824 -113.8856
118891000 -27.453226 -113.68733 -0.073752381 -24.038992 -0.071891032 -24.023771 -27.363289 -113.9969
119890000 -27.362123 -114.08305 -0.074939728 -24.236816 -0.072544821 -24.222223 -27.357403 -114.14053
120889000 -27.314165 -114.57033 -0.075890318 -24.442118 -0.072611153 -24.425888 -27.278313 -114.07454
121888000 -27.277723 -114.90321 -0.076238312 -24.634621 -0.073408268 -24.624691 -27.221087 -114.34034
122887000 -27.234083 -115.12941 -0.076846652 -24.837784 -0.074394338 -24.825966 -27.177965 -114.336
123886000 -27.179359 -115.51066 -0.077025555 -25.043045 -0.074295059 -25.021429 -27.166744 -114.49832
124885000 -27.149446 -115.99889 -0.077446371 -25.241056 -0.075138576 -25.227196 -27.139578 -114.5543
125884000 -27.098297 -116.22675 -0.078496881 -25.440454 -0.07502085 -25.428034 -27.115358 -114.69068
126883000 -27.085354 -116.60846 -0.078795791 -25.643974 -0.075824462 -25.627644 -27.068207 -114.71788
127882000 -27.0282 -116.86682 -0.079024337 -25.840876 -0.075982518 -25.822681 -27.02935 -114.8298
128881000 -27.001045 -117.22556 -0.079215728 -26.04524 -0.076333158 -26.027424 -26.995195 -114.95047
129880000 -26.950453 -117.53245 -0.079732724 -26.246065 -0.07671465 -26.226273 -26.955624 -114.9109
130879000 -26.889877 -117.68111 -0.079476722 -26.4461 -0.077348083 -26.429417 -26.88183 -114.91091
131878000 -26.830256 -117.92671 -0.079933897 -26.647013 -0.077632681 -26.627081 -26.820648 -114.78519
132877000 -26.759642 -117.99936 -0.079733774 -26.850718 -0.077981085 -26.830002 -26.743673 -114.77512
133876000 -26.677742 -118.1581 -0.080502927 -27.050936 -0.077362314 -27.030874 -26.659864 -114.62705
134875000 -26.584799 -118.25697 -0.080955729 -27.247276 -0.07767643 -27.230734 -26.561972 -114.50767
135874000 -26.500135 -118.2688 -0.080127172 -27.448294 -0.077700935 -27.437185 -26.466208 -114.44324
136873000 -26.392435 -118.21902 -0.081461862 -27.655447 -0.077393934 -27.635958 -26.384418 -114.37853
137872000 -26.317833 -118.37222 -0.081280656 -27.858654 -0.077362835 -27.84186 -26.284412 -114.33701
138871000 -26.242117 -118.6018 -0.08148481 -28.056551 -0.07804776 -28.03928 -26.189533 -114.51653
139870000 -26.144495 -118.83523 -0.081318639 -28.253397 -0.079320915 -28.238127 -26.106945 -114.65346
140869000 -26.063305 -119.38557 -0.082510173 -28.450869 -0.079982147 -28.430424 -26.012093 -114.85746
141868000 -25.990042 -119.79269 -0.082964502 -28.650068 -0.080807254 -28.633026 -25.961306 -115.0902
142867000 -25.903675 -120.00357 -0.082012892 -28.850033 -0.080218405 -28.829473 -25.880112 -115.2295
143866000 -25.829849 -120.51073 -0.083852194 -29.046001 -0.081664957 -29.029909 -25.806631 -115.71613
144865000 -25.774628 -120.98257 -0.085130744 -29.245043 -0.083166093 -29.226915 -25.753077 -116.01164
145864000 -25.716654 -121.28764 -0.085828505 -29.444191 -0.084662721 -29.432081 -25.722445 -116.24336
146863000 -25.671623 -121.61409 -0.086188391 -29.646009 -0.085271709 -29.633537 -25.668694 -116.53909
147862000 -25.633293 -121.98387 -0.087693729 -29.842289 -0.085250854 -29.83024 -25.636225 -116.8345
148861000 -25.603148 -122.44295 -0.088686474 -30.042315 -0.086360551 -30.024845 -25.610363 -117.0008
149860000 -25.566156 -122.57869 -0.089792028 -30.229973 -0.087360926 -30.221292 -25.565937 -117.10487
150859000 -25.545462 -123.0544 -0.088945933 -30.427328 -0.086878136 -30.417395 -25.544397 -117.44621
151858000 -25.535604 -123.44025 -0.088998243 -30.632092 -0.086123966 -30.61478 -25.535423 -117.80161
152857000 -25.519966 -123.74095 -0.089134581 -30.827963 -0.086838529 -30.817122 -25.523083 -117.96035
153856000 -25.512766 -123.93467 -0.088878289 -31.030148 -0.085794449 -31.017731 -25.533985 -118.26106
154855000 -25.515774 -124.10046 -0.089346498 -31.227516 -0.086296126 -31.218111 -25.52397 -118.52791
155854000 -25.532883 -124.36914 -0.089077778 -31.427446 -0.086929373 -31.415289 -25.510612 -118.79369
156853000 -25.516689 -125.05422 -0.087272711 -31.615675 -0.086629108 -31.61195 -25.507212 -119.1423
157852000 -25.525343 -125.28281 -0.088271171 -31.814556 -0.088261135 -31.808191 -25.498468 -119.45553
158851000 -25.521902 -125.48473 -0.08816947 -32.017612 -0.087732293 -32.008286 -25.481146 -119.7764
159850000 -25.510778 -125.5811 -0.089876071 -32.215508 -0.088293098 -32.210239 -25.479307 -119.95592
160849000 -25.493891 -125.66676 -0.089460656 -32.416603 -0.088532716 -32.412594 -25.45031 -120.20318
161848000 -25.476669 -125.76221 -0.090094626 -32.615288 -0.088499427 -32.608734 -25.413311 -120.29534
162847000 -25.431013 -125.94447 -0.09050297 -32.814781 -0.08914832 -32.811317 -25.383284 -120.61044
163846000 -25.392208 -126.14193 -0.090228096 -33.018398 -0.088899955 -33.005009 -25.309177 -120.599
164845000 -25.340851 -126.1256 -0.090446405 -33.217163 -0.088860586 -33.210842 -25.246975 -120.66722
165844000 -25.284389 -126.14443 -0.090456977 -33.416592 -0.089766398 -33.405296 -25.169504 -120.82247
166843000 -25.224203 -126.19125 -0.091362067 -33.613708 -0.08919324 -33.611504 -25.100935 -120.97588
167842000 -25.166536 -126.31476 -0.091474682 -33.819588 -0.089808419 -33.809452 -25.023748 -120.89898
168841000 -25.088665 -126.46683 -0.092537314 -34.010601 -0.090172596 -34.00951 -24.952847 -120.94258
169840000 -25.026508 -126.71702 -0.091243103 -34.207241 -0.090874605 -34.207218 -24.866922 -121.15211
170839000 -24.965235 -126.94773 -0.092508756 -34.406185 -0.090941221 -34.403839 -24.783815 -121.32317
171838000 -24.906269 -127.34879 -0.092103928 -34.608662 -0.091502443 -34.600899 -24.718723 -121.54636
172837000 -24.835802 -127.64999 -0.094056755 -34.803547 -0.092984498 -34.800499 -24.655891 -121.72607
173836000 -24.770485 -128.04726 -0.095701635 -35.003609 -0.093850963 -35.001049 -24.614653 -121.93935
174835000 -24.715292 -128.44812 -0.095952243 -35.199909 -0.0950552 -35.199017 -24.571007 -122.24187
175834000 -24.663862 -128.82373 -0.096324876 -35.401211 -0.095843211 -35.395397 -24.508244 -122.49339
176833000 -24.611652 -129.1691 -0.097794019 -35.599377 -0.096651487 -35.597492 -24.460924 -122.64078
177832000 -24.569981 -129.57025 -0.097921893 -35.79755 -0.097572953 -35.800476 -24.441515 -122.77407
178831000 -24.524443 -129.78427 -0.099807151 -35.996498 -0.099139705 -35.991093 -24.400656 -122.81995
179830000 -24.45705 -130.22516 -0.10125733 -36.180412 -0.099104486 -36.178642 -24.337206 -122.91454
180829000 -24.408127 -130.57634 -0.099932969 -36.372128 -0.098641843 -36.371311 -24.294985 -123.24418
181828000 -24.380068 -130.9706 -0.098955914 -36.571087 -0.098044485 -36.571499 -24.285786 -123.43743
182827000 -24.358624 -131.36777 -0.098693214 -36.76852 -0.098415174 -36.768692 -24.266319 -123.57063
183826000 -24.320532 -131.68723 -0.10002012 -36.968105 -0.098745123 -36.96587 -24.259752 -123.73257
184825000 -24.321037 -132.0157 -0.099514201 -37.164143 -0.098934203 -37.166862 -24.240103 -123.83289
185824000 -24.293884 -132.41316 -0.099698022 -37.35828 -0.099971376 -37.365013 -24.236156 -123.90802
186823000 -24.27857 -132.76135 -0.099435009 -37.55986 -0.099475004 -37.559158 -24.226061 -123.91319
187822000 -24.255146 -133.10699 -0.10011866 -37.756264 -0.099831514 -37.755486 -24.192339 -123.97028
188821000 -24.232683 -133.33925 -0.10035601 -37.949806 -0.099726625 -37.953697 -24.173878 -124.12746
189820000 -24.218988 -133.66991 -0.10059708 -38.148548 -0.099544927 -38.150738 -24.153538 -124.31764
190819000 -24.182291 -133.96368 -0.10101569 -38.347881 -0.10057748 -38.347965 -24.114117 -124.33546
191818000 -24.15477 -134.21948 -0.1009113 -38.54837 -0.10063735 -38.547459 -24.090965 -124.41153
192817000 -24.101086 -134.52679 -0.1013983 -38.742302 -0.10066067 -38.7449 -24.044516 -124.47604
193816000 -24.072639 -134.78798 -0.10179418 -38.937126 -0.10077618 -38.938843 -23.996876 -124.6072
194815000 -24.015432 -135.17441 -0.10212465 -39.131607 -0.1017751 -39.137081 -23.933411 -124.6823
195814000 -23.960661 -135.34735 -0.10293595 -39.331993 -0.10175682 -39.330208 -23.872599 -124.76678
196813000 -23.906675 -135.70166 -0.10187793 -39.524551 -0.10216308 -39.529045 -23.800184 -124.89532
197812000 -23.849174 -135.90804 -0.10294072 -39.721554 -0.10244109 -39.720936 -23.7269 -125.02654
198811000 -23.794586 -136.07475 -0.10307007 -39.923038 -0.10212757 -39.91811 -23.659327 -125.16071
199810000 -23.721998 -136.39047 -0.10287074 -40.113071 -0.10224205 -40.110664 -23.583973 -125.26154
200809000 -23.667711 -136.63551 -0.10379061 -40.313763 -0.1020674 -40.313538 -23.503906 -125.44461
201808000 -23.611128 -136.85025 -0.10445559 -40.513145 -0.10399582 -40.514858 -23.436218 -125.52657
202807000 -23.554394 -137.20399 -0.10435323 -40.715061 -0.10417505 -40.717159 -23.383425 -125.71207
