!Keysight Technologies,E5080B,MY59205177,A.15.75.32
!Date: Friday, February 23, 2024 03:04:16
!Correction: S11(Cdelta 2-Port  ) 
!S21(Cdelta 2-Port  ) 
!S12(Cdelta 2-Port  ) 
!S22(Cdelta 2-Port  ) 
!S2P File: Measurements: S11, S21, S12, S22:
# Hz S  dB   R 50
10000000 -44.147602 -3.5581076 -0.026285823 -2.0389814 -0.03032621 -2.0933602 -47.992352 -150.79727
10999000 -43.569061 -5.6631842 -0.028006574 -2.2550592 -0.029975096 -2.3109193 -47.752155 -142.69281
11998000 -42.762383 -8.1062002 -0.027834885 -2.4789066 -0.03003218 -2.5243266 -47.845081 -137.46585
12997000 -42.162449 -12.925084 -0.027466519 -2.6587551 -0.029495001 -2.6903682 -47.159294 -131.17584
13996000 -41.91066 -16.064308 -0.026758533 -2.837065 -0.02985598 -2.8602238 -46.765129 -125.70778
14995000 -41.562588 -20.037933 -0.029062647 -3.0449927 -0.029495522 -3.0734963 -46.282215 -122.2441
15994000 -41.442066 -23.860107 -0.029833825 -3.2647448 -0.0313586 -3.2862892 -46.126392 -118.92496
16993000 -41.44413 -27.746178 -0.028943557 -3.463243 -0.031172698 -3.4711604 -45.163292 -119.56106
17992000 -41.523628 -32.554466 -0.029271914 -3.6567202 -0.032392018 -3.6635487 -44.581871 -120.37535
18991000 -41.763706 -37.202461 -0.030797534 -3.8705974 -0.03300311 -3.8641949 -43.803154 -119.48824
19990000 -41.637192 -42.19791 -0.032510944 -4.0768485 -0.034794368 -4.0706244 -43.159664 -121.36294
20989000 -41.537537 -45.260799 -0.034819938 -4.2780256 -0.036395282 -4.2702975 -42.591736 -120.79456
21988000 -41.467255 -49.537319 -0.035734642 -4.4768496 -0.037110582 -4.4638286 -42.262768 -120.37948
22987000 -41.196877 -54.33091 -0.037482642 -4.6762629 -0.03853371 -4.6677713 -42.0373 -120.0843
23986000 -41.168228 -57.948864 -0.036720809 -4.8709526 -0.036827844 -4.8687959 -41.900997 -120.00922
24985000 -40.839283 -60.611401 -0.037292298 -5.0792184 -0.037361227 -5.0740662 -41.617401 -117.40345
25984000 -40.61824 -62.940536 -0.038789138 -5.2850485 -0.037928104 -5.2836275 -41.295937 -116.14469
26983000 -40.350201 -64.501801 -0.039407399 -5.4819994 -0.038621984 -5.4963861 -41.148602 -115.13754
27982000 -40.204933 -65.539413 -0.039622389 -5.6807189 -0.040566582 -5.710392 -40.886265 -113.53027
28981000 -40.177734 -66.751114 -0.038156077 -5.8779979 -0.039981857 -5.9017506 -40.641888 -112.94535
29980000 -39.803082 -68.42083 -0.038471814 -6.0704489 -0.040184595 -6.0774846 -40.320045 -112.27759
30979000 -39.429314 -67.673164 -0.035682183 -6.4263725 -0.03541702 -6.4165015 -39.795177 -113.19812
31978000 -39.26503 -68.627251 -0.035573348 -6.6176624 -0.035770662 -6.6082525 -39.530979 -112.54567
32977000 -39.06691 -70.328094 -0.035503142 -6.8304534 -0.036788683 -6.8266425 -39.290131 -112.65847
33976000 -38.942852 -71.463516 -0.035719246 -7.0292468 -0.037440341 -7.022861 -38.986252 -112.24321
34975000 -38.674099 -72.403183 -0.03610893 -7.2264972 -0.038221102 -7.2264667 -38.748661 -112.13025
35974000 -38.474232 -73.132477 -0.035601012 -7.4198503 -0.037794933 -7.4286571 -38.465126 -111.17167
36973000 -38.265526 -73.978592 -0.035437115 -7.6191702 -0.038615454 -7.624835 -38.148235 -110.48985
37972000 -38.077271 -73.916336 -0.035174835 -7.8315344 -0.039542712 -7.8416333 -37.918968 -110.01749
38971000 -37.776268 -73.66214 -0.035836693 -8.0330067 -0.038699813 -8.0424738 -37.731537 -108.59755
39970000 -37.448059 -74.187935 -0.034685556 -8.2280264 -0.037886586 -8.2415228 -37.454357 -108.25956
40969000 -37.175686 -74.019302 -0.035176925 -8.418252 -0.036977172 -8.4416876 -37.180676 -106.79708
41968000 -36.821003 -74.324532 -0.0350454 -8.6241665 -0.0375017 -8.635499 -36.953876 -105.67278
42967000 -36.579998 -74.416435 -0.034851514 -8.8353472 -0.038043264 -8.8551569 -36.747677 -103.88112
43966000 -36.305782 -75.333672 -0.035554819 -9.0396366 -0.03981727 -9.0602951 -36.475067 -103.34433
44965000 -36.077133 -76.322075 -0.036260847 -9.2374573 -0.039662357 -9.2590666 -36.235859 -103.32935
45964000 -35.861637 -77.502731 -0.037529379 -9.438096 -0.040373497 -9.4567909 -35.991264 -103.17883
46963000 -35.687695 -79.444534 -0.037482116 -9.6298265 -0.041350521 -9.6499262 -35.800346 -103.49091
47962000 -35.530209 -81.002304 -0.038797494 -9.8330793 -0.043000128 -9.8497286 -35.608727 -103.59241
48961000 -35.330471 -82.458603 -0.04111794 -10.028741 -0.043530613 -10.050796 -35.383259 -104.02355
49960000 -35.116875 -83.837143 -0.042705499 -10.227758 -0.044884961 -10.248457 -35.227516 -104.10502
50959000 -34.923637 -85.092201 -0.043288499 -10.441715 -0.046120957 -10.452287 -35.057011 -104.56631
51958000 -34.709846 -86.297462 -0.045269195 -10.637497 -0.047491293 -10.646274 -34.891205 -105.00675
52957000 -34.517162 -87.361099 -0.046755962 -10.840933 -0.048753161 -10.844617 -34.720913 -104.89069
53956000 -34.362293 -88.127106 -0.047567453 -11.043524 -0.049562406 -11.041553 -34.570572 -104.8515
54955000 -34.195335 -88.67942 -0.048720177 -11.241961 -0.050769612 -11.235913 -34.431622 -104.91613
55954000 -34.032837 -89.556396 -0.050011206 -11.439991 -0.050242957 -11.440866 -34.310486 -104.66264
56953000 -33.929089 -89.620827 -0.049536221 -11.636206 -0.049576283 -11.627531 -34.236031 -104.90324
57952000 -33.760456 -90.19635 -0.050582096 -11.832047 -0.051141795 -11.825644 -34.147602 -104.95925
58951000 -33.655228 -90.566307 -0.050902925 -12.039937 -0.051448781 -12.019017 -33.977493 -105.14443
59950000 -33.520531 -90.978401 -0.051947553 -12.240563 -0.05204501 -12.218233 -33.928387 -105.37426
60949000 -33.426373 -91.572044 -0.052622713 -12.438572 -0.052953914 -12.417635 -33.82682 -105.63277
61948000 -33.363541 -91.815521 -0.052894171 -12.63812 -0.052709181 -12.619889 -33.741249 -105.73182
62947000 -33.27924 -92.056648 -0.053301126 -12.849603 -0.053134721 -12.830456 -33.61322 -106.03084
63946000 -33.202492 -92.696129 -0.053848855 -13.046185 -0.054170713 -13.026105 -33.500736 -106.15496
64945000 -33.09605 -92.924065 -0.053845186 -13.249476 -0.054436501 -13.229686 -33.392223 -106.66586
65944000 -33.000778 -93.263977 -0.054992504 -13.44472 -0.055399131 -13.430363 -33.307835 -107.12401
66943000 -32.863853 -93.607925 -0.052879758 -13.651736 -0.053440802 -13.629308 -33.215 -107.42556
67942000 -32.810329 -93.598106 -0.055032089 -13.847817 -0.055080328 -13.833087 -33.09008 -107.7068
68941000 -32.709053 -93.823441 -0.054613702 -14.034899 -0.054244369 -14.029579 -32.968098 -107.71991
69940000 -32.60442 -93.74501 -0.05493876 -14.235822 -0.055291899 -14.230665 -32.833992 -108.06541
70939000 -32.499367 -93.741974 -0.054600857 -14.432137 -0.055147704 -14.42137 -32.699043 -107.9408
71938000 -32.355968 -93.37278 -0.054761808 -14.633328 -0.054816335 -14.621601 -32.579163 -107.87299
72937000 -32.197102 -93.288048 -0.053980429 -14.827497 -0.053698946 -14.818635 -32.428715 -107.61225
73936000 -32.067394 -92.939003 -0.053814523 -15.024627 -0.054078192 -15.018898 -32.315716 -107.47874
74935000 -31.945719 -93.273582 -0.053037766 -15.2236 -0.052956797 -15.218708 -32.170795 -107.15456
75934000 -31.811287 -93.56942 -0.05317298 -15.428745 -0.052882642 -15.422578 -32.072529 -107.15869
76933000 -31.689438 -93.942032 -0.054935351 -15.621063 -0.054352097 -15.612182 -31.900711 -107.5057
77932000 -31.591684 -94.7239 -0.055418793 -15.820197 -0.056223772 -15.813756 -31.793152 -107.50215
78931000 -31.522877 -95.50853 -0.054735597 -16.016462 -0.055074822 -16.012701 -31.700481 -107.41344
79930000 -31.404333 -96.371788 -0.056639954 -16.20822 -0.058446765 -16.208227 -31.608873 -107.72881
80929000 -31.289089 -97.22628 -0.059254665 -16.406006 -0.058497924 -16.402327 -31.4974 -108.0939
81928000 -31.205599 -98.109779 -0.058268357 -16.595455 -0.059166495 -16.593996 -31.373779 -108.18394
82927000 -31.10667 -98.838562 -0.060225975 -16.794273 -0.060145922 -16.792809 -31.285219 -108.46715
83926000 -30.992943 -99.547195 -0.061580293 -16.992737 -0.061491024 -16.993391 -31.161396 -108.67652
84925000 -30.89407 -99.982849 -0.062808968 -17.190601 -0.061774589 -17.189079 -31.066561 -108.78596
85924000 -30.799927 -100.42548 -0.063150398 -17.391369 -0.062880144 -17.386038 -30.990862 -108.74469
86923000 -30.70188 -100.98876 -0.063462965 -17.585518 -0.06352102 -17.579496 -30.88796 -108.67584
87922000 -30.595867 -101.35883 -0.063637123 -17.795397 -0.062482528 -17.783941 -30.799093 -108.74732
88921000 -30.525131 -101.63683 -0.064915515 -17.990793 -0.064793333 -17.985378 -30.704975 -108.74546
89920000 -30.425026 -102.18015 -0.065139912 -18.189272 -0.064387135 -18.178972 -30.65959 -108.88374
90919000 -30.331516 -102.45245 -0.065764301 -18.385748 -0.065477327 -18.379751 -30.56823 -109.0722
91918000 -30.234228 -102.79436 -0.066835649 -18.588856 -0.066136718 -18.580647 -30.508354 -109.06779
92917000 -30.158087 -103.17841 -0.067716099 -18.788351 -0.06699048 -18.776651 -30.443909 -109.1387
93916000 -30.060406 -103.58537 -0.066870876 -18.976223 -0.066794641 -18.971304 -30.354101 -109.84619
94915000 -29.992653 -104.15588 -0.068833955 -19.177532 -0.067888848 -19.170679 -30.301548 -109.65031
95914000 -29.933279 -104.38391 -0.069312364 -19.372902 -0.068912059 -19.370316 -30.207016 -109.96164
96913000 -29.855698 -104.63186 -0.070825808 -19.574228 -0.069776103 -19.56922 -30.14843 -110.30213
97912000 -29.77478 -105.19469 -0.071772598 -19.765907 -0.06988211 -19.770065 -30.063986 -110.60759
98911000 -29.668139 -105.33751 -0.071785234 -19.968567 -0.071335495 -19.966618 -30.026726 -110.80196
99910000 -29.612869 -105.49377 -0.072892807 -20.166409 -0.071228921 -20.168798 -29.917654 -111.1451
100909000 -29.5231 -105.76744 -0.071798652 -20.376728 -0.070294872 -20.368063 -29.839787 -111.30964
101908000 -29.43166 -106.02877 -0.073321387 -20.57258 -0.071831554 -20.572613 -29.719114 -111.09495
102907000 -29.307617 -106.05491 -0.073061287 -20.775412 -0.071961299 -20.772861 -29.654028 -111.05584
103906000 -29.214474 -106.13424 -0.073721312 -20.97784 -0.070941582 -20.975435 -29.496758 -111.00934
104905000 -29.070065 -106.09156 -0.07484334 -21.177256 -0.071753919 -21.17877 -29.376648 -110.75755
105904000 -28.924683 -106.14066 -0.075079843 -21.381321 -0.071888134 -21.371346 -29.266617 -110.63107
106903000 -28.821785 -106.27222 -0.075125672 -21.584364 -0.072351098 -21.57905 -29.138279 -110.47278
107902000 -28.659399 -106.62363 -0.075207315 -21.787193 -0.07321924 -21.77737 -28.996775 -110.41946
108901000 -28.546551 -106.9158 -0.076373987 -21.98727 -0.074389331 -21.976017 -28.873962 -110.40865
109900000 -28.421322 -107.35365 -0.077515148 -22.188309 -0.075546302 -22.17252 -28.718 -110.50189
110899000 -28.305273 -108.00683 -0.078667156 -22.3859 -0.076364502 -22.374834 -28.595379 -110.76761
111898000 -28.219919 -108.67016 -0.080273777 -22.583771 -0.077487744 -22.577967 -28.481251 -110.90146
112897000 -28.086657 -109.24543 -0.081265099 -22.78097 -0.078572527 -22.769451 -28.340385 -111.10539
113896000 -27.983187 -109.81971 -0.082834952 -22.982244 -0.07985875 -22.968954 -28.230818 -111.27792
114895000 -27.887136 -110.48367 -0.083724461 -23.17944 -0.081351608 -23.165686 -28.124527 -111.36113
115894000 -27.759607 -110.81598 -0.084915861 -23.380159 -0.082398839 -23.369143 -28.055206 -111.52335
116893000 -27.68222 -111.3935 -0.085731611 -23.573336 -0.083758771 -23.55864 -27.929176 -111.63983
117892000 -27.59988 -111.87833 -0.085328206 -23.774549 -0.083311744 -23.757618 -27.857092 -111.86845
118891000 -27.540495 -112.2865 -0.086009637 -23.97224 -0.083924502 -23.959894 -27.761837 -111.97071
119890000 -27.449961 -112.66416 -0.086933069 -24.174746 -0.084433883 -24.162165 -27.744612 -112.1353
120889000 -27.394049 -113.14748 -0.087914027 -24.376047 -0.084681727 -24.36035 -27.674704 -112.073
121888000 -27.356876 -113.4874 -0.087836891 -24.567659 -0.085106455 -24.557613 -27.618757 -112.37078
122887000 -27.311089 -113.64668 -0.088860855 -24.774334 -0.085671678 -24.759539 -27.566385 -112.4044
123886000 -27.261742 -114.09414 -0.089523278 -24.974163 -0.086342067 -24.95628 -27.557581 -112.56615
124885000 -27.226179 -114.6425 -0.090453804 -25.171192 -0.08699064 -25.157753 -27.527458 -112.66289
125884000 -27.175568 -114.81279 -0.090105996 -25.369772 -0.086899005 -25.358648 -27.495663 -112.8349
126883000 -27.150158 -115.18338 -0.090776801 -25.571451 -0.086831659 -25.560179 -27.45545 -112.8633
127882000 -27.100798 -115.52406 -0.090805881 -25.769711 -0.087979801 -25.756441 -27.411131 -113.06236
128881000 -27.076439 -115.82001 -0.090535477 -25.972708 -0.087586485 -25.956524 -27.377768 -113.15377
129880000 -27.017939 -116.12849 -0.091468871 -26.17358 -0.088072516 -26.156219 -27.333927 -113.1414
130879000 -26.958714 -116.30233 -0.091275878 -26.37586 -0.088962838 -26.356062 -27.255766 -113.23444
131878000 -26.889492 -116.50382 -0.091616385 -26.575998 -0.088424131 -26.559227 -27.192888 -113.10628
132877000 -26.826134 -116.60483 -0.091308132 -26.776691 -0.089119785 -26.763573 -27.109219 -113.16714
133876000 -26.742485 -116.73286 -0.09199658 -26.975763 -0.089009874 -26.957636 -27.016724 -113.04195
134875000 -26.641514 -116.87537 -0.091320559 -27.177546 -0.089188747 -27.160101 -26.916492 -112.88302
135874000 -26.565186 -116.91721 -0.092248037 -27.378342 -0.08937636 -27.360212 -26.818623 -112.90482
136873000 -26.451059 -116.84422 -0.092743315 -27.580635 -0.089173689 -27.559618 -26.733912 -112.92625
137872000 -26.373058 -116.94098 -0.093277529 -27.781439 -0.089518785 -27.762516 -26.623955 -112.83471
138871000 -26.306477 -117.1478 -0.093446538 -27.97751 -0.090102822 -27.965311 -26.528513 -113.01232
139870000 -26.203703 -117.43367 -0.093707599 -28.17927 -0.091779247 -28.16613 -26.449211 -113.17795
140869000 -26.118881 -117.85011 -0.095608748 -28.37224 -0.092940599 -28.353621 -26.342785 -113.30562
141868000 -26.021318 -118.37589 -0.095681526 -28.568085 -0.093425907 -28.552214 -26.274279 -113.62093
142867000 -25.946217 -118.63815 -0.094113365 -28.765667 -0.09255027 -28.747662 -26.192188 -113.84106
143866000 -25.873266 -119.09064 -0.095913604 -28.960218 -0.093288906 -28.946594 -26.121147 -114.35107
144865000 -25.814968 -119.61214 -0.097077645 -29.157692 -0.094939306 -29.144718 -26.066761 -114.66193
145864000 -25.759691 -119.95039 -0.097518682 -29.362427 -0.09600623 -29.349867 -26.031809 -114.90974
146863000 -25.71699 -120.3168 -0.098123915 -29.559023 -0.096044868 -29.54471 -25.978071 -115.21405
147862000 -25.676567 -120.67406 -0.098489054 -29.753988 -0.096314028 -29.743008 -25.946039 -115.54555
148861000 -25.639116 -121.1869 -0.098817676 -29.954475 -0.097221918 -29.939999 -25.922525 -115.78717
149860000 -25.628353 -121.36838 -0.099760532 -30.152428 -0.097041652 -30.138281 -25.88769 -115.94016
150859000 -25.608171 -121.79063 -0.10039045 -30.352194 -0.097966641 -30.335588 -25.886002 -116.18656
151858000 -25.591068 -122.08942 -0.10009005 -30.551556 -0.098378368 -30.540846 -25.872665 -116.48293
152857000 -25.577351 -122.37158 -0.10064212 -30.749802 -0.098248363 -30.735756 -25.852964 -116.62872
153856000 -25.567377 -122.6065 -0.10073538 -30.946482 -0.097459376 -30.932257 -25.873405 -116.89067
154855000 -25.559938 -122.75328 -0.10027388 -31.147882 -0.097655289 -31.13541 -25.863035 -117.13044
155854000 -25.574459 -123.02124 -0.10104483 -31.347122 -0.09843 -31.332441 -25.850855 -117.38325
156853000 -25.559923 -123.75588 -0.098827474 -31.532869 -0.09791898 -31.520643 -25.846968 -117.67703
157852000 -25.558722 -123.95811 -0.1000323 -31.734972 -0.099237166 -31.721451 -25.836559 -118.01035
158851000 -25.557632 -124.17139 -0.10051231 -31.933474 -0.099435806 -31.920893 -25.820372 -118.28494
159850000 -25.543308 -124.31484 -0.10139723 -32.130405 -0.099201679 -32.12273 -25.82402 -118.41447
160849000 -25.530676 -124.42217 -0.1009574 -32.327282 -0.10055841 -32.324192 -25.790161 -118.73779
161848000 -25.50605 -124.56348 -0.10144228 -32.528179 -0.10101622 -32.519142 -25.750231 -118.86537
162847000 -25.465284 -124.77016 -0.10180531 -32.724888 -0.101092 -32.720169 -25.720135 -119.12142
163846000 -25.417763 -124.94195 -0.10231573 -32.925156 -0.10097913 -32.91851 -25.64312 -119.11738
164845000 -25.362904 -124.9795 -0.10225849 -33.127625 -0.10094945 -33.115685 -25.577826 -119.21864
165844000 -25.312134 -125.06403 -0.10259297 -33.322098 -0.10135775 -33.316235 -25.494709 -119.36275
166843000 -25.249645 -125.13781 -0.10184135 -33.520672 -0.10129814 -33.522148 -25.427153 -119.53954
167842000 -25.188547 -125.28162 -0.10258528 -33.721004 -0.10136332 -33.714436 -25.344934 -119.45627
168841000 -25.11182 -125.47453 -0.10299824 -33.918076 -0.10208384 -33.915359 -25.271139 -119.54813
169840000 -25.049564 -125.75564 -0.1028787 -34.113678 -0.10243049 -34.11108 -25.181131 -119.7543
170839000 -24.984137 -125.99717 -0.10431028 -34.3111 -0.10300063 -34.307903 -25.095049 -119.93046
171838000 -24.922329 -126.40218 -0.103679 -34.51149 -0.10426733 -34.507221 -25.03343 -120.15117
172837000 -24.85832 -126.82185 -0.10532647 -34.70657 -0.10438929 -34.700607 -24.964256 -120.38284
173836000 -24.790464 -127.22133 -0.1071839 -34.907635 -0.10532726 -34.902695 -24.920025 -120.62694
174835000 -24.73452 -127.63608 -0.10682625 -35.101215 -0.10632166 -35.102127 -24.875046 -120.96844
175834000 -24.685331 -128.01758 -0.10778782 -35.300766 -0.10726031 -35.295357 -24.810749 -121.24503
176833000 -24.636072 -128.40562 -0.10895213 -35.497749 -0.10703637 -35.49577 -24.756025 -121.40976
177832000 -24.59263 -128.88033 -0.10921041 -35.693832 -0.10772679 -35.69376 -24.737585 -121.58059
178831000 -24.55168 -129.24017 -0.109834 -35.888554 -0.1083292 -35.888294 -24.698484 -121.80251
179830000 -24.510897 -129.66827 -0.11022482 -36.088867 -0.10854126 -36.087696 -24.669401 -121.89922
180829000 -24.472649 -129.86417 -0.1104221 -36.285915 -0.10945888 -36.284813 -24.642143 -122.06661
181828000 -24.448769 -130.21222 -0.11055008 -36.48204 -0.10911007 -36.479179 -24.620979 -122.19878
182827000 -24.425516 -130.59331 -0.11039926 -36.677681 -0.10962187 -36.677853 -24.610634 -122.28882
183826000 -24.384527 -130.84338 -0.11161208 -36.875603 -0.1098563 -36.871014 -24.606236 -122.38068
184825000 -24.386818 -131.1803 -0.11015446 -37.071186 -0.11060744 -37.068935 -24.585402 -122.50473
185824000 -24.364674 -131.56396 -0.11067913 -37.264442 -0.11047042 -37.264988 -24.585806 -122.53661
186823000 -24.347815 -131.89525 -0.11060213 -37.464226 -0.11081722 -37.464184 -24.583632 -122.51174
187822000 -24.325064 -132.21333 -0.1119757 -37.656891 -0.11094894 -37.662022 -24.549692 -122.60513
188821000 -24.305136 -132.46503 -0.11141369 -37.856762 -0.11170983 -37.858829 -24.532288 -122.70417
189820000 -24.29355 -132.71899 -0.111615 -38.057571 -0.11145034 -38.057739 -24.520557 -122.84174
190819000 -24.26545 -132.96901 -0.11338478 -38.255116 -0.11278167 -38.252083 -24.493006 -122.81027
191818000 -24.230602 -133.14513 -0.11429147 -38.449814 -0.11425347 -38.449387 -24.457018 -122.7272
192817000 -24.161575 -133.4498 -0.11465771 -38.633621 -0.11440947 -38.633064 -24.389347 -122.79713
193816000 -24.12174 -133.80244 -0.11372039 -38.828972 -0.11297721 -38.825859 -24.330566 -123.05029
194815000 -24.068232 -134.28178 -0.11389285 -39.023262 -0.1128279 -39.027889 -24.273716 -123.1689
195814000 -24.014818 -134.44774 -0.11489479 -39.224693 -0.11363775 -39.220921 -24.219341 -123.27057
196813000 -23.962547 -134.81308 -0.11396273 -39.414299 -0.11307073 -39.418652 -24.143589 -123.46418
197812000 -23.909592 -135.05925 -0.11381844 -39.612568 -0.11356653 -39.613125 -24.07563 -123.5423
198811000 -23.858253 -135.23721 -0.11335981 -39.81184 -0.11288236 -39.813839 -24.003815 -123.72868
199810000 -23.788177 -135.61967 -0.11431778 -40.002506 -0.11291982 -40.001446 -23.923943 -123.82419
200809000 -23.728374 -135.90392 -0.11458063 -40.200375 -0.11284596 -40.203487 -23.849201 -124.03846
201808000 -23.672949 -136.10535 -0.11486183 -40.401096 -0.11468349 -40.408035 -23.781612 -124.10849
202807000 -23.613256 -136.48445 -0.11536714 -40.602745 -0.11495114 -40.604118 -23.724186 -124.32288
203806000 -23.561804 -136.91948 -0.11742913 -40.804951 -0.11586852 -40.805313 -23.662823 -124.46114
