!Keysight Technologies,E5080B,MY59205177,A.15.75.32
!Date: Friday, February 23, 2024 03:42:26
!Correction: S11(Cdelta 2-Port  ) 
!S21(Cdelta 2-Port  ) 
!S12(Cdelta 2-Port  ) 
!S22(Cdelta 2-Port  ) 
!S2P File: Measurements: S11, S21, S12, S22:
# Hz S  dB   R 50
10000000 -46.117432 -2.9013691 -0.015035458 -2.0419874 -0.018552698 -2.097852 -45.906761 -157.35025
10999000 -45.32238 -4.8985872 -0.015686719 -2.2581921 -0.017926481 -2.3159444 -45.816181 -151.15952
11998000 -44.346996 -7.7897053 -0.016450847 -2.4836135 -0.017827189 -2.5268247 -46.000179 -146.79227
12997000 -43.624168 -13.401423 -0.015365622 -2.6624761 -0.017644465 -2.6997609 -45.609455 -140.89011
13996000 -43.303596 -17.370058 -0.015292885 -2.8467774 -0.017749213 -2.864059 -45.379894 -135.78639
14995000 -42.894657 -21.855925 -0.017098941 -3.054667 -0.017836286 -3.0770001 -45.079449 -132.34622
15994000 -42.719303 -26.429749 -0.018502265 -3.2753789 -0.020090941 -3.2951155 -44.910255 -129.14616
16993000 -42.685604 -30.867575 -0.017131427 -3.4702308 -0.019332152 -3.4786406 -44.106354 -128.93123
17992000 -42.735744 -36.706062 -0.018378263 -3.6689548 -0.019823607 -3.6714234 -43.546558 -129.0619
18991000 -42.949837 -41.864101 -0.018696463 -3.8818207 -0.020380396 -3.8780146 -42.851234 -127.98485
19990000 -42.73019 -47.530167 -0.021201018 -4.0913396 -0.022637675 -4.0850525 -42.220169 -128.87418
20989000 -42.514957 -50.958599 -0.023297103 -4.2944436 -0.02428331 -4.2825713 -41.6418 -128.03941
21988000 -42.354576 -56.422131 -0.024323659 -4.4948726 -0.025570739 -4.47574 -41.416325 -127.31229
22987000 -41.979412 -60.929317 -0.025652502 -4.6897478 -0.026200663 -4.6783886 -41.158298 -126.59418
23986000 -41.934639 -65.246246 -0.025672032 -4.8855691 -0.025016667 -4.8805161 -41.035225 -126.92088
24985000 -41.501686 -67.529236 -0.026431147 -5.093544 -0.025235111 -5.0850935 -40.842182 -124.17895
25984000 -41.155689 -69.86412 -0.027313868 -5.2983856 -0.025427528 -5.2990794 -40.455044 -123.03904
26983000 -40.885517 -71.744362 -0.027329236 -5.4998112 -0.026599916 -5.5126629 -40.360424 -122.08199
27982000 -40.666588 -72.72242 -0.028961798 -5.6971951 -0.028302029 -5.7307296 -40.076622 -120.72325
28981000 -40.61768 -74.30304 -0.026932523 -5.8946676 -0.028666558 -5.9156761 -39.857296 -120.11011
29980000 -40.218777 -75.455811 -0.027183363 -6.0874047 -0.028603759 -6.0914826 -39.575432 -119.3206
30979000 -39.856106 -74.501373 -0.024841452 -6.4389629 -0.023104781 -6.4337025 -39.090332 -119.40604
31978000 -39.641617 -75.370186 -0.023705717 -6.6390929 -0.024569921 -6.6292596 -38.843559 -118.76554
32977000 -39.429703 -76.995216 -0.023859283 -6.8489456 -0.025342124 -6.844121 -38.62381 -118.85037
33976000 -39.278507 -78.036446 -0.024602463 -7.0449057 -0.02579494 -7.0413032 -38.321289 -118.26192
34975000 -38.993839 -78.683098 -0.024605587 -7.2490215 -0.026185039 -7.2466207 -38.117046 -117.79195
35974000 -38.79747 -79.277603 -0.023711964 -7.4399843 -0.026284002 -7.449368 -37.834351 -116.87629
36973000 -38.548393 -79.901756 -0.024019102 -7.6457343 -0.026955444 -7.6451378 -37.5886 -116.07391
37972000 -38.383755 -79.710426 -0.023306211 -7.8535771 -0.02693695 -7.8628721 -37.353004 -115.3209
38971000 -38.035191 -79.143318 -0.025086965 -8.0514469 -0.026691334 -8.0648108 -37.197117 -113.87835
39970000 -37.723785 -79.539474 -0.022855738 -8.2508173 -0.025686614 -8.2619324 -36.924049 -113.18431
40969000 -37.461697 -79.111176 -0.023439463 -8.44207 -0.025447316 -8.4654312 -36.703773 -111.63451
41968000 -37.112652 -79.117561 -0.023450654 -8.6486406 -0.025732443 -8.6647568 -36.513744 -110.47272
42967000 -36.860912 -79.084152 -0.024055803 -8.8598022 -0.025786085 -8.8780012 -36.325329 -108.69164
43966000 -36.561752 -79.73822 -0.02478548 -9.0619888 -0.02701327 -9.0825291 -36.059582 -108.006
44965000 -36.32568 -80.639305 -0.024585541 -9.2634706 -0.028045394 -9.2836409 -35.842937 -107.74154
45964000 -36.085205 -81.656425 -0.026351454 -9.4610796 -0.028831504 -9.4824619 -35.615318 -107.39752
46963000 -35.881672 -83.382057 -0.026653569 -9.6548834 -0.029240901 -9.6806602 -35.446911 -107.57632
47962000 -35.725468 -84.84687 -0.027713222 -9.858017 -0.030958651 -9.880744 -35.226143 -107.72463
48961000 -35.522018 -86.228241 -0.029631831 -10.059158 -0.031666279 -10.078612 -35.01651 -107.87112
49960000 -35.266582 -87.614105 -0.030891908 -10.255903 -0.033022933 -10.279644 -34.875233 -107.89957
50959000 -35.047543 -88.832191 -0.031391453 -10.468672 -0.034650069 -10.481425 -34.698593 -108.13895
51958000 -34.846973 -89.892166 -0.033544898 -10.668983 -0.03534212 -10.676714 -34.520363 -108.66145
52957000 -34.631046 -90.900612 -0.034631282 -10.870955 -0.036743257 -10.877355 -34.367558 -108.36506
53956000 -34.457081 -91.581406 -0.035813987 -11.072453 -0.03782757 -11.075296 -34.22094 -108.3695
54955000 -34.298084 -92.06031 -0.037336163 -11.272333 -0.038238078 -11.268891 -34.066471 -108.33034
55954000 -34.118565 -92.853378 -0.037722338 -11.471429 -0.038373876 -11.47145 -33.96262 -108.00066
56953000 -34.017956 -92.974022 -0.037538517 -11.667971 -0.037856035 -11.655867 -33.880455 -108.25182
57952000 -33.826836 -93.491127 -0.038593777 -11.867993 -0.039250672 -11.856936 -33.77882 -108.30228
58951000 -33.71117 -93.803787 -0.040238678 -12.073145 -0.040033847 -12.057363 -33.624863 -108.4586
59950000 -33.580212 -94.118118 -0.040505704 -12.273074 -0.040162127 -12.251221 -33.550442 -108.65455
60949000 -33.476852 -94.814034 -0.040685471 -12.472873 -0.040893991 -12.451411 -33.463795 -108.94873
61948000 -33.396187 -95.077232 -0.041529018 -12.675172 -0.04064079 -12.656296 -33.37051 -109.01374
62947000 -33.317501 -95.291473 -0.04215708 -12.884178 -0.041353919 -12.864265 -33.237057 -109.31368
63946000 -33.233624 -96.063927 -0.042470492 -13.086034 -0.042471014 -13.063856 -33.121372 -109.42815
64945000 -33.121124 -96.179848 -0.04325974 -13.285624 -0.043150976 -13.269507 -32.997711 -109.92428
65944000 -33.022488 -96.514885 -0.043838631 -13.486141 -0.043344188 -13.467114 -32.91349 -110.3064
66943000 -32.884621 -96.877838 -0.04160925 -13.684742 -0.041559074 -13.668745 -32.80542 -110.59085
67942000 -32.828426 -96.874985 -0.0438857 -13.882077 -0.043575324 -13.870786 -32.685379 -110.8538
68941000 -32.713623 -96.943642 -0.043148365 -14.074171 -0.042587079 -14.070213 -32.572857 -110.83421
69940000 -32.612804 -96.935432 -0.043405108 -14.274075 -0.04350891 -14.268786 -32.428066 -111.10287
70939000 -32.501842 -96.865784 -0.043809082 -14.470588 -0.043319613 -14.462562 -32.293453 -111.05103
71938000 -32.366001 -96.440277 -0.043161172 -14.6728 -0.042604592 -14.663148 -32.169647 -110.85802
72937000 -32.207485 -96.258461 -0.042559106 -14.866863 -0.043070193 -14.862171 -32.036705 -110.56583
73936000 -32.071415 -95.912506 -0.042056449 -15.064537 -0.042107154 -15.057784 -31.916777 -110.36974
74935000 -31.951986 -96.10952 -0.042397037 -15.258784 -0.040959843 -15.258076 -31.766241 -110.00288
75934000 -31.822386 -96.371773 -0.042058017 -15.471465 -0.040959843 -15.467817 -31.679247 -109.96385
76933000 -31.705933 -96.72374 -0.043264184 -15.665173 -0.043017905 -15.65896 -31.516054 -110.27689
77932000 -31.596811 -97.456192 -0.044179361 -15.860991 -0.044405568 -15.855612 -31.416531 -110.27149
78931000 -31.525757 -98.196907 -0.042533752 -16.059523 -0.042864181 -16.054859 -31.316216 -110.11127
79930000 -31.40856 -98.9907 -0.045949858 -16.253567 -0.045724094 -16.253273 -31.212523 -110.40651
80929000 -31.293636 -99.797707 -0.047005072 -16.451414 -0.04681981 -16.44734 -31.119057 -110.65696
81928000 -31.189497 -100.47081 -0.047434244 -16.6422 -0.047871046 -16.638603 -30.989822 -110.63503
82927000 -31.096119 -101.26374 -0.048683006 -16.841187 -0.048468091 -16.842617 -30.883333 -110.95824
83926000 -30.977049 -101.95953 -0.050034512 -17.039968 -0.049936052 -17.039955 -30.767462 -111.09943
84925000 -30.871555 -102.3903 -0.051413681 -17.238516 -0.049905155 -17.235786 -30.670536 -111.22556
85924000 -30.787992 -102.71215 -0.051584732 -17.435225 -0.052046582 -17.438131 -30.583906 -111.15998
86923000 -30.674995 -103.28037 -0.052015666 -17.636383 -0.051454809 -17.632402 -30.488783 -111.05379
87922000 -30.572031 -103.64787 -0.052003879 -17.843338 -0.050950855 -17.834488 -30.402861 -111.08549
88921000 -30.494602 -103.89114 -0.053338598 -18.044283 -0.052224468 -18.038004 -30.302073 -111.00341
89920000 -30.38467 -104.39918 -0.053397823 -18.242598 -0.053230893 -18.233545 -30.257513 -111.23209
90919000 -30.293949 -104.63171 -0.054915428 -18.436279 -0.05322146 -18.4328 -30.170246 -111.39683
91918000 -30.189653 -104.99683 -0.055547267 -18.640322 -0.05388188 -18.633337 -30.096228 -111.40151
92917000 -30.102697 -105.33975 -0.056368005 -18.836786 -0.055193845 -18.830935 -30.040588 -111.48769
93916000 -30.010534 -105.67413 -0.055921167 -19.03163 -0.05451173 -19.025143 -29.953876 -112.08935
94915000 -29.935495 -106.2793 -0.05717421 -19.230942 -0.05642622 -19.226263 -29.882769 -111.99831
95914000 -29.869194 -106.45352 -0.058447026 -19.42569 -0.057050146 -19.421724 -29.791409 -112.22742
96913000 -29.785892 -106.72147 -0.059611831 -19.627258 -0.058474313 -19.623775 -29.724997 -112.61768
97912000 -29.707439 -107.13615 -0.060899276 -19.823151 -0.058113571 -19.825474 -29.653177 -112.79845
98911000 -29.590698 -107.30925 -0.060773268 -20.0247 -0.05980945 -20.023956 -29.605267 -113.07195
99910000 -29.531202 -107.43219 -0.061160486 -20.222294 -0.060428347 -20.222527 -29.504938 -113.33749
100909000 -29.439167 -107.68801 -0.061484724 -20.431061 -0.059061795 -20.425486 -29.415934 -113.49845
101908000 -29.345692 -107.88622 -0.062799774 -20.626318 -0.059972696 -20.630501 -29.302191 -113.29356
102907000 -29.218792 -107.91144 -0.062342297 -20.829603 -0.060724705 -20.830648 -29.233181 -113.24118
103906000 -29.132177 -107.92951 -0.063024327 -21.036146 -0.059637547 -21.032957 -29.092396 -113.2434
104905000 -28.979731 -107.82005 -0.063649729 -21.232479 -0.060494494 -21.236385 -28.969635 -112.90288
105904000 -28.836683 -107.92296 -0.063229457 -21.440266 -0.060278732 -21.430622 -28.860806 -112.81589
106903000 -28.732128 -108.00327 -0.063573554 -21.643118 -0.06202561 -21.640203 -28.735939 -112.66711
107902000 -28.568779 -108.31068 -0.06504295 -21.842791 -0.061558239 -21.832558 -28.58873 -112.63103
108901000 -28.45904 -108.52982 -0.065704383 -22.045809 -0.063118093 -22.041178 -28.470781 -112.54193
109900000 -28.336615 -108.98284 -0.066387206 -22.246542 -0.064128883 -22.239317 -28.32053 -112.66116
110899000 -28.211884 -109.58212 -0.067440562 -22.441439 -0.064763643 -22.439827 -28.196255 -112.92966
111898000 -28.125917 -110.24118 -0.068529151 -22.646158 -0.066461854 -22.641827 -28.07551 -113.04664
112897000 -27.99753 -110.80887 -0.070461668 -22.842655 -0.066578567 -22.836046 -27.945848 -113.23267
113896000 -27.890484 -111.3763 -0.071558908 -23.046021 -0.068291165 -23.034273 -27.839695 -113.35523
114895000 -27.789421 -112.01012 -0.072254762 -23.241283 -0.069337353 -23.230595 -27.732721 -113.41714
115894000 -27.66769 -112.32484 -0.073623106 -23.444332 -0.070945524 -23.432705 -27.662382 -113.6246
116893000 -27.596058 -112.84094 -0.074422508 -23.640802 -0.071566015 -23.62598 -27.541082 -113.6892
117892000 -27.510521 -113.34218 -0.07446254 -23.83757 -0.071944721 -23.825193 -27.464943 -113.86559
118891000 -27.452538 -113.73155 -0.075156219 -24.037966 -0.071837604 -24.024614 -27.370707 -114.01718
119890000 -27.374197 -114.09753 -0.075793907 -24.238457 -0.072897285 -24.225225 -27.352512 -114.15071
120889000 -27.318329 -114.57944 -0.076751009 -24.441376 -0.072809361 -24.426628 -27.28174 -114.113
121888000 -27.270748 -114.91245 -0.076886438 -24.637814 -0.073452495 -24.622437 -27.228317 -114.37025
122887000 -27.241552 -115.10219 -0.07801798 -24.839706 -0.074541539 -24.828594 -27.174353 -114.40219
123886000 -27.181725 -115.50399 -0.077626884 -25.040356 -0.074364051 -25.025337 -27.164856 -114.53452
124885000 -27.151093 -116.0239 -0.077949457 -25.241177 -0.074894957 -25.223219 -27.140795 -114.5853
125884000 -27.102003 -116.24254 -0.078807652 -25.435665 -0.075056665 -25.42576 -27.116062 -114.71035
126883000 -27.079315 -116.58836 -0.07939183 -25.642672 -0.076003328 -25.628588 -27.068321 -114.71336
127882000 -27.031084 -116.89245 -0.079842404 -25.840479 -0.076747052 -25.826164 -27.029848 -114.87108
128881000 -27.005018 -117.19061 -0.079862177 -26.04545 -0.076404549 -26.029766 -26.994036 -114.97499
129880000 -26.94961 -117.5282 -0.080817804 -26.245083 -0.076659843 -26.229326 -26.94973 -114.93306
130879000 -26.883886 -117.68633 -0.080574661 -26.441345 -0.077429511 -26.43203 -26.880795 -114.88677
131878000 -26.824108 -117.92897 -0.080882154 -26.649733 -0.077523582 -26.631453 -26.8286 -114.75682
132877000 -26.759205 -117.9589 -0.080207594 -26.847982 -0.077452436 -26.832073 -26.738047 -114.74644
133876000 -26.671614 -118.1357 -0.081435487 -27.050245 -0.077155724 -27.030973 -26.652372 -114.65945
134875000 -26.582956 -118.22594 -0.080565162 -27.25157 -0.078130782 -27.236464 -26.562632 -114.4924
135874000 -26.505962 -118.29235 -0.080550663 -27.45406 -0.077944711 -27.435072 -26.463387 -114.43407
136873000 -26.394163 -118.24142 -0.080927514 -27.657894 -0.077986352 -27.636976 -26.387093 -114.41907
137872000 -26.318441 -118.34303 -0.08158794 -27.854334 -0.078049608 -27.840269 -26.288486 -114.33112
138871000 -26.243158 -118.53643 -0.081444189 -28.055468 -0.078272842 -28.040581 -26.18786 -114.46803
139870000 -26.143694 -118.81703 -0.081693709 -28.254467 -0.079394199 -28.238276 -26.106646 -114.65221
140869000 -26.067909 -119.41799 -0.083723143 -28.456526 -0.079955518 -28.434347 -26.009636 -114.82933
141868000 -25.987324 -119.78863 -0.083985731 -28.649529 -0.081066236 -28.635136 -25.959396 -115.09364
142867000 -25.904963 -119.98169 -0.082605943 -28.847219 -0.080762155 -28.835159 -25.885403 -115.19796
143866000 -25.832375 -120.45764 -0.084648736 -29.04607 -0.082235537 -29.028725 -25.812786 -115.67025
144865000 -25.777077 -120.96814 -0.086132944 -29.243759 -0.083526015 -29.225264 -25.751919 -115.96421
145864000 -25.723051 -121.29314 -0.086649708 -29.443027 -0.084598586 -29.434107 -25.716936 -116.21608
146863000 -25.673012 -121.66065 -0.08798667 -29.645578 -0.084873892 -29.634266 -25.666807 -116.53457
147862000 -25.639551 -121.95798 -0.088710517 -29.842176 -0.085780717 -29.830906 -25.641588 -116.80402
148861000 -25.598679 -122.4233 -0.089408331 -30.043093 -0.087388657 -30.028904 -25.613989 -117.02052
149860000 -25.572857 -122.57858 -0.090368703 -30.234375 -0.087429069 -30.221542 -25.566814 -117.11948
150859000 -25.547903 -123.06873 -0.089682095 -30.430046 -0.086682186 -30.414314 -25.54936 -117.43655
151858000 -25.53326 -123.4264 -0.089209363 -30.63274 -0.087163106 -30.616695 -25.534544 -117.78976
152857000 -25.520275 -123.72948 -0.089323774 -30.830196 -0.086550944 -30.815054 -25.517868 -117.94898
153856000 -25.516916 -123.92313 -0.089090988 -31.029287 -0.086440302 -31.017653 -25.534294 -118.30243
154855000 -25.513243 -124.11961 -0.089419961 -31.227499 -0.086756133 -31.216953 -25.522043 -118.5407
155854000 -25.52702 -124.37466 -0.089729667 -31.432161 -0.087315492 -31.417166 -25.511728 -118.82308
156853000 -25.514372 -125.05795 -0.088206977 -31.614809 -0.086055838 -31.611523 -25.507086 -119.11789
157852000 -25.522057 -125.26997 -0.089459069 -31.817545 -0.088231549 -31.810152 -25.494419 -119.50752
158851000 -25.517895 -125.46844 -0.089725964 -32.016289 -0.088554904 -32.006313 -25.484163 -119.75179
159850000 -25.506292 -125.56961 -0.090268798 -32.215088 -0.088850021 -32.207813 -25.477497 -119.93721
160849000 -25.490606 -125.67592 -0.090186603 -32.415409 -0.089215964 -32.409565 -25.452696 -120.2103
161848000 -25.469225 -125.75575 -0.090614244 -32.616997 -0.089101821 -32.611267 -25.405727 -120.33681
162847000 -25.432537 -125.95615 -0.090547375 -32.815189 -0.090073749 -32.812656 -25.377981 -120.58172
163846000 -25.390551 -126.14589 -0.091246806 -33.01796 -0.089405686 -33.010853 -25.308187 -120.585
164845000 -25.335192 -126.09368 -0.091258436 -33.215397 -0.090516716 -33.211597 -25.240227 -120.67032
165844000 -25.283529 -126.16018 -0.091399603 -33.413506 -0.090482354 -33.411198 -25.162867 -120.78034
166843000 -25.220053 -126.18178 -0.091115154 -33.608562 -0.09049768 -33.612236 -25.099186 -120.97211
167842000 -25.169699 -126.30454 -0.091500066 -33.818867 -0.090150654 -33.806988 -25.021969 -120.90511
168841000 -25.088511 -126.44414 -0.092207842 -34.0144 -0.091031887 -34.009464 -24.947239 -120.96104
169840000 -25.018475 -126.68339 -0.092179552 -34.208576 -0.091251031 -34.204575 -24.862444 -121.12971
170839000 -24.959362 -126.93858 -0.092747018 -34.407459 -0.091759153 -34.402958 -24.785189 -121.31097
171838000 -24.906322 -127.30315 -0.092921026 -34.6092 -0.092716075 -34.602692 -24.720795 -121.5089
172837000 -24.835325 -127.65368 -0.094323412 -34.805485 -0.09430436 -34.799484 -24.656301 -121.73165
173836000 -24.762547 -128.06404 -0.095412672 -35.001411 -0.094616532 -34.99992 -24.612595 -121.92648
174835000 -24.721518 -128.4574 -0.096152849 -35.202213 -0.095855914 -35.198753 -24.566191 -122.26812
175834000 -24.661467 -128.81377 -0.096979439 -35.400372 -0.096234888 -35.397118 -24.512665 -122.53661
176833000 -24.615646 -129.15305 -0.098348446 -35.599419 -0.096558049 -35.597393 -24.455322 -122.68274
177832000 -24.572069 -129.54994 -0.099006765 -35.797012 -0.097111531 -35.796772 -24.44232 -122.7701
178831000 -24.526022 -129.79411 -0.1006347 -35.993019 -0.099430509 -35.990162 -24.401199 -122.81523
179830000 -24.455894 -130.24413 -0.10204382 -36.17701 -0.099906743 -36.181931 -24.336246 -122.94596
180829000 -24.406027 -130.58549 -0.10115532 -36.368633 -0.099444285 -36.37191 -24.302753 -123.27493
181828000 -24.382357 -130.99809 -0.10059868 -36.569061 -0.098770805 -36.567135 -24.28075 -123.44745
182827000 -24.359306 -131.38005 -0.10021031 -36.765415 -0.098628603 -36.771404 -24.267218 -123.58485
183826000 -24.319935 -131.71764 -0.10081592 -36.968086 -0.099195592 -36.959949 -24.257727 -123.72353
184825000 -24.32222 -132.05463 -0.09997879 -37.163582 -0.099755496 -37.163681 -24.241594 -123.86312
185824000 -24.298031 -132.4017 -0.10007283 -37.356701 -0.098704867 -37.358677 -24.239668 -123.90495
186823000 -24.279585 -132.78542 -0.10000104 -37.558331 -0.0991164 -37.559994 -24.231821 -123.93667
187822000 -24.251453 -133.10799 -0.10049164 -37.756847 -0.099968195 -37.755211 -24.191635 -124.00655
188821000 -24.23439 -133.37213 -0.10017455 -37.949001 -0.10078095 -37.95467 -24.169085 -124.13721
189820000 -24.213032 -133.688 -0.10089275 -38.150517 -0.10028793 -38.150036 -24.155745 -124.3189
190819000 -24.182673 -133.95636 -0.10136703 -38.348728 -0.10101834 -38.347855 -24.118835 -124.36372
191818000 -24.154942 -134.2623 -0.10154774 -38.543224 -0.10128488 -38.547558 -24.085524 -124.37907
192817000 -24.103659 -134.54251 -0.10183817 -38.7416 -0.10125548 -38.744381 -24.045439 -124.49229
193816000 -24.072374 -134.78073 -0.10187104 -38.937401 -0.10138955 -38.937927 -23.999022 -124.63038
194815000 -24.016462 -135.18668 -0.10243235 -39.132942 -0.10187315 -39.13826 -23.930079 -124.67949
195814000 -23.960535 -135.38768 -0.10356049 -39.331379 -0.10209338 -39.33305 -23.875551 -124.75805
196813000 -23.903698 -135.69814 -0.10283204 -39.524868 -0.10198075 -39.527683 -23.797041 -124.92964
197812000 -23.847334 -135.88644 -0.10332084 -39.722485 -0.10258342 -39.721958 -23.72764 -125.00938
198811000 -23.794907 -136.06429 -0.10357799 -39.923397 -0.10223304 -39.922768 -23.659931 -125.18696
199810000 -23.723036 -136.40074 -0.10337175 -40.117096 -0.10178252 -40.111515 -23.57777 -125.25586
200809000 -23.665489 -136.64436 -0.10377789 -40.309917 -0.10310904 -40.310169 -23.501749 -125.4202
201808000 -23.612555 -136.86517 -0.10444445 -40.511555 -0.1037588 -40.51622 -23.439014 -125.49489
202807000 -23.552702 -137.18434 -0.10554448 -40.712627 -0.10471996 -40.716183 -23.382288 -125.68895
