!Keysight Technologies,E5080B,MY59205177,A.15.75.32
!Date: Friday, February 23, 2024 03:42:33
!Correction: S11(Cdelta 2-Port  ) 
!S21(Cdelta 2-Port  ) 
!S12(Cdelta 2-Port  ) 
!S22(Cdelta 2-Port  ) 
!S2P File: Measurements: S11, S21, S12, S22:
# Hz S  dB   R 50
10000000 -46.09586 -3.085371 -0.014655449 -2.0420077 -0.018026035 -2.0974579 -45.905209 -157.37065
10999000 -45.257191 -4.9907017 -0.01613385 -2.2607017 -0.017700607 -2.3131993 -45.836811 -151.10059
11998000 -44.351719 -8.1865292 -0.016046811 -2.4836109 -0.017009282 -2.5287521 -45.959187 -146.76213
12997000 -43.576172 -13.828744 -0.0156093 -2.6647935 -0.017266568 -2.6980634 -45.596375 -141.45418
13996000 -43.327843 -17.439428 -0.014146139 -2.8449526 -0.017049305 -2.8634441 -45.360889 -136.02367
14995000 -42.923931 -21.792818 -0.01661559 -3.0577211 -0.017242918 -3.0781331 -45.085602 -132.80316
15994000 -42.753304 -26.351095 -0.01808946 -3.272228 -0.020033987 -3.297703 -44.906517 -129.30173
16993000 -42.720104 -30.807224 -0.016813602 -3.4689429 -0.018780956 -3.4798005 -44.093002 -128.9185
17992000 -42.712357 -36.404003 -0.017309969 -3.6730034 -0.019233868 -3.6732388 -43.555214 -129.00249
18991000 -42.935543 -41.930553 -0.018574795 -3.8797081 -0.020470904 -3.8790138 -42.88884 -127.9994
19990000 -42.717087 -47.800514 -0.020900322 -4.0897031 -0.022080855 -4.0832253 -42.228561 -128.6452
20989000 -42.527847 -51.046612 -0.022669941 -4.2941709 -0.024368953 -4.2871218 -41.683132 -128.33861
21988000 -42.336296 -56.292885 -0.022846369 -4.4907594 -0.025254378 -4.4780502 -41.394611 -127.37209
22987000 -42.020061 -60.664326 -0.025015626 -4.6878567 -0.026351454 -4.6830683 -41.169476 -126.90401
23986000 -41.948917 -65.145065 -0.024912007 -4.8847365 -0.024841452 -4.8792038 -40.999588 -126.60609
24985000 -41.496792 -67.943748 -0.025146587 -5.0931253 -0.025508245 -5.0892639 -40.821396 -124.4405
25984000 -41.17012 -70.018959 -0.026890067 -5.2991433 -0.025950402 -5.2962461 -40.472198 -122.71573
26983000 -40.864933 -71.354897 -0.02731986 -5.496954 -0.026971593 -5.5139356 -40.354431 -122.15057
27982000 -40.681904 -72.399345 -0.027671279 -5.6994309 -0.028709292 -5.7312713 -40.11771 -120.62628
28981000 -40.599663 -74.281555 -0.026338432 -5.8919473 -0.027931541 -5.9127779 -39.886787 -119.79364
29980000 -40.202415 -75.598801 -0.025713434 -6.0888343 -0.028257476 -6.0955448 -39.607395 -119.07286
30979000 -39.850025 -74.438057 -0.024697484 -6.4441733 -0.024278104 -6.4336462 -39.085804 -119.40519
31978000 -39.635876 -75.269867 -0.023219028 -6.6411009 -0.023985524 -6.627315 -38.835579 -118.75227
32977000 -39.427673 -76.895317 -0.023105823 -6.8475022 -0.025007294 -6.8428206 -38.617912 -118.69213
33976000 -39.278252 -78.022659 -0.024294764 -7.0479813 -0.025004432 -7.0441523 -38.337811 -118.24525
34975000 -38.974247 -78.592239 -0.023681773 -7.2453933 -0.026301451 -7.2488937 -38.10643 -117.74921
35974000 -38.806133 -79.300835 -0.023304651 -7.4455304 -0.026330357 -7.4465771 -37.842285 -116.84962
36973000 -38.544788 -79.898178 -0.023298664 -7.6451211 -0.026619971 -7.6491117 -37.569485 -115.9465
37972000 -38.379307 -79.753059 -0.023131846 -7.849916 -0.026214726 -7.8613114 -37.356544 -115.18464
38971000 -38.059032 -79.104706 -0.023979018 -8.0516691 -0.026505373 -8.0688305 -37.176239 -113.67538
39970000 -37.753719 -79.507263 -0.022819826 -8.2502337 -0.025662657 -8.2645903 -36.939247 -113.09118
40969000 -37.452953 -79.207352 -0.022882801 -8.4433241 -0.025048172 -8.4617529 -36.713905 -111.69409
41968000 -37.104591 -79.140427 -0.023161514 -8.650528 -0.025541576 -8.6704836 -36.509346 -110.45956
42967000 -36.858177 -79.183601 -0.022460213 -8.8619165 -0.025833739 -8.8771267 -36.320942 -108.55126
43966000 -36.575176 -79.92112 -0.023891298 -9.062439 -0.027180238 -9.0839672 -36.068108 -107.98295
44965000 -36.324791 -80.591476 -0.024059709 -9.2625704 -0.026917676 -9.2853565 -35.856689 -107.76852
45964000 -36.101933 -81.481941 -0.025728017 -9.4625006 -0.028317403 -9.4835901 -35.613075 -107.41231
46963000 -35.896385 -83.400528 -0.025854832 -9.6607599 -0.029051963 -9.680933 -35.438004 -107.57521
47962000 -35.73233 -84.829094 -0.027118502 -9.8599787 -0.030272251 -9.8790197 -35.24284 -107.69913
48961000 -35.5201 -86.333595 -0.029186433 -10.057907 -0.032065511 -10.078576 -35.011433 -107.81422
49960000 -35.279945 -87.552048 -0.030969599 -10.256332 -0.032367501 -10.280437 -34.889912 -107.90201
50959000 -35.0508 -88.732719 -0.031481408 -10.468136 -0.033546723 -10.479456 -34.692543 -108.19537
51958000 -34.852829 -89.941307 -0.032964766 -10.667064 -0.035184752 -10.678349 -34.519176 -108.5759
52957000 -34.626648 -90.91375 -0.034796976 -10.868703 -0.036036368 -10.877719 -34.358894 -108.34202
53956000 -34.455162 -91.624245 -0.035656344 -11.071767 -0.037063066 -11.072369 -34.218452 -108.38677
54955000 -34.285728 -92.027176 -0.036164269 -11.269923 -0.038297098 -11.270381 -34.075245 -108.34511
55954000 -34.120197 -92.908318 -0.037973281 -11.47331 -0.03850681 -11.468421 -33.965206 -108.04222
56953000 -34.011444 -92.938782 -0.037082911 -11.670074 -0.03685917 -11.659059 -33.878147 -108.24786
57952000 -33.830822 -93.474251 -0.038053188 -11.863179 -0.038416184 -11.863173 -33.791111 -108.38886
58951000 -33.703362 -93.851936 -0.039290376 -12.073182 -0.038967527 -12.053097 -33.625851 -108.37682
59950000 -33.58926 -94.217056 -0.039805256 -12.272457 -0.039500393 -12.252188 -33.553513 -108.64377
60949000 -33.459721 -94.77272 -0.040459979 -12.475791 -0.040651765 -12.45134 -33.454422 -108.9715
61948000 -33.395329 -95.056213 -0.041089717 -12.674088 -0.04005475 -12.657169 -33.370655 -109.03217
62947000 -33.306335 -95.256264 -0.041107222 -12.887105 -0.040996425 -12.866699 -33.232704 -109.28161
63946000 -33.242126 -96.00869 -0.041906942 -13.085128 -0.042170148 -13.062631 -33.119629 -109.46971
64945000 -33.117672 -96.187851 -0.042441998 -13.284354 -0.042243075 -13.271728 -33.000042 -109.85039
65944000 -33.026665 -96.457222 -0.042692952 -13.484924 -0.042456113 -13.468885 -32.90049 -110.32365
66943000 -32.879345 -96.884697 -0.040779538 -13.688226 -0.040760726 -13.66981 -32.806728 -110.53473
67942000 -32.819698 -96.822685 -0.042987578 -13.88309 -0.043013461 -13.87221 -32.670406 -110.85755
68941000 -32.710659 -96.878777 -0.042820785 -14.078829 -0.041474134 -14.06601 -32.571518 -110.90498
69940000 -32.604595 -96.898537 -0.042943135 -14.27242 -0.043520153 -14.267715 -32.426193 -111.07127
70939000 -32.505447 -96.856087 -0.042770855 -14.472439 -0.04274654 -14.464974 -32.29628 -111.05292
71938000 -32.361671 -96.453201 -0.042399392 -14.670176 -0.042884573 -14.662087 -32.16925 -110.90358
72937000 -32.206516 -96.300301 -0.041914523 -14.86808 -0.042042073 -14.860234 -32.025116 -110.58451
73936000 -32.06889 -95.868622 -0.042023513 -15.061895 -0.041640352 -15.055315 -31.910397 -110.37974
74935000 -31.943092 -96.151024 -0.041478839 -15.260559 -0.040527392 -15.259809 -31.77009 -110.03917
75934000 -31.822508 -96.336327 -0.041310538 -15.468604 -0.040847741 -15.466933 -31.686346 -109.94846
76933000 -31.69968 -96.759544 -0.041907724 -15.664962 -0.041797429 -15.658919 -31.509094 -110.31612
77932000 -31.592201 -97.494041 -0.04357506 -15.859737 -0.0434893 -15.855951 -31.406015 -110.26253
78931000 -31.522749 -98.243698 -0.042260066 -16.062656 -0.042420302 -16.058224 -31.305685 -110.13715
79930000 -31.413555 -99.07222 -0.045055233 -16.254051 -0.044892024 -16.253256 -31.213781 -110.4732
80929000 -31.297729 -99.84951 -0.046656009 -16.451456 -0.046735555 -16.449596 -31.11668 -110.7053
81928000 -31.191711 -100.58456 -0.046690024 -16.643503 -0.047198977 -16.641294 -30.991987 -110.69165
82927000 -31.099483 -101.28859 -0.048192199 -16.842094 -0.047916327 -16.842768 -30.884617 -110.96825
83926000 -30.976574 -101.92621 -0.049725529 -17.037266 -0.049359493 -17.042528 -30.771269 -111.20004
84925000 -30.874149 -102.36908 -0.050911043 -17.237442 -0.049588852 -17.234732 -30.666887 -111.14278
85924000 -30.786667 -102.81322 -0.050727446 -17.437429 -0.050966568 -17.437609 -30.579063 -111.19517
86923000 -30.677536 -103.2811 -0.051693182 -17.636435 -0.051219847 -17.635294 -30.475567 -111.02166
87922000 -30.566168 -103.60913 -0.051233206 -17.8421 -0.050955046 -17.838024 -30.395681 -110.99614
88921000 -30.489838 -103.88095 -0.052741148 -18.044685 -0.051760245 -18.040115 -30.310011 -111.04404
89920000 -30.387743 -104.36917 -0.052771017 -18.238544 -0.052461054 -18.237415 -30.250017 -111.18779
90919000 -30.286016 -104.6056 -0.053674832 -18.437294 -0.052910678 -18.433039 -30.160736 -111.35578
91918000 -30.185799 -104.99113 -0.054937188 -18.641163 -0.053736683 -18.631672 -30.092865 -111.4337
92917000 -30.102982 -105.27837 -0.055816282 -18.835423 -0.055306841 -18.835182 -30.031639 -111.49825
93916000 -30.008289 -105.68897 -0.055105232 -19.029781 -0.054861426 -19.028324 -29.936716 -112.11945
94915000 -29.926735 -106.28701 -0.05728988 -19.233477 -0.056376394 -19.225859 -29.883713 -111.99048
95914000 -29.863991 -106.45533 -0.058106486 -19.427423 -0.05726365 -19.423466 -29.79528 -112.25076
96913000 -29.783594 -106.73161 -0.059121888 -19.624481 -0.058502909 -19.625921 -29.732477 -112.5847
97912000 -29.706446 -107.1814 -0.05962915 -19.821587 -0.057771485 -19.8234 -29.648094 -112.79807
98911000 -29.605028 -107.29034 -0.060560644 -20.024248 -0.059262015 -20.023561 -29.609663 -112.99471
99910000 -29.535364 -107.42503 -0.061069913 -20.22049 -0.059690822 -20.220942 -29.500015 -113.27743
100909000 -29.428923 -107.70094 -0.060923953 -20.431099 -0.059172269 -20.425203 -29.409666 -113.5284
101908000 -29.35438 -107.89652 -0.062010381 -20.631775 -0.060066655 -20.628626 -29.303549 -113.28529
102907000 -29.223354 -107.90945 -0.061719451 -20.829163 -0.060433861 -20.834034 -29.236111 -113.2768
103906000 -29.126402 -107.97637 -0.062105961 -21.03961 -0.059111651 -21.031906 -29.091711 -113.22037
104905000 -28.97788 -107.85979 -0.063002795 -21.237061 -0.060034636 -21.23802 -28.970371 -112.89282
105904000 -28.839289 -107.92481 -0.06345325 -21.435379 -0.060396325 -21.430759 -28.854118 -112.77603
106903000 -28.730177 -107.98077 -0.063140944 -21.645267 -0.061045237 -21.636629 -28.731188 -112.69735
107902000 -28.566912 -108.2943 -0.063975468 -21.845694 -0.061619151 -21.838268 -28.595701 -112.6115
108901000 -28.452906 -108.52821 -0.064834848 -22.047192 -0.063002266 -22.036354 -28.466282 -112.53391
109900000 -28.33206 -108.98639 -0.065524101 -22.242701 -0.064217418 -22.23724 -28.322836 -112.64993
110899000 -28.210806 -109.60622 -0.067270465 -22.443859 -0.06467168 -22.434233 -28.202681 -112.88616
111898000 -28.12677 -110.24864 -0.06821885 -22.643543 -0.065541446 -22.642582 -28.080761 -113.10192
112897000 -27.999731 -110.83266 -0.069705345 -22.847586 -0.066580668 -22.835155 -27.958513 -113.23121
113896000 -27.890104 -111.37071 -0.070398003 -23.043743 -0.068391092 -23.03577 -27.840799 -113.37598
114895000 -27.7845 -112.00713 -0.071743652 -23.243948 -0.068827115 -23.230518 -27.734489 -113.4213
115894000 -27.66539 -112.3512 -0.073091559 -23.445395 -0.071014993 -23.431774 -27.660524 -113.61567
116893000 -27.588531 -112.81235 -0.07381057 -23.63806 -0.071702071 -23.623766 -27.544405 -113.6459
117892000 -27.513805 -113.29661 -0.073429853 -23.838858 -0.071730494 -23.827065 -27.464973 -113.88652
118891000 -27.448463 -113.70178 -0.074123904 -24.037998 -0.071916558 -24.024128 -27.37026 -114.00048
119890000 -27.363552 -114.09684 -0.075448319 -24.238762 -0.072864115 -24.225906 -27.356705 -114.16121
120889000 -27.314699 -114.60134 -0.076596349 -24.438581 -0.072649844 -24.425341 -27.28196 -114.09037
121888000 -27.271339 -114.93221 -0.075972244 -24.635572 -0.073623896 -24.623175 -27.230354 -114.36001
122887000 -27.236088 -115.09466 -0.076790527 -24.83655 -0.074415661 -24.828402 -27.179047 -114.36983
123886000 -27.186377 -115.49276 -0.077365734 -25.045044 -0.074412502 -25.023693 -27.162056 -114.54284
124885000 -27.151005 -116.02684 -0.078344271 -25.23875 -0.074243449 -25.228359 -27.136694 -114.57574
125884000 -27.098196 -116.23825 -0.078507684 -25.438042 -0.074767753 -25.426447 -27.102758 -114.74595
126883000 -27.076679 -116.58762 -0.079409495 -25.641865 -0.076187208 -25.628471 -27.069403 -114.71622
127882000 -27.030663 -116.89511 -0.079367578 -25.842031 -0.075938262 -25.826052 -27.019051 -114.8488
128881000 -27.00263 -117.22395 -0.079282157 -26.043388 -0.076351069 -26.029673 -26.991356 -114.95409
129880000 -26.943174 -117.5606 -0.080538005 -26.24645 -0.076491229 -26.227034 -26.943428 -114.89819
130879000 -26.886797 -117.68628 -0.080261916 -26.444319 -0.077345446 -26.430374 -26.879185 -114.92786
131878000 -26.824846 -117.92059 -0.080054656 -26.648966 -0.077435039 -26.631189 -26.820562 -114.8276
132877000 -26.758308 -117.99939 -0.079445347 -26.847301 -0.077888839 -26.833656 -26.739384 -114.762
133876000 -26.673986 -118.14528 -0.080878459 -27.048391 -0.077588148 -27.034817 -26.654074 -114.62524
134875000 -26.579653 -118.28074 -0.080483153 -27.248022 -0.078297354 -27.231371 -26.557194 -114.46528
135874000 -26.502268 -118.31748 -0.080428571 -27.450733 -0.078221977 -27.435123 -26.469759 -114.42346
136873000 -26.391441 -118.22418 -0.080872655 -27.654816 -0.078158982 -27.63279 -26.38409 -114.40849
137872000 -26.312155 -118.34031 -0.081046984 -27.85947 -0.078699313 -27.84099 -26.280233 -114.30723
138871000 -26.240356 -118.57536 -0.081361629 -28.051596 -0.078722514 -28.0432 -26.187458 -114.46391
139870000 -26.137972 -118.8316 -0.081877038 -28.253775 -0.079852685 -28.237406 -26.107927 -114.63796
140869000 -26.067482 -119.41654 -0.083096959 -28.450508 -0.080073908 -28.431501 -26.008591 -114.81502
141868000 -25.983557 -119.80097 -0.083560847 -28.651934 -0.081351347 -28.636505 -25.961636 -115.10948
142867000 -25.906134 -119.99918 -0.082650527 -28.847095 -0.080772445 -28.832251 -25.885088 -115.21294
143866000 -25.83135 -120.45059 -0.084328569 -29.043385 -0.082102321 -29.028713 -25.817421 -115.6619
144865000 -25.780954 -121.01772 -0.086125016 -29.242546 -0.083409645 -29.23003 -25.754244 -115.99959
145864000 -25.718468 -121.2845 -0.08647199 -29.446705 -0.08467117 -29.43165 -25.722839 -116.22033
146863000 -25.675121 -121.63347 -0.08701811 -29.641617 -0.084986873 -29.631575 -25.668858 -116.4971
147862000 -25.637259 -121.98521 -0.088465877 -29.840294 -0.0856231 -29.827026 -25.639791 -116.86879
148861000 -25.604307 -122.3959 -0.088978693 -30.04175 -0.086964495 -30.026072 -25.618948 -117.01257
149860000 -25.575426 -122.60727 -0.089580357 -30.232336 -0.087320246 -30.223042 -25.56427 -117.10463
150859000 -25.547541 -123.0784 -0.089242391 -30.433964 -0.087900288 -30.422272 -25.54323 -117.46837
151858000 -25.532747 -123.4381 -0.089167878 -30.631262 -0.087265313 -30.61451 -25.536549 -117.81644
152857000 -25.522638 -123.74689 -0.090038069 -30.828995 -0.08670754 -30.815952 -25.516722 -117.97214
153856000 -25.517607 -123.94642 -0.088565476 -31.026005 -0.086250708 -31.015192 -25.529898 -118.32153
154855000 -25.512596 -124.13085 -0.089956142 -31.22946 -0.087112658 -31.216145 -25.520403 -118.57507
155854000 -25.529537 -124.35603 -0.089965925 -31.428778 -0.087070927 -31.416561 -25.512632 -118.82158
156853000 -25.515223 -125.08456 -0.087371752 -31.616768 -0.086235657 -31.606792 -25.506107 -119.12997
157852000 -25.521845 -125.23672 -0.088852137 -31.819307 -0.088200375 -31.809998 -25.494322 -119.46803
158851000 -25.513514 -125.49824 -0.089162067 -32.020115 -0.088533245 -32.009785 -25.475393 -119.7543
159850000 -25.502289 -125.59427 -0.090046525 -32.217365 -0.088158637 -32.206646 -25.478437 -119.95612
160849000 -25.489664 -125.65508 -0.089888752 -32.415718 -0.089035235 -32.407452 -25.451731 -120.24158
161848000 -25.469204 -125.78613 -0.089855194 -32.619183 -0.089082792 -32.608059 -25.409311 -120.35026
162847000 -25.430508 -125.93902 -0.090515129 -32.812363 -0.08944691 -32.808922 -25.379509 -120.57315
163846000 -25.389288 -126.14018 -0.090666577 -33.015648 -0.089543097 -33.008209 -25.300037 -120.56953
164845000 -25.331533 -126.12263 -0.091671906 -33.212719 -0.089900382 -33.208344 -25.238951 -120.69325
165844000 -25.280645 -126.15361 -0.091041401 -33.416504 -0.090190038 -33.410061 -25.161257 -120.82968
166843000 -25.216927 -126.22255 -0.090815395 -33.609444 -0.090018779 -33.60614 -25.095848 -120.97388
167842000 -25.156929 -126.31025 -0.091431327 -33.809937 -0.090975054 -33.803623 -25.020092 -120.87748
168841000 -25.082218 -126.49515 -0.091516986 -34.012131 -0.090686142 -34.00938 -24.94499 -120.97784
169840000 -25.022106 -126.70038 -0.091879718 -34.206429 -0.091499269 -34.203808 -24.86166 -121.12375
170839000 -24.95973 -126.92171 -0.093024693 -34.404221 -0.091258965 -34.403606 -24.778418 -121.3404
171838000 -24.899292 -127.33553 -0.092687778 -34.60685 -0.092661865 -34.602764 -24.717371 -121.54594
172837000 -24.834265 -127.66662 -0.094500124 -34.805264 -0.093375921 -34.797825 -24.652729 -121.73341
173836000 -24.768921 -128.06165 -0.095356047 -35.002304 -0.094382137 -35.002647 -24.611496 -121.98031
174835000 -24.715275 -128.46362 -0.095538892 -35.200752 -0.095045939 -35.20182 -24.570614 -122.26894
175834000 -24.66049 -128.80769 -0.096340224 -35.400406 -0.095755622 -35.397518 -24.511629 -122.51276
176833000 -24.610764 -129.1322 -0.097302921 -35.596947 -0.096685633 -35.597507 -24.456572 -122.66371
177832000 -24.571491 -129.60197 -0.098568492 -35.798958 -0.097485855 -35.797913 -24.440617 -122.77661
178831000 -24.524574 -129.7957 -0.09944693 -35.992634 -0.099633925 -35.989159 -24.399403 -122.8223
179830000 -24.452122 -130.22226 -0.10129283 -36.17514 -0.099656172 -36.176373 -24.341614 -122.93903
180829000 -24.404741 -130.56354 -0.099899329 -36.371296 -0.098787755 -36.374916 -24.296642 -123.25433
181828000 -24.37586 -131.01447 -0.099591278 -36.57338 -0.098843105 -36.568192 -24.283354 -123.47287
182827000 -24.361471 -131.34299 -0.099244058 -36.766731 -0.098925993 -36.769615 -24.268087 -123.5715
183826000 -24.316063 -131.70689 -0.099872306 -36.968212 -0.098643966 -36.966618 -24.2582 -123.71874
184825000 -24.322248 -132.0553 -0.09967842 -37.160248 -0.098770015 -37.1651 -24.240522 -123.83499
185824000 -24.29476 -132.39075 -0.099976145 -37.357559 -0.099467061 -37.362385 -24.232126 -123.90363
186823000 -24.275105 -132.76633 -0.099515796 -37.56234 -0.099153481 -37.556786 -24.226673 -123.90332
187822000 -24.255644 -133.08989 -0.10007362 -37.754631 -0.10003918 -37.757164 -24.186865 -123.99593
188821000 -24.233692 -133.35124 -0.10016899 -37.951908 -0.10066067 -37.953987 -24.169561 -124.16563
189820000 -24.213736 -133.67165 -0.1005147 -38.150547 -0.1002172 -38.149593 -24.152693 -124.31009
190819000 -24.176657 -133.97249 -0.10114074 -38.346336 -0.10049111 -38.345779 -24.115685 -124.35355
191818000 -24.146336 -134.26251 -0.1010859 -38.543591 -0.10089248 -38.547798 -24.086548 -124.39022
192817000 -24.102863 -134.53931 -0.10193305 -38.740635 -0.10172529 -38.743961 -24.041275 -124.49443
193816000 -24.072504 -134.79091 -0.10182387 -38.939461 -0.10137736 -38.935699 -23.994093 -124.64567
194815000 -24.010691 -135.17946 -0.10225398 -39.132191 -0.10192668 -39.13517 -23.928631 -124.67366
195814000 -23.958433 -135.38632 -0.10305629 -39.329708 -0.10165427 -39.330853 -23.874844 -124.75764
196813000 -23.906094 -135.6895 -0.10331448 -39.525898 -0.10190389 -39.528603 -23.794582 -124.93905
197812000 -23.847643 -135.92203 -0.10290308 -39.725475 -0.10204382 -39.720715 -23.726664 -125.00776
198811000 -23.793034 -136.06639 -0.10245832 -39.92234 -0.10238755 -39.922577 -23.65748 -125.18752
199810000 -23.724566 -136.3945 -0.10321163 -40.111298 -0.10219754 -40.116055 -23.577948 -125.26376
200809000 -23.66577 -136.6683 -0.10383303 -40.311153 -0.10253041 -40.314007 -23.504951 -125.43826
201808000 -23.609083 -136.87994 -0.10451286 -40.511173 -0.10387757 -40.514343 -23.435177 -125.47169
202807000 -23.552523 -137.18584 -0.1051859 -40.712231 -0.10475152 -40.713291 -23.382513 -125.67889
