!Keysight Technologies,E5080B,MY59205177,A.15.75.32
!Date: Friday, February 23, 2024 03:04:22
!Correction: S11(Cdelta 2-Port  ) 
!S21(Cdelta 2-Port  ) 
!S12(Cdelta 2-Port  ) 
!S22(Cdelta 2-Port  ) 
!S2P File: Measurements: S11, S21, S12, S22:
# Hz S  dB   R 50
10000000 -44.184906 -3.6619513 -0.027536074 -2.0365875 -0.031160707 -2.0929971 -48.052711 -150.63066
10999000 -43.531761 -5.4668107 -0.028910723 -2.2541039 -0.03084472 -2.3088357 -47.791595 -142.61685
11998000 -42.797764 -7.7504163 -0.029025123 -2.4792628 -0.030321518 -2.5219777 -47.86739 -137.51485
12997000 -42.145863 -12.728351 -0.02821188 -2.6586473 -0.030005332 -2.6942477 -47.214703 -131.14583
13996000 -41.907715 -15.988035 -0.027102875 -2.8355999 -0.030102037 -2.8609824 -46.745499 -125.76452
14995000 -41.60479 -20.151304 -0.029699856 -3.0478175 -0.029583093 -3.0724242 -46.364609 -122.15743
15994000 -41.466824 -23.938442 -0.031064499 -3.2674546 -0.032322124 -3.2876542 -46.109837 -118.31087
16993000 -41.438107 -27.97757 -0.029328205 -3.4569166 -0.03134061 -3.4678056 -45.157021 -119.68452
17992000 -41.545525 -32.601837 -0.029918013 -3.6596622 -0.032217547 -3.6633339 -44.561077 -120.13152
18991000 -41.813839 -37.061169 -0.031197729 -3.8690653 -0.032949377 -3.870079 -43.829544 -119.6343
19990000 -41.635014 -42.370632 -0.03305319 -4.0765896 -0.03493293 -4.0706606 -43.14423 -121.37228
20989000 -41.509468 -45.073513 -0.036066908 -4.2782092 -0.037215799 -4.2732468 -42.543827 -121.08438
21988000 -41.42675 -49.714428 -0.036529716 -4.4772997 -0.037645049 -4.4645171 -42.299442 -120.2041
22987000 -41.213535 -54.236866 -0.037429634 -4.6767435 -0.038520128 -4.6653638 -42.016605 -119.83448
23986000 -41.200874 -57.814751 -0.037097529 -4.8679614 -0.036928613 -4.8692002 -41.876251 -119.86515
24985000 -40.860493 -60.691135 -0.0382245 -5.0754604 -0.037263319 -5.0721974 -41.643604 -117.25706
25984000 -40.641758 -62.677807 -0.039304219 -5.2823963 -0.038656197 -5.2876835 -41.301121 -116.16279
26983000 -40.340969 -64.389488 -0.039829027 -5.4797297 -0.038903274 -5.5014601 -41.174057 -115.30289
27982000 -40.182346 -65.544159 -0.041665182 -5.6819005 -0.040458933 -5.7143588 -40.839844 -113.78796
28981000 -40.156212 -66.859062 -0.039350715 -5.87462 -0.040669795 -5.9061699 -40.634434 -113.07628
29980000 -39.80357 -68.497108 -0.039314408 -6.0698233 -0.041068286 -6.0790219 -40.266041 -112.4085
30979000 -39.448582 -67.846039 -0.037459925 -6.4231286 -0.035180058 -6.411036 -39.781834 -113.21846
31978000 -39.264378 -68.795364 -0.035867494 -6.6197119 -0.036215428 -6.6115308 -39.510387 -112.66653
32977000 -39.10574 -70.35704 -0.035623722 -6.8277359 -0.037299871 -6.8223143 -39.296555 -112.76703
33976000 -38.954597 -71.497513 -0.036611166 -7.0290923 -0.037833579 -7.0223479 -38.995438 -112.29047
34975000 -38.662781 -72.244827 -0.036765188 -7.2274995 -0.038270723 -7.2295299 -38.722565 -112.16149
35974000 -38.458347 -73.069588 -0.03589255 -7.4245815 -0.037931237 -7.4236722 -38.447399 -111.44492
36973000 -38.260498 -73.958733 -0.036848988 -7.6228924 -0.038835626 -7.6247478 -38.149193 -110.53306
37972000 -38.098675 -73.834076 -0.035375785 -7.8331137 -0.038923126 -7.8402848 -37.921307 -109.97727
38971000 -37.780819 -73.561615 -0.037284989 -8.0311289 -0.039486289 -8.0422688 -37.712009 -108.46073
39970000 -37.442902 -74.233025 -0.035084546 -8.2272511 -0.038330525 -8.2400103 -37.459621 -108.12596
40969000 -37.163643 -74.021652 -0.03575239 -8.4210205 -0.038030207 -8.439105 -37.176888 -106.73102
41968000 -36.826626 -74.283699 -0.035496358 -8.6255741 -0.03792889 -8.6426897 -36.966942 -105.71625
42967000 -36.57259 -74.540352 -0.034959547 -8.8351107 -0.038753096 -8.8557873 -36.739986 -103.93747
43966000 -36.295662 -75.416344 -0.035505492 -9.0361996 -0.039981075 -9.0531244 -36.453358 -103.38554
44965000 -36.066383 -76.228516 -0.036514837 -9.2381353 -0.039114323 -9.2549982 -36.224831 -103.2636
45964000 -35.870785 -77.438232 -0.038819958 -9.437747 -0.040499695 -9.4593258 -36.008881 -103.00861
46963000 -35.695049 -79.456139 -0.038723059 -9.628624 -0.041819908 -9.6513853 -35.814892 -103.40571
47962000 -35.545494 -81.028427 -0.039882842 -9.8337946 -0.04284719 -9.8479424 -35.594654 -103.69681
48961000 -35.338379 -82.387535 -0.041886032 -10.029376 -0.044300962 -10.048338 -35.384804 -103.93939
49960000 -35.117882 -83.851067 -0.04296248 -10.227819 -0.045444712 -10.253185 -35.250889 -104.04052
50959000 -34.899052 -85.240028 -0.043363798 -10.441196 -0.046331309 -10.449908 -35.047348 -104.52839
51958000 -34.720264 -86.343887 -0.045447852 -10.64026 -0.047740709 -10.64793 -34.877911 -105.01269
52957000 -34.508572 -87.479271 -0.0474489 -10.837509 -0.048408147 -10.843908 -34.707916 -104.89709
53956000 -34.354141 -88.148895 -0.048014738 -11.040145 -0.049723171 -11.041296 -34.576153 -104.99329
54955000 -34.191864 -88.671104 -0.049069405 -11.23786 -0.050849494 -11.239841 -34.425392 -104.97411
55954000 -34.02618 -89.616241 -0.050071698 -11.442071 -0.050366037 -11.436956 -34.320648 -104.64771
56953000 -33.924389 -89.666122 -0.049425732 -11.636098 -0.04991563 -11.628036 -34.236702 -104.85686
57952000 -33.766903 -90.210373 -0.0503354 -11.837934 -0.050879613 -11.827594 -34.142395 -104.87745
58951000 -33.64558 -90.521111 -0.050987784 -12.042579 -0.051858746 -12.020613 -34.003857 -105.13735
59950000 -33.534821 -90.989906 -0.052421492 -12.238374 -0.052230496 -12.215631 -33.922451 -105.42978
60949000 -33.412361 -91.524467 -0.052659135 -12.439799 -0.052930333 -12.416001 -33.829952 -105.61111
61948000 -33.352131 -91.85508 -0.053133413 -12.640992 -0.052753199 -12.623136 -33.742218 -105.74299
62947000 -33.270283 -92.050728 -0.052918278 -12.846093 -0.053768922 -12.828274 -33.612686 -106.12101
63946000 -33.211926 -92.772713 -0.054173335 -13.049038 -0.05435 -13.026483 -33.512749 -106.15667
64945000 -33.099304 -92.959213 -0.054902844 -13.247952 -0.054438859 -13.228425 -33.379509 -106.67384
65944000 -32.999531 -93.267273 -0.055371076 -13.447373 -0.055326242 -13.432266 -33.307781 -107.1797
66943000 -32.873627 -93.690048 -0.053258672 -13.648976 -0.054138739 -13.633006 -33.197762 -107.43808
67942000 -32.803654 -93.605637 -0.055550937 -13.845384 -0.055770922 -13.832101 -33.084568 -107.72732
68941000 -32.704765 -93.699005 -0.055003513 -14.038975 -0.054208197 -14.02686 -32.973507 -107.76165
69940000 -32.596088 -93.836716 -0.055222683 -14.235816 -0.054799035 -14.22611 -32.837177 -108.08176
70939000 -32.49128 -93.773827 -0.054918312 -14.431396 -0.054863784 -14.424711 -32.700832 -107.95628
71938000 -32.350533 -93.374947 -0.054542139 -14.629357 -0.055637199 -14.622705 -32.566944 -107.89843
72937000 -32.19651 -93.280243 -0.054436762 -14.82405 -0.054750539 -14.821045 -32.427834 -107.59217
73936000 -32.056297 -92.985054 -0.054414745 -15.02359 -0.053650722 -15.014943 -32.310207 -107.39966
74935000 -31.93092 -93.204529 -0.052953389 -15.220073 -0.052679047 -15.216316 -32.1506 -107.12545
75934000 -31.812632 -93.520699 -0.053845186 -15.42751 -0.053663563 -15.42077 -32.072971 -107.07629
76933000 -31.68466 -93.967209 -0.054440957 -15.622418 -0.054270316 -15.617206 -31.89642 -107.50842
77932000 -31.582211 -94.759415 -0.056514859 -15.817653 -0.056514338 -15.808446 -31.796766 -107.499
78931000 -31.523399 -95.486588 -0.055405684 -16.017336 -0.05493116 -16.010162 -31.699444 -107.38344
79930000 -31.413181 -96.294922 -0.057066672 -16.210474 -0.058151349 -16.207468 -31.608297 -107.76659
80929000 -31.285639 -97.177505 -0.059123199 -16.403172 -0.059138943 -16.40045 -31.498064 -108.02522
81928000 -31.20727 -98.102554 -0.05860576 -16.595325 -0.05961629 -16.592634 -31.379444 -108.13589
82927000 -31.104053 -98.825783 -0.060981706 -16.795942 -0.060962804 -16.795519 -31.282814 -108.48961
83926000 -30.999302 -99.52829 -0.06231131 -16.993837 -0.061981235 -16.993561 -31.162914 -108.70208
84925000 -30.894854 -100.01653 -0.063134901 -17.192501 -0.062185001 -17.188452 -31.069662 -108.77608
85924000 -30.806963 -100.45326 -0.06336315 -17.3908 -0.063586161 -17.389975 -30.98827 -108.76523
86923000 -30.704344 -100.94437 -0.063370772 -17.587414 -0.064116277 -17.586643 -30.882372 -108.71906
87922000 -30.596365 -101.33292 -0.064207964 -17.794506 -0.063340567 -17.785618 -30.795271 -108.72321
88921000 -30.531816 -101.64373 -0.065369584 -17.991959 -0.064830907 -17.983437 -30.705322 -108.70308
89920000 -30.42952 -102.18396 -0.06535618 -18.189512 -0.065056875 -18.182724 -30.664639 -108.89276
90919000 -30.323296 -102.50618 -0.066662677 -18.391256 -0.06545762 -18.382137 -30.566 -109.06996
91918000 -30.23115 -102.87956 -0.067213148 -18.582712 -0.065808721 -18.5811 -30.499483 -109.11404
92917000 -30.151598 -103.2392 -0.067835733 -18.781891 -0.067450553 -18.779768 -30.436945 -109.17152
93916000 -30.066067 -103.56391 -0.067705847 -18.977257 -0.067505501 -18.971012 -30.35816 -109.81287
94915000 -29.994295 -104.23827 -0.069494382 -19.180206 -0.068028472 -19.174236 -30.293226 -109.66174
95914000 -29.933491 -104.40753 -0.069370493 -19.372622 -0.068615668 -19.369354 -30.209105 -110.01936
96913000 -29.845858 -104.63677 -0.070664786 -19.574541 -0.070171751 -19.568851 -30.13867 -110.33856
97912000 -29.777376 -105.15503 -0.07218159 -19.764324 -0.069900267 -19.768744 -30.065432 -110.58585
98911000 -29.673018 -105.33349 -0.07262326 -19.971104 -0.071051039 -19.966019 -30.03026 -110.76921
99910000 -29.609322 -105.44976 -0.072803572 -20.169004 -0.070764765 -20.16605 -29.921368 -111.08431
100909000 -29.516264 -105.77885 -0.072233707 -20.373077 -0.070653208 -20.368067 -29.836603 -111.27467
101908000 -29.433205 -106.06973 -0.073153429 -20.576086 -0.071548119 -20.572174 -29.724974 -111.10481
102907000 -29.297483 -106.03178 -0.073420905 -20.773127 -0.07243032 -20.773397 -29.648123 -111.05642
103906000 -29.210135 -106.14017 -0.074201055 -20.979912 -0.072193697 -20.973724 -29.506639 -111.0427
104905000 -29.06435 -106.03172 -0.074515998 -21.181171 -0.072022364 -21.175581 -29.373852 -110.69213
105904000 -28.927168 -106.16556 -0.074401706 -21.378614 -0.072394788 -21.374258 -29.260796 -110.61083
106903000 -28.811312 -106.26244 -0.074794091 -21.587385 -0.072849639 -21.576439 -29.139202 -110.49545
107902000 -28.655325 -106.6468 -0.075136729 -21.784624 -0.073459342 -21.778214 -28.994211 -110.4127
108901000 -28.546385 -106.89274 -0.076775245 -21.980289 -0.074699283 -21.977402 -28.863157 -110.35744
109900000 -28.422256 -107.39607 -0.077293269 -22.18626 -0.074835703 -22.177526 -28.718771 -110.51221
110899000 -28.306047 -107.9901 -0.079054385 -22.383961 -0.07618773 -22.371868 -28.587088 -110.75922
111898000 -28.215693 -108.69076 -0.080607355 -22.58153 -0.077150188 -22.575521 -28.467096 -110.9003
112897000 -28.092628 -109.21323 -0.081862792 -22.780518 -0.078478694 -22.770649 -28.340857 -111.13169
113896000 -27.990868 -109.85059 -0.08241836 -22.983973 -0.080041736 -22.970442 -28.235435 -111.2189
114895000 -27.893377 -110.45516 -0.083585389 -23.179775 -0.081339478 -23.166706 -28.125696 -111.33752
115894000 -27.764439 -110.78941 -0.084873103 -23.384491 -0.082709625 -23.36974 -28.04542 -111.5051
116893000 -27.677967 -111.41276 -0.085092992 -23.577147 -0.083253957 -23.555933 -27.927671 -111.66647
117892000 -27.600231 -111.87122 -0.085530959 -23.770334 -0.083461098 -23.760004 -27.856077 -111.86298
118891000 -27.537159 -112.26759 -0.086220607 -23.97291 -0.083555311 -23.959999 -27.757938 -112.01064
119890000 -27.446348 -112.68655 -0.08698193 -24.175745 -0.084982648 -24.159361 -27.746309 -112.1941
120889000 -27.395027 -113.16086 -0.088067234 -24.371637 -0.084748775 -24.35973 -27.670975 -112.12595
121888000 -27.35774 -113.5239 -0.087580673 -24.566246 -0.084787309 -24.55938 -27.609123 -112.39108
122887000 -27.315874 -113.68089 -0.088992961 -24.772066 -0.086168058 -24.756361 -27.570412 -112.42615
123886000 -27.259501 -114.06271 -0.089769833 -24.970245 -0.086302988 -24.957409 -27.555725 -112.62151
124885000 -27.22963 -114.62109 -0.089713015 -25.170424 -0.086288467 -25.157581 -27.52207 -112.65843
125884000 -27.172607 -114.80399 -0.090528868 -25.373602 -0.086478062 -25.359377 -27.493391 -112.8071
126883000 -27.151316 -115.18822 -0.090476535 -25.572262 -0.088145167 -25.559145 -27.449078 -112.8919
127882000 -27.099556 -115.47411 -0.091028981 -25.772778 -0.088074632 -25.754375 -27.411728 -113.02528
128881000 -27.073715 -115.84198 -0.091347262 -25.971693 -0.088288344 -25.956793 -27.369059 -113.22338
129880000 -27.014357 -116.12527 -0.091975696 -26.174664 -0.088158377 -26.155371 -27.328714 -113.15392
130879000 -26.954285 -116.28937 -0.091511428 -26.373617 -0.089171313 -26.35734 -27.252972 -113.21857
131878000 -26.892601 -116.49908 -0.09148103 -26.575968 -0.089054786 -26.555658 -27.185186 -113.10992
132877000 -26.830997 -116.59876 -0.091730602 -26.779295 -0.088966273 -26.760908 -27.107885 -113.12895
133876000 -26.736563 -116.77107 -0.092079073 -26.978056 -0.088842094 -26.957541 -27.015858 -113.03516
134875000 -26.644947 -116.88869 -0.092512988 -27.179283 -0.090079561 -27.156765 -26.913525 -112.90448
135874000 -26.564339 -116.90391 -0.092421234 -27.37759 -0.09014722 -27.358372 -26.817268 -112.90909
136873000 -26.45376 -116.81529 -0.093291812 -27.580072 -0.089507692 -27.562292 -26.723946 -112.8785
137872000 -26.381315 -116.95203 -0.092597075 -27.780701 -0.09008009 -27.762409 -26.623123 -112.82839
138871000 -26.302002 -117.11982 -0.093034483 -27.978683 -0.089787535 -27.966484 -26.522278 -113.02451
139870000 -26.202356 -117.4152 -0.093622953 -28.180677 -0.09114635 -28.158936 -26.448652 -113.17327
140869000 -26.118219 -117.88667 -0.095641032 -28.377918 -0.092552125 -28.353977 -26.339504 -113.29887
141868000 -26.024227 -118.34621 -0.096401103 -28.567324 -0.09303686 -28.550804 -26.27174 -113.67335
142867000 -25.944496 -118.60378 -0.094323941 -28.76371 -0.092104986 -28.747574 -26.192356 -113.80994
143866000 -25.874321 -119.11259 -0.095603988 -28.959787 -0.093408711 -28.94512 -26.117369 -114.32466
144865000 -25.82328 -119.60522 -0.096785419 -29.157743 -0.094766803 -29.147211 -26.062372 -114.62975
145864000 -25.759605 -119.94494 -0.097785808 -29.363018 -0.095710099 -29.347246 -26.032831 -114.89375
146863000 -25.717577 -120.33881 -0.098212346 -29.56082 -0.096077159 -29.54438 -25.978647 -115.20502
147862000 -25.68103 -120.69481 -0.099025302 -29.752857 -0.096447945 -29.743677 -25.948307 -115.53971
148861000 -25.645294 -121.22211 -0.099462822 -29.952682 -0.09802939 -29.9387 -25.917753 -115.80131
149860000 -25.63274 -121.40107 -0.10011866 -30.152857 -0.097733654 -30.14196 -25.888094 -115.96444
150859000 -25.608339 -121.77204 -0.099976145 -30.355328 -0.097454347 -30.339739 -25.876972 -116.17869
151858000 -25.594055 -122.06567 -0.1002013 -30.552233 -0.098051898 -30.536598 -25.871717 -116.50533
152857000 -25.573835 -122.39959 -0.10059073 -30.750069 -0.09821447 -30.735424 -25.851513 -116.58361
153856000 -25.56358 -122.60479 -0.10021985 -30.943506 -0.097631991 -30.934231 -25.871626 -116.87116
154855000 -25.561541 -122.80296 -0.10120937 -31.145584 -0.097666405 -31.13283 -25.863241 -117.12179
155854000 -25.576656 -123.04422 -0.10094813 -31.343124 -0.098695338 -31.334122 -25.851557 -117.37728
156853000 -25.561243 -123.73521 -0.099083565 -31.532963 -0.097946517 -31.524763 -25.849491 -117.6963
157852000 -25.563816 -123.92573 -0.10002859 -31.729654 -0.099377006 -31.72098 -25.843752 -118.02535
158851000 -25.564545 -124.17706 -0.10095899 -31.930571 -0.099434219 -31.92341 -25.819874 -118.30801
159850000 -25.545994 -124.30195 -0.10156285 -32.128551 -0.09919744 -32.120872 -25.819586 -118.46326
160849000 -25.525967 -124.43176 -0.10182121 -32.327068 -0.10033349 -32.323208 -25.788246 -118.76176
161848000 -25.506105 -124.53592 -0.10153131 -32.529774 -0.10037562 -32.521488 -25.751392 -118.88963
162847000 -25.463837 -124.75822 -0.10203269 -32.726048 -0.10120301 -32.720486 -25.717415 -119.09563
163846000 -25.420753 -124.96219 -0.10204329 -32.92482 -0.10045509 -32.920029 -25.640818 -119.13163
164845000 -25.360161 -124.98845 -0.10269739 -33.120739 -0.100835 -33.119728 -25.576351 -119.21728
165844000 -25.308039 -125.01835 -0.10181697 -33.32082 -0.10163677 -33.317905 -25.496195 -119.36387
166843000 -25.248285 -125.13478 -0.10206078 -33.52174 -0.10126104 -33.51474 -25.426674 -119.55939
167842000 -25.186405 -125.28148 -0.10289248 -33.721405 -0.10163175 -33.710674 -25.345333 -119.46613
168841000 -25.110739 -125.50567 -0.10316922 -33.922104 -0.10159014 -33.912685 -25.271542 -119.5635
169840000 -25.045967 -125.74788 -0.10306159 -34.118191 -0.10311938 -34.109634 -25.182682 -119.75987
170839000 -24.98407 -126.00797 -0.10420369 -34.310024 -0.10291369 -34.307938 -25.09754 -119.96227
171838000 -24.926931 -126.40202 -0.10439645 -34.511093 -0.10349687 -34.50861 -25.031128 -120.19603
172837000 -24.860846 -126.78185 -0.10609008 -34.706539 -0.1048544 -34.699799 -24.963133 -120.39326
173836000 -24.792664 -127.21182 -0.10656042 -34.908966 -0.10570998 -34.900665 -24.920074 -120.63188
174835000 -24.736822 -127.63624 -0.10701939 -35.100014 -0.10616197 -35.099754 -24.873188 -120.94192
175834000 -24.689148 -128.01443 -0.10753892 -35.301186 -0.10744843 -35.295166 -24.807947 -121.25117
176833000 -24.634415 -128.40616 -0.10883561 -35.496265 -0.10746302 -35.496014 -24.756693 -121.3963
177832000 -24.590197 -128.8979 -0.10914033 -35.694763 -0.10792051 -35.692272 -24.732948 -121.57196
178831000 -24.546303 -129.25424 -0.10933146 -35.891575 -0.10878862 -35.884926 -24.700649 -121.80167
179830000 -24.511917 -129.66142 -0.11028987 -36.085999 -0.10867078 -36.087315 -24.671282 -121.94918
180829000 -24.475702 -129.87581 -0.11048423 -36.285225 -0.10947587 -36.279667 -24.646549 -122.05559
181828000 -24.447454 -130.20966 -0.11056389 -36.480953 -0.10995267 -36.479977 -24.625706 -122.20461
182827000 -24.425184 -130.58592 -0.11070171 -36.679356 -0.10956188 -36.678696 -24.608561 -122.2625
183826000 -24.386662 -130.89401 -0.11157703 -36.874687 -0.10997285 -36.873425 -24.604143 -122.39318
184825000 -24.386511 -131.21368 -0.11077526 -37.0709 -0.11081297 -37.069874 -24.582869 -122.50126
185824000 -24.357765 -131.58817 -0.11076225 -37.268284 -0.11139802 -37.267078 -24.581179 -122.53462
186823000 -24.347513 -131.90707 -0.11127983 -37.466148 -0.1107519 -37.461258 -24.582172 -122.51485
187822000 -24.331055 -132.23317 -0.11149734 -37.656544 -0.11070144 -37.660664 -24.546215 -122.56025
188821000 -24.307673 -132.49518 -0.11181819 -37.854225 -0.1111975 -37.858345 -24.532219 -122.6961
189820000 -24.291706 -132.75165 -0.11199828 -38.05859 -0.11142909 -38.05698 -24.525717 -122.83241
190819000 -24.262636 -132.99846 -0.11347034 -38.253853 -0.11272269 -38.256145 -24.487255 -122.8107
191818000 -24.22831 -133.15611 -0.11422423 -38.447384 -0.11384927 -38.45126 -24.458576 -122.71402
192817000 -24.157305 -133.46368 -0.11502636 -38.636135 -0.1143813 -38.636787 -24.393373 -122.79646
193816000 -24.121494 -133.79567 -0.11383332 -38.82917 -0.11276228 -38.82996 -24.33227 -123.0761
194815000 -24.065325 -134.25357 -0.11408843 -39.022572 -0.11363561 -39.027939 -24.269325 -123.1601
195814000 -24.014896 -134.48488 -0.11468269 -39.221031 -0.11368637 -39.224533 -24.220415 -123.26739
196813000 -23.959219 -134.84569 -0.11428934 -39.415966 -0.11365608 -39.416817 -24.141308 -123.4344
197812000 -23.907928 -135.05472 -0.11417081 -39.614475 -0.11329577 -39.613358 -24.075741 -123.5478
198811000 -23.853336 -135.21956 -0.11393802 -39.810795 -0.11356919 -39.814377 -24.002401 -123.72272
199810000 -23.782669 -135.59991 -0.11484695 -40.004871 -0.11343846 -40.000359 -23.925125 -123.84495
200809000 -23.725834 -135.9054 -0.11469678 -40.203094 -0.11386308 -40.202068 -23.848957 -124.02888
201808000 -23.672571 -136.13216 -0.11512711 -40.407364 -0.11400313 -40.404785 -23.780714 -124.13122
202807000 -23.611158 -136.48131 -0.11595652 -40.603844 -0.11511461 -40.607307 -23.727251 -124.33389
203806000 -23.561375 -136.91924 -0.11778712 -40.802895 -0.11569013 -40.804993 -23.661434 -124.49728
