!Keysight Technologies,E5080B,MY59205177,A.15.75.32
!Date: Friday, February 23, 2024 03:42:39
!Correction: S11(Cdelta 2-Port  ) 
!S21(Cdelta 2-Port  ) 
!S12(Cdelta 2-Port  ) 
!S22(Cdelta 2-Port  ) 
!S2P File: Measurements: S11, S21, S12, S22:
# Hz S  dB   R 50
10000000 -46.125179 -2.3666286 -0.014177304 -2.0359771 -0.017901788 -2.0972788 -45.910355 -157.04022
10999000 -45.322708 -4.7318721 -0.015700487 -2.2583461 -0.017152738 -2.3153236 -45.805832 -151.09142
11998000 -44.37606 -8.013257 -0.016441492 -2.4844875 -0.016929502 -2.5296843 -45.963474 -147.08058
12997000 -43.612179 -13.400873 -0.015501228 -2.6643946 -0.017709184 -2.6997674 -45.592503 -140.96127
13996000 -43.286465 -17.583843 -0.014221714 -2.8431983 -0.017418347 -2.8669493 -45.326035 -135.80495
14995000 -42.937153 -21.874449 -0.016491901 -3.054265 -0.01676007 -3.0754259 -44.968433 -132.7245
15994000 -42.748497 -26.201704 -0.018360587 -3.2734916 -0.019786421 -3.2954276 -44.935394 -129.27296
16993000 -42.679642 -30.917221 -0.018070744 -3.4722407 -0.018166924 -3.4796379 -44.120007 -129.07594
17992000 -42.69083 -36.35947 -0.018312234 -3.6674833 -0.019972876 -3.6731024 -43.535465 -129.07761
18991000 -42.936352 -41.772678 -0.018956186 -3.8813725 -0.019982757 -3.8782399 -42.847748 -127.91792
19990000 -42.743694 -47.510174 -0.021154456 -4.0926595 -0.022220833 -4.0805569 -42.242531 -128.84914
20989000 -42.536057 -51.068787 -0.023229958 -4.2937255 -0.024329906 -4.2825837 -41.687572 -127.85242
21988000 -42.332222 -56.157528 -0.024154197 -4.4887333 -0.024953663 -4.4771991 -41.42894 -127.21312
22987000 -42.024113 -60.903786 -0.024961734 -4.6909122 -0.02571734 -4.6798239 -41.183945 -126.77843
23986000 -41.915264 -65.053139 -0.024481932 -4.8847504 -0.024796413 -4.8812718 -41.014675 -126.78992
24985000 -41.548237 -67.621063 -0.02576213 -5.0930982 -0.025955871 -5.0889683 -40.83577 -124.35081
25984000 -41.166019 -69.923988 -0.026696023 -5.3022928 -0.025093734 -5.3007617 -40.460514 -122.59746
26983000 -40.884033 -71.741096 -0.027751779 -5.4980059 -0.026596269 -5.5139408 -40.365219 -121.91096
27982000 -40.657936 -72.657913 -0.028543048 -5.6946073 -0.028299164 -5.7287803 -40.085934 -120.59229
28981000 -40.626999 -74.294617 -0.02720264 -5.8972235 -0.028198592 -5.9192886 -39.838234 -120.08738
29980000 -40.225517 -75.506317 -0.026563974 -6.0877385 -0.028038098 -6.0935488 -39.581516 -118.97652
30979000 -39.835045 -74.447075 -0.024425441 -6.4419169 -0.023281747 -6.4358754 -39.078182 -119.44388
31978000 -39.646732 -75.454956 -0.02375439 -6.6375942 -0.024021184 -6.6288624 -38.83918 -118.7334
32977000 -39.44651 -76.971672 -0.023428272 -6.8482413 -0.025053117 -6.846252 -38.597637 -118.6989
33976000 -39.28447 -78.105072 -0.024657393 -7.045918 -0.025632711 -7.0444584 -38.333817 -118.1834
34975000 -38.970039 -78.687996 -0.024440281 -7.2486768 -0.026169933 -7.2474713 -38.113068 -117.86106
35974000 -38.773586 -79.262375 -0.023069389 -7.4436522 -0.025845457 -7.4438324 -37.829372 -116.89836
36973000 -38.561874 -79.840019 -0.023913423 -7.6431413 -0.027024731 -7.6457992 -37.567547 -115.98023
37972000 -38.391914 -79.659187 -0.023221891 -7.853951 -0.026448857 -7.8643961 -37.342278 -115.23071
38971000 -38.054585 -79.147392 -0.024469696 -8.0539722 -0.027402697 -8.06598 -37.180767 -113.66368
39970000 -37.735687 -79.454102 -0.02343582 -8.2510109 -0.025607975 -8.2646952 -36.938046 -113.07292
40969000 -37.431484 -79.239166 -0.023367111 -8.4429865 -0.02562438 -8.4628677 -36.699818 -111.74201
41968000 -37.092533 -78.986893 -0.023080319 -8.6477814 -0.025222875 -8.6694574 -36.501831 -110.51824
42967000 -36.864597 -79.096214 -0.023141995 -8.863451 -0.026174882 -8.8797417 -36.336147 -108.66093
43966000 -36.553383 -79.795219 -0.024346044 -9.0606794 -0.027879955 -9.0806198 -36.050106 -107.88515
44965000 -36.312115 -80.506096 -0.024702432 -9.2629118 -0.027664766 -9.2845984 -35.861725 -107.71788
45964000 -36.107101 -81.511246 -0.025912642 -9.4637938 -0.028839322 -9.4839249 -35.62101 -107.25713
46963000 -35.893394 -83.514679 -0.02647334 -9.6557722 -0.028582131 -9.6771421 -35.426075 -107.57177
47962000 -35.7365 -84.912277 -0.027646009 -9.8598108 -0.030651022 -9.8797312 -35.240166 -107.72652
48961000 -35.520729 -86.179047 -0.030153647 -10.057744 -0.031703826 -10.079904 -35.016735 -107.78848
49960000 -35.276596 -87.609146 -0.030871313 -10.257351 -0.032507554 -10.280319 -34.883183 -107.95771
50959000 -35.05582 -88.823685 -0.031698089 -10.469558 -0.034147281 -10.48118 -34.697205 -108.18689
51958000 -34.850533 -89.822845 -0.033621069 -10.670398 -0.035904035 -10.679573 -34.52858 -108.68504
52957000 -34.624958 -90.886101 -0.034670681 -10.868973 -0.036474116 -10.875665 -34.370178 -108.38007
53956000 -34.469349 -91.578346 -0.036273375 -11.069974 -0.037285771 -11.075288 -34.226624 -108.39953
54955000 -34.295273 -91.959969 -0.037262276 -11.269385 -0.037631731 -11.273044 -34.066078 -108.36939
55954000 -34.122837 -92.900719 -0.037559144 -11.469357 -0.038117427 -11.469659 -33.968288 -108.07168
56953000 -34.006451 -93.009163 -0.038044833 -11.669033 -0.037612934 -11.660905 -33.88945 -108.28294
57952000 -33.828636 -93.554695 -0.039295599 -11.863161 -0.038482521 -11.861708 -33.793484 -108.40627
58951000 -33.712021 -93.881454 -0.039780438 -12.072954 -0.039519202 -12.055168 -33.628689 -108.4135
59950000 -33.591049 -94.216255 -0.040151153 -12.274762 -0.040495515 -12.252504 -33.553604 -108.71686
60949000 -33.462051 -94.773056 -0.040086884 -12.471196 -0.04053732 -12.454757 -33.459995 -109.00768
61948000 -33.407272 -95.115761 -0.041155569 -12.672277 -0.040381856 -12.654641 -33.360359 -109.08511
62947000 -33.309353 -95.307404 -0.041256443 -12.885307 -0.041212276 -12.866847 -33.229103 -109.28034
63946000 -33.228882 -96.081703 -0.042305548 -13.082999 -0.041870087 -13.068099 -33.105309 -109.39716
64945000 -33.125023 -96.203209 -0.0423939 -13.285053 -0.042761967 -13.268223 -32.995049 -109.94339
65944000 -33.023895 -96.510803 -0.043382622 -13.484116 -0.043016858 -13.4696 -32.915997 -110.33327
66943000 -32.880856 -96.861908 -0.041238934 -13.684449 -0.041794293 -13.671066 -32.800766 -110.59768
67942000 -32.819099 -96.845909 -0.043566171 -13.882455 -0.04361742 -13.8719 -32.672054 -110.80466
68941000 -32.703915 -96.847923 -0.043121174 -14.077542 -0.042437553 -14.066257 -32.5695 -110.8253
69940000 -32.613533 -96.889954 -0.043173201 -14.274611 -0.043571401 -14.266221 -32.421707 -111.09383
70939000 -32.498837 -96.844315 -0.043429688 -14.469484 -0.043642521 -14.466693 -32.301128 -111.03548
71938000 -32.361961 -96.446129 -0.042918559 -14.66865 -0.042511269 -14.664109 -32.170506 -110.89952
72937000 -32.204983 -96.201355 -0.042956728 -14.870051 -0.04292614 -14.865807 -32.038391 -110.56379
73936000 -32.072269 -95.879791 -0.04266341 -15.064964 -0.041550446 -15.058195 -31.915062 -110.34026
74935000 -31.955996 -96.103676 -0.042144272 -15.261629 -0.041501313 -15.262524 -31.768433 -110.06006
75934000 -31.824022 -96.346779 -0.042167272 -15.468904 -0.04174751 -15.466733 -31.673819 -109.96393
76933000 -31.698195 -96.70517 -0.042967185 -15.665423 -0.042395469 -15.660483 -31.509777 -110.33769
77932000 -31.601999 -97.447472 -0.044371832 -15.863503 -0.044515934 -15.859647 -31.412354 -110.1851
78931000 -31.522943 -98.170311 -0.042943396 -16.061329 -0.042735562 -16.057684 -31.312082 -110.12885
79930000 -31.400557 -99.051682 -0.045487091 -16.252993 -0.045353685 -16.256245 -31.213415 -110.44876
80929000 -31.292147 -99.826515 -0.047227766 -16.452261 -0.047024958 -16.448082 -31.115213 -110.7021
81928000 -31.188612 -100.52982 -0.047561955 -16.641708 -0.047717676 -16.639406 -30.988901 -110.67908
82927000 -31.097927 -101.23935 -0.049319435 -16.841251 -0.049292728 -16.842033 -30.89237 -110.96159
83926000 -30.982193 -101.95165 -0.050477602 -17.038084 -0.049984496 -17.039112 -30.77072 -111.15131
84925000 -30.866076 -102.40422 -0.051684801 -17.241873 -0.049794655 -17.238152 -30.673243 -111.17435
85924000 -30.781305 -102.71929 -0.052131463 -17.438747 -0.051532343 -17.434305 -30.593864 -111.17587
86923000 -30.665798 -103.29259 -0.051827833 -17.634449 -0.05218491 -17.632998 -30.488958 -111.09312
87922000 -30.559965 -103.67967 -0.052469961 -17.841906 -0.050742898 -17.83441 -30.404774 -111.06238
88921000 -30.493179 -103.87752 -0.052991647 -18.041384 -0.052764468 -18.038439 -30.304762 -111.04454
89920000 -30.390327 -104.37324 -0.053267058 -18.241838 -0.053064495 -18.234282 -30.247576 -111.2544
90919000 -30.290802 -104.67959 -0.054417364 -18.439779 -0.053626347 -18.43277 -30.167408 -111.3962
91918000 -30.187275 -105.00408 -0.05538943 -18.633955 -0.053619798 -18.633099 -30.099588 -111.41854
92917000 -30.10235 -105.33877 -0.056022644 -18.836779 -0.055373173 -18.835091 -30.027906 -111.54925
93916000 -30.012693 -105.70964 -0.055732902 -19.025993 -0.055555392 -19.024916 -29.948339 -112.16669
94915000 -29.936031 -106.32008 -0.057143521 -19.231819 -0.055985149 -19.222851 -29.883835 -112.03505
95914000 -29.8638 -106.4967 -0.058715437 -19.423468 -0.057740528 -19.4259 -29.788219 -112.2261
96913000 -29.774561 -106.62624 -0.059384827 -19.626955 -0.058571126 -19.626554 -29.724695 -112.58356
97912000 -29.695684 -107.17158 -0.060502633 -19.820702 -0.058222447 -19.823925 -29.639744 -112.8064
98911000 -29.59738 -107.331 -0.060856223 -20.020428 -0.059256766 -20.024912 -29.60614 -113.03053
99910000 -29.529659 -107.45631 -0.061657224 -20.222374 -0.060314432 -20.220947 -29.500925 -113.28585
100909000 -29.441217 -107.69513 -0.060777206 -20.433725 -0.059194311 -20.428469 -29.411243 -113.48977
101908000 -29.352022 -107.94608 -0.061936859 -20.63279 -0.060188703 -20.630856 -29.301918 -113.2792
102907000 -29.210661 -107.92678 -0.062495399 -20.827709 -0.061034996 -20.832632 -29.227064 -113.30493
103906000 -29.123068 -108.00488 -0.062101234 -21.037395 -0.060051959 -21.027777 -29.087339 -113.23245
104905000 -28.976364 -107.87681 -0.06315434 -21.234074 -0.060351964 -21.236469 -28.963348 -112.89167
105904000 -28.835884 -107.94358 -0.063355274 -21.440863 -0.060545944 -21.431257 -28.851648 -112.75145
106903000 -28.730001 -108.04068 -0.063370772 -21.642197 -0.06087565 -21.636086 -28.729805 -112.67104
107902000 -28.572111 -108.29332 -0.064293347 -21.843493 -0.061199076 -21.838608 -28.594246 -112.65544
108901000 -28.450232 -108.56644 -0.065242924 -22.049431 -0.062712848 -22.039038 -28.469513 -112.60644
109900000 -28.335405 -109.01599 -0.065836839 -22.244106 -0.063559368 -22.23765 -28.320566 -112.63171
110899000 -28.209127 -109.61067 -0.067206055 -22.443745 -0.064433642 -22.437151 -28.20225 -112.92341
111898000 -28.118799 -110.28321 -0.068778463 -22.645874 -0.065478906 -22.641031 -28.07723 -113.03895
112897000 -28.000584 -110.76852 -0.070295922 -22.84548 -0.066589341 -22.834059 -27.943628 -113.1568
113896000 -27.891684 -111.38483 -0.070433259 -23.045477 -0.068101309 -23.031694 -27.840492 -113.35217
114895000 -27.788988 -111.98602 -0.072001569 -23.241297 -0.069385484 -23.230736 -27.735727 -113.43895
115894000 -27.673626 -112.36703 -0.073088929 -23.446144 -0.070449829 -23.433493 -27.660864 -113.62094
116893000 -27.594194 -112.86862 -0.074105993 -23.643133 -0.071154185 -23.626366 -27.544159 -113.70108
117892000 -27.512341 -113.35059 -0.074198157 -23.835299 -0.07204552 -23.825871 -27.469879 -113.91682
118891000 -27.452486 -113.73969 -0.074644245 -24.038906 -0.072167903 -24.025747 -27.374081 -114.03778
119890000 -27.363527 -114.1071 -0.075134628 -24.239573 -0.073085509 -24.227705 -27.353157 -114.1478
120889000 -27.316099 -114.56729 -0.076135047 -24.438087 -0.073137105 -24.424812 -27.27895 -114.13043
121888000 -27.26869 -114.90051 -0.076209866 -24.63434 -0.073824517 -24.62487 -27.223413 -114.36195
122887000 -27.23678 -115.06413 -0.077283785 -24.837292 -0.073720522 -24.824615 -27.177872 -114.41853
123886000 -27.183393 -115.56423 -0.077517256 -25.046703 -0.074635819 -25.026464 -27.162323 -114.54563
124885000 -27.15064 -116.03754 -0.078603104 -25.244324 -0.074980028 -25.225391 -27.136791 -114.58057
125884000 -27.097311 -116.24915 -0.079062037 -25.440622 -0.075319521 -25.430807 -27.101309 -114.72398
126883000 -27.080185 -116.62077 -0.079362303 -25.643093 -0.075870298 -25.626518 -27.065542 -114.72372
127882000 -27.026817 -116.89168 -0.079714 -25.841837 -0.076122403 -25.82374 -27.030622 -114.88531
128881000 -27.003664 -117.23282 -0.079933107 -26.043472 -0.07629206 -26.028837 -26.991659 -114.97257
129880000 -26.947762 -117.5088 -0.080193356 -26.24613 -0.076057069 -26.225586 -26.949427 -114.93232
130879000 -26.884584 -117.70766 -0.080024339 -26.446018 -0.077114619 -26.431229 -26.878653 -114.96121
131878000 -26.826601 -117.9201 -0.080254793 -26.646214 -0.077295907 -26.631466 -26.818026 -114.80975
132877000 -26.755688 -118.01009 -0.079827376 -26.849825 -0.077585511 -26.832399 -26.737278 -114.76656
133876000 -26.672592 -118.12473 -0.080381632 -27.049973 -0.077515677 -27.035852 -26.656496 -114.62179
134875000 -26.580372 -118.27682 -0.080614746 -27.249918 -0.077631369 -27.235292 -26.556078 -114.50931
135874000 -26.498215 -118.30409 -0.080466807 -27.449785 -0.078201942 -27.435167 -26.462885 -114.44609
136873000 -26.388981 -118.22446 -0.081229754 -27.653845 -0.077615291 -27.63629 -26.384892 -114.38215
137872000 -26.310829 -118.37976 -0.081074148 -27.855745 -0.078061201 -27.841063 -26.27869 -114.29308
138871000 -26.246279 -118.57913 -0.080950722 -28.054785 -0.078491874 -28.038872 -26.187422 -114.45347
139870000 -26.13763 -118.81607 -0.081437595 -28.253679 -0.079678938 -28.237371 -26.104433 -114.62298
140869000 -26.063929 -119.36299 -0.083589613 -28.450726 -0.080417231 -28.435303 -26.015837 -114.85141
141868000 -25.985699 -119.74909 -0.08443705 -28.65098 -0.081086278 -28.634432 -25.961891 -115.09419
142867000 -25.90344 -119.98306 -0.082935482 -28.847868 -0.079989269 -28.831573 -25.883108 -115.20349
143866000 -25.837173 -120.47078 -0.084391914 -29.044249 -0.082208894 -29.030945 -25.807556 -115.66931
144865000 -25.776182 -120.94508 -0.086680606 -29.240557 -0.083613098 -29.226072 -25.750307 -115.98545
145864000 -25.713467 -121.29946 -0.086618021 -29.443672 -0.084633425 -29.432816 -25.719433 -116.23985
146863000 -25.67429 -121.6469 -0.087255806 -29.642881 -0.084790744 -29.630041 -25.668177 -116.52795
147862000 -25.637072 -121.9791 -0.088402733 -29.844286 -0.085752472 -29.829367 -25.640041 -116.83371
148861000 -25.599045 -122.42672 -0.088903129 -30.041166 -0.086693548 -30.02667 -25.614029 -117.01378
149860000 -25.56955 -122.57873 -0.089821368 -30.231808 -0.088047162 -30.220196 -25.565334 -117.15195
150859000 -25.544687 -123.06544 -0.08972808 -30.432796 -0.087559283 -30.415995 -25.541792 -117.4562
151858000 -25.531004 -123.39922 -0.088900223 -30.626329 -0.087013885 -30.617292 -25.536482 -117.78731
152857000 -25.519854 -123.74655 -0.089342535 -30.825693 -0.087489553 -30.814823 -25.522827 -118.01123
153856000 -25.516459 -123.97498 -0.089497648 -31.029421 -0.086946271 -31.017796 -25.531525 -118.3232
154855000 -25.511324 -124.12481 -0.089511387 -31.22975 -0.087303877 -31.217749 -25.521002 -118.5516
155854000 -25.529146 -124.38682 -0.089447968 -31.428587 -0.087481365 -31.415039 -25.51132 -118.83585
156853000 -25.512074 -125.04 -0.088348843 -31.615168 -0.086694598 -31.604921 -25.505051 -119.16505
157852000 -25.520014 -125.27077 -0.088362053 -31.817965 -0.087679729 -31.810968 -25.495716 -119.4767
158851000 -25.513283 -125.45569 -0.089097589 -32.016762 -0.088494673 -32.009613 -25.479479 -119.80752
159850000 -25.504398 -125.59582 -0.090035692 -32.215981 -0.088339068 -32.206795 -25.476011 -119.94424
160849000 -25.487394 -125.69455 -0.089936852 -32.413227 -0.089158893 -32.411716 -25.442776 -120.23451
161848000 -25.472666 -125.78905 -0.090052076 -32.61454 -0.088922679 -32.612175 -25.403851 -120.35145
162847000 -25.426409 -125.91801 -0.089965656 -32.812515 -0.089428946 -32.809296 -25.375118 -120.58609
163846000 -25.389723 -126.1375 -0.090910554 -33.014378 -0.089757144 -33.008415 -25.301363 -120.58746
164845000 -25.334808 -126.11095 -0.090677679 -33.215214 -0.089872897 -33.208698 -25.236759 -120.67905
165844000 -25.278597 -126.10118 -0.091289893 -33.413578 -0.0903835 -33.408241 -25.162497 -120.81567
166843000 -25.21549 -126.20302 -0.091213755 -33.610386 -0.09009701 -33.607449 -25.093897 -120.97142
167842000 -25.159317 -126.32552 -0.091073386 -33.812904 -0.090765171 -33.808792 -25.019163 -120.85617
168841000 -25.081522 -126.48337 -0.091801986 -34.010292 -0.091114625 -34.007103 -24.948044 -120.98379
169840000 -25.020203 -126.70198 -0.091599464 -34.20813 -0.091131017 -34.20253 -24.86334 -121.1355
170839000 -24.963158 -126.94219 -0.09277875 -34.403351 -0.091211647 -34.40546 -24.78055 -121.32037
171838000 -24.900631 -127.31217 -0.092767641 -34.605247 -0.092868403 -34.599117 -24.719179 -121.5149
172837000 -24.831532 -127.67657 -0.094174474 -34.805286 -0.093444154 -34.798809 -24.651684 -121.71973
173836000 -24.768202 -128.063 -0.094818398 -35.004761 -0.093871593 -35.000973 -24.613836 -121.943
174835000 -24.715229 -128.44383 -0.096109711 -35.198242 -0.095450513 -35.199387 -24.566555 -122.24488
175834000 -24.664501 -128.83647 -0.096484736 -35.400116 -0.096417777 -35.396549 -24.504892 -122.52966
176833000 -24.611942 -129.16743 -0.098067254 -35.599014 -0.096733011 -35.598049 -24.463478 -122.68737
177832000 -24.570414 -129.58971 -0.098584913 -35.798168 -0.097676203 -35.795647 -24.441631 -122.76524
178831000 -24.524364 -129.77602 -0.10025375 -35.989155 -0.099547312 -35.989841 -24.400658 -122.8477
179830000 -24.454456 -130.23584 -0.10137524 -36.175293 -0.10028607 -36.179047 -24.339825 -122.93647
180829000 -24.403564 -130.58705 -0.10007098 -36.368168 -0.10011919 -36.372875 -24.297667 -123.29422
181828000 -24.382593 -130.98256 -0.099407203 -36.569778 -0.098404847 -36.567402 -24.282522 -123.44601
182827000 -24.35643 -131.3761 -0.099237435 -36.76511 -0.098921485 -36.765118 -24.267542 -123.5777
183826000 -24.31822 -131.70819 -0.10051284 -36.967873 -0.099289611 -36.962849 -24.257219 -123.73383
184825000 -24.320766 -132.03841 -0.10014382 -37.164524 -0.099642925 -37.165604 -24.240875 -123.86169
185824000 -24.291243 -132.41446 -0.099429451 -37.357624 -0.09937489 -37.361916 -24.233973 -123.91653
186823000 -24.278585 -132.78146 -0.10006832 -37.561443 -0.099847414 -37.556732 -24.228695 -123.93686
187822000 -24.253422 -133.13185 -0.10091607 -37.754093 -0.10007839 -37.755379 -24.18989 -124.02591
188821000 -24.231932 -133.37396 -0.10000052 -37.949081 -0.0999825 -37.954254 -24.166025 -124.14342
189820000 -24.21147 -133.69534 -0.10072902 -38.150539 -0.10011468 -38.151657 -24.151035 -124.3333
190819000 -24.177504 -133.97127 -0.10118685 -38.346977 -0.10054966 -38.347504 -24.112524 -124.35305
191818000 -24.148571 -134.28877 -0.10176133 -38.544495 -0.10122395 -38.547527 -24.084568 -124.39231
192817000 -24.104273 -134.53853 -0.10213022 -38.740871 -0.10135351 -38.743092 -24.043646 -124.48902
193816000 -24.067223 -134.80676 -0.10211538 -38.939034 -0.10131854 -38.934887 -23.993074 -124.62545
194815000 -24.011179 -135.19052 -0.10238995 -39.131218 -0.10246998 -39.136238 -23.926691 -124.66546
195814000 -23.958679 -135.35353 -0.10392742 -39.331409 -0.10265022 -39.335045 -23.873217 -124.75514
196813000 -23.901649 -135.70125 -0.10262159 -39.522266 -0.10154139 -39.525345 -23.792509 -124.91103
197812000 -23.847239 -135.93123 -0.10330388 -39.723625 -0.10281004 -39.718719 -23.722519 -124.99462
198811000 -23.792803 -136.08232 -0.10298075 -39.91811 -0.10252034 -39.922688 -23.657393 -125.13703
199810000 -23.722118 -136.43784 -0.10326624 -40.112461 -0.10225584 -40.110901 -23.581905 -125.23363
200809000 -23.669542 -136.66762 -0.10413846 -40.309669 -0.1023804 -40.311165 -23.505232 -125.4211
201808000 -23.612625 -136.87444 -0.10402234 -40.511246 -0.10365275 -40.517593 -23.439056 -125.50418
202807000 -23.552155 -137.19815 -0.10500424 -40.7159 -0.10417532 -40.717865 -23.382507 -125.68812
