!Keysight Technologies,E5080B,MY59205177,A.15.75.32
!Date: Friday, February 23, 2024 03:04:28
!Correction: S11(Cdelta 2-Port  ) 
!S21(Cdelta 2-Port  ) 
!S12(Cdelta 2-Port  ) 
!S22(Cdelta 2-Port  ) 
!S2P File: Measurements: S11, S21, S12, S22:
# Hz S  dB   R 50
10000000 -44.188847 -3.5883651 -0.027341221 -2.0361595 -0.030554827 -2.0909853 -47.974255 -150.26186
10999000 -43.523201 -5.4203744 -0.028125118 -2.2552526 -0.030985503 -2.3109775 -47.763699 -143.17688
11998000 -42.755875 -7.9151783 -0.028216308 -2.4765034 -0.029685261 -2.5219703 -47.86433 -137.59509
12997000 -42.163395 -12.595915 -0.027510544 -2.657403 -0.030002726 -2.6926227 -47.219982 -130.7728
13996000 -41.905941 -15.98621 -0.026627785 -2.8389685 -0.029947728 -2.8582809 -46.760696 -125.95521
14995000 -41.600178 -20.053822 -0.029210931 -3.0441871 -0.029358437 -3.0727892 -46.31731 -122.29973
15994000 -41.476814 -23.946417 -0.030594451 -3.2646377 -0.031937994 -3.2863309 -46.035713 -118.86043
16993000 -41.446815 -27.83453 -0.029766059 -3.4598775 -0.030832728 -3.4716244 -45.182114 -119.30383
17992000 -41.522869 -32.480026 -0.029792905 -3.6596389 -0.032173213 -3.6631198 -44.552116 -120.38897
18991000 -41.76889 -36.895954 -0.031505655 -3.867516 -0.033517245 -3.8648877 -43.874313 -119.3597
19990000 -41.616333 -41.959362 -0.033474203 -4.0799446 -0.034909185 -4.0683341 -43.173771 -121.0263
20989000 -41.530602 -44.887459 -0.035288882 -4.2793751 -0.036367089 -4.2702351 -42.54261 -120.79795
21988000 -41.458817 -50.086098 -0.036537807 -4.4763112 -0.03724217 -4.4661927 -42.31831 -120.1666
22987000 -41.191063 -54.273155 -0.037712157 -4.6771817 -0.037983727 -4.6641221 -41.992245 -119.97224
23986000 -41.173218 -57.642052 -0.037256792 -4.8688822 -0.037476111 -4.8725061 -41.93145 -119.94218
24985000 -40.855717 -60.402649 -0.037953958 -5.0782108 -0.037647922 -5.073225 -41.619793 -117.35799
25984000 -40.617031 -62.879742 -0.038641311 -5.27915 -0.037744273 -5.2855597 -41.270378 -116.02993
26983000 -40.329479 -64.713455 -0.039628919 -5.4836097 -0.038928609 -5.4990759 -41.158569 -115.03648
27982000 -40.202435 -65.378799 -0.041076127 -5.681366 -0.040468864 -5.7137365 -40.879341 -113.89565
28981000 -40.225468 -66.849426 -0.038971186 -5.8762479 -0.04071369 -5.9048109 -40.604099 -113.10657
29980000 -39.806744 -68.433235 -0.038361602 -6.0704012 -0.041113757 -6.0753336 -40.296623 -112.08533
30979000 -39.44548 -67.632515 -0.036461584 -6.4216838 -0.035083238 -6.4128547 -39.793728 -113.22398
31978000 -39.272926 -68.790382 -0.03613973 -6.6178074 -0.036331587 -6.6057 -39.51696 -112.58296
32977000 -39.087772 -70.187042 -0.035684794 -6.8313265 -0.036641184 -6.8247333 -39.297707 -112.67395
33976000 -38.958874 -71.549316 -0.035822861 -7.0299525 -0.037331726 -7.0250306 -38.98735 -112.36652
34975000 -38.660858 -72.486115 -0.036361866 -7.2276874 -0.038284302 -7.2263122 -38.742565 -111.99242
35974000 -38.482067 -73.076912 -0.035622414 -7.4216828 -0.038145892 -7.4244065 -38.455101 -111.25003
36973000 -38.24659 -74.049652 -0.03597242 -7.621501 -0.038725149 -7.6251731 -38.164673 -110.57153
37972000 -38.080235 -73.883301 -0.035811376 -7.8293862 -0.039160553 -7.8391953 -37.913174 -109.98282
38971000 -37.751926 -73.479614 -0.03661247 -8.0328531 -0.039298996 -8.0441055 -37.731148 -108.51967
39970000 -37.459694 -74.221436 -0.035342641 -8.2294846 -0.038182452 -8.2443466 -37.436947 -108.0107
40969000 -37.15694 -74.106483 -0.035679311 -8.4182377 -0.0385358 -8.4406729 -37.187702 -106.75576
41968000 -36.841301 -74.226257 -0.035556644 -8.6229687 -0.037408225 -8.6414557 -36.96563 -105.60374
42967000 -36.562763 -74.596687 -0.035862274 -8.8370209 -0.038582548 -8.8529043 -36.733372 -103.85982
43966000 -36.286312 -75.382729 -0.036479596 -9.0351753 -0.038950291 -9.0534639 -36.447811 -103.40295
44965000 -36.067303 -76.269196 -0.036384057 -9.2397709 -0.039350975 -9.2545204 -36.232201 -103.36332
45964000 -35.861931 -77.39003 -0.038378056 -9.4361134 -0.041069854 -9.4536896 -35.995651 -103.14613
46963000 -35.671101 -79.465103 -0.038207002 -9.6272497 -0.040898435 -9.6493301 -35.807281 -103.51824
47962000 -35.539165 -80.892525 -0.040457629 -9.8343019 -0.042088598 -9.8488455 -35.59301 -103.68954
48961000 -35.338371 -82.376221 -0.041659169 -10.027508 -0.044347774 -10.052265 -35.363537 -103.99337
49960000 -35.114044 -83.814659 -0.042862091 -10.22656 -0.045033265 -10.250798 -35.236744 -104.09902
50959000 -34.919437 -85.29203 -0.043725934 -10.443233 -0.046267208 -10.448961 -35.066784 -104.53379
51958000 -34.712029 -86.275124 -0.045751039 -10.639875 -0.047560386 -10.649329 -34.871262 -105.14802
52957000 -34.521103 -87.391975 -0.047008734 -10.839056 -0.048745569 -10.844956 -34.708096 -104.86761
53956000 -34.349537 -88.1679 -0.047308367 -11.039067 -0.049627341 -11.04246 -34.563049 -104.96893
54955000 -34.192207 -88.711166 -0.049416043 -11.241787 -0.050520811 -11.23844 -34.420841 -104.98811
55954000 -34.046696 -89.554825 -0.049708508 -11.43891 -0.050534952 -11.440891 -34.313366 -104.62209
56953000 -33.930248 -89.611595 -0.049923483 -11.636234 -0.049166273 -11.627719 -34.239269 -104.95834
57952000 -33.773766 -90.168198 -0.050927281 -11.834524 -0.050244004 -11.82346 -34.148926 -105.00011
58951000 -33.648315 -90.579552 -0.051746361 -12.042888 -0.0516125 -12.016751 -33.993511 -105.15327
59950000 -33.523174 -90.952789 -0.052362278 -12.239485 -0.052542012 -12.217222 -33.927944 -105.28925
60949000 -33.414356 -91.509674 -0.052718088 -12.437621 -0.052221324 -12.421298 -33.825577 -105.63534
61948000 -33.362766 -91.828293 -0.053188704 -12.639828 -0.052425422 -12.618127 -33.748367 -105.63155
62947000 -33.271381 -92.104286 -0.052757915 -12.849169 -0.053684007 -12.830377 -33.605076 -106.02377
63946000 -33.206089 -92.767273 -0.054812666 -13.049559 -0.054370444 -13.029787 -33.494511 -106.21587
64945000 -33.099167 -92.927917 -0.054530606 -13.248748 -0.054791693 -13.231223 -33.390602 -106.7384
65944000 -32.998581 -93.209412 -0.055233695 -13.444023 -0.055275906 -13.431228 -33.295986 -107.14925
66943000 -32.864822 -93.696579 -0.053692129 -13.649359 -0.053718075 -13.633282 -33.206116 -107.42173
67942000 -32.807003 -93.633011 -0.055460218 -13.847084 -0.055846438 -13.835117 -33.08794 -107.76465
68941000 -32.701302 -93.767929 -0.054549217 -14.039866 -0.054468479 -14.026637 -32.978096 -107.71362
69940000 -32.599842 -93.839149 -0.055437934 -14.236461 -0.055411976 -14.228497 -32.836075 -108.04453
70939000 -32.497276 -93.734436 -0.054708071 -14.428373 -0.055370029 -14.424755 -32.70171 -108.02335
71938000 -32.357033 -93.33902 -0.055038381 -14.628423 -0.05497887 -14.625219 -32.567608 -107.90632
72937000 -32.19828 -93.248978 -0.053735111 -14.827021 -0.055208001 -14.818432 -32.429794 -107.64645
73936000 -32.056049 -92.953621 -0.054413434 -15.022264 -0.054743983 -15.01892 -32.315556 -107.48211
74935000 -31.936253 -93.248062 -0.054025248 -15.220392 -0.053311609 -15.220665 -32.165367 -107.12228
75934000 -31.812691 -93.593338 -0.053929843 -15.43096 -0.053145465 -15.420843 -32.068512 -107.06064
76933000 -31.678766 -93.942383 -0.055121224 -15.619156 -0.054792482 -15.611157 -31.890444 -107.48441
77932000 -31.594978 -94.797249 -0.056361448 -15.819688 -0.056177095 -15.81022 -31.80327 -107.48994
78931000 -31.520761 -95.474449 -0.054885019 -16.015902 -0.055398867 -16.011469 -31.703566 -107.39964
79930000 -31.405157 -96.328491 -0.057657897 -16.211342 -0.058220871 -16.207884 -31.604563 -107.69628
80929000 -31.278721 -97.236374 -0.05911034 -16.403294 -0.059431013 -16.400049 -31.495136 -108.06411
81928000 -31.207115 -98.147713 -0.058795463 -16.597271 -0.059618391 -16.595043 -31.381914 -108.15791
82927000 -31.117136 -98.798523 -0.060453549 -16.792162 -0.06075542 -16.792904 -31.278423 -108.46899
83926000 -30.994141 -99.506363 -0.062116992 -16.990017 -0.06171735 -16.991743 -31.14871 -108.69411
84925000 -30.899691 -100.01347 -0.06309551 -17.192293 -0.061786667 -17.185955 -31.069668 -108.75964
85924000 -30.807186 -100.41198 -0.062855981 -17.389442 -0.063443795 -17.389589 -30.981367 -108.76097
86923000 -30.703211 -100.97124 -0.063863032 -17.589056 -0.063569352 -17.580511 -30.881268 -108.6721
87922000 -30.595737 -101.37806 -0.063935272 -17.7913 -0.063410699 -17.788254 -30.80389 -108.71878
88921000 -30.52212 -101.67999 -0.065261841 -17.992136 -0.064507991 -17.987789 -30.706234 -108.71509
89920000 -30.428261 -102.18419 -0.065514639 -18.186691 -0.064519294 -18.182337 -30.656132 -108.82909
90919000 -30.329264 -102.51242 -0.066327542 -18.387728 -0.064921297 -18.380491 -30.572643 -109.05002
91918000 -30.237705 -102.84766 -0.067257054 -18.584702 -0.065597951 -18.578264 -30.505959 -109.13062
92917000 -30.142757 -103.20355 -0.068059497 -18.78635 -0.067357749 -18.780243 -30.443563 -109.22092
93916000 -30.065683 -103.59523 -0.067597523 -18.975737 -0.067088537 -18.974438 -30.35218 -109.84875
94915000 -30.002794 -104.22343 -0.069098532 -19.179417 -0.067914091 -19.170994 -30.294474 -109.71249
95914000 -29.927679 -104.38493 -0.070283562 -19.372791 -0.068403713 -19.368965 -30.213545 -109.97507
96913000 -29.846924 -104.69457 -0.071909979 -19.574978 -0.069717176 -19.569981 -30.140085 -110.28093
97912000 -29.781315 -105.18238 -0.072880439 -19.766348 -0.070153333 -19.76959 -30.066936 -110.59307
98911000 -29.670687 -105.33946 -0.07258825 -19.968956 -0.071141556 -19.966379 -30.018387 -110.82083
99910000 -29.606657 -105.52368 -0.073368251 -20.165163 -0.071999989 -20.166788 -29.919859 -111.11559
100909000 -29.51543 -105.80721 -0.072327144 -20.377747 -0.070197798 -20.368549 -29.834772 -111.33262
101908000 -29.437407 -106.04144 -0.073889293 -20.574184 -0.072168961 -20.571728 -29.725969 -111.09838
102907000 -29.300968 -106.01811 -0.074950531 -20.774973 -0.072050259 -20.770378 -29.649105 -111.04894
103906000 -29.209314 -106.09663 -0.075238921 -20.981598 -0.071959458 -20.973764 -29.507952 -111.02484
104905000 -29.063963 -106.06869 -0.074828327 -21.177238 -0.072406635 -21.17939 -29.381517 -110.72444
105904000 -28.928991 -106.12222 -0.074773811 -21.376255 -0.072579831 -21.37203 -29.260412 -110.60158
106903000 -28.817915 -106.26778 -0.074991614 -21.584749 -0.073319547 -21.582029 -29.131998 -110.4939
107902000 -28.648262 -106.587 -0.07571172 -21.785215 -0.073667862 -21.77603 -28.996458 -110.44976
108901000 -28.550205 -106.87274 -0.077056646 -21.990849 -0.073738687 -21.983263 -28.865423 -110.39069
109900000 -28.423298 -107.37511 -0.077491172 -22.187628 -0.075414866 -22.176104 -28.72126 -110.5053
110899000 -28.308687 -108.00317 -0.078906238 -22.383902 -0.075989105 -22.373934 -28.59403 -110.7857
111898000 -28.214687 -108.67818 -0.080245562 -22.580797 -0.077423707 -22.575071 -28.473349 -110.89922
112897000 -28.089909 -109.22484 -0.081616163 -22.783546 -0.078099415 -22.7707 -28.340405 -111.11813
113896000 -27.989971 -109.80313 -0.082833104 -22.983858 -0.079624102 -22.970182 -28.227581 -111.27747
114895000 -27.889923 -110.45245 -0.083807595 -23.17977 -0.080583625 -23.168554 -28.118971 -111.35653
115894000 -27.758497 -110.85292 -0.08485885 -23.37965 -0.082420208 -23.366358 -28.054976 -111.56041
116893000 -27.673758 -111.39919 -0.085713655 -23.574621 -0.083160289 -23.556547 -27.923418 -111.67654
117892000 -27.599262 -111.85658 -0.085537031 -23.773495 -0.083287999 -23.757376 -27.849194 -111.86564
118891000 -27.535391 -112.31069 -0.086338371 -23.973999 -0.084080741 -23.956764 -27.757597 -112.03072
119890000 -27.443443 -112.65407 -0.085731611 -24.173346 -0.083868556 -24.161184 -27.74507 -112.12577
120889000 -27.395725 -113.2001 -0.087781951 -24.374277 -0.084478222 -24.356833 -27.668379 -112.11932
121888000 -27.356668 -113.47369 -0.087941758 -24.569952 -0.085247956 -24.558706 -27.609104 -112.36507
122887000 -27.315025 -113.71059 -0.088383712 -24.771215 -0.085600398 -24.758648 -27.563259 -112.41707
123886000 -27.262768 -114.10049 -0.089093626 -24.975311 -0.086253613 -24.957453 -27.545448 -112.60737
124885000 -27.222755 -114.6123 -0.089414939 -25.173532 -0.086424984 -25.157866 -27.516968 -112.68986
125884000 -27.169386 -114.80246 -0.090590455 -25.370653 -0.086427622 -25.355728 -27.48752 -112.84483
126883000 -27.151703 -115.17783 -0.090620063 -25.573298 -0.08743646 -25.560122 -27.450006 -112.87609
127882000 -27.10141 -115.4866 -0.090750106 -25.771049 -0.088185586 -25.753922 -27.412788 -113.00467
128881000 -27.072702 -115.79732 -0.090896808 -25.973658 -0.087892629 -25.956541 -27.368658 -113.15948
129880000 -27.011848 -116.15978 -0.092193566 -26.173513 -0.088098146 -26.1551 -27.327362 -113.13026
130879000 -26.956867 -116.30355 -0.091656573 -26.373899 -0.088585816 -26.357592 -27.25087 -113.21518
131878000 -26.887445 -116.50498 -0.091615856 -26.574802 -0.08915519 -26.556337 -27.191082 -113.12999
132877000 -26.820166 -116.59527 -0.091779247 -26.775616 -0.089689761 -26.758461 -27.104717 -113.15861
133876000 -26.733789 -116.72157 -0.092053689 -26.978842 -0.088887803 -26.958157 -27.014225 -113.0535
134875000 -26.639347 -116.88815 -0.091797225 -27.17897 -0.090253733 -27.157318 -26.913847 -112.90604
135874000 -26.561083 -116.90439 -0.091835298 -27.375057 -0.089898005 -27.36212 -26.81683 -112.881
136873000 -26.450403 -116.83584 -0.093061194 -27.579199 -0.089525394 -27.560959 -26.732445 -112.88664
137872000 -26.375027 -116.97248 -0.092238776 -27.779993 -0.089937113 -27.76338 -26.625061 -112.82597
138871000 -26.302286 -117.15156 -0.092920497 -27.975901 -0.089867875 -27.966806 -26.524946 -113.01755
139870000 -26.199575 -117.40868 -0.093397081 -28.180365 -0.091885537 -28.162073 -26.446676 -113.19144
140869000 -26.118895 -117.87364 -0.095818333 -28.373871 -0.092340842 -28.357227 -26.338776 -113.34382
141868000 -26.021725 -118.37095 -0.096047252 -28.568336 -0.092971541 -28.55015 -26.269503 -113.64512
142867000 -25.945913 -118.5967 -0.094068132 -28.765564 -0.092378922 -28.747932 -26.192207 -113.83069
143866000 -25.873484 -119.11886 -0.096006498 -28.961205 -0.093505785 -28.949156 -26.113253 -114.34856
144865000 -25.814528 -119.63167 -0.097192004 -29.158201 -0.094812579 -29.142492 -26.058718 -114.62376
145864000 -25.761656 -119.92281 -0.098079167 -29.359217 -0.095942184 -29.350529 -26.025492 -114.92113
146863000 -25.711468 -120.35743 -0.098523743 -29.56044 -0.096227482 -29.546986 -25.97646 -115.24984
147862000 -25.680483 -120.69019 -0.099704377 -29.75186 -0.097160242 -29.744467 -25.939989 -115.55825
148861000 -25.644184 -121.23557 -0.099904098 -29.95397 -0.09730716 -29.939625 -25.91975 -115.79343
149860000 -25.627493 -121.40646 -0.10056689 -30.152321 -0.097168185 -30.140966 -25.88769 -115.94109
150859000 -25.607986 -121.78177 -0.10082016 -30.35169 -0.098190635 -30.335209 -25.881336 -116.21966
151858000 -25.59066 -122.07279 -0.10106841 -30.551355 -0.097860999 -30.534637 -25.869839 -116.475
152857000 -25.572487 -122.43082 -0.1005502 -30.748907 -0.098406434 -30.736408 -25.852739 -116.61902
153856000 -25.56793 -122.60935 -0.10042541 -30.948603 -0.098142184 -30.931356 -25.872732 -116.87228
154855000 -25.559237 -122.76608 -0.10088904 -31.146305 -0.097795606 -31.135038 -25.855709 -117.10665
155854000 -25.571455 -123.06643 -0.10139459 -31.346184 -0.098499909 -31.334637 -25.850599 -117.35945
156853000 -25.560556 -123.75224 -0.099461235 -31.535128 -0.097550452 -31.523706 -25.848066 -117.6704
157852000 -25.564589 -123.97279 -0.10062305 -31.730854 -0.099158779 -31.72377 -25.842037 -118.03436
158851000 -25.560106 -124.20197 -0.10143565 -31.929321 -0.098678656 -31.921583 -25.824453 -118.26158
159850000 -25.541107 -124.32053 -0.10148256 -32.12923 -0.099860124 -32.122707 -25.821718 -118.44951
160849000 -25.524576 -124.4467 -0.10186574 -32.327801 -0.10021746 -32.322746 -25.787037 -118.74888
161848000 -25.5109 -124.56549 -0.1024244 -32.528435 -0.10057059 -32.520863 -25.750402 -118.84264
162847000 -25.464798 -124.73582 -0.10255745 -32.723579 -0.10131086 -32.723232 -25.72043 -119.10732
163846000 -25.421782 -124.98241 -0.1028832 -32.924782 -0.10082069 -32.91943 -25.644901 -119.09585
164845000 -25.364361 -124.96169 -0.10222881 -33.123314 -0.10096588 -33.118244 -25.577148 -119.21478
165844000 -25.312511 -125.0311 -0.10244825 -33.325241 -0.10217739 -33.315464 -25.497541 -119.37273
166843000 -25.244476 -125.14854 -0.10227306 -33.523792 -0.10144758 -33.518063 -25.427225 -119.53955
167842000 -25.185846 -125.26437 -0.1034852 -33.721333 -0.10217209 -33.714108 -25.34783 -119.46638
168841000 -25.105099 -125.51168 -0.10320951 -33.920322 -0.10229453 -33.915699 -25.27166 -119.56526
169840000 -25.044378 -125.74656 -0.10295928 -34.112572 -0.10237404 -34.108398 -25.179659 -119.77152
170839000 -24.986618 -126.01801 -0.10449696 -34.309341 -0.1024252 -34.306267 -25.096645 -119.9373
171838000 -24.927731 -126.40727 -0.1045065 -34.512547 -0.10420263 -34.506802 -25.029434 -120.17263
172837000 -24.860374 -126.77309 -0.10571793 -34.707767 -0.10483399 -34.703705 -24.966555 -120.39752
173836000 -24.795843 -127.22106 -0.10725712 -34.907036 -0.10526016 -34.905441 -24.923788 -120.62445
174835000 -24.739199 -127.63927 -0.10707617 -35.102196 -0.10587974 -35.101234 -24.875292 -120.96055
175834000 -24.688166 -128.04205 -0.10802772 -35.298859 -0.10674533 -35.294498 -24.81572 -121.2611
176833000 -24.634956 -128.39638 -0.10880508 -35.496387 -0.10742959 -35.49268 -24.758375 -121.40451
177832000 -24.589664 -128.87796 -0.10926828 -35.692841 -0.10803515 -35.693401 -24.734161 -121.56479
178831000 -24.54685 -129.22603 -0.10947109 -35.892838 -0.10847517 -35.888096 -24.697342 -121.78289
179830000 -24.517231 -129.66798 -0.11036368 -36.086231 -0.10870104 -36.084267 -24.669338 -121.92404
180829000 -24.472467 -129.87459 -0.1104067 -36.284412 -0.11000365 -36.28537 -24.643976 -122.09299
181828000 -24.448326 -130.22115 -0.11045556 -36.48172 -0.1095125 -36.476486 -24.627426 -122.22207
182827000 -24.425121 -130.60663 -0.11041678 -36.674168 -0.11076199 -36.67485 -24.609451 -122.286
183826000 -24.387539 -130.89786 -0.11172895 -36.87347 -0.1100549 -36.872414 -24.599213 -122.40565
184825000 -24.387987 -131.21498 -0.11104879 -37.066788 -0.11040644 -37.070343 -24.587515 -122.50652
185824000 -24.361938 -131.5638 -0.11116139 -37.263767 -0.11032385 -37.266621 -24.579897 -122.52362
186823000 -24.348417 -131.92188 -0.11163147 -37.466728 -0.10999091 -37.4618 -24.578062 -122.57368
187822000 -24.328167 -132.24065 -0.11203732 -37.659187 -0.11048344 -37.65852 -24.545155 -122.60594
188821000 -24.303854 -132.47932 -0.11171965 -37.856422 -0.1112546 -37.858189 -24.535522 -122.683
189820000 -24.289877 -132.75368 -0.11261164 -38.055573 -0.11120945 -38.057159 -24.521046 -122.8735
190819000 -24.260733 -132.98651 -0.11334679 -38.256393 -0.11226683 -38.252686 -24.486813 -122.83163
191818000 -24.228436 -133.17952 -0.11505587 -38.44846 -0.11342464 -38.449753 -24.45924 -122.70454
192817000 -24.160721 -133.4472 -0.1150386 -38.633888 -0.11394387 -38.633629 -24.38888 -122.81105
193816000 -24.122129 -133.77779 -0.11477173 -38.827751 -0.11264512 -38.825584 -24.335085 -123.05804
194815000 -24.067362 -134.26747 -0.11436748 -39.025501 -0.11313555 -39.026627 -24.270084 -123.21117
195814000 -24.014971 -134.4711 -0.1144698 -39.223736 -0.11322058 -39.222435 -24.216009 -123.29483
196813000 -23.963987 -134.81342 -0.11462528 -39.412613 -0.11280558 -39.418598 -24.143026 -123.44634
197812000 -23.906324 -135.0692 -0.11446635 -39.616074 -0.1136505 -39.613071 -24.075272 -123.58459
198811000 -23.855486 -135.24229 -0.1138971 -39.808773 -0.11310899 -39.811714 -24.008108 -123.77228
199810000 -23.780918 -135.59451 -0.11534402 -40.009148 -0.11308667 -40.00441 -23.926493 -123.83855
200809000 -23.724867 -135.88365 -0.11542509 -40.202412 -0.11347034 -40.204483 -23.846634 -124.06177
201808000 -23.670952 -136.12463 -0.11564016 -40.402828 -0.11459471 -40.405846 -23.784187 -124.11275
202807000 -23.613127 -136.48996 -0.11645186 -40.604107 -0.11489586 -40.60791 -23.72847 -124.3235
203806000 -23.557768 -136.92322 -0.11727355 -40.801479 -0.11595546 -40.802914 -23.661331 -124.49196
