!Keysight Technologies,E5080B,MY59205177,A.15.75.32
!Date: Friday, February 23, 2024 03:04:35
!Correction: S11(Cdelta 2-Port  ) 
!S21(Cdelta 2-Port  ) 
!S12(Cdelta 2-Port  ) 
!S22(Cdelta 2-Port  ) 
!S2P File: Measurements: S11, S21, S12, S22:
# Hz S  dB   R 50
10000000 -44.174026 -3.8816302 -0.027119024 -2.037595 -0.030050166 -2.0903549 -48.103729 -151.06631
10999000 -43.54744 -5.5947075 -0.028364822 -2.256798 -0.029982135 -2.3105991 -47.804813 -143.12357
11998000 -42.749771 -7.9685583 -0.028249659 -2.4782166 -0.029906284 -2.523145 -47.874954 -137.71318
12997000 -42.130611 -12.941656 -0.027680136 -2.6594114 -0.029057436 -2.6903441 -47.212578 -131.498
13996000 -41.90781 -16.203943 -0.027034368 -2.8377142 -0.029415771 -2.8585963 -46.755066 -125.77464
14995000 -41.583061 -19.930204 -0.0296188 -3.0442767 -0.029257579 -3.0725524 -46.306065 -122.32421
15994000 -41.471439 -23.835463 -0.029853374 -3.2646482 -0.031884275 -3.2885644 -46.086384 -119.03749
16993000 -41.456684 -27.83115 -0.029561721 -3.4594986 -0.031610478 -3.4679885 -45.17078 -119.34493
17992000 -41.536106 -32.427479 -0.030180234 -3.6575975 -0.031522084 -3.6627538 -44.495991 -120.22778
18991000 -41.758854 -37.036633 -0.030623388 -3.8701589 -0.032615006 -3.8677719 -43.83379 -119.75687
19990000 -41.636536 -42.177818 -0.032403752 -4.0766244 -0.035053752 -4.0714011 -43.116867 -121.2138
20989000 -41.529121 -44.947834 -0.035225727 -4.2802296 -0.036601506 -4.2713237 -42.495193 -120.92381
21988000 -41.419498 -49.688362 -0.036384057 -4.47821 -0.03777587 -4.4634109 -42.270107 -120.22857
22987000 -41.220432 -54.03017 -0.037306398 -4.6747246 -0.038635828 -4.666049 -41.980591 -119.85806
23986000 -41.221226 -57.884296 -0.035751346 -4.867496 -0.037478201 -4.8636141 -41.865543 -119.76707
24985000 -40.87817 -60.632793 -0.037553661 -5.078094 -0.037818171 -5.0712814 -41.605057 -116.82625
25984000 -40.644138 -62.668865 -0.038402084 -5.2852325 -0.03812892 -5.2857151 -41.266285 -116.17735
26983000 -40.344471 -64.634216 -0.03855617 -5.4835267 -0.038776863 -5.5006218 -41.133965 -115.19919
27982000 -40.228615 -65.315628 -0.04026977 -5.6791301 -0.040136263 -5.7151251 -40.844673 -113.47506
28981000 -40.176445 -66.503052 -0.037973281 -5.8797984 -0.040169179 -5.9023881 -40.652039 -113.12811
29980000 -39.812576 -68.648003 -0.038780518 -6.0694127 -0.04011745 -6.0752583 -40.269108 -112.22716
30979000 -39.424198 -67.621284 -0.036864914 -6.4210544 -0.035410233 -6.4154253 -39.800419 -113.18815
31978000 -39.248768 -68.785049 -0.03554412 -6.6203861 -0.03648508 -6.6092029 -39.536697 -112.58752
32977000 -39.082108 -70.435181 -0.036670163 -6.8309298 -0.036556605 -6.8264742 -39.295654 -112.84674
33976000 -38.9217 -71.504745 -0.036332369 -7.0270777 -0.036682431 -7.0240026 -39.002865 -112.13326
34975000 -38.664543 -72.478271 -0.036322452 -7.228425 -0.03827516 -7.227767 -38.758896 -112.05175
35974000 -38.469208 -73.27224 -0.036003478 -7.4226379 -0.037998088 -7.4270473 -38.465523 -111.31869
36973000 -38.26857 -73.867889 -0.036168706 -7.6222444 -0.039181452 -7.6247821 -38.166248 -110.66642
37972000 -38.069134 -74.022034 -0.035811637 -7.8308163 -0.038350113 -7.8433113 -37.931133 -109.88117
38971000 -37.749569 -73.594841 -0.036759704 -8.028923 -0.038442824 -8.0410128 -37.739334 -108.52202
39970000 -37.46627 -74.127304 -0.035761263 -8.228076 -0.036904596 -8.2439756 -37.468372 -107.94508
40969000 -37.172932 -74.088219 -0.034847599 -8.4242458 -0.037351828 -8.4416075 -37.173115 -106.81938
41968000 -36.829166 -74.243057 -0.035713241 -8.6276131 -0.038025249 -8.6447763 -36.983105 -105.69183
42967000 -36.563942 -74.732903 -0.035504188 -8.8387947 -0.038222931 -8.852314 -36.740017 -103.8893
43966000 -36.304382 -75.376869 -0.03669 -9.0345793 -0.039348364 -9.0532618 -36.466095 -103.38591
44965000 -36.073265 -76.303665 -0.036868829 -9.2396498 -0.03981936 -9.2581778 -36.228893 -103.28008
45964000 -35.838039 -77.45153 -0.037990779 -9.4364653 -0.040348414 -9.4507303 -35.978981 -103.15551
46963000 -35.671329 -79.472855 -0.038159996 -9.6307602 -0.0406873 -9.6507883 -35.805725 -103.49516
47962000 -35.519989 -80.911201 -0.039217759 -9.831831 -0.042135384 -9.8471107 -35.598572 -103.65556
48961000 -35.331852 -82.355263 -0.041626763 -10.029585 -0.043628924 -10.049057 -35.371346 -103.9549
49960000 -35.124729 -83.774231 -0.043401711 -10.227996 -0.044318747 -10.246959 -35.225685 -104.15755
50959000 -34.91391 -85.21479 -0.043688279 -10.439373 -0.04564378 -10.449779 -35.048191 -104.56083
51958000 -34.705898 -86.262459 -0.045716245 -10.635557 -0.047251318 -10.647109 -34.867714 -105.04105
52957000 -34.518177 -87.432564 -0.046681914 -10.836105 -0.048242718 -10.845947 -34.699398 -104.95556
53956000 -34.359039 -88.178192 -0.047862671 -11.039829 -0.049410548 -11.038152 -34.568745 -104.95714
54955000 -34.199211 -88.690109 -0.049311839 -11.244263 -0.050137948 -11.237998 -34.414192 -104.9159
55954000 -34.026226 -89.590225 -0.049934484 -11.4389 -0.050639711 -11.437873 -34.301331 -104.64849
56953000 -33.928074 -89.618858 -0.050268095 -11.640006 -0.048887983 -11.625312 -34.242123 -104.88999
57952000 -33.765259 -90.16552 -0.051187892 -11.839007 -0.05089847 -11.8219 -34.135757 -104.92606
58951000 -33.643753 -90.549461 -0.05147 -12.036095 -0.051209111 -12.01959 -33.984058 -105.03564
59950000 -33.517292 -91.020103 -0.05212963 -12.237482 -0.051859532 -12.215167 -33.919739 -105.36319
60949000 -33.420212 -91.503838 -0.052311715 -12.441801 -0.052488301 -12.416938 -33.821804 -105.50761
61948000 -33.354252 -91.827843 -0.053448666 -12.638223 -0.051945455 -12.620976 -33.742672 -105.73267
62947000 -33.274677 -92.019775 -0.053414598 -12.8491 -0.053153589 -12.827003 -33.616375 -106.00726
63946000 -33.208122 -92.772217 -0.054098111 -13.048594 -0.053785171 -13.025696 -33.497231 -106.17064
64945000 -33.095669 -92.910057 -0.054537158 -13.249676 -0.054088414 -13.229727 -33.393402 -106.64706
65944000 -33.004513 -93.292168 -0.055847224 -13.447624 -0.055001941 -13.431593 -33.306328 -107.21545
66943000 -32.861729 -93.744682 -0.0534201 -13.646422 -0.053169314 -13.632089 -33.202454 -107.4337
67942000 -32.806053 -93.671165 -0.055951323 -13.84497 -0.055037595 -13.831776 -33.087063 -107.74621
68941000 -32.691601 -93.762543 -0.054857232 -14.037189 -0.054386698 -14.021478 -32.975819 -107.76931
69940000 -32.598701 -93.78215 -0.054920673 -14.234358 -0.054688934 -14.224342 -32.82729 -108.0388
70939000 -32.486027 -93.772842 -0.055579253 -14.432714 -0.054562323 -14.422161 -32.703888 -107.97497
71938000 -32.343227 -93.425575 -0.055268828 -14.629403 -0.054861952 -14.62135 -32.575905 -107.88339
72937000 -32.192238 -93.254318 -0.054393776 -14.82505 -0.054180413 -14.820035 -32.429333 -107.63466
73936000 -32.050949 -92.91185 -0.054062989 -15.025518 -0.053569477 -15.013437 -32.309261 -107.42229
74935000 -31.929373 -93.210747 -0.053761318 -15.221758 -0.053199448 -15.214692 -32.148895 -107.13979
75934000 -31.816486 -93.524246 -0.053909138 -15.427413 -0.053729609 -15.421835 -32.066261 -107.11255
76933000 -31.685631 -93.927002 -0.05497494 -15.619042 -0.054853562 -15.614642 -31.891003 -107.52063
77932000 -31.584179 -94.719711 -0.055948436 -15.816916 -0.055898879 -15.811999 -31.796053 -107.56142
78931000 -31.523056 -95.507332 -0.054354981 -16.016363 -0.054917526 -16.010559 -31.703323 -107.39628
79930000 -31.409088 -96.27359 -0.057448573 -16.210932 -0.057683606 -16.206461 -31.600683 -107.70633
80929000 -31.275404 -97.230827 -0.058958411 -16.40443 -0.059386928 -16.400982 -31.496836 -108.1178
81928000 -31.206093 -98.130981 -0.059011675 -16.597658 -0.059650406 -16.595398 -31.374954 -108.14145
82927000 -31.108988 -98.859772 -0.06041811 -16.795202 -0.060640179 -16.79303 -31.277609 -108.48981
83926000 -30.991758 -99.515472 -0.06182579 -16.99058 -0.061856512 -16.990967 -31.159206 -108.73203
84925000 -30.900236 -99.959 -0.062628284 -17.191469 -0.061804522 -17.185417 -31.065256 -108.82241
85924000 -30.802526 -100.43792 -0.063414373 -17.389906 -0.062948167 -17.386343 -30.974808 -108.76932
86923000 -30.708174 -100.99499 -0.063908741 -17.588686 -0.063022755 -17.581144 -30.87768 -108.69269
87922000 -30.594019 -101.37655 -0.064168029 -17.795212 -0.063441165 -17.78364 -30.795689 -108.7548
88921000 -30.526543 -101.6754 -0.06437663 -17.991705 -0.06385804 -17.98805 -30.696447 -108.71464
89920000 -30.42485 -102.23736 -0.064921297 -18.188532 -0.064703211 -18.181604 -30.652269 -108.88758
90919000 -30.32699 -102.52758 -0.065912269 -18.384024 -0.065684676 -18.378794 -30.559742 -109.01442
91918000 -30.233807 -102.8837 -0.0672305 -18.587038 -0.065682836 -18.584282 -30.500561 -109.10017
92917000 -30.154192 -103.2459 -0.067547567 -18.783211 -0.067421369 -18.783197 -30.433764 -109.17095
93916000 -30.068146 -103.58393 -0.067240492 -18.975515 -0.066699214 -18.97452 -30.354141 -109.76857
94915000 -29.989035 -104.27312 -0.069317102 -19.179995 -0.067228399 -19.173264 -30.291134 -109.64193
95914000 -29.930019 -104.41104 -0.069697186 -19.372066 -0.068365052 -19.368984 -30.204887 -109.93421
96913000 -29.845209 -104.68136 -0.070981838 -19.572178 -0.069926046 -19.568567 -30.146765 -110.32156
97912000 -29.767349 -105.11308 -0.072076052 -19.766504 -0.069681667 -19.768105 -30.067709 -110.57364
98911000 -29.666714 -105.34594 -0.07190419 -19.970402 -0.070491664 -19.966818 -30.028217 -110.79053
99910000 -29.600603 -105.51511 -0.073012322 -20.16848 -0.071252599 -20.163754 -29.91514 -111.08005
100909000 -29.509014 -105.78732 -0.072068155 -20.374565 -0.070473507 -20.365561 -29.83963 -111.30017
101908000 -29.423716 -106.04402 -0.073549122 -20.576204 -0.07213632 -20.570276 -29.720379 -111.08573
102907000 -29.29969 -106.03147 -0.073900618 -20.777029 -0.072261341 -20.774492 -29.651411 -111.06538
103906000 -29.202147 -106.14753 -0.074349567 -20.977964 -0.07159207 -20.973902 -29.504904 -111.0356
104905000 -29.06218 -106.07045 -0.074790142 -21.17453 -0.072022364 -21.171587 -29.36792 -110.70657
105904000 -28.922144 -106.18096 -0.074604213 -21.379723 -0.071703389 -21.373535 -29.252882 -110.59454
106903000 -28.819019 -106.28249 -0.075323209 -21.585346 -0.072643265 -21.575441 -29.129946 -110.48996
107902000 -28.659332 -106.59881 -0.075492308 -21.787664 -0.073010743 -21.77861 -28.998178 -110.43804
108901000 -28.544827 -106.88367 -0.076522842 -21.982271 -0.074642666 -21.977419 -28.860132 -110.41496
109900000 -28.41806 -107.41073 -0.07659819 -22.188795 -0.075327948 -22.177629 -28.714453 -110.53419
110899000 -28.306103 -108.00268 -0.078424662 -22.384113 -0.075512849 -22.37327 -28.587893 -110.83167
111898000 -28.21372 -108.69646 -0.079720862 -22.584457 -0.077759705 -22.577232 -28.474136 -110.94537
112897000 -28.088369 -109.30499 -0.081084438 -22.781927 -0.078052767 -22.768358 -28.339981 -111.12573
113896000 -27.982414 -109.83421 -0.081776276 -22.982092 -0.080190189 -22.970467 -28.225388 -111.24494
114895000 -27.883694 -110.50062 -0.083491713 -23.181915 -0.081138767 -23.166008 -28.119217 -111.36406
115894000 -27.756531 -110.81546 -0.084634483 -23.380445 -0.082490124 -23.368284 -28.05378 -111.56066
116893000 -27.68119 -111.4028 -0.085082166 -23.574137 -0.0822329 -23.560762 -27.921879 -111.65108
117892000 -27.598024 -111.89328 -0.085698612 -23.776609 -0.083339453 -23.759354 -27.850924 -111.86836
118891000 -27.532887 -112.30103 -0.085822433 -23.972771 -0.083046824 -23.959846 -27.749451 -111.98305
119890000 -27.452312 -112.67522 -0.086433962 -24.174564 -0.084262587 -24.156319 -27.746929 -112.10677
120889000 -27.398293 -113.15329 -0.087712213 -24.370888 -0.084064379 -24.359743 -27.668598 -112.12481
121888000 -27.35008 -113.51621 -0.088159166 -24.565544 -0.084790744 -24.555973 -27.608128 -112.3983
122887000 -27.316875 -113.65384 -0.088325597 -24.770563 -0.085138924 -24.757435 -27.562763 -112.42339
123886000 -27.258846 -114.13429 -0.089369752 -24.972744 -0.085958935 -24.961033 -27.552483 -112.57097
124885000 -27.221779 -114.62258 -0.089442156 -25.172062 -0.086428151 -25.159264 -27.52573 -112.6572
125884000 -27.173059 -114.79536 -0.090371341 -25.368477 -0.0865895 -25.355806 -27.493446 -112.81805
126883000 -27.151855 -115.18832 -0.090153828 -25.572384 -0.087521248 -25.559015 -27.452322 -112.87498
127882000 -27.099285 -115.4944 -0.090770461 -25.772181 -0.087890513 -25.756329 -27.409517 -113.04552
128881000 -27.071171 -115.81807 -0.090637505 -25.974764 -0.088037916 -25.955643 -27.368805 -113.19073
129880000 -27.012699 -116.14708 -0.092259139 -26.174898 -0.087936476 -26.15638 -27.329676 -113.16496
130879000 -26.953022 -116.29401 -0.092053689 -26.373138 -0.089257717 -26.355949 -27.252012 -113.21033
131878000 -26.888746 -116.50867 -0.091368936 -26.578182 -0.089553669 -26.554869 -27.184046 -113.16715
132877000 -26.819929 -116.57928 -0.091510639 -26.774652 -0.089367107 -26.760077 -27.107668 -113.12039
133876000 -26.736475 -116.73203 -0.091994733 -26.976448 -0.089142777 -26.959644 -27.022169 -112.99257
134875000 -26.640575 -116.90189 -0.092368081 -27.174877 -0.089627393 -27.160349 -26.915419 -112.90407
135874000 -26.561569 -116.93733 -0.092125081 -27.374849 -0.089255601 -27.358791 -26.813492 -112.93642
136873000 -26.451097 -116.84505 -0.092765264 -27.578381 -0.088858739 -27.561478 -26.729574 -112.92124
137872000 -26.366583 -116.96192 -0.092186429 -27.778111 -0.089625016 -27.765795 -26.623659 -112.85093
138871000 -26.300116 -117.17605 -0.092974186 -27.983309 -0.089247674 -27.965271 -26.525726 -113.04572
139870000 -26.203632 -117.4265 -0.093486473 -28.175049 -0.091172256 -28.160284 -26.446297 -113.21557
140869000 -26.117603 -117.89218 -0.095461093 -28.375624 -0.092328683 -28.356892 -26.339931 -113.33123
141868000 -26.017992 -118.36926 -0.095663264 -28.568569 -0.093114614 -28.552328 -26.266178 -113.66544
142867000 -25.944614 -118.62365 -0.094200924 -28.762915 -0.091835827 -28.750008 -26.190937 -113.84997
143866000 -25.879244 -119.11898 -0.095624894 -28.962086 -0.093069918 -28.945417 -26.121891 -114.34613
144865000 -25.817005 -119.66728 -0.096977852 -29.160322 -0.094740085 -29.144001 -26.06184 -114.67589
145864000 -25.764088 -119.98438 -0.09767276 -29.359407 -0.095621452 -29.346022 -26.027344 -114.89557
146863000 -25.714119 -120.32107 -0.098363012 -29.55827 -0.095869943 -29.54579 -25.975594 -115.23864
147862000 -25.675062 -120.71906 -0.099195592 -29.757498 -0.095842682 -29.744678 -25.940987 -115.57098
148861000 -25.637543 -121.20156 -0.099321656 -29.95529 -0.096765563 -29.938564 -25.919365 -115.78468
149860000 -25.62916 -121.43913 -0.10026329 -30.151876 -0.097162358 -30.141027 -25.888023 -115.92977
150859000 -25.609558 -121.7527 -0.10029614 -30.351336 -0.097304776 -30.338064 -25.876915 -116.1981
151858000 -25.595205 -122.07233 -0.10006885 -30.551798 -0.097845912 -30.533562 -25.865965 -116.47726
152857000 -25.571161 -122.39773 -0.10008104 -30.749498 -0.098088965 -30.73852 -25.849796 -116.59413
153856000 -25.567896 -122.60925 -0.10019813 -30.948824 -0.097791895 -30.935484 -25.868481 -116.91288
154855000 -25.56118 -122.76933 -0.10013932 -31.148741 -0.097156532 -31.13553 -25.862364 -117.11178
155854000 -25.570972 -123.03568 -0.10069776 -31.348509 -0.098904543 -31.333067 -25.848913 -117.38404
156853000 -25.559099 -123.72168 -0.098807089 -31.532013 -0.097721472 -31.521921 -25.844736 -117.68072
157852000 -25.562822 -123.97538 -0.09991204 -31.733438 -0.099237166 -31.723045 -25.834064 -118.03802
158851000 -25.561321 -124.20612 -0.10068875 -31.930561 -0.099474743 -31.919386 -25.823608 -118.26756
159850000 -25.54406 -124.32252 -0.10169402 -32.12925 -0.1000172 -32.121189 -25.820425 -118.45934
160849000 -25.527493 -124.43298 -0.1010239 -32.326553 -0.099775098 -32.323879 -25.78941 -118.73524
161848000 -25.505735 -124.53628 -0.10152893 -32.530849 -0.099797875 -32.523884 -25.744881 -118.87437
162847000 -25.465065 -124.74606 -0.1024896 -32.729446 -0.10027495 -32.719276 -25.717756 -119.11834
163846000 -25.421114 -124.95129 -0.10209788 -32.926491 -0.10011389 -32.919144 -25.641689 -119.14238
164845000 -25.363188 -125.01346 -0.10211802 -33.124893 -0.10033323 -33.117897 -25.576082 -119.21705
165844000 -25.307777 -125.08144 -0.10185725 -33.326118 -0.10161532 -33.317608 -25.493847 -119.39655
166843000 -25.247818 -125.15211 -0.10288294 -33.521919 -0.10132993 -33.517254 -25.424032 -119.55826
167842000 -25.187437 -125.30926 -0.10249437 -33.721039 -0.10220389 -33.714432 -25.346888 -119.48967
168841000 -25.110142 -125.4664 -0.10353823 -33.917702 -0.10157053 -33.916775 -25.268398 -119.55474
169840000 -25.0483 -125.73037 -0.10331819 -34.114231 -0.10266877 -34.110317 -25.17975 -119.75796
170839000 -24.985088 -126.01979 -0.10394492 -34.310448 -0.1028066 -34.311153 -25.101337 -119.94375
171838000 -24.928734 -126.43933 -0.10445903 -34.515198 -0.10362624 -34.503696 -25.031492 -120.15032
172837000 -24.855322 -126.7876 -0.10567205 -34.705608 -0.10431717 -34.704781 -24.967783 -120.4385
173836000 -24.792309 -127.1918 -0.10712207 -34.908432 -0.10512968 -34.904549 -24.918646 -120.6323
174835000 -24.736982 -127.6319 -0.10696235 -35.09903 -0.10579778 -35.100929 -24.869072 -120.97285
175834000 -24.683138 -128.05769 -0.10746355 -35.299763 -0.10691274 -35.297176 -24.808672 -121.25938
176833000 -24.634871 -128.39819 -0.10849428 -35.49622 -0.10745109 -35.494102 -24.756462 -121.40289
177832000 -24.588779 -128.87459 -0.10918811 -35.689537 -0.10692255 -35.695045 -24.732798 -121.57457
178831000 -24.549942 -129.23996 -0.10974028 -35.89106 -0.10805372 -35.882866 -24.696854 -121.80785
179830000 -24.513163 -129.66542 -0.11007215 -36.088108 -0.10789768 -36.089806 -24.669056 -121.9008
180829000 -24.474026 -129.86153 -0.11035465 -36.283836 -0.10917856 -36.282745 -24.636442 -122.06831
181828000 -24.448921 -130.23227 -0.11019163 -36.480396 -0.10860974 -36.479549 -24.620514 -122.19741
182827000 -24.424345 -130.57329 -0.11010295 -36.674225 -0.10988311 -36.678608 -24.60717 -122.24975
183826000 -24.386961 -130.88506 -0.11148221 -36.87661 -0.10956506 -36.870216 -24.599676 -122.41784
184825000 -24.388325 -131.21921 -0.11155976 -37.070118 -0.11011224 -37.071941 -24.581537 -122.48895
185824000 -24.360691 -131.56783 -0.11149018 -37.261452 -0.1101834 -37.267223 -24.578093 -122.54059
186823000 -24.349628 -131.92662 -0.11209151 -37.462231 -0.11001905 -37.465336 -24.578655 -122.52547
187822000 -24.322514 -132.23206 -0.11202989 -37.662228 -0.11069613 -37.661846 -24.54525 -122.63171
188821000 -24.302423 -132.49557 -0.11185299 -37.85442 -0.11085864 -37.861073 -24.530109 -122.6999
189820000 -24.288853 -132.74274 -0.11233218 -38.056435 -0.1114907 -38.055332 -24.521284 -122.85439
190819000 -24.266777 -133.01041 -0.11404113 -38.252861 -0.11230189 -38.253975 -24.492868 -122.81112
191818000 -24.229101 -133.18568 -0.11466302 -38.448257 -0.11390082 -38.449638 -24.460606 -122.70786
192817000 -24.155962 -133.45862 -0.11499394 -38.634304 -0.11406 -38.636513 -24.386063 -122.81587
193816000 -24.124767 -133.80695 -0.11378974 -38.830975 -0.11271419 -38.827503 -24.33276 -123.05291
194815000 -24.064611 -134.25821 -0.11406983 -39.022747 -0.1129966 -39.024555 -24.27035 -123.183
195814000 -24.017122 -134.45615 -0.114393 -39.219627 -0.11374775 -39.224033 -24.215021 -123.27081
196813000 -23.964033 -134.81172 -0.11396433 -39.41785 -0.11314379 -39.417309 -24.143204 -123.47395
197812000 -23.904129 -135.076 -0.1141942 -39.6133 -0.11317834 -39.614468 -24.072924 -123.55566
198811000 -23.850035 -135.25476 -0.11423619 -39.811852 -0.11261988 -39.81176 -24.001245 -123.75262
199810000 -23.786007 -135.63193 -0.11447618 -40.005684 -0.11312174 -40.002468 -23.924849 -123.85193
200809000 -23.726793 -135.92632 -0.11465345 -40.205631 -0.11320836 -40.205101 -23.846041 -124.04245
201808000 -23.668238 -136.1131 -0.11571407 -40.405426 -0.11381791 -40.401058 -23.777182 -124.13046
202807000 -23.611597 -136.4854 -0.11595413 -40.603752 -0.11525523 -40.606518 -23.721231 -124.33612
203806000 -23.558836 -136.94104 -0.11721212 -40.802391 -0.11527012 -40.802849 -23.661922 -124.52473
