!Keysight Technologies,E5080B,MY59205177,A.15.75.32
!Date: Friday, February 23, 2024 03:42:45
!Correction: S11(Cdelta 2-Port  ) 
!S21(Cdelta 2-Port  ) 
!S12(Cdelta 2-Port  ) 
!S22(Cdelta 2-Port  ) 
!S2P File: Measurements: S11, S21, S12, S22:
# Hz S  dB   R 50
10000000 -46.140236 -3.0290623 -0.014789474 -2.0427477 -0.018252445 -2.0943449 -45.921337 -157.52144
10999000 -45.291958 -5.292675 -0.016524123 -2.2601306 -0.018188238 -2.3127193 -45.862076 -150.91574
11998000 -44.378311 -8.3243256 -0.016266363 -2.4841797 -0.017915303 -2.5292499 -46.000622 -146.70171
12997000 -43.584862 -13.328651 -0.015830388 -2.6636608 -0.017534524 -2.6947885 -45.5849 -141.09026
13996000 -43.324673 -17.562017 -0.014911036 -2.8474896 -0.017184703 -2.864114 -45.397728 -136.00511
14995000 -42.864868 -21.822044 -0.017006164 -3.0539885 -0.016866354 -3.0766306 -45.071308 -132.85518
15994000 -42.735008 -26.31723 -0.018483806 -3.2753556 -0.020179102 -3.2920382 -44.908882 -129.06874
16993000 -42.65807 -31.047485 -0.016409012 -3.4736528 -0.019133246 -3.4804904 -44.094707 -129.36319
17992000 -42.680248 -36.439331 -0.017805355 -3.6700122 -0.019967154 -3.6770751 -43.513 -128.94518
18991000 -42.941532 -41.67757 -0.018766917 -3.8853028 -0.020977836 -3.8783693 -42.876587 -127.96376
19990000 -42.677616 -47.478985 -0.020954685 -4.0883732 -0.022742802 -4.0868907 -42.247395 -128.62309
20989000 -42.53376 -50.797482 -0.023603691 -4.2963152 -0.024757363 -4.2841077 -41.650784 -128.02107
21988000 -42.31884 -56.137432 -0.024256237 -4.4894204 -0.024958609 -4.4748793 -41.433411 -127.56876
22987000 -42.000923 -60.678383 -0.024982302 -4.6896548 -0.026659038 -4.6783938 -41.14045 -126.99761
23986000 -41.938919 -65.29113 -0.024900552 -4.8827605 -0.025215063 -4.8834758 -41.020874 -126.77596
24985000 -41.512383 -67.790489 -0.026079047 -5.0937767 -0.026200144 -5.0880222 -40.805099 -124.44974
25984000 -41.134415 -69.910217 -0.027137779 -5.2958903 -0.02591056 -5.2994623 -40.476868 -122.65434
26983000 -40.847187 -71.612053 -0.027452713 -5.4966736 -0.027654346 -5.511837 -40.391499 -122.367
27982000 -40.660069 -72.657883 -0.02910669 -5.6954379 -0.028331472 -5.7309885 -40.08749 -120.53798
28981000 -40.630219 -74.225227 -0.026353536 -5.8981133 -0.028537054 -5.9192753 -39.837391 -120.00867
29980000 -40.228138 -75.58757 -0.026715036 -6.0924931 -0.028499793 -6.0961876 -39.581081 -119.02721
30979000 -39.82888 -74.41288 -0.024789123 -6.4418364 -0.023730705 -6.4358387 -39.085278 -119.50996
31978000 -39.644428 -75.392914 -0.023019424 -6.6374159 -0.024228385 -6.6240258 -38.844322 -118.76302
32977000 -39.443798 -76.853455 -0.023052733 -6.8476715 -0.025172884 -6.8413196 -38.609379 -118.7476
33976000 -39.264408 -78.004211 -0.02412218 -7.0467615 -0.025722809 -7.0419364 -38.333717 -118.29353
34975000 -38.956287 -78.620186 -0.023710143 -7.2472396 -0.026707223 -7.2482557 -38.088654 -117.7622
35974000 -38.759602 -79.368881 -0.023383508 -7.4423537 -0.026602 -7.4455075 -37.832806 -116.87996
36973000 -38.553493 -79.912674 -0.023185456 -7.6435633 -0.027688993 -7.6493912 -37.573215 -115.93504
37972000 -38.382656 -79.706703 -0.024023788 -7.8521419 -0.026431669 -7.86411 -37.35844 -115.22186
38971000 -38.055603 -79.243469 -0.024274459 -8.056015 -0.027006758 -8.0656195 -37.20113 -113.55843
39970000 -37.710564 -79.529648 -0.023106603 -8.2491369 -0.026387654 -8.2641754 -36.919777 -113.09907
40969000 -37.464474 -79.20507 -0.022970758 -8.4469843 -0.025623078 -8.4612179 -36.67828 -111.70458
41968000 -37.094849 -79.081894 -0.023276282 -8.6531267 -0.025941288 -8.6658449 -36.516479 -110.50164
42967000 -36.839798 -79.203529 -0.02329476 -8.8612623 -0.025995713 -8.8819256 -36.333771 -108.63267
43966000 -36.562237 -79.865845 -0.023751266 -9.0590763 -0.027825767 -9.0796919 -36.054626 -107.89445
44965000 -36.322403 -80.583649 -0.024691237 -9.2611952 -0.027902883 -9.2832022 -35.846516 -107.73236
45964000 -36.089348 -81.449471 -0.025732964 -9.462451 -0.028704602 -9.4823341 -35.607964 -107.49049
46963000 -35.897312 -83.452652 -0.026486101 -9.6582108 -0.029573971 -9.6785545 -35.424938 -107.52702
47962000 -35.724449 -84.872864 -0.027413638 -9.8556604 -0.031119773 -9.8770828 -35.23811 -107.59413
48961000 -35.498863 -86.323807 -0.028957628 -10.055631 -0.031666279 -10.081851 -35.013538 -107.73281
49960000 -35.276295 -87.369843 -0.031020699 -10.254109 -0.033042233 -10.278558 -34.880512 -107.97699
50959000 -35.048019 -88.800728 -0.031256132 -10.468472 -0.034540478 -10.479845 -34.700054 -108.14731
51958000 -34.843578 -89.834541 -0.033855859 -10.666471 -0.035884459 -10.678043 -34.512814 -108.67488
52957000 -34.635479 -90.872955 -0.035075411 -10.868436 -0.036594719 -10.877457 -34.356941 -108.35513
53956000 -34.479076 -91.576843 -0.035365347 -11.071721 -0.03709022 -11.073631 -34.21944 -108.32983
54955000 -34.303371 -92.048843 -0.036580101 -11.271862 -0.038174618 -11.270511 -34.065727 -108.31641
55954000 -34.127876 -92.827705 -0.038297359 -11.469712 -0.038101498 -11.469659 -33.965862 -108.05565
56953000 -33.996723 -93.014473 -0.037234336 -11.672462 -0.037906691 -11.657226 -33.895168 -108.21142
57952000 -33.83717 -93.498611 -0.03833862 -11.868103 -0.038571317 -11.856156 -33.785427 -108.32817
58951000 -33.719669 -93.831436 -0.038957864 -12.072147 -0.03914018 -12.055886 -33.641022 -108.37388
59950000 -33.57663 -94.268028 -0.040529482 -12.274146 -0.040293023 -12.251173 -33.551235 -108.69791
60949000 -33.458363 -94.789169 -0.040340312 -12.477217 -0.04037036 -12.452984 -33.45245 -108.98713
61948000 -33.4044 -95.100937 -0.041218027 -12.67521 -0.040625375 -12.655099 -33.367245 -109.07476
62947000 -33.302479 -95.294701 -0.040496819 -12.885546 -0.041413765 -12.864058 -33.231419 -109.25267
63946000 -33.230488 -96.105476 -0.042404618 -13.086372 -0.042204913 -13.06362 -33.11726 -109.37373
64945000 -33.118614 -96.189369 -0.042512838 -13.287273 -0.042767979 -13.26621 -33.011894 -109.91428
65944000 -33.017708 -96.531471 -0.043351248 -13.483118 -0.042834904 -13.466348 -32.916286 -110.31692
66943000 -32.87521 -96.900993 -0.041203652 -13.685943 -0.041442253 -13.667237 -32.797104 -110.62201
67942000 -32.814854 -96.914864 -0.043406416 -13.879397 -0.043775875 -13.872661 -32.676357 -110.90825
68941000 -32.700703 -96.994926 -0.04336432 -14.078568 -0.042325675 -14.065925 -32.575111 -110.81226
69940000 -32.603939 -96.973808 -0.043116469 -14.278615 -0.043028884 -14.269581 -32.429646 -111.08326
70939000 -32.502171 -96.894386 -0.042676222 -14.47067 -0.043394651 -14.469163 -32.291954 -110.97991
71938000 -32.36166 -96.452316 -0.04290418 -14.66724 -0.043595716 -14.661658 -32.157539 -110.87752
72937000 -32.198551 -96.249382 -0.042588387 -14.866846 -0.042484608 -14.864773 -32.033825 -110.58268
73936000 -32.068909 -95.951691 -0.04226451 -15.0666 -0.041550711 -15.060298 -31.912752 -110.38394
74935000 -31.937197 -96.104424 -0.041405663 -15.261359 -0.041332752 -15.259488 -31.762686 -110.00729
75934000 -31.81127 -96.348335 -0.042287514 -15.470218 -0.041463159 -15.468384 -31.677553 -109.94937
76933000 -31.694345 -96.690865 -0.042680141 -15.666328 -0.042437814 -15.658751 -31.514898 -110.26534
77932000 -31.587862 -97.41185 -0.044439044 -15.85644 -0.044459704 -15.855803 -31.410522 -110.22952
78931000 -31.511059 -98.161514 -0.043038297 -16.06266 -0.043459494 -16.057398 -31.32287 -110.10538
79930000 -31.416954 -99.038208 -0.045241728 -16.254063 -0.046266161 -16.254007 -31.203146 -110.39868
80929000 -31.291332 -99.832664 -0.047111314 -16.450333 -0.047731549 -16.447313 -31.110054 -110.64771
81928000 -31.187712 -100.5206 -0.046888627 -16.642414 -0.048103206 -16.640215 -30.988508 -110.68057
82927000 -31.089968 -101.26162 -0.04878379 -16.841839 -0.049157109 -16.837561 -30.883081 -110.97995
83926000 -30.981749 -101.95103 -0.050438058 -17.03772 -0.050038438 -17.039869 -30.759373 -111.1362
84925000 -30.871656 -102.36451 -0.051289 -17.240171 -0.049787585 -17.238482 -30.664433 -111.17303
85924000 -30.781391 -102.76218 -0.05140242 -17.43779 -0.051207799 -17.435982 -30.588316 -111.12977
86923000 -30.676342 -103.29055 -0.051615905 -17.638779 -0.051947813 -17.631163 -30.480949 -111.08083
87922000 -30.562071 -103.63485 -0.051476024 -17.841328 -0.051568754 -17.837484 -30.390499 -111.11044
88921000 -30.49169 -103.91813 -0.052981429 -18.04311 -0.052341841 -18.037312 -30.30228 -111.11152
89920000 -30.394636 -104.39594 -0.053218052 -18.24152 -0.0530755 -18.235016 -30.257872 -111.22858
90919000 -30.289993 -104.6993 -0.054622352 -18.438425 -0.053565022 -18.434303 -30.166821 -111.34586
91918000 -30.190481 -105.00721 -0.054600857 -18.638483 -0.054481849 -18.63051 -30.092686 -111.35522
92917000 -30.094271 -105.33648 -0.055610456 -18.833933 -0.055172086 -18.831581 -30.033758 -111.43394
93916000 -30.013943 -105.74177 -0.055300027 -19.03002 -0.055663679 -19.027313 -29.943295 -112.12177
94915000 -29.931847 -106.29637 -0.057236634 -19.23037 -0.05572084 -19.225243 -29.879396 -111.97912
95914000 -29.863832 -106.44366 -0.057682294 -19.428268 -0.05740713 -19.423824 -29.794546 -112.23566
96913000 -29.78138 -106.71728 -0.059019025 -19.625681 -0.058721997 -19.623077 -29.723221 -112.62412
97912000 -29.701675 -107.13776 -0.060178205 -19.821728 -0.058581099 -19.823824 -29.649082 -112.82566
98911000 -29.596708 -107.3669 -0.060550667 -20.021486 -0.059687674 -20.021612 -29.602766 -113.00928
99910000 -29.528776 -107.47775 -0.060721818 -20.224636 -0.059945662 -20.221739 -29.503 -113.29163
100909000 -29.425932 -107.70412 -0.06054122 -20.431435 -0.059191164 -20.425613 -29.416977 -113.50912
101908000 -29.343489 -107.92512 -0.062009856 -20.632175 -0.060754105 -20.628708 -29.302885 -113.30089
102907000 -29.21567 -107.93659 -0.062267456 -20.828867 -0.0604105 -20.832842 -29.235466 -113.24173
103906000 -29.120373 -107.93946 -0.06213301 -21.036024 -0.060370602 -21.033869 -29.0889 -113.22324
104905000 -28.977037 -107.82227 -0.063039824 -21.234076 -0.060853861 -21.23267 -28.955599 -112.93362
105904000 -28.834501 -107.88509 -0.06332349 -21.439157 -0.060907152 -21.431829 -28.853376 -112.80568
106903000 -28.724234 -108.0125 -0.063146465 -21.640846 -0.061240032 -21.640755 -28.728624 -112.71758
107902000 -28.562059 -108.28503 -0.063957341 -21.844261 -0.06173284 -21.835926 -28.597744 -112.61567
108901000 -28.453867 -108.50929 -0.064838789 -22.043343 -0.06317535 -22.03941 -28.468042 -112.57881
109900000 -28.326557 -108.97643 -0.066135146 -22.242916 -0.064247109 -22.234718 -28.325052 -112.62497
110899000 -28.211367 -109.58456 -0.0674261 -22.441301 -0.06486848 -22.434298 -28.192619 -112.9411
111898000 -28.128849 -110.19629 -0.069075122 -22.646854 -0.06580136 -22.641151 -28.080208 -113.03791
112897000 -27.996881 -110.77946 -0.070369065 -22.843512 -0.066797532 -22.835451 -27.943163 -113.18179
113896000 -27.888258 -111.35394 -0.070952892 -23.044462 -0.068250664 -23.034172 -27.838995 -113.36803
114895000 -27.792858 -112.0154 -0.071883664 -23.241467 -0.070107035 -23.229935 -27.732117 -113.4393
115894000 -27.670265 -112.37491 -0.073148161 -23.445063 -0.070787653 -23.432068 -27.665216 -113.64755
116893000 -27.588926 -112.86958 -0.073143952 -23.6401 -0.072032623 -23.62377 -27.536791 -113.69594
117892000 -27.515427 -113.36816 -0.073795557 -23.837467 -0.072155796 -23.821199 -27.465387 -113.89046
118891000 -27.453856 -113.76342 -0.074465171 -24.036987 -0.072187908 -24.024591 -27.374987 -114.04967
119890000 -27.365589 -114.11746 -0.074633971 -24.237663 -0.072388731 -24.229826 -27.358101 -114.15398
120889000 -27.315392 -114.58096 -0.076107122 -24.441154 -0.072999164 -24.425983 -27.283768 -114.13352
121888000 -27.271486 -114.93377 -0.076660633 -24.63555 -0.073579662 -24.619102 -27.220438 -114.38663
122887000 -27.237295 -115.16302 -0.077115409 -24.837095 -0.074529164 -24.82667 -27.177679 -114.40124
123886000 -27.180761 -115.52234 -0.076789998 -25.039604 -0.074579194 -25.021313 -27.163443 -114.53689
124885000 -27.141981 -116.04457 -0.078103371 -25.241278 -0.075179398 -25.225069 -27.135103 -114.58457
125884000 -27.09811 -116.24155 -0.078844555 -25.438103 -0.07497897 -25.425833 -27.10367 -114.73807
126883000 -27.076904 -116.61221 -0.078376688 -25.642971 -0.076938339 -25.629198 -27.065876 -114.72965
127882000 -27.026947 -116.92135 -0.079532616 -25.843027 -0.076802909 -25.825752 -27.027477 -114.84344
128881000 -26.994278 -117.22103 -0.079947084 -26.04422 -0.076808974 -26.028761 -26.991278 -114.96512
129880000 -26.940603 -117.54591 -0.080165669 -26.24732 -0.076435901 -26.229208 -26.945644 -114.91911
130879000 -26.884068 -117.70885 -0.079951562 -26.443033 -0.077836134 -26.430405 -26.880638 -114.94115
131878000 -26.818159 -117.91442 -0.080157228 -26.650345 -0.077944182 -26.629131 -26.812243 -114.75849
132877000 -26.75548 -117.97186 -0.079454049 -26.847347 -0.078230932 -26.831003 -26.738251 -114.81903
133876000 -26.672819 -118.16319 -0.080312543 -27.045177 -0.077658512 -27.034838 -26.651855 -114.6412
134875000 -26.573599 -118.29785 -0.079886436 -27.250498 -0.078481853 -27.230642 -26.557709 -114.48935
135874000 -26.50065 -118.29623 -0.080969706 -27.449965 -0.078683496 -27.434925 -26.462482 -114.43222
136873000 -26.388016 -118.20795 -0.081067026 -27.65057 -0.079162471 -27.63768 -26.379677 -114.38684
137872000 -26.309916 -118.34356 -0.080473922 -27.85568 -0.078986637 -27.84058 -26.283064 -114.29642
138871000 -26.238873 -118.56509 -0.081329979 -28.054956 -0.078375898 -28.039616 -26.186115 -114.48687
139870000 -26.135517 -118.82024 -0.081099734 -28.253149 -0.080221832 -28.236088 -26.106808 -114.61097
140869000 -26.062546 -119.37524 -0.082847357 -28.449551 -0.079906479 -28.430986 -26.009708 -114.84834
141868000 -25.981743 -119.77358 -0.083694905 -28.647543 -0.081747785 -28.634384 -25.952852 -115.11132
142867000 -25.903784 -119.965 -0.082447909 -28.846413 -0.081005841 -28.831434 -25.878599 -115.21481
143866000 -25.829319 -120.45894 -0.084266014 -29.045259 -0.082126059 -29.027655 -25.807081 -115.68315
144865000 -25.774141 -120.97704 -0.085431695 -29.242018 -0.08425995 -29.227514 -25.754894 -115.97768
145864000 -25.719015 -121.28579 -0.085987456 -29.441374 -0.085036762 -29.431446 -25.72035 -116.22792
146863000 -25.668756 -121.65559 -0.087116621 -29.64382 -0.084770419 -29.632359 -25.671211 -116.52931
147862000 -25.635656 -121.99541 -0.088363372 -29.842712 -0.085702568 -29.829121 -25.637171 -116.83074
148861000 -25.602556 -122.44293 -0.088530868 -30.038816 -0.086723916 -30.024801 -25.61651 -116.98655
149860000 -25.568501 -122.61314 -0.090003714 -30.229483 -0.087897383 -30.223936 -25.561291 -117.11172
150859000 -25.548391 -123.09438 -0.08940199 -30.430836 -0.087802291 -30.415451 -25.546711 -117.49054
151858000 -25.532373 -123.42348 -0.08889731 -30.630117 -0.087577507 -30.616863 -25.534729 -117.8064
152857000 -25.519196 -123.75034 -0.089354165 -30.825548 -0.086963706 -30.815638 -25.518858 -117.99459
153856000 -25.514772 -123.96638 -0.088689648 -31.029003 -0.087278254 -31.014202 -25.531 -118.3055
154855000 -25.513081 -124.13079 -0.089570582 -31.224251 -0.087058254 -31.216431 -25.520144 -118.5536
155854000 -25.526932 -124.36993 -0.089570053 -31.427559 -0.087924063 -31.414604 -25.514801 -118.83224
156853000 -25.514154 -125.07197 -0.087277196 -31.615532 -0.086984836 -31.605936 -25.504622 -119.13861
157852000 -25.517563 -125.27222 -0.088114783 -31.817122 -0.088253208 -31.807095 -25.49581 -119.50044
158851000 -25.515663 -125.49626 -0.089350201 -32.015678 -0.08847829 -32.00803 -25.47876 -119.772
159850000 -25.503548 -125.57209 -0.089776173 -32.214203 -0.088840775 -32.207802 -25.472984 -119.94289
160849000 -25.486471 -125.70058 -0.090347029 -32.415104 -0.089696631 -32.408669 -25.452377 -120.25447
161848000 -25.469191 -125.8005 -0.09055768 -32.616352 -0.089473337 -32.610363 -25.409 -120.3243
162847000 -25.426849 -125.96055 -0.090306856 -32.815453 -0.090524644 -32.812603 -25.377829 -120.59309
163846000 -25.388025 -126.16156 -0.090679795 -33.01368 -0.089521959 -33.007454 -25.304497 -120.58196
164845000 -25.331623 -126.07319 -0.090560585 -33.212624 -0.089924693 -33.206959 -25.240009 -120.67917
165844000 -25.275438 -126.1563 -0.090698034 -33.41378 -0.090362355 -33.403801 -25.163141 -120.82591
166843000 -25.215042 -126.21584 -0.090598121 -33.617561 -0.090808257 -33.607994 -25.09705 -120.95768
167842000 -25.159779 -126.2869 -0.091054358 -33.809727 -0.091680899 -33.803852 -25.016716 -120.87667
168841000 -25.085722 -126.47234 -0.092268392 -34.012348 -0.090608165 -34.008381 -24.942694 -120.93526
169840000 -25.015905 -126.67919 -0.091679312 -34.20742 -0.09204179 -34.201752 -24.861223 -121.11843
170839000 -24.958143 -126.94089 -0.092468828 -34.407101 -0.092143588 -34.405113 -24.779903 -121.31241
171838000 -24.90163 -127.32109 -0.092448734 -34.60836 -0.09347748 -34.599522 -24.714777 -121.52467
172837000 -24.832605 -127.66171 -0.093991682 -34.804222 -0.09396629 -34.798779 -24.654318 -121.74031
173836000 -24.763767 -128.05319 -0.09504091 -35.006344 -0.094584256 -34.998844 -24.607496 -121.94676
174835000 -24.713343 -128.43184 -0.095908575 -35.201073 -0.095439397 -35.201687 -24.565149 -122.29936
175834000 -24.664394 -128.80229 -0.096317463 -35.401951 -0.096677952 -35.397491 -24.510271 -122.54798
176833000 -24.613144 -129.15453 -0.097393729 -35.599884 -0.09685 -35.597862 -24.45952 -122.66402
177832000 -24.562342 -129.5822 -0.098495141 -35.797684 -0.098387636 -35.799767 -24.441586 -122.78651
178831000 -24.522211 -129.78728 -0.10002012 -35.990688 -0.099698812 -35.989906 -24.398106 -122.86849
179830000 -24.454021 -130.22139 -0.10097595 -36.176472 -0.10057537 -36.177414 -24.336214 -122.92645
180829000 -24.404921 -130.57213 -0.10002409 -36.373466 -0.099859066 -36.371655 -24.298641 -123.266
181828000 -24.381744 -131.01083 -0.099388398 -36.572117 -0.098598413 -36.569447 -24.271622 -123.45495
182827000 -24.357056 -131.37885 -0.098481372 -36.762878 -0.099010468 -36.772133 -24.262724 -123.57742
183826000 -24.31883 -131.72404 -0.10062623 -36.962418 -0.099115342 -36.966499 -24.254299 -123.73951
184825000 -24.324387 -132.08037 -0.099573001 -37.164825 -0.099589162 -37.165058 -24.236217 -123.85622
185824000 -24.293589 -132.39902 -0.099679478 -37.356857 -0.10001058 -37.364384 -24.231705 -123.92439
186823000 -24.277241 -132.79712 -0.1004074 -37.559429 -0.1008652 -37.558193 -24.225822 -123.96165
187822000 -24.251207 -133.13144 -0.1007926 -37.755768 -0.10054516 -37.754192 -24.189348 -123.99854
188821000 -24.230942 -133.37749 -0.10074863 -37.948997 -0.10053588 -37.950314 -24.168669 -124.13847
189820000 -24.205317 -133.70532 -0.10061086 -38.148922 -0.10068027 -38.151539 -24.152241 -124.34704
190819000 -24.176802 -133.97491 -0.10156205 -38.346451 -0.10103688 -38.348907 -24.10956 -124.35691
191818000 -24.147875 -134.27435 -0.10097171 -38.54459 -0.10122951 -38.546562 -24.085382 -124.40605
192817000 -24.100052 -134.54482 -0.10154297 -38.741611 -0.1009256 -38.743401 -24.041384 -124.46236
193816000 -24.067799 -134.78903 -0.10209868 -38.936829 -0.10116247 -38.938316 -23.991085 -124.63265
194815000 -24.013794 -135.17194 -0.10279732 -39.132046 -0.10263829 -39.136204 -23.925381 -124.68989
195814000 -23.955439 -135.40199 -0.10298207 -39.330952 -0.10268652 -39.336117 -23.869291 -124.76361
196813000 -23.902861 -135.71367 -0.10290945 -39.528362 -0.10221396 -39.526817 -23.794258 -124.94335
197812000 -23.84403 -135.90074 -0.10314907 -39.72366 -0.10297518 -39.720173 -23.721268 -125.00537
198811000 -23.791767 -136.06859 -0.10265896 -39.919136 -0.10250709 -39.919331 -23.653677 -125.17999
199810000 -23.723143 -136.40364 -0.10338977 -40.11433 -0.10278089 -40.115795 -23.579929 -125.27333
200809000 -23.664621 -136.66986 -0.10364427 -40.311172 -0.10245514 -40.309952 -23.501669 -125.4325
201808000 -23.60985 -136.84348 -0.10431214 -40.514759 -0.10385425 -40.517815 -23.439047 -125.49723
202807000 -23.550457 -137.189 -0.10462954 -40.713886 -0.10489684 -40.713467 -23.381832 -125.68237
