!Keysight Technologies,E5080B,MY59205177,A.15.75.32
!Date: Friday, February 23, 2024 03:42:52
!Correction: S11(Cdelta 2-Port  ) 
!S21(Cdelta 2-Port  ) 
!S12(Cdelta 2-Port  ) 
!S22(Cdelta 2-Port  ) 
!S2P File: Measurements: S11, S21, S12, S22:
# Hz S  dB   R 50
10000000 -46.075752 -3.046762 -0.014756228 -2.0427775 -0.018363705 -2.0942004 -45.877945 -157.39001
10999000 -45.297852 -5.0263352 -0.015491616 -2.2608821 -0.017370526 -2.3148286 -45.821049 -150.91928
11998000 -44.377983 -8.1000004 -0.016113844 -2.4821618 -0.017601579 -2.5281017 -46.023151 -147.00864
12997000 -43.597755 -13.406376 -0.015374715 -2.6650937 -0.017687611 -2.6983194 -45.527161 -140.96216
13996000 -43.315502 -17.197891 -0.014786877 -2.8441248 -0.017855261 -2.868901 -45.395779 -135.72104
14995000 -42.868 -22.026178 -0.016908972 -3.0577133 -0.01751685 -3.0790029 -44.996811 -132.5874
15994000 -42.734398 -26.408253 -0.017955853 -3.277818 -0.019486343 -3.2922368 -44.904495 -129.39508
16993000 -42.682697 -30.976336 -0.016747596 -3.4704323 -0.018951768 -3.4776528 -44.069351 -129.03343
17992000 -42.699413 -36.475124 -0.017970409 -3.6705143 -0.019498045 -3.6711814 -43.466179 -129.24451
18991000 -42.968578 -41.933372 -0.018526182 -3.8776674 -0.020380918 -3.877049 -42.909233 -127.81
19990000 -42.744892 -47.513519 -0.020976795 -4.0905032 -0.022282498 -4.0881171 -42.253021 -128.73277
20989000 -42.523788 -50.89225 -0.022744622 -4.289155 -0.024060749 -4.2833796 -41.668179 -128.02603
21988000 -42.355553 -56.237385 -0.024018582 -4.4873886 -0.024449131 -4.4776287 -41.400349 -127.47523
22987000 -42.023502 -61.177307 -0.02519189 -4.6915588 -0.026150402 -4.6801691 -41.14539 -126.62502
23986000 -41.924294 -65.361725 -0.024661299 -4.8839126 -0.025077851 -4.8841238 -41.029953 -126.8142
24985000 -41.477859 -67.924522 -0.025191631 -5.0956073 -0.02591707 -5.0883188 -40.798805 -124.178
25984000 -41.145061 -69.853722 -0.026541315 -5.2966423 -0.025660053 -5.2967176 -40.457703 -122.8759
26983000 -40.849762 -71.885986 -0.026557462 -5.4965472 -0.026790049 -5.5112219 -40.377689 -122.33197
27982000 -40.700958 -72.461678 -0.028360393 -5.693738 -0.028242104 -5.7286563 -40.086948 -120.65765
28981000 -40.643742 -74.179779 -0.026504591 -5.8960876 -0.028411724 -5.9173546 -39.866264 -119.87514
29980000 -40.232773 -75.28653 -0.02610014 -6.0903955 -0.028577702 -6.0981727 -39.619568 -118.6936
30979000 -39.847736 -74.15638 -0.023643773 -6.4448895 -0.023139654 -6.4341726 -39.09182 -119.33658
31978000 -39.633049 -75.310822 -0.023052473 -6.6358109 -0.024270033 -6.6268921 -38.835045 -118.7212
32977000 -39.437881 -76.877846 -0.023155527 -6.849494 -0.025287967 -6.8443117 -38.593807 -118.61623
33976000 -39.276993 -78.040901 -0.023798637 -7.0473189 -0.025304891 -7.0427442 -38.322437 -118.16557
34975000 -38.967175 -78.800461 -0.023812953 -7.2461591 -0.026082432 -7.2500429 -38.110172 -117.73465
35974000 -38.773731 -79.236618 -0.023012917 -7.4440408 -0.025681665 -7.4448509 -37.828903 -116.89548
36973000 -38.532383 -80.042458 -0.023461325 -7.6426301 -0.026683781 -7.6479645 -37.564426 -116.00497
37972000 -38.369812 -79.744133 -0.023479022 -7.8519344 -0.027554048 -7.8616896 -37.342251 -115.16824
38971000 -38.061581 -79.275902 -0.024334071 -8.0539675 -0.026542617 -8.0663624 -37.192101 -113.71493
39970000 -37.717758 -79.579735 -0.02309411 -8.2469645 -0.025740515 -8.2620125 -36.923435 -113.16259
40969000 -37.446899 -79.104507 -0.023050651 -8.4461699 -0.025658751 -8.4601288 -36.692959 -111.75331
41968000 -37.105095 -79.130348 -0.02311519 -8.6465445 -0.026226968 -8.6661901 -36.518734 -110.44184
42967000 -36.841415 -79.159683 -0.023013959 -8.8594437 -0.026648099 -8.8791981 -36.306885 -108.59107
43966000 -36.557526 -79.744354 -0.023557363 -9.0595903 -0.027938575 -9.0805464 -36.035957 -107.88281
44965000 -36.304535 -80.528809 -0.025100764 -9.2641029 -0.02750325 -9.2824965 -35.82737 -107.73033
45964000 -36.082581 -81.44104 -0.026138423 -9.4630232 -0.02890056 -9.4828119 -35.606003 -107.4224
46963000 -35.892014 -83.417801 -0.0261616 -9.6609249 -0.02900688 -9.6792564 -35.440136 -107.61283
47962000 -35.734509 -84.939308 -0.027530864 -9.8565683 -0.029859107 -9.8797283 -35.21978 -107.61761
48961000 -35.509018 -86.292519 -0.029910455 -10.057513 -0.032045692 -10.078867 -35.004662 -107.80666
49960000 -35.278946 -87.53463 -0.031227972 -10.255686 -0.032851305 -10.278481 -34.874496 -107.88818
50959000 -35.049568 -88.741692 -0.031817257 -10.470448 -0.034007438 -10.481009 -34.698627 -108.24187
51958000 -34.840546 -89.906509 -0.032761324 -10.668851 -0.035863057 -10.678245 -34.508259 -108.62514
52957000 -34.623562 -90.831131 -0.034903966 -10.867964 -0.03627155 -10.874574 -34.35479 -108.41119
53956000 -34.474453 -91.563187 -0.036356125 -11.067163 -0.037491258 -11.070182 -34.213482 -108.41234
54955000 -34.291096 -92.115303 -0.03728551 -11.271688 -0.038169656 -11.266571 -34.072651 -108.36264
55954000 -34.118633 -92.916039 -0.037882145 -11.472759 -0.038467374 -11.466753 -33.962662 -108.07951
56953000 -33.999962 -92.969208 -0.037419714 -11.673055 -0.037714247 -11.663559 -33.886688 -108.26233
57952000 -33.834747 -93.493622 -0.039123464 -11.86721 -0.037767775 -11.855585 -33.778923 -108.29119
58951000 -33.701706 -93.90081 -0.040026009 -12.071844 -0.038901709 -12.052021 -33.610672 -108.41112
59950000 -33.581852 -94.210068 -0.040765166 -12.270418 -0.040203147 -12.250692 -33.537918 -108.62821
60949000 -33.466827 -94.782814 -0.040559005 -12.47386 -0.040706113 -12.451115 -33.451084 -108.95536
61948000 -33.399811 -95.132156 -0.041713793 -12.671788 -0.041562472 -12.65898 -33.363281 -109.09811
62947000 -33.300655 -95.268562 -0.041371427 -12.885749 -0.041303221 -12.866652 -33.224018 -109.32182
63946000 -33.225342 -96.077049 -0.042279933 -13.081973 -0.042182174 -13.064116 -33.116745 -109.34488
64945000 -33.124649 -96.200409 -0.042588647 -13.286048 -0.042738438 -13.265516 -32.997612 -109.89656
65944000 -33.01012 -96.556702 -0.043438055 -13.486017 -0.042959344 -13.469094 -32.903927 -110.33041
66943000 -32.869022 -96.91806 -0.041318115 -13.686249 -0.041474398 -13.670172 -32.801563 -110.57422
67942000 -32.818985 -96.885445 -0.04398245 -13.88402 -0.043147318 -13.869823 -32.686039 -110.8974
68941000 -32.710228 -96.911186 -0.043032806 -14.076002 -0.042222165 -14.066816 -32.573158 -110.87315
69940000 -32.614334 -96.977386 -0.043707628 -14.27644 -0.042869672 -14.270196 -32.431465 -111.16601
70939000 -32.502003 -96.889572 -0.043412168 -14.469573 -0.042920653 -14.465557 -32.29649 -110.99947
71938000 -32.372467 -96.475868 -0.04359781 -14.665786 -0.042755429 -14.660217 -32.177029 -110.91642
72937000 -32.211403 -96.290764 -0.042743143 -14.866537 -0.042247519 -14.862591 -32.039063 -110.6379
73936000 -32.075874 -95.878387 -0.042710204 -15.065323 -0.042071607 -15.057564 -31.917931 -110.38142
74935000 -31.943106 -96.104424 -0.042230792 -15.261018 -0.040836502 -15.25811 -31.766539 -110.05061
75934000 -31.824331 -96.387169 -0.042452194 -15.473576 -0.0411851 -15.466746 -31.683851 -109.9925
76933000 -31.697765 -96.64917 -0.042788893 -15.665869 -0.042501599 -15.660171 -31.516987 -110.34469
77932000 -31.587919 -97.503304 -0.044257291 -15.855724 -0.043832619 -15.856274 -31.409781 -110.32115
78931000 -31.520655 -98.21479 -0.043038037 -16.05817 -0.043076988 -16.058525 -31.310604 -110.15741
79930000 -31.406984 -99.050415 -0.04532465 -16.253799 -0.04549389 -16.25346 -31.21847 -110.48937
80929000 -31.292273 -99.832939 -0.046839435 -16.451677 -0.046936512 -16.450644 -31.122849 -110.72449
81928000 -31.197359 -100.54275 -0.047199763 -16.642414 -0.047852464 -16.639301 -30.988945 -110.65901
82927000 -31.085472 -101.25809 -0.049342472 -16.838898 -0.04886128 -16.837948 -30.874823 -111.02121
83926000 -30.986057 -101.93317 -0.049723957 -17.039549 -0.049260002 -17.041822 -30.766253 -111.13965
84925000 -30.872751 -102.3932 -0.051468167 -17.240143 -0.049555335 -17.235531 -30.669685 -111.19469
85924000 -30.774353 -102.72473 -0.052205343 -17.440496 -0.05099538 -17.438656 -30.582567 -111.12988
86923000 -30.673155 -103.26636 -0.052076448 -17.636213 -0.051237661 -17.632097 -30.485281 -111.02439
87922000 -30.56353 -103.63048 -0.05177439 -17.844477 -0.050776161 -17.836767 -30.399958 -111.09361
88921000 -30.491528 -103.88471 -0.053333357 -18.042414 -0.051851671 -18.037018 -30.305025 -111.04361
89920000 -30.388191 -104.43074 -0.053045627 -18.238716 -0.052680619 -18.231596 -30.247551 -111.19988
90919000 -30.284994 -104.65461 -0.053888172 -18.43899 -0.05275818 -18.430817 -30.163969 -111.39237
91918000 -30.191238 -105.00477 -0.054862473 -18.639725 -0.053362709 -18.632635 -30.095785 -111.40645
92917000 -30.099045 -105.32516 -0.055959452 -18.836058 -0.055214558 -18.832283 -30.025053 -111.45339
93916000 -30.015406 -105.67569 -0.055121485 -19.028158 -0.054569136 -19.0247 -29.942551 -112.03272
94915000 -29.927549 -106.29136 -0.057155062 -19.231815 -0.055289015 -19.228128 -29.877844 -111.94724
95914000 -29.863817 -106.45615 -0.057569236 -19.425495 -0.05677161 -19.422422 -29.78937 -112.23975
96913000 -29.78212 -106.68852 -0.059157047 -19.626064 -0.057204109 -19.622757 -29.727221 -112.57931
97912000 -29.705324 -107.17299 -0.060016263 -19.820078 -0.058068708 -19.825808 -29.642418 -112.80035
98911000 -29.600004 -107.29559 -0.060903214 -20.023945 -0.058613632 -20.021208 -29.606022 -113.01755
99910000 -29.529171 -107.46035 -0.061405171 -20.219536 -0.059624687 -20.220135 -29.502232 -113.30882
100909000 -29.432594 -107.71738 -0.061010059 -20.430716 -0.058543317 -20.424957 -29.411251 -113.49274
101908000 -29.338829 -107.87276 -0.061491288 -20.629965 -0.060728382 -20.629148 -29.305996 -113.29162
102907000 -29.222712 -107.8891 -0.061934497 -20.829365 -0.060184769 -20.829908 -29.232546 -113.24973
103906000 -29.121033 -107.97218 -0.062345713 -21.038033 -0.059544384 -21.029285 -29.088264 -113.23274
104905000 -28.9767 -107.82777 -0.062721252 -21.233946 -0.060340155 -21.236851 -28.964756 -112.96699
105904000 -28.837624 -107.94465 -0.063646577 -21.43428 -0.061051011 -21.431183 -28.850355 -112.7748
106903000 -28.732647 -107.97429 -0.063654982 -21.645412 -0.061257359 -21.637856 -28.73542 -112.69696
107902000 -28.565933 -108.31729 -0.063636594 -21.844423 -0.061450068 -21.837679 -28.598051 -112.65377
108901000 -28.460394 -108.49328 -0.065059505 -22.044691 -0.062859394 -22.037806 -28.465305 -112.59706
109900000 -28.326292 -108.96396 -0.065933555 -22.244944 -0.063566722 -22.23864 -28.318686 -112.71404
110899000 -28.212055 -109.65955 -0.066911355 -22.448042 -0.064252101 -22.435617 -28.192444 -112.95234
111898000 -28.124332 -110.26068 -0.068514951 -22.645969 -0.065575086 -22.639091 -28.080835 -113.0354
112897000 -27.993467 -110.78026 -0.070211209 -22.841555 -0.06688901 -22.832354 -27.939911 -113.22814
113896000 -27.886137 -111.37314 -0.07124339 -23.045061 -0.067828372 -23.031874 -27.82976 -113.39728
114895000 -27.789602 -111.99059 -0.071747601 -23.244829 -0.069037512 -23.229849 -27.721943 -113.43846
115894000 -27.667124 -112.34615 -0.073272683 -23.442945 -0.070573486 -23.43239 -27.663387 -113.65083
116893000 -27.589439 -112.8181 -0.074249767 -23.639938 -0.071382068 -23.625299 -27.53459 -113.68674
117892000 -27.510267 -113.34886 -0.073999353 -23.836727 -0.071074724 -23.825005 -27.460537 -113.91579
118891000 -27.454962 -113.75146 -0.074647143 -24.038851 -0.072015777 -24.0245 -27.368752 -114.02209
119890000 -27.362652 -114.11047 -0.075075895 -24.242342 -0.073128417 -24.22875 -27.347235 -114.13562
120889000 -27.314898 -114.61716 -0.07654234 -24.438393 -0.072493754 -24.423761 -27.289324 -114.1535
121888000 -27.277523 -114.94583 -0.07605654 -24.634897 -0.073483035 -24.622988 -27.22155 -114.37049
122887000 -27.239164 -115.11581 -0.077420019 -24.836695 -0.074357204 -24.828892 -27.174463 -114.36308
123886000 -27.179735 -115.5625 -0.077271134 -25.04089 -0.075049289 -25.02384 -27.163036 -114.55116
124885000 -27.143017 -116.02711 -0.078603104 -25.242538 -0.075068779 -25.22946 -27.129557 -114.57387
125884000 -27.097544 -116.21007 -0.07884904 -25.437338 -0.075512588 -25.425669 -27.104454 -114.73133
126883000 -27.075804 -116.64155 -0.078881726 -25.640795 -0.076030463 -25.625328 -27.066046 -114.72141
127882000 -27.027948 -116.89884 -0.079610124 -25.841503 -0.076096587 -25.825605 -27.030636 -114.87023
128881000 -26.994808 -117.21793 -0.079765677 -26.043953 -0.076583438 -26.029596 -26.988491 -114.94669
129880000 -26.935837 -117.54999 -0.080332585 -26.244699 -0.076354757 -26.225632 -26.953268 -114.9065
130879000 -26.882999 -117.66893 -0.080044374 -26.445368 -0.077127792 -26.426455 -26.877747 -114.94884
131878000 -26.817183 -117.93649 -0.080375567 -26.649441 -0.077635318 -26.629662 -26.815416 -114.80921
132877000 -26.748953 -118.01178 -0.079954989 -26.848225 -0.077744685 -26.833412 -26.737547 -114.76762
133876000 -26.671082 -118.15269 -0.080206536 -27.050186 -0.078172162 -27.032183 -26.656727 -114.64675
134875000 -26.571733 -118.26844 -0.081001095 -27.248644 -0.078753881 -27.233191 -26.55537 -114.45115
135874000 -26.493572 -118.31266 -0.080261387 -27.449926 -0.078441791 -27.433485 -26.463207 -114.45568
136873000 -26.385454 -118.19939 -0.080937795 -27.652058 -0.078083076 -27.636799 -26.377905 -114.40166
137872000 -26.313162 -118.35346 -0.080748446 -27.853498 -0.078481063 -27.836746 -26.277351 -114.36666
138871000 -26.238075 -118.58128 -0.081898667 -28.053114 -0.078157134 -28.03879 -26.183949 -114.4511
139870000 -26.138784 -118.8531 -0.082090974 -28.251884 -0.079331987 -28.237579 -26.103886 -114.63808
140869000 -26.058573 -119.40414 -0.083160549 -28.450663 -0.080443598 -28.432123 -26.005173 -114.86047
141868000 -25.981451 -119.77951 -0.084128514 -28.651237 -0.081380621 -28.634144 -25.952095 -115.11594
142867000 -25.90373 -119.96863 -0.083049461 -28.846355 -0.080520071 -28.833227 -25.878763 -115.22181
143866000 -25.827589 -120.47772 -0.084778868 -29.042986 -0.082038745 -29.029886 -25.806114 -115.70365
144865000 -25.773474 -121.00254 -0.085660852 -29.241331 -0.083770908 -29.228582 -25.745886 -115.99314
145864000 -25.716747 -121.30029 -0.086288467 -29.445553 -0.084602281 -29.432846 -25.716215 -116.22415
146863000 -25.672194 -121.66828 -0.08714699 -29.643742 -0.084640816 -29.632141 -25.663971 -116.52613
147862000 -25.631798 -121.99586 -0.087941229 -29.840677 -0.085359097 -29.83231 -25.634607 -116.85284
148861000 -25.600319 -122.3979 -0.08914198 -30.039299 -0.08669275 -30.026711 -25.610846 -116.98003
149860000 -25.565674 -122.61222 -0.089767717 -30.229605 -0.087861985 -30.221746 -25.561869 -117.10682
150859000 -25.544386 -123.13171 -0.090229154 -30.434172 -0.087268479 -30.415447 -25.540577 -117.44912
151858000 -25.533146 -123.44962 -0.088623069 -30.62886 -0.087543435 -30.614855 -25.531454 -117.82553
152857000 -25.519598 -123.71695 -0.089615501 -30.826885 -0.087314963 -30.817991 -25.513639 -118.01334
153856000 -25.511942 -123.9803 -0.089438982 -31.029776 -0.086323582 -31.018618 -25.530457 -118.31826
154855000 -25.513771 -124.12398 -0.089637704 -31.226973 -0.086777784 -31.216858 -25.51898 -118.53976
155854000 -25.527145 -124.38062 -0.090168893 -31.432329 -0.08781787 -31.417606 -25.511202 -118.84216
156853000 -25.513651 -125.07098 -0.087557167 -31.616426 -0.085842766 -31.611629 -25.508175 -119.1172
157852000 -25.514252 -125.27105 -0.088958085 -31.815859 -0.087754212 -31.807198 -25.493168 -119.47599
158851000 -25.513458 -125.49088 -0.089573227 -32.013229 -0.088034481 -32.007504 -25.480322 -119.76363
159850000 -25.501209 -125.60211 -0.089754507 -32.215309 -0.087646708 -32.208004 -25.47916 -119.92729
160849000 -25.482597 -125.71795 -0.09027461 -32.413528 -0.088757813 -32.409256 -25.448963 -120.25542
161848000 -25.472126 -125.78713 -0.090729222 -32.616722 -0.088743545 -32.610264 -25.406807 -120.35606
162847000 -25.429712 -125.93429 -0.090112597 -32.81456 -0.089726493 -32.809925 -25.38274 -120.59713
163846000 -25.387751 -126.13615 -0.090944916 -33.016777 -0.089265645 -33.008636 -25.301609 -120.584
164845000 -25.331749 -126.13521 -0.090949409 -33.21806 -0.089227065 -33.207642 -25.240263 -120.67361
165844000 -25.283636 -126.18641 -0.091077618 -33.413651 -0.089482851 -33.408005 -25.160646 -120.83553
166843000 -25.224533 -126.20509 -0.090787902 -33.612747 -0.090096213 -33.609379 -25.097111 -120.97648
167842000 -25.162252 -126.29549 -0.091424979 -33.812618 -0.089983627 -33.805439 -25.020885 -120.88932
168841000 -25.086784 -126.47426 -0.091976486 -34.014877 -0.09009701 -34.006538 -24.945894 -120.98431
169840000 -25.024031 -126.71313 -0.091628551 -34.207207 -0.091599733 -34.204491 -24.860294 -121.12689
170839000 -24.958097 -126.92451 -0.092891939 -34.403011 -0.091254734 -34.403198 -24.779299 -121.32714
171838000 -24.904589 -127.32193 -0.092162102 -34.607716 -0.092229262 -34.600136 -24.723207 -121.53804
172837000 -24.831886 -127.66024 -0.094296426 -34.804379 -0.093497582 -34.799271 -24.652254 -121.73466
173836000 -24.767677 -128.06252 -0.095031917 -35.003441 -0.093738541 -35.000362 -24.611456 -121.97077
174835000 -24.713835 -128.48212 -0.095655851 -35.199181 -0.094614156 -35.201145 -24.56394 -122.27515
175834000 -24.661856 -128.8445 -0.096357167 -35.400333 -0.096139617 -35.396595 -24.509016 -122.54667
176833000 -24.612799 -129.16626 -0.097498558 -35.59734 -0.096449532 -35.596489 -24.456358 -122.65858
177832000 -24.570335 -129.58058 -0.098574847 -35.798527 -0.09713906 -35.797997 -24.439432 -122.77974
178831000 -24.522703 -129.80244 -0.099957071 -35.993095 -0.099382833 -35.988186 -24.396791 -122.84045
179830000 -24.446924 -130.21442 -0.10112379 -36.176125 -0.09990833 -36.177887 -24.336782 -122.95298
180829000 -24.404057 -130.61461 -0.10003389 -36.373428 -0.099404551 -36.37064 -24.293306 -123.27945
181828000 -24.379028 -131.00984 -0.099598959 -36.572067 -0.098662496 -36.569527 -24.278368 -123.44332
182827000 -24.355518 -131.38162 -0.099352643 -36.768982 -0.098997757 -36.766975 -24.265524 -123.56477
183826000 -24.317659 -131.70578 -0.099959195 -36.966309 -0.098716788 -36.963467 -24.255831 -123.72836
184825000 -24.319036 -132.05319 -0.0998739 -37.16544 -0.099434219 -37.166161 -24.238768 -123.84539
185824000 -24.295877 -132.44016 -0.10012819 -37.359852 -0.099586248 -37.361481 -24.231583 -123.93977
186823000 -24.274355 -132.76883 -0.099523738 -37.560299 -0.099966079 -37.557774 -24.226625 -123.89445
187822000 -24.253654 -133.12073 -0.10017534 -37.753979 -0.099760532 -37.753891 -24.186844 -124.00821
188821000 -24.231359 -133.38155 -0.10028236 -37.947922 -0.10042489 -37.955593 -24.167595 -124.13416
189820000 -24.209658 -133.66551 -0.099963427 -38.151741 -0.10001694 -38.151615 -24.151052 -124.35049
190819000 -24.175119 -133.98024 -0.10109411 -38.343189 -0.10067657 -38.34589 -24.1099 -124.37562
191818000 -24.145792 -134.25772 -0.10132834 -38.545906 -0.10078413 -38.546368 -24.086096 -124.39713
192817000 -24.09836 -134.54152 -0.1022789 -38.739708 -0.10105702 -38.741997 -24.043089 -124.50805
193816000 -24.068884 -134.8051 -0.10204276 -38.935482 -0.10099582 -38.935661 -23.991598 -124.63132
194815000 -24.008869 -135.19106 -0.10226856 -39.134228 -0.1022463 -39.13686 -23.927591 -124.70068
195814000 -23.951262 -135.3791 -0.10321693 -39.330765 -0.10254472 -39.33395 -23.872766 -124.78606
196813000 -23.900883 -135.70549 -0.1030099 -39.523029 -0.10163572 -39.527714 -23.790508 -124.91935
197812000 -23.839571 -135.91475 -0.10265075 -39.723976 -0.10240585 -39.722103 -23.721895 -125.01009
198811000 -23.790215 -136.06319 -0.10288399 -39.918224 -0.10267513 -39.922596 -23.655205 -125.17442
199810000 -23.722389 -136.41824 -0.10321057 -40.116325 -0.10208543 -40.110527 -23.578409 -125.28817
200809000 -23.669317 -136.68256 -0.10297359 -40.314751 -0.10305258 -40.313362 -23.502174 -125.45253
201808000 -23.608288 -136.87242 -0.10435483 -40.513638 -0.10408703 -40.515968 -23.436974 -125.53387
202807000 -23.551615 -137.16464 -0.10539595 -40.710346 -0.10426202 -40.715511 -23.381519 -125.70828
