!Keysight Technologies,E5080B,MY59205177,A.15.75.32
!Date: Friday, February 23, 2024 03:04:41
!Correction: S11(Cdelta 2-Port  ) 
!S21(Cdelta 2-Port  ) 
!S12(Cdelta 2-Port  ) 
!S22(Cdelta 2-Port  ) 
!S2P File: Measurements: S11, S21, S12, S22:
# Hz S  dB   R 50
10000000 -44.204285 -3.878768 -0.02709558 -2.0356731 -0.030431263 -2.0914805 -48.027828 -150.9987
10999000 -43.535183 -5.46032 -0.028100887 -2.2568324 -0.030625213 -2.3115401 -47.729336 -143.15358
11998000 -42.797844 -8.2668705 -0.028329127 -2.4801607 -0.029887257 -2.5222092 -47.819866 -137.68881
12997000 -42.134281 -12.793835 -0.02791122 -2.661715 -0.029498389 -2.6902554 -47.223869 -131.53172
13996000 -41.879951 -16.143885 -0.026648099 -2.8348665 -0.029773096 -2.8601673 -46.748272 -125.86356
14995000 -41.619781 -19.981617 -0.029198421 -3.0467801 -0.029203113 -3.0713615 -46.265247 -122.73659
15994000 -41.451698 -23.802225 -0.030166419 -3.2662916 -0.032043085 -3.283812 -46.067005 -118.76109
16993000 -41.436798 -27.913725 -0.029453823 -3.4596963 -0.031080665 -3.4707098 -45.187229 -119.40932
17992000 -41.52681 -32.664169 -0.029618278 -3.6614313 -0.031852983 -3.6620555 -44.535213 -120.25539
18991000 -41.783333 -37.037014 -0.030465672 -3.8679008 -0.03257484 -3.8665035 -43.842487 -119.54852
19990000 -41.644142 -41.958233 -0.033466116 -4.0769982 -0.034665465 -4.0745049 -43.150387 -121.19731
20989000 -41.522327 -45.2285 -0.03491649 -4.2776313 -0.037004326 -4.2692847 -42.520332 -120.91916
21988000 -41.433636 -49.686687 -0.035920478 -4.4785347 -0.036929134 -4.46383 -42.288589 -120.333
22987000 -41.207256 -54.48666 -0.037300132 -4.6735096 -0.037951346 -4.6673498 -41.993877 -120.15147
23986000 -41.19799 -58.018566 -0.036846638 -4.8659687 -0.037396736 -4.8693671 -41.872013 -119.80761
24985000 -40.823708 -60.591522 -0.037608493 -5.0778627 -0.037765685 -5.0785213 -41.62801 -117.56779
25984000 -40.619469 -62.936104 -0.038469724 -5.2855167 -0.037171938 -5.2831507 -41.261078 -116.05231
26983000 -40.324547 -64.623161 -0.039671239 -5.4816723 -0.038223192 -5.4977202 -41.165062 -115.25127
27982000 -40.175869 -65.654915 -0.04059846 -5.6797252 -0.040316276 -5.7143822 -40.794731 -113.7687
28981000 -40.167278 -66.947327 -0.038941409 -5.877306 -0.040237371 -5.9045739 -40.611187 -112.89911
29980000 -39.8158 -68.623093 -0.038542848 -6.0674009 -0.040803056 -6.0776997 -40.3046 -112.24338
30979000 -39.421078 -67.655548 -0.03625406 -6.4218383 -0.034659464 -6.4128757 -39.798824 -113.17848
31978000 -39.268116 -68.614731 -0.035596315 -6.6176057 -0.036428433 -6.6068649 -39.54126 -112.49754
32977000 -39.078327 -70.289413 -0.03512108 -6.8284664 -0.037245564 -6.8233171 -39.285458 -112.78779
33976000 -38.94825 -71.502716 -0.03597999 -7.0281873 -0.037502743 -7.0242677 -38.993496 -112.42809
34975000 -38.657684 -72.376617 -0.036365259 -7.2281537 -0.038676307 -7.224956 -38.745499 -112.13127
35974000 -38.497864 -73.16275 -0.035276614 -7.4221225 -0.037560187 -7.4227567 -38.464012 -111.28642
36973000 -38.263351 -73.969612 -0.035672005 -7.6227541 -0.038808465 -7.62328 -38.14473 -110.64713
37972000 -38.088108 -73.889931 -0.035352819 -7.8277416 -0.038668733 -7.840322 -37.935215 -109.95025
38971000 -37.782665 -73.676125 -0.036766492 -8.0324907 -0.038415663 -8.0435457 -37.738636 -108.5469
39970000 -37.457748 -74.090347 -0.034066662 -8.2273884 -0.037346344 -8.242691 -37.443462 -108.13374
40969000 -37.178951 -74.055328 -0.03492745 -8.4208555 -0.037646879 -8.4457207 -37.190762 -106.8599
41968000 -36.84552 -74.271446 -0.035140652 -8.6274309 -0.037948214 -8.6456194 -36.986652 -105.70715
42967000 -36.582836 -74.546516 -0.034465592 -8.8337393 -0.03756959 -8.8548574 -36.749668 -103.97397
43966000 -36.304615 -75.493431 -0.035562128 -9.0394726 -0.03922037 -9.052084 -36.455009 -103.41612
44965000 -36.068161 -76.375572 -0.036028538 -9.2405586 -0.039629702 -9.2564631 -36.221584 -103.42385
45964000 -35.88121 -77.534424 -0.037231989 -9.4351978 -0.040330645 -9.4576988 -35.979256 -103.2986
46963000 -35.687141 -79.556511 -0.037361491 -9.6282415 -0.041019421 -9.6509008 -35.805363 -103.54111
47962000 -35.53117 -80.954391 -0.039676987 -9.8329535 -0.041905113 -9.8467941 -35.595413 -103.68938
48961000 -35.335228 -82.476837 -0.041712224 -10.029909 -0.0439176 -10.051327 -35.362923 -103.94421
49960000 -35.10717 -83.87484 -0.042710204 -10.22867 -0.044672329 -10.250379 -35.218868 -104.18716
50959000 -34.908504 -85.221748 -0.043168496 -10.441732 -0.045345575 -10.452682 -35.034054 -104.64676
51958000 -34.709908 -86.403938 -0.044726729 -10.640089 -0.047637329 -10.648341 -34.867451 -105.11507
52957000 -34.499844 -87.496056 -0.046182178 -10.839732 -0.048561804 -10.844719 -34.70911 -104.88124
53956000 -34.345963 -88.302681 -0.04737667 -11.037612 -0.048824105 -11.042902 -34.563141 -104.98916
54955000 -34.198528 -88.701622 -0.048775937 -11.241912 -0.05011883 -11.237206 -34.415749 -104.97353
55954000 -34.03199 -89.584618 -0.049304511 -11.440116 -0.050800256 -11.435482 -34.29266 -104.65656
56953000 -33.918762 -89.604073 -0.048843738 -11.639421 -0.049038775 -11.624004 -34.235641 -104.94068
57952000 -33.75016 -90.137764 -0.05050274 -11.830523 -0.050184559 -11.823844 -34.133579 -105.05405
58951000 -33.638134 -90.616394 -0.05089559 -12.040459 -0.051079456 -12.024552 -33.978024 -105.01242
59950000 -33.525574 -90.986389 -0.051636077 -12.23843 -0.052333459 -12.218017 -33.916935 -105.29367
60949000 -33.415958 -91.569901 -0.051936027 -12.438622 -0.052923255 -12.419266 -33.82888 -105.63019
61948000 -33.362282 -91.882339 -0.053250812 -12.639128 -0.051987637 -12.620386 -33.74173 -105.71314
62947000 -33.275105 -92.077866 -0.052499831 -12.848495 -0.053079955 -12.826117 -33.600185 -106.0498
63946000 -33.203415 -92.744873 -0.053014182 -13.047023 -0.054214485 -13.02788 -33.497787 -106.07491
64945000 -33.09111 -92.924881 -0.053731967 -13.248426 -0.054640964 -13.231014 -33.384136 -106.64119
65944000 -32.993233 -93.284615 -0.055333845 -13.449187 -0.054276347 -13.432101 -33.308037 -107.12586
66943000 -32.858952 -93.669434 -0.052824732 -13.649112 -0.052929807 -13.629971 -33.205536 -107.42663
67942000 -32.808048 -93.651779 -0.055075869 -13.842919 -0.054861426 -13.836024 -33.086285 -107.71909
68941000 -32.69059 -93.807938 -0.054453015 -14.038543 -0.053987242 -14.026858 -32.978497 -107.79488
69940000 -32.600132 -93.864204 -0.054812927 -14.234259 -0.054746866 -14.23236 -32.825832 -108.01155
70939000 -32.496613 -93.837105 -0.05454712 -14.430911 -0.054167829 -14.428777 -32.707813 -108.00383
71938000 -32.356476 -93.470657 -0.054568876 -14.628036 -0.054370444 -14.621594 -32.571751 -107.93301
72937000 -32.192574 -93.249733 -0.054196663 -14.825264 -0.054472674 -14.820399 -32.430874 -107.66558
73936000 -32.051254 -93.002701 -0.053757913 -15.025156 -0.053771015 -15.016686 -32.311825 -107.48415
74935000 -31.928835 -93.251457 -0.054102305 -15.216939 -0.052857224 -15.219928 -32.163174 -107.19664
75934000 -31.818796 -93.547783 -0.053632114 -15.431687 -0.052190673 -15.425115 -32.073128 -107.1237
76933000 -31.68387 -93.994598 -0.054606885 -15.619232 -0.05397309 -15.615815 -31.894562 -107.57149
77932000 -31.587515 -94.732346 -0.055959973 -15.818824 -0.05568859 -15.809766 -31.793898 -107.54126
78931000 -31.516434 -95.591087 -0.054377522 -16.016943 -0.054419462 -16.009609 -31.693733 -107.47926
79930000 -31.405674 -96.340622 -0.057142209 -16.212097 -0.057615928 -16.208752 -31.595345 -107.78129
80929000 -31.284369 -97.263306 -0.058039065 -16.403952 -0.058853716 -16.399727 -31.499685 -108.15351
81928000 -31.200554 -98.093094 -0.058664009 -16.595778 -0.059267264 -16.594326 -31.371199 -108.24947
82927000 -31.101177 -98.884499 -0.060395539 -16.794662 -0.059691612 -16.793512 -31.269184 -108.54755
83926000 -30.997684 -99.59446 -0.061857823 -16.994678 -0.06142145 -16.994646 -31.143782 -108.69
84925000 -30.889997 -100.05276 -0.062329169 -17.19136 -0.061267599 -17.189062 -31.054939 -108.80757
85924000 -30.797188 -100.45638 -0.063470058 -17.390066 -0.063105226 -17.389973 -30.970552 -108.79481
86923000 -30.695147 -100.95259 -0.063312724 -17.591082 -0.06332349 -17.584772 -30.87183 -108.65928
87922000 -30.594116 -101.35271 -0.063471109 -17.793339 -0.062491458 -17.786818 -30.791321 -108.72237
88921000 -30.523777 -101.66861 -0.064677462 -17.988325 -0.064090796 -17.990574 -30.694017 -108.7278
89920000 -30.417706 -102.20779 -0.065077372 -18.190592 -0.064262345 -18.180775 -30.650042 -108.82875
90919000 -30.330599 -102.51064 -0.066119634 -18.38905 -0.065026134 -18.382421 -30.561098 -109.07014
91918000 -30.234697 -102.8985 -0.067023605 -18.587729 -0.065143332 -18.583132 -30.497618 -109.09775
92917000 -30.153048 -103.21005 -0.068037413 -18.787228 -0.066708416 -18.778061 -30.435524 -109.26492
93916000 -30.059151 -103.63937 -0.067339346 -18.97328 -0.066439517 -18.972868 -30.352009 -109.83495
94915000 -29.99032 -104.27029 -0.068914168 -19.179209 -0.067796297 -19.173536 -30.290415 -109.69601
95914000 -29.930058 -104.47679 -0.069573559 -19.371906 -0.068264604 -19.367777 -30.203079 -109.98317
96913000 -29.842163 -104.67759 -0.071012624 -19.570292 -0.069488332 -19.568953 -30.147577 -110.32259
97912000 -29.773146 -105.13872 -0.071861558 -19.767828 -0.069978133 -19.767464 -30.064472 -110.54265
98911000 -29.67355 -105.33295 -0.072233707 -19.971508 -0.070742927 -19.966116 -30.025328 -110.79224
99910000 -29.60467 -105.52358 -0.072904922 -20.166763 -0.071214184 -20.169081 -29.917936 -111.05988
100909000 -29.509773 -105.82107 -0.071469173 -20.373716 -0.07042063 -20.368286 -29.830143 -111.33096
101908000 -29.429365 -106.0145 -0.073189758 -20.575916 -0.071921825 -20.571304 -29.723476 -111.11996
102907000 -29.297108 -106.07195 -0.0736963 -20.774115 -0.071739443 -20.772617 -29.646011 -111.07233
103906000 -29.203201 -106.16284 -0.073545694 -20.980093 -0.070895009 -20.976748 -29.498692 -111.10306
104905000 -29.062744 -106.06728 -0.074306913 -21.175285 -0.071821555 -21.178776 -29.365164 -110.77395
105904000 -28.931053 -106.19894 -0.074598424 -21.378777 -0.071665227 -21.375858 -29.263083 -110.60853
106903000 -28.810595 -106.26737 -0.074822798 -21.58494 -0.07200025 -21.578115 -29.136072 -110.54839
107902000 -28.651192 -106.62707 -0.075919032 -21.785349 -0.072434798 -21.774927 -28.99148 -110.49507
108901000 -28.551702 -106.89182 -0.076863252 -21.986429 -0.074302435 -21.978128 -28.865881 -110.44973
109900000 -28.419847 -107.40381 -0.077106446 -22.185255 -0.074755639 -22.176195 -28.712723 -110.61313
110899000 -28.296911 -108.06647 -0.079116076 -22.382017 -0.075475976 -22.373293 -28.585966 -110.81869
111898000 -28.213278 -108.70403 -0.080319136 -22.584976 -0.076898552 -22.576532 -28.470354 -110.99199
112897000 -28.092585 -109.28185 -0.081970155 -22.783587 -0.077882253 -22.770937 -28.32921 -111.15497
113896000 -27.986359 -109.85196 -0.082632586 -22.982346 -0.079248674 -22.971642 -28.221489 -111.29272
114895000 -27.886074 -110.45883 -0.083608612 -23.180099 -0.080270879 -23.166372 -28.114933 -111.36805
115894000 -27.761887 -110.86977 -0.084741913 -23.381681 -0.081950374 -23.36677 -28.044968 -111.55462
116893000 -27.675211 -111.43596 -0.085376255 -23.574984 -0.082912788 -23.560862 -27.918322 -111.69036
117892000 -27.597948 -111.91173 -0.084930122 -23.770065 -0.082962394 -23.758175 -27.84334 -111.89106
118891000 -27.537569 -112.29672 -0.086140335 -23.970085 -0.083721824 -23.957672 -27.743532 -112.03292
119890000 -27.448326 -112.63705 -0.086339429 -24.172945 -0.083781995 -24.153814 -27.736864 -112.12366
120889000 -27.39921 -113.17477 -0.088256381 -24.370651 -0.083383255 -24.359106 -27.665939 -112.11555
121888000 -27.357187 -113.4865 -0.087487437 -24.570002 -0.084910586 -24.556034 -27.606102 -112.34824
122887000 -27.31728 -113.69773 -0.087824211 -24.771301 -0.085997753 -24.75931 -27.561913 -112.40524
123886000 -27.258448 -114.15336 -0.089008547 -24.972996 -0.08633019 -24.952757 -27.547363 -112.59561
124885000 -27.22201 -114.65877 -0.089486018 -25.171621 -0.086039737 -25.158318 -27.518496 -112.62388
125884000 -27.172871 -114.84033 -0.090223074 -25.370981 -0.08656019 -25.357794 -27.492363 -112.81222
126883000 -27.152138 -115.24346 -0.090707548 -25.571205 -0.087443061 -25.558058 -27.45112 -112.82656
127882000 -27.102278 -115.51284 -0.090469398 -25.771885 -0.0879061 -25.755369 -27.409254 -113.02815
128881000 -27.069223 -115.82911 -0.090839714 -25.972672 -0.087621883 -25.957058 -27.368286 -113.18418
129880000 -27.013723 -116.15119 -0.091456972 -26.173481 -0.087632976 -26.155041 -27.328896 -113.15713
130879000 -26.950792 -116.27343 -0.091431588 -26.371559 -0.088345937 -26.357075 -27.257187 -113.19175
131878000 -26.88707 -116.49815 -0.091313422 -26.576527 -0.088886485 -26.556881 -27.194672 -113.1314
132877000 -26.821741 -116.61059 -0.091315269 -26.776798 -0.089344122 -26.763819 -27.105467 -113.12753
133876000 -26.740755 -116.78616 -0.091961682 -26.979584 -0.088820957 -26.959049 -27.022142 -113.03489
134875000 -26.640726 -116.89597 -0.091482088 -27.175169 -0.089159422 -27.161152 -26.915663 -112.96883
135874000 -26.561886 -116.94678 -0.092150465 -27.375637 -0.089518525 -27.355043 -26.812124 -112.93137
136873000 -26.449554 -116.85291 -0.092464335 -27.578329 -0.089155719 -27.561684 -26.731409 -112.92423
137872000 -26.372536 -117.00806 -0.092210755 -27.780695 -0.089194298 -27.763397 -26.620949 -112.88214
138871000 -26.299692 -117.1843 -0.093025751 -27.977903 -0.090025648 -27.965534 -26.526926 -113.04656
139870000 -26.201921 -117.42815 -0.093735106 -28.176752 -0.090754598 -28.16346 -26.442644 -113.24133
140869000 -26.114958 -117.90803 -0.09546268 -28.378172 -0.092216037 -28.357765 -26.338203 -113.3679
141868000 -26.023254 -118.39568 -0.096257649 -28.566591 -0.092858084 -28.552271 -26.268963 -113.69958
142867000 -25.942291 -118.6246 -0.094548009 -28.764225 -0.092084102 -28.749821 -26.186964 -113.87076
143866000 -25.872046 -119.11887 -0.096082188 -28.962782 -0.092919439 -28.947678 -26.11767 -114.37491
144865000 -25.812466 -119.6507 -0.09708824 -29.160025 -0.094393246 -29.144644 -26.059208 -114.68085
145864000 -25.763002 -119.98731 -0.097620077 -29.361317 -0.095343605 -29.348776 -26.023609 -114.9374
146863000 -25.714909 -120.36517 -0.098395318 -29.561005 -0.095828131 -29.545776 -25.974346 -115.24236
147862000 -25.676523 -120.70946 -0.099379659 -29.755518 -0.095772818 -29.741369 -25.935303 -115.56888
148861000 -25.642416 -121.20361 -0.099454872 -29.95718 -0.096401364 -29.938431 -25.910234 -115.8128
149860000 -25.628033 -121.4054 -0.10032475 -30.151094 -0.097116299 -30.141848 -25.8829 -115.94831
150859000 -25.608149 -121.79939 -0.1007526 -30.353029 -0.097185649 -30.340872 -25.872242 -116.23737
151858000 -25.59193 -122.09569 -0.10023892 -30.551767 -0.09753827 -30.536814 -25.868082 -116.47937
152857000 -25.569855 -122.4092 -0.10090176 -30.747347 -0.098020919 -30.73941 -25.853062 -116.61143
153856000 -25.561277 -122.65023 -0.10081168 -30.948652 -0.09800265 -30.933855 -25.864321 -116.91421
154855000 -25.564304 -122.8055 -0.10124514 -31.146923 -0.098216586 -31.135656 -25.851971 -117.13392
155854000 -25.576071 -123.06335 -0.10064954 -31.345566 -0.098410673 -31.332678 -25.846947 -117.38665
156853000 -25.55654 -123.74072 -0.099102102 -31.532722 -0.097045355 -31.524858 -25.842527 -117.67351
157852000 -25.56296 -123.96005 -0.10024527 -31.731857 -0.098714933 -31.725588 -25.831795 -117.99667
158851000 -25.560749 -124.22263 -0.10110418 -31.931637 -0.098917782 -31.921423 -25.81864 -118.28638
159850000 -25.544355 -124.31821 -0.10167388 -32.129349 -0.099236108 -32.119995 -25.818708 -118.4491
160849000 -25.526525 -124.46307 -0.10176318 -32.327839 -0.10031971 -32.321228 -25.788515 -118.77299
161848000 -25.51088 -124.53414 -0.10200752 -32.527538 -0.10005243 -32.520042 -25.752655 -118.86439
162847000 -25.464586 -124.74796 -0.1024782 -32.723686 -0.10096481 -32.721699 -25.719107 -119.1396
163846000 -25.421225 -124.98188 -0.10231414 -32.927986 -0.10082466 -32.918709 -25.644524 -119.11566
164845000 -25.362816 -124.97868 -0.10251186 -33.127472 -0.10122421 -33.119591 -25.579586 -119.22601
165844000 -25.309252 -125.07731 -0.10284504 -33.325684 -0.10130131 -33.317413 -25.498894 -119.41699
166843000 -25.246067 -125.16074 -0.10225451 -33.52145 -0.1010443 -33.51849 -25.425173 -119.58311
167842000 -25.187496 -125.29112 -0.10238677 -33.71814 -0.1016654 -33.714878 -25.342813 -119.5089
168841000 -25.109119 -125.46822 -0.10285537 -33.919285 -0.10149157 -33.914345 -25.268421 -119.60053
169840000 -25.044313 -125.74609 -0.10299983 -34.114227 -0.10246945 -34.111645 -25.181936 -119.75853
170839000 -24.984152 -126.03695 -0.1040751 -34.310589 -0.10268573 -34.309013 -25.09075 -119.96404
171838000 -24.926104 -126.44194 -0.10388235 -34.51371 -0.10336114 -34.505817 -25.036463 -120.22643
172837000 -24.860449 -126.82293 -0.10551875 -34.71096 -0.10428005 -34.70031 -24.958462 -120.45197
173836000 -24.791195 -127.25383 -0.10659703 -34.905621 -0.10515779 -34.90456 -24.918886 -120.65309
174835000 -24.739216 -127.63859 -0.10709581 -35.100559 -0.10597204 -35.101723 -24.868816 -120.9494
175834000 -24.69063 -128.04062 -0.1082387 -35.300903 -0.1065238 -35.29734 -24.805479 -121.29382
176833000 -24.632124 -128.42662 -0.10883296 -35.498806 -0.10702258 -35.495102 -24.755684 -121.41853
177832000 -24.584349 -128.87961 -0.10889692 -35.692482 -0.10767265 -35.694149 -24.729725 -121.59042
178831000 -24.548738 -129.24849 -0.10993197 -35.889412 -0.10790936 -35.885235 -24.69338 -121.83077
179830000 -24.51461 -129.66841 -0.10935508 -36.085423 -0.10844651 -36.086185 -24.667351 -121.9168
180829000 -24.469664 -129.87263 -0.10991099 -36.285538 -0.10901769 -36.285133 -24.638992 -122.07592
181828000 -24.446081 -130.24304 -0.10986559 -36.485714 -0.10922395 -36.479115 -24.619099 -122.1924
182827000 -24.422361 -130.58374 -0.11035944 -36.679375 -0.10905273 -36.681339 -24.605804 -122.28245
183826000 -24.379904 -130.90283 -0.11082307 -36.876205 -0.10922422 -36.868988 -24.598198 -122.4041
184825000 -24.382614 -131.2274 -0.1114684 -37.069218 -0.10985126 -37.070724 -24.579458 -122.50164
185824000 -24.361919 -131.56845 -0.11070675 -37.265244 -0.11033448 -37.268307 -24.575527 -122.52135
186823000 -24.346289 -131.91425 -0.11101161 -37.463097 -0.10983533 -37.464024 -24.578873 -122.50477
187822000 -24.323191 -132.24084 -0.11124956 -37.658653 -0.11087086 -37.65855 -24.543644 -122.61277
188821000 -24.304859 -132.49973 -0.1116915 -37.856525 -0.11107109 -37.859539 -24.529644 -122.68994
189820000 -24.286465 -132.74007 -0.11235476 -38.056904 -0.11154223 -38.058296 -24.518177 -122.87388
190819000 -24.258984 -132.99377 -0.11353146 -38.255772 -0.11180518 -38.255558 -24.487036 -122.80496
191818000 -24.224798 -133.15965 -0.11446688 -38.451149 -0.11341667 -38.449444 -24.453091 -122.69558
192817000 -24.15901 -133.48138 -0.11495168 -38.633827 -0.113849 -38.635395 -24.384699 -122.79406
193816000 -24.122005 -133.82864 -0.11420961 -38.827431 -0.11265893 -38.82991 -24.331419 -123.04073
194815000 -24.069098 -134.25308 -0.11413361 -39.024559 -0.11307445 -39.029144 -24.270515 -123.18145
195814000 -24.014231 -134.49284 -0.1146213 -39.221233 -0.11306594 -39.220806 -24.21427 -123.27441
196813000 -23.957375 -134.82625 -0.11398373 -39.411247 -0.11339116 -39.418674 -24.141003 -123.44937
197812000 -23.90131 -135.07878 -0.11414052 -39.615406 -0.11315628 -39.614822 -24.073662 -123.56824
198811000 -23.853428 -135.24643 -0.114039 -39.809845 -0.11332048 -39.816669 -24.005482 -123.75095
199810000 -23.784189 -135.66104 -0.11405362 -40.008896 -0.112694 -40.001003 -23.925207 -123.86181
200809000 -23.725063 -135.91754 -0.11459498 -40.201973 -0.11322696 -40.202461 -23.845133 -124.05717
201808000 -23.672043 -136.1499 -0.11569386 -40.404583 -0.11451419 -40.408062 -23.776966 -124.11533
202807000 -23.610916 -136.48634 -0.11646064 -40.602283 -0.11430635 -40.609638 -23.721933 -124.32667
203806000 -23.561228 -136.93523 -0.11754642 -40.804111 -0.1151606 -40.805717 -23.659048 -124.50398
