!Keysight Technologies,E5080B,MY59205177,A.15.75.32
!Date: Friday, February 23, 2024 03:42:59
!Correction: S11(Cdelta 2-Port  ) 
!S21(Cdelta 2-Port  ) 
!S12(Cdelta 2-Port  ) 
!S22(Cdelta 2-Port  ) 
!S2P File: Measurements: S11, S21, S12, S22:
# Hz S  dB   R 50
10000000 -46.055199 -2.8002558 -0.014319106 -2.0387931 -0.018675145 -2.0982654 -45.904915 -157.1619
10999000 -45.286037 -4.7490311 -0.015755046 -2.2610345 -0.018082703 -2.31301 -45.776646 -151.21901
11998000 -44.386051 -7.4923811 -0.016027585 -2.4852562 -0.017480204 -2.5291643 -45.999996 -146.75835
12997000 -43.593937 -13.460804 -0.015454207 -2.6651413 -0.0173344 -2.6956642 -45.543739 -140.93831
13996000 -43.285843 -17.399902 -0.013791917 -2.8465009 -0.017840445 -2.8681014 -45.408993 -136.16917
14995000 -42.896358 -21.997347 -0.016186336 -3.0524168 -0.017368186 -3.0788283 -45.052769 -132.74478
15994000 -42.758026 -26.50144 -0.017918684 -3.2736495 -0.019544069 -3.2954805 -44.928177 -129.43257
16993000 -42.692783 -31.053728 -0.016484886 -3.4721143 -0.018935908 -3.4807532 -44.105717 -129.10684
17992000 -42.711178 -36.532082 -0.017101539 -3.6706488 -0.020162197 -3.675709 -43.533375 -129.30373
18991000 -42.943039 -41.723797 -0.017692029 -3.8807948 -0.020692501 -3.879209 -42.860466 -127.91476
19990000 -42.654804 -47.578518 -0.020393401 -4.0897231 -0.022553626 -4.0870967 -42.227116 -128.84488
20989000 -42.547882 -51.25098 -0.023332236 -4.2913208 -0.024474643 -4.2803206 -41.66713 -128.2021
21988000 -42.316128 -56.321251 -0.023721855 -4.4899111 -0.024573045 -4.4778318 -41.405228 -127.42754
22987000 -42.003269 -61.095135 -0.024845097 -4.6856208 -0.026920021 -4.6767712 -41.135609 -126.9661
23986000 -41.89938 -64.947372 -0.024429606 -4.8827219 -0.024786782 -4.8819351 -41.008415 -126.76318
24985000 -41.503452 -67.817039 -0.02510467 -5.0917339 -0.025756139 -5.0869651 -40.848434 -124.32053
25984000 -41.122513 -69.931381 -0.026535846 -5.2956252 -0.025692081 -5.2960763 -40.452507 -122.71188
26983000 -40.857063 -71.729599 -0.027578536 -5.4966774 -0.027292768 -5.5123057 -40.369797 -122.11365
27982000 -40.680111 -72.554184 -0.028108444 -5.6973381 -0.028799191 -5.7300701 -40.091644 -120.49317
28981000 -40.635914 -74.326538 -0.026150402 -5.8947721 -0.02847087 -5.9179158 -39.834007 -119.67817
29980000 -40.22287 -75.44651 -0.026263166 -6.0894938 -0.027877351 -6.0926404 -39.604992 -118.94738
30979000 -39.839203 -74.577515 -0.024254676 -6.4435854 -0.023540705 -6.4316764 -39.091137 -119.41239
31978000 -39.627502 -75.400879 -0.023088126 -6.6384034 -0.024346566 -6.6279798 -38.840546 -118.7238
32977000 -39.446247 -76.978577 -0.023343688 -6.8471746 -0.024691237 -6.8428602 -38.620895 -118.60294
33976000 -39.255859 -77.929062 -0.024085218 -7.0478072 -0.025374932 -7.0423946 -38.344456 -118.13278
34975000 -38.9683 -78.715729 -0.024157582 -7.2467828 -0.026189726 -7.2482214 -38.106487 -117.77947
35974000 -38.797295 -79.328468 -0.023174265 -7.4436903 -0.025882956 -7.448328 -37.82531 -116.93529
36973000 -38.557018 -80.002403 -0.023617744 -7.6406298 -0.026357444 -7.6472797 -37.560734 -116.00873
37972000 -38.387665 -79.739273 -0.023795774 -7.8524165 -0.026260301 -7.8625407 -37.358582 -115.31411
38971000 -38.05481 -79.337311 -0.02465505 -8.0577545 -0.027028637 -8.067482 -37.191975 -113.65608
39970000 -37.735832 -79.442352 -0.023516241 -8.2504616 -0.025715778 -8.2660675 -36.926865 -113.12292
40969000 -37.450298 -79.259537 -0.023583129 -8.4421625 -0.025381181 -8.4642143 -36.698963 -111.67802
41968000 -37.115177 -79.173187 -0.023496721 -8.6473503 -0.025826188 -8.667037 -36.5158 -110.48457
42967000 -36.847931 -79.136185 -0.023141475 -8.8620729 -0.026767127 -8.8738079 -36.318153 -108.72724
43966000 -36.551277 -79.845352 -0.024152115 -9.0586262 -0.027003111 -9.077817 -36.046654 -107.90647
44965000 -36.31559 -80.508919 -0.024348648 -9.2627401 -0.027468342 -9.281642 -35.840515 -107.7769
45964000 -36.093517 -81.638596 -0.02639156 -9.4670124 -0.029195555 -9.4874392 -35.613747 -107.55177
46963000 -35.891014 -83.5252 -0.025888424 -9.6584063 -0.029025903 -9.6792593 -35.440849 -107.59323
47962000 -35.735233 -84.8619 -0.027033325 -9.8555956 -0.030427612 -9.877285 -35.241673 -107.68066
48961000 -35.519154 -86.145905 -0.029604986 -10.056941 -0.031839423 -10.079008 -35.008057 -107.82418
49960000 -35.288502 -87.574417 -0.030492002 -10.256546 -0.032633524 -10.280119 -34.886333 -107.92632
50959000 -35.047684 -88.8032 -0.031116905 -10.470001 -0.034483857 -10.479058 -34.690556 -108.18418
51958000 -34.8498 -89.857574 -0.033210218 -10.668264 -0.035791803 -10.678926 -34.508522 -108.65319
52957000 -34.627659 -90.917244 -0.034525868 -10.865794 -0.036399718 -10.877629 -34.35257 -108.46922
53956000 -34.45425 -91.577972 -0.036083613 -11.071323 -0.037651055 -11.072994 -34.21331 -108.4119
54955000 -34.289871 -92.062317 -0.036256671 -11.268649 -0.037649225 -11.268776 -34.069511 -108.39592
55954000 -34.118465 -92.883713 -0.037956309 -11.467237 -0.038427155 -11.466288 -33.958096 -108.02141
56953000 -34.00642 -92.888847 -0.036961246 -11.66884 -0.037656277 -11.657915 -33.880718 -108.26971
57952000 -33.837032 -93.417427 -0.039226901 -11.86576 -0.038273856 -11.859104 -33.782978 -108.32578
58951000 -33.709995 -93.834686 -0.040023137 -12.071842 -0.039898518 -12.052114 -33.624126 -108.41174
59950000 -33.578262 -94.219017 -0.040044297 -12.270694 -0.040344495 -12.250758 -33.560009 -108.64393
60949000 -33.462414 -94.730835 -0.040037766 -12.473709 -0.041290674 -12.452653 -33.458824 -108.97997
61948000 -33.40102 -95.025795 -0.04116001 -12.674004 -0.041000083 -12.657868 -33.36264 -109.06718
62947000 -33.309818 -95.343231 -0.041153479 -12.883448 -0.041496087 -12.867088 -33.220322 -109.28523
63946000 -33.229481 -96.023094 -0.041652374 -13.084318 -0.042567473 -13.064856 -33.117252 -109.41193
64945000 -33.121475 -96.22364 -0.042599104 -13.286031 -0.042985748 -13.266592 -33.000774 -109.95491
65944000 -33.013657 -96.453751 -0.043283273 -13.483764 -0.042937383 -13.468596 -32.900276 -110.29586
66943000 -32.876568 -96.838715 -0.041213322 -13.685258 -0.041551232 -13.670236 -32.806511 -110.62669
67942000 -32.813675 -96.8899 -0.043244313 -13.878367 -0.04334053 -13.871563 -32.68507 -110.88717
68941000 -32.695026 -96.919556 -0.042743929 -14.073606 -0.042160738 -14.064791 -32.57193 -110.79007
69940000 -32.610466 -96.882133 -0.043509431 -14.274386 -0.043536104 -14.267678 -32.423916 -111.17048
70939000 -32.504822 -96.873047 -0.042975552 -14.470078 -0.043186013 -14.467637 -32.30394 -110.9838
71938000 -32.361835 -96.40818 -0.042386319 -14.66589 -0.0435999 -14.661176 -32.16848 -110.96262
72937000 -32.208351 -96.251495 -0.042488266 -14.867496 -0.042805884 -14.858815 -32.035538 -110.60465
73936000 -32.073269 -95.902611 -0.04179978 -15.067291 -0.04175378 -15.058329 -31.917074 -110.38914
74935000 -31.947916 -96.093597 -0.041605331 -15.260832 -0.041808929 -15.256248 -31.763626 -110.02978
75934000 -31.816401 -96.379486 -0.041947454 -15.470589 -0.040615968 -15.461825 -31.670912 -109.99253
76933000 -31.698477 -96.723846 -0.043355431 -15.664616 -0.042601455 -15.659699 -31.504091 -110.29731
77932000 -31.59017 -97.473351 -0.043341573 -15.862017 -0.04420865 -15.856795 -31.40362 -110.30306
78931000 -31.5219 -98.263832 -0.041904852 -16.062412 -0.043498453 -16.059196 -31.307333 -110.11389
79930000 -31.400976 -99.074059 -0.044750527 -16.254423 -0.046353545 -16.255711 -31.213428 -110.43275
80929000 -31.287304 -99.814751 -0.04685932 -16.4499 -0.04723483 -16.447281 -31.112028 -110.68929
81928000 -31.195208 -100.53816 -0.047262568 -16.642035 -0.047807448 -16.639921 -30.986946 -110.68504
82927000 -31.096991 -101.24833 -0.04874374 -16.840551 -0.04883955 -16.836885 -30.875332 -110.94468
83926000 -30.98093 -102.02809 -0.049749881 -17.039108 -0.050300308 -17.042063 -30.753315 -111.15099
84925000 -30.872589 -102.2976 -0.050336707 -17.237894 -0.050106261 -17.236526 -30.664707 -111.15567
85924000 -30.779278 -102.80423 -0.0509299 -17.43898 -0.05169528 -17.437462 -30.584511 -111.14968
86923000 -30.670277 -103.30917 -0.0521257 -17.639498 -0.051817879 -17.634315 -30.485085 -111.07387
87922000 -30.555197 -103.61652 -0.051258091 -17.847343 -0.051526841 -17.836359 -30.393654 -111.08392
88921000 -30.485321 -103.86346 -0.052669875 -18.041582 -0.052400269 -18.040676 -30.303097 -111.05439
89920000 -30.376215 -104.36648 -0.053058468 -18.238918 -0.05339599 -18.234558 -30.251923 -111.18623
90919000 -30.284016 -104.64612 -0.052940287 -18.437712 -0.053831819 -18.43071 -30.16786 -111.38702
91918000 -30.186056 -105.01303 -0.054371756 -18.634466 -0.054150008 -18.632704 -30.096386 -111.40351
92917000 -30.096201 -105.27806 -0.055865318 -18.836176 -0.055110212 -18.833706 -30.023888 -111.49197
93916000 -30.011927 -105.6357 -0.05486431 -19.028015 -0.054949772 -19.027136 -29.941166 -112.07748
94915000 -29.929052 -106.29655 -0.056837179 -19.230713 -0.056093447 -19.226803 -29.884277 -112.01021
95914000 -29.859644 -106.50728 -0.057625372 -19.427256 -0.057560317 -19.423014 -29.791973 -112.25681
96913000 -29.781033 -106.6655 -0.059072554 -19.626234 -0.058130361 -19.621614 -29.725422 -112.54343
97912000 -29.696951 -107.18332 -0.060183194 -19.818962 -0.058168139 -19.82235 -29.648188 -112.7987
98911000 -29.592739 -107.29767 -0.06015012 -20.02253 -0.059532311 -20.02297 -29.6035 -113.03783
99910000 -29.526434 -107.40347 -0.061302517 -20.224045 -0.059806038 -20.222292 -29.499809 -113.35085
100909000 -29.433727 -107.68985 -0.060326505 -20.43111 -0.059206646 -20.424046 -29.420525 -113.47224
101908000 -29.347345 -107.90533 -0.061363425 -20.631649 -0.060596604 -20.628084 -29.300909 -113.29055
102907000 -29.210718 -107.88889 -0.061395194 -20.830873 -0.061051536 -20.826071 -29.230858 -113.27426
103906000 -29.126259 -107.93155 -0.062057909 -21.038502 -0.059587158 -21.032457 -29.09293 -113.2173
104905000 -28.978716 -107.87671 -0.062963396 -21.237234 -0.060742032 -21.235086 -28.963795 -112.93612
105904000 -28.842619 -107.91883 -0.063647099 -21.437546 -0.061145522 -21.430347 -28.858065 -112.77492
106903000 -28.724882 -108.00052 -0.063100234 -21.646276 -0.061251584 -21.638069 -28.734451 -112.74474
107902000 -28.566244 -108.31546 -0.063604549 -21.840763 -0.062137734 -21.835476 -28.590122 -112.66238
108901000 -28.457178 -108.54305 -0.064606518 -22.044697 -0.062915072 -22.039333 -28.464886 -112.60109
109900000 -28.334381 -109.01548 -0.065513067 -22.245604 -0.06434878 -22.237896 -28.322952 -112.64983
110899000 -28.213692 -109.60816 -0.067223407 -22.443249 -0.064680353 -22.432348 -28.192781 -112.9212
111898000 -28.123177 -110.26929 -0.068201497 -22.645653 -0.066087835 -22.640701 -28.078346 -113.04683
112897000 -27.99551 -110.83335 -0.069862381 -22.843527 -0.066922925 -22.834236 -27.946449 -113.26628
113896000 -27.894459 -111.41868 -0.070642948 -23.046177 -0.068576485 -23.031261 -27.838993 -113.37711
114895000 -27.790348 -112.0098 -0.071627855 -23.241247 -0.069769002 -23.229942 -27.728971 -113.39226
115894000 -27.670252 -112.38165 -0.073162906 -23.444674 -0.070667416 -23.432425 -27.660555 -113.64587
116893000 -27.590048 -112.85162 -0.073228456 -23.639498 -0.071642861 -23.625036 -27.528004 -113.68108
117892000 -27.508854 -113.31375 -0.07270091 -23.838543 -0.071878664 -23.826735 -27.458311 -113.91355
118891000 -27.448126 -113.75211 -0.074035957 -24.036404 -0.072185799 -24.025539 -27.363455 -113.98882
119890000 -27.360987 -114.10021 -0.074949212 -24.239603 -0.072831742 -24.224407 -27.350609 -114.15552
120889000 -27.310116 -114.57426 -0.075356923 -24.438688 -0.073163956 -24.425735 -27.284386 -114.09399
121888000 -27.272806 -114.94096 -0.076158226 -24.635853 -0.073649958 -24.624559 -27.224392 -114.38239
122887000 -27.237198 -115.09773 -0.077138335 -24.835381 -0.074114159 -24.825813 -27.178005 -114.37592
123886000 -27.182526 -115.54436 -0.077357829 -25.041483 -0.074776448 -25.023972 -27.16239 -114.51131
124885000 -27.146364 -116.04977 -0.077766821 -25.239067 -0.075439095 -25.225311 -27.130825 -114.58862
125884000 -27.095844 -116.25128 -0.07816346 -25.440096 -0.075374834 -25.425528 -27.101679 -114.74825
126883000 -27.073805 -116.62044 -0.079016954 -25.643314 -0.07616692 -25.628845 -27.066488 -114.70426
127882000 -27.02533 -116.91212 -0.079194374 -25.841635 -0.077110134 -25.824514 -27.023718 -114.88428
128881000 -26.99744 -117.24409 -0.079269506 -26.044365 -0.076536283 -26.027571 -26.985451 -114.97042
129880000 -26.940775 -117.55966 -0.079758301 -26.247076 -0.07683479 -26.228113 -26.94631 -114.883
130879000 -26.880875 -117.72559 -0.079738788 -26.443857 -0.07764823 -26.429195 -26.873522 -114.91041
131878000 -26.820271 -117.91171 -0.08014378 -26.649094 -0.077702254 -26.632746 -26.814713 -114.79162
132877000 -26.756687 -118.00157 -0.079374693 -26.84926 -0.077737041 -26.828835 -26.734304 -114.77467
133876000 -26.671234 -118.1583 -0.080322824 -27.051147 -0.077685386 -27.032564 -26.650852 -114.66796
134875000 -26.578762 -118.25095 -0.080508471 -27.248491 -0.078508742 -27.233149 -26.553398 -114.47021
135874000 -26.498228 -118.31451 -0.080627665 -27.446608 -0.078712761 -27.435228 -26.459272 -114.46396
136873000 -26.38559 -118.22036 -0.080617644 -27.651327 -0.078813717 -27.631063 -26.376268 -114.42029
137872000 -26.307863 -118.35384 -0.08099819 -27.854338 -0.078787357 -27.838751 -26.282064 -114.34164
138871000 -26.23436 -118.59252 -0.081207603 -28.054104 -0.079349913 -28.034338 -26.180765 -114.46906
139870000 -26.135983 -118.87261 -0.081639372 -28.253208 -0.079956047 -28.234079 -26.105688 -114.68819
140869000 -26.058157 -119.42593 -0.082755275 -28.45125 -0.080419071 -28.435474 -26.003157 -114.85255
141868000 -25.981157 -119.80077 -0.083961718 -28.650475 -0.081814788 -28.635744 -25.95845 -115.1263
142867000 -25.894215 -119.97711 -0.082151912 -28.8463 -0.080807783 -28.83102 -25.873495 -115.21069
143866000 -25.829243 -120.48521 -0.084305607 -29.043665 -0.082171433 -29.028717 -25.803425 -115.69636
144865000 -25.771889 -120.96853 -0.085732669 -29.241194 -0.083640546 -29.227421 -25.749447 -116.00143
145864000 -25.713018 -121.31194 -0.086020462 -29.443542 -0.084798396 -29.432283 -25.712278 -116.21802
146863000 -25.669771 -121.65094 -0.087046899 -29.643127 -0.085255079 -29.631687 -25.666891 -116.54179
147862000 -25.632915 -121.99619 -0.087989047 -29.841595 -0.086102575 -29.831203 -25.63649 -116.84937
148861000 -25.598042 -122.41525 -0.088395864 -30.039619 -0.08730863 -30.022486 -25.609911 -116.98238
149860000 -25.567612 -122.6367 -0.089559481 -30.23484 -0.088142261 -30.224075 -25.559303 -117.08469
150859000 -25.540773 -123.07833 -0.089771949 -30.430849 -0.087600224 -30.416941 -25.538887 -117.44618
151858000 -25.52919 -123.42953 -0.089234725 -30.629988 -0.087815233 -30.61396 -25.529903 -117.82748
152857000 -25.518156 -123.73978 -0.08936394 -30.827374 -0.08749193 -30.816595 -25.512812 -118.00359
153856000 -25.513527 -123.96606 -0.089159422 -31.030329 -0.086882889 -31.01688 -25.529222 -118.30716
154855000 -25.510822 -124.14403 -0.089003526 -31.228662 -0.086271301 -31.217516 -25.515575 -118.51134
155854000 -25.526346 -124.35996 -0.089581154 -31.428108 -0.087680519 -31.414442 -25.510824 -118.84009
156853000 -25.512814 -125.06396 -0.087415598 -31.617678 -0.086653665 -31.610157 -25.501928 -119.14623
157852000 -25.513313 -125.27618 -0.088521622 -31.82192 -0.088255852 -31.807219 -25.489264 -119.47602
158851000 -25.517916 -125.4902 -0.089288898 -32.011669 -0.088252418 -32.007034 -25.475676 -119.76019
159850000 -25.500395 -125.60293 -0.089598589 -32.214565 -0.088678554 -32.206261 -25.476831 -119.93044
160849000 -25.487749 -125.7012 -0.089181349 -32.415421 -0.089400142 -32.409374 -25.444473 -120.23906
161848000 -25.469149 -125.77103 -0.090440065 -32.61615 -0.089536756 -32.608749 -25.407598 -120.32705
162847000 -25.423353 -125.94303 -0.09035866 -32.813877 -0.089920729 -32.810471 -25.377367 -120.59397
163846000 -25.386925 -126.13792 -0.090167306 -33.014706 -0.0902014 -33.00589 -25.303164 -120.5752
164845000 -25.331686 -126.13421 -0.090827025 -33.210991 -0.090548433 -33.206963 -25.237722 -120.68177
165844000 -25.284746 -126.15309 -0.091189176 -33.417725 -0.091144763 -33.407356 -25.158569 -120.8177
166843000 -25.217342 -126.17606 -0.090792663 -33.612022 -0.090638563 -33.609467 -25.093615 -120.9996
167842000 -25.156912 -126.31484 -0.091685653 -33.80751 -0.091255262 -33.805279 -25.014914 -120.90618
168841000 -25.083755 -126.48161 -0.091418371 -34.012749 -0.09099488 -34.008175 -24.939968 -121.00116
169840000 -25.020117 -126.69866 -0.091879718 -34.203915 -0.092021696 -34.205013 -24.863205 -121.147
170839000 -24.962261 -126.95373 -0.092272624 -34.40461 -0.092354856 -34.405418 -24.782738 -121.2962
171838000 -24.898178 -127.31509 -0.092484958 -34.606148 -0.093055904 -34.60144 -24.714012 -121.54961
172837000 -24.830212 -127.69456 -0.093550481 -34.804718 -0.093705483 -34.799171 -24.651169 -121.75833
173836000 -24.763781 -128.0461 -0.095136695 -35.001553 -0.094856761 -35.003212 -24.611589 -121.98785
174835000 -24.713135 -128.47604 -0.095194906 -35.198341 -0.095305502 -35.198982 -24.567629 -122.27003
175834000 -24.659176 -128.8214 -0.095948011 -35.400517 -0.096607812 -35.396126 -24.508682 -122.50668
176833000 -24.610678 -129.16914 -0.09716209 -35.59861 -0.097523443 -35.598759 -24.458094 -122.70151
177832000 -24.565552 -129.55887 -0.098165751 -35.796844 -0.097912893 -35.795658 -24.438255 -122.78122
178831000 -24.517908 -129.82199 -0.099896677 -35.990215 -0.10020952 -35.989662 -24.399168 -122.85273
179830000 -24.448792 -130.23718 -0.10103583 -36.177345 -0.099838935 -36.179569 -24.339806 -122.95435
180829000 -24.395826 -130.57651 -0.10002594 -36.371002 -0.099639483 -36.371376 -24.292257 -123.24851
181828000 -24.376451 -131.01086 -0.099649817 -36.572403 -0.098719701 -36.568031 -24.27387 -123.46957
182827000 -24.355789 -131.37704 -0.099547312 -36.763702 -0.099120639 -36.767574 -24.2633 -123.58654
183826000 -24.314009 -131.70042 -0.099941708 -36.962288 -0.099170431 -36.962021 -24.255423 -123.74173
184825000 -24.318184 -132.0564 -0.099857479 -37.163063 -0.099411175 -37.164726 -24.235758 -123.84528
185824000 -24.287748 -132.40739 -0.099327751 -37.361507 -0.10031018 -37.358677 -24.227453 -123.92813
186823000 -24.273695 -132.7668 -0.099454872 -37.559315 -0.099693783 -37.560452 -24.22242 -123.94268
187822000 -24.250404 -133.12753 -0.10027283 -37.753838 -0.10071153 -37.753979 -24.18605 -124.00766
188821000 -24.227835 -133.34442 -0.10035707 -37.950352 -0.10091235 -37.954964 -24.166897 -124.14774
189820000 -24.209345 -133.6667 -0.10039575 -38.149235 -0.1003078 -38.149014 -24.147806 -124.35326
190819000 -24.172926 -133.98851 -0.10085752 -38.347107 -0.10095952 -38.344196 -24.114311 -124.39773
191818000 -24.146908 -134.26189 -0.1014142 -38.545242 -0.10113386 -38.546543 -24.085194 -124.39608
192817000 -24.10174 -134.53441 -0.10158272 -38.739567 -0.10131827 -38.744862 -24.040611 -124.49329
193816000 -24.071144 -134.7869 -0.10188375 -38.937469 -0.10115161 -38.942207 -23.990156 -124.62963
194815000 -24.010553 -135.17647 -0.10174012 -39.131435 -0.10248271 -39.134144 -23.92523 -124.66615
195814000 -23.955162 -135.37343 -0.10341708 -39.331944 -0.10259164 -39.337437 -23.870274 -124.78728
196813000 -23.901344 -135.69952 -0.10291792 -39.524719 -0.10217315 -39.528439 -23.793831 -124.9265
197812000 -23.841095 -135.90732 -0.10351092 -39.722443 -0.10286014 -39.719585 -23.72525 -125.02422
198811000 -23.793573 -136.08089 -0.10335637 -39.9216 -0.10259561 -39.921669 -23.656284 -125.19327
199810000 -23.720284 -136.40817 -0.1030441 -40.1133 -0.10211114 -40.111301 -23.580959 -125.2594
200809000 -23.66671 -136.68256 -0.1036896 -40.310959 -0.10269527 -40.309063 -23.505224 -125.4342
201808000 -23.605398 -136.84984 -0.10485785 -40.51123 -0.10383251 -40.517227 -23.438488 -125.51054
202807000 -23.550047 -137.19672 -0.10474993 -40.71236 -0.1041724 -40.715897 -23.384993 -125.70989
