!Keysight Technologies,E5080B,MY59205177,A.15.75.32
!Date: Friday, February 23, 2024 03:04:48
!Correction: S11(Cdelta 2-Port  ) 
!S21(Cdelta 2-Port  ) 
!S12(Cdelta 2-Port  ) 
!S22(Cdelta 2-Port  ) 
!S2P File: Measurements: S11, S21, S12, S22:
# Hz S  dB   R 50
10000000 -44.219398 -3.7368016 -0.026822867 -2.038482 -0.029996991 -2.0910482 -48.001984 -151.02698
10999000 -43.547653 -5.2507062 -0.027716087 -2.2524309 -0.029739734 -2.3097644 -47.663506 -142.61893
11998000 -42.820496 -8.1028013 -0.028856259 -2.4804389 -0.029290676 -2.5227277 -47.815758 -138.10013
12997000 -42.153263 -12.996289 -0.027942743 -2.6578567 -0.028967271 -2.6902287 -47.137691 -131.44734
13996000 -41.901882 -16.220762 -0.027326111 -2.8354549 -0.029411342 -2.8574781 -46.705963 -125.77689
14995000 -41.590328 -19.946594 -0.029272433 -3.0437264 -0.029434016 -3.0686378 -46.306881 -122.34267
15994000 -41.447189 -23.864748 -0.030038174 -3.2631533 -0.031435777 -3.2846017 -46.06493 -119.04804
16993000 -41.467403 -27.946302 -0.029575273 -3.4620306 -0.030705506 -3.4677958 -45.139523 -119.7662
17992000 -41.521893 -32.664036 -0.030135401 -3.6581764 -0.031280641 -3.6612556 -44.509106 -120.31205
18991000 -41.783722 -37.171021 -0.031249093 -3.8665655 -0.031956248 -3.8633711 -43.820415 -119.59611
19990000 -41.64418 -42.329845 -0.033282474 -4.0758228 -0.034193199 -4.0714717 -43.133503 -121.34659
20989000 -41.534718 -45.321075 -0.035665479 -4.2807856 -0.035741691 -4.2697597 -42.564655 -121.04498
21988000 -41.437531 -50.040363 -0.036016792 -4.4738512 -0.036944278 -4.4650226 -42.308926 -120.35104
22987000 -41.234138 -54.297054 -0.037200656 -4.6747518 -0.037919227 -4.666429 -41.9786 -120.00034
23986000 -41.217285 -58.082706 -0.036957331 -4.8668551 -0.036634918 -4.8671713 -41.887424 -120.1464
24985000 -40.889343 -60.655647 -0.037612673 -5.0786347 -0.03686909 -5.0741229 -41.622166 -117.5585
25984000 -40.594139 -62.735432 -0.038661942 -5.284349 -0.037116326 -5.2868433 -41.235069 -116.26987
26983000 -40.325298 -64.579918 -0.039443448 -5.4825616 -0.038219798 -5.4968324 -41.163204 -115.36057
27982000 -40.219479 -65.633018 -0.041141979 -5.6785541 -0.040290933 -5.7166858 -40.843781 -114.1691
28981000 -40.172752 -66.835831 -0.038508635 -5.8806238 -0.039907403 -5.900013 -40.581181 -113.49912
29980000 -39.796104 -68.315613 -0.038624074 -6.0708647 -0.03993379 -6.0764132 -40.277622 -112.39529
30979000 -39.440578 -67.61322 -0.036095358 -6.4247246 -0.034896135 -6.4153924 -39.791355 -113.21869
31978000 -39.270081 -68.811989 -0.035926741 -6.6173906 -0.036429476 -6.6080451 -39.544144 -112.70646
32977000 -39.086933 -70.401726 -0.036353774 -6.8275247 -0.036775108 -6.8261623 -39.285931 -112.91125
33976000 -38.937794 -71.540504 -0.036481161 -7.0291572 -0.037464883 -7.0223145 -38.979843 -112.3236
34975000 -38.679024 -72.442963 -0.036016792 -7.2270412 -0.038026031 -7.2260098 -38.748447 -112.24147
35974000 -38.478432 -73.045166 -0.035522457 -7.4229269 -0.037552357 -7.4242158 -38.451958 -111.51747
36973000 -38.252529 -74.101669 -0.035829648 -7.623682 -0.038494796 -7.6280365 -38.158752 -110.63524
37972000 -38.097389 -73.993835 -0.035216853 -7.8333163 -0.038304672 -7.8365202 -37.911655 -109.96732
38971000 -37.778992 -73.785652 -0.036676425 -8.0276566 -0.038189504 -8.0444555 -37.721882 -108.60759
39970000 -37.455738 -74.333504 -0.035158917 -8.229598 -0.037930977 -8.2434263 -37.446899 -108.08452
40969000 -37.16814 -74.144882 -0.035569955 -8.4203453 -0.037035655 -8.4407215 -37.185658 -106.91739
41968000 -36.848198 -74.255188 -0.035671744 -8.6221037 -0.038116124 -8.6481333 -36.966988 -105.76806
42967000 -36.583424 -74.654694 -0.035700191 -8.8333807 -0.038153205 -8.856905 -36.761562 -103.93359
43966000 -36.297749 -75.493973 -0.036454536 -9.0356998 -0.039156634 -9.0539465 -36.467007 -103.39783
44965000 -36.062496 -76.297745 -0.036771454 -9.2347202 -0.039820667 -9.2572641 -36.22337 -103.44176
45964000 -35.858315 -77.556419 -0.038155295 -9.4401655 -0.04023711 -9.457262 -35.99675 -103.09198
46963000 -35.687542 -79.413063 -0.038109593 -9.6306791 -0.040695664 -9.6531849 -35.808556 -103.56764
47962000 -35.532425 -80.999352 -0.039220892 -9.8304586 -0.04214976 -9.8490086 -35.597771 -103.83221
48961000 -35.322269 -82.42981 -0.04148642 -10.029426 -0.043846738 -10.05056 -35.358936 -104.00544
49960000 -35.117867 -83.923286 -0.042549696 -10.228607 -0.044813558 -10.250644 -35.227531 -104.15942
50959000 -34.916035 -85.333954 -0.043706059 -10.439766 -0.046115462 -10.45002 -35.046772 -104.5326
51958000 -34.719368 -86.346725 -0.045142855 -10.638405 -0.04679469 -10.649309 -34.880028 -105.11276
52957000 -34.505257 -87.518425 -0.046677202 -10.837688 -0.048642691 -10.846159 -34.711239 -104.92083
53956000 -34.346176 -88.237045 -0.047798809 -11.040178 -0.049549837 -11.042315 -34.561111 -105.00603
54955000 -34.186783 -88.683884 -0.048566777 -11.242711 -0.049959358 -11.237079 -34.412762 -104.93184
55954000 -34.023964 -89.589119 -0.049669757 -11.440709 -0.049871638 -11.436698 -34.311844 -104.68716
56953000 -33.917294 -89.652336 -0.048856828 -11.639714 -0.049159467 -11.625621 -34.238956 -104.99053
57952000 -33.759155 -90.236725 -0.050668258 -11.831543 -0.050955046 -11.824402 -34.130512 -104.99799
58951000 -33.628613 -90.605667 -0.050578166 -12.038963 -0.050793707 -12.018843 -33.995792 -105.12177
59950000 -33.513355 -91.030304 -0.052536249 -12.23634 -0.051799539 -12.220883 -33.917755 -105.43514
60949000 -33.419472 -91.573441 -0.052845169 -12.4387 -0.052411534 -12.415379 -33.830414 -105.65714
61948000 -33.35902 -91.797241 -0.053123191 -12.635712 -0.052553017 -12.62103 -33.737167 -105.74232
62947000 -33.27626 -92.037743 -0.053077072 -12.848634 -0.053002916 -12.830328 -33.602196 -106.13694
63946000 -33.201794 -92.751091 -0.054236505 -13.046068 -0.053516541 -13.028141 -33.497894 -106.24101
64945000 -33.10627 -92.878952 -0.054349739 -13.246983 -0.054170191 -13.229141 -33.388077 -106.66364
65944000 -33.000629 -93.240303 -0.055459172 -13.446505 -0.05440085 -13.431067 -33.291553 -107.19674
66943000 -32.860054 -93.664581 -0.053282518 -13.651719 -0.052932166 -13.632798 -33.198357 -107.48672
67942000 -32.810535 -93.620293 -0.055435311 -13.843242 -0.05474975 -13.832958 -33.067146 -107.76456
68941000 -32.692337 -93.866852 -0.054649353 -14.037513 -0.054170713 -14.031578 -32.970448 -107.75536
69940000 -32.607887 -93.861008 -0.05517995 -14.233883 -0.054758664 -14.227938 -32.828171 -108.08297
70939000 -32.501698 -93.82296 -0.055003777 -14.431948 -0.054818172 -14.421912 -32.695957 -107.98682
71938000 -32.358253 -93.431152 -0.055441078 -14.629109 -0.054202955 -14.622585 -32.561199 -107.92222
72937000 -32.203274 -93.297638 -0.054592207 -14.828356 -0.053952646 -14.818931 -32.428173 -107.66835
73936000 -32.062107 -93.059822 -0.054309111 -15.022952 -0.052449003 -15.019241 -32.307487 -107.5325
74935000 -31.936316 -93.284966 -0.053255264 -15.219518 -0.052120723 -15.216805 -32.15353 -107.19863
75934000 -31.809992 -93.5811 -0.053920146 -15.433388 -0.052602276 -15.426334 -32.068909 -107.12698
76933000 -31.676842 -93.982704 -0.055043101 -15.619109 -0.053549036 -15.61375 -31.894156 -107.61036
77932000 -31.582237 -94.790939 -0.055783246 -15.819809 -0.055916972 -15.81014 -31.794603 -107.61003
78931000 -31.513439 -95.565392 -0.054443315 -16.016788 -0.055136167 -16.01029 -31.69832 -107.47535
79930000 -31.411171 -96.415047 -0.057331324 -16.206375 -0.057157159 -16.207029 -31.603453 -107.75387
80929000 -31.273573 -97.277412 -0.058268882 -16.403561 -0.058535706 -16.40358 -31.489225 -108.14531
81928000 -31.202402 -98.186302 -0.059262276 -16.594486 -0.059120838 -16.590811 -31.373707 -108.26425
82927000 -31.100712 -98.863197 -0.060256686 -16.795622 -0.060141198 -16.79446 -31.275639 -108.52256
83926000 -30.986927 -99.539444 -0.061635166 -16.990271 -0.060983017 -16.995636 -31.146463 -108.71994
84925000 -30.898258 -100.06126 -0.063157231 -17.192442 -0.061372355 -17.188438 -31.054611 -108.80457
85924000 -30.806286 -100.44022 -0.063244171 -17.389875 -0.062528223 -17.386765 -30.970175 -108.80528
86923000 -30.700161 -101.04929 -0.063745081 -17.587454 -0.062832601 -17.583742 -30.872326 -108.73219
87922000 -30.588041 -101.38303 -0.062937133 -17.793566 -0.063456662 -17.788021 -30.780828 -108.7793
88921000 -30.515648 -101.64791 -0.064556599 -17.994143 -0.064031951 -17.993526 -30.693394 -108.73913
89920000 -30.427515 -102.24617 -0.064968593 -18.189787 -0.064902902 -18.183695 -30.635971 -108.9757
90919000 -30.322138 -102.50586 -0.066630088 -18.382887 -0.064651452 -18.381784 -30.565947 -109.08877
91918000 -30.23473 -102.89145 -0.066920817 -18.587175 -0.065313607 -18.579119 -30.495121 -109.10523
92917000 -30.14782 -103.2849 -0.06811551 -18.785685 -0.066680558 -18.781395 -30.434744 -109.18279
93916000 -30.058245 -103.60713 -0.066907153 -18.97592 -0.066268928 -18.972309 -30.347178 -109.79127
94915000 -29.991606 -104.24862 -0.069300793 -19.176025 -0.06723918 -19.173887 -30.287516 -109.71959
95914000 -29.92811 -104.41405 -0.069950245 -19.371721 -0.068049774 -19.370293 -30.201139 -109.99279
96913000 -29.839952 -104.70585 -0.070861593 -19.574347 -0.06897071 -19.569378 -30.136356 -110.3203
97912000 -29.772469 -105.20916 -0.072141588 -19.767862 -0.068914168 -19.76792 -30.064108 -110.61696
98911000 -29.663879 -105.37546 -0.072931506 -19.967777 -0.070250146 -19.96744 -30.022839 -110.83173
99910000 -29.600311 -105.53338 -0.073559389 -20.164858 -0.071188129 -20.166832 -29.915689 -111.08616
100909000 -29.51873 -105.80416 -0.072626948 -20.375669 -0.070457987 -20.368122 -29.828693 -111.36039
101908000 -29.422832 -106.0765 -0.074457534 -20.57453 -0.071294181 -20.569288 -29.708349 -111.1199
102907000 -29.297079 -106.0837 -0.07448861 -20.770639 -0.071943671 -20.771587 -29.643181 -111.07055
103906000 -29.205839 -106.16412 -0.074046224 -20.97949 -0.071234442 -20.972223 -29.496769 -111.06049
104905000 -29.064754 -106.0845 -0.074994512 -21.175819 -0.072742239 -21.180359 -29.36548 -110.71761
105904000 -28.919661 -106.18866 -0.075315304 -21.378326 -0.071242079 -21.373123 -29.264931 -110.62819
106903000 -28.815161 -106.31918 -0.07542593 -21.58654 -0.072092108 -21.575201 -29.131529 -110.55311
107902000 -28.652973 -106.68213 -0.076339476 -21.785513 -0.072130002 -21.774948 -28.990515 -110.49387
108901000 -28.545053 -106.91475 -0.077136226 -21.988079 -0.074085459 -21.976625 -28.863279 -110.42533
109900000 -28.419689 -107.38978 -0.078789204 -22.1859 -0.074957639 -22.178364 -28.712379 -110.55315
110899000 -28.301714 -108.02024 -0.079612762 -22.380148 -0.075930625 -22.372555 -28.578245 -110.78765
111898000 -28.208433 -108.72839 -0.080266662 -22.583134 -0.076380312 -22.577621 -28.466438 -111.00558
112897000 -28.083693 -109.24127 -0.082273267 -22.781746 -0.07750883 -22.769955 -28.336277 -111.14349
113896000 -27.984095 -109.86093 -0.082623616 -22.983232 -0.079131104 -22.970186 -28.224724 -111.30063
114895000 -27.888556 -110.49053 -0.084117159 -23.180391 -0.080141671 -23.164911 -28.110424 -111.39149
115894000 -27.755009 -110.83458 -0.085053131 -23.380869 -0.081529118 -23.365002 -28.044142 -111.52216
116893000 -27.677469 -111.42703 -0.085712075 -23.573843 -0.082588531 -23.560129 -27.92186 -111.68519
117892000 -27.594093 -111.89986 -0.086236186 -23.772745 -0.08239831 -23.758436 -27.843454 -111.8354
118891000 -27.538097 -112.31384 -0.086596102 -23.974009 -0.083129153 -23.959467 -27.750401 -112.02299
119890000 -27.44523 -112.72654 -0.08651001 -24.172859 -0.083614416 -24.158199 -27.739635 -112.13332
120889000 -27.390982 -113.20076 -0.088152826 -24.370859 -0.084379509 -24.356939 -27.663685 -112.17449
121888000 -27.3545 -113.53068 -0.088845529 -24.569035 -0.084181033 -24.556801 -27.606218 -112.41204
122887000 -27.316261 -113.72966 -0.089561597 -24.769995 -0.085799202 -24.762222 -27.558094 -112.46925
123886000 -27.261528 -114.13244 -0.089656994 -24.975794 -0.086372703 -24.956114 -27.546083 -112.62531
124885000 -27.222712 -114.66298 -0.089805245 -25.16988 -0.086720482 -25.156269 -27.521248 -112.6815
125884000 -27.168699 -114.81204 -0.09096501 -25.371073 -0.086151421 -25.356594 -27.487101 -112.85579
126883000 -27.156666 -115.2201 -0.090876982 -25.572788 -0.086768016 -25.559515 -27.450148 -112.90848
127882000 -27.099113 -115.56093 -0.091410704 -25.772324 -0.087694257 -25.757792 -27.408777 -113.04182
128881000 -27.071648 -115.81242 -0.091038227 -25.975664 -0.087677352 -25.956347 -27.373934 -113.17508
129880000 -27.015175 -116.15388 -0.091997638 -26.174873 -0.087480307 -26.15687 -27.324095 -113.16329
130879000 -26.956055 -116.3012 -0.091647059 -26.371511 -0.088473536 -26.356169 -27.249962 -113.24909
131878000 -26.892513 -116.55755 -0.09201324 -26.577393 -0.088837601 -26.555233 -27.186432 -113.18573
132877000 -26.818779 -116.61058 -0.091973312 -26.775829 -0.088292837 -26.760653 -27.100849 -113.15887
133876000 -26.736765 -116.79036 -0.092171088 -26.974802 -0.088208035 -26.957882 -27.013699 -113.05605
134875000 -26.644585 -116.90571 -0.092710786 -27.17918 -0.089321658 -27.156765 -26.908386 -112.95837
135874000 -26.56286 -116.92799 -0.092417791 -27.376608 -0.089102082 -27.358006 -26.80847 -112.91705
136873000 -26.447206 -116.86364 -0.093094513 -27.57807 -0.088947512 -27.55891 -26.724922 -112.89639
137872000 -26.366232 -116.95271 -0.092854649 -27.779585 -0.089334875 -27.766169 -26.621691 -112.85902
138871000 -26.298582 -117.16559 -0.093686968 -27.974991 -0.089506105 -27.963051 -26.521111 -113.02603
139870000 -26.198429 -117.42435 -0.094696961 -28.178061 -0.090976112 -28.162352 -26.442087 -113.18797
140869000 -26.117529 -117.88464 -0.095807485 -28.374767 -0.092162631 -28.356041 -26.334047 -113.32541
141868000 -26.019594 -118.38648 -0.096142791 -28.567696 -0.092930548 -28.556057 -26.26712 -113.69695
142867000 -25.946911 -118.62309 -0.094954655 -28.76314 -0.091736421 -28.745182 -26.185461 -113.86777
143866000 -25.874329 -119.16972 -0.096373573 -28.961864 -0.092481256 -28.946568 -26.114954 -114.36692
144865000 -25.814842 -119.66702 -0.097979881 -29.158794 -0.093850434 -29.146551 -26.05768 -114.66444
145864000 -25.761454 -119.98611 -0.097842731 -29.358728 -0.095592342 -29.349104 -26.023539 -114.93778
146863000 -25.71209 -120.34706 -0.09905602 -29.557877 -0.095646858 -29.546846 -25.971355 -115.23043
147862000 -25.6766 -120.73987 -0.099903569 -29.757629 -0.095849298 -29.741653 -25.936319 -115.57961
148861000 -25.645594 -121.25941 -0.10001852 -29.954908 -0.096225895 -29.936989 -25.916376 -115.78957
149860000 -25.627451 -121.43284 -0.10019653 -30.149366 -0.097188301 -30.144627 -25.879971 -115.9873
150859000 -25.612072 -121.81835 -0.10065484 -30.351084 -0.097432904 -30.338314 -25.874283 -116.22298
151858000 -25.591742 -122.09026 -0.1009219 -30.553629 -0.097172946 -30.538254 -25.85903 -116.49347
152857000 -25.571632 -122.41727 -0.10099767 -30.745646 -0.097624838 -30.737574 -25.845718 -116.65954
153856000 -25.565626 -122.61964 -0.1014815 -30.947662 -0.096414335 -30.937462 -25.861723 -116.93164
154855000 -25.559351 -122.81335 -0.10140148 -31.143324 -0.097491674 -31.137016 -25.855364 -117.14258
155854000 -25.573277 -123.03162 -0.10171548 -31.344477 -0.097616635 -31.331537 -25.844284 -117.39299
156853000 -25.556114 -123.7691 -0.09973298 -31.531448 -0.097068384 -31.523697 -25.838491 -117.70506
157852000 -25.562906 -123.97351 -0.10074492 -31.733698 -0.098934203 -31.724806 -25.831881 -118.04
158851000 -25.558092 -124.21681 -0.101092 -31.934055 -0.099158779 -31.923775 -25.815073 -118.30476
159850000 -25.543076 -124.3065 -0.10155383 -32.128033 -0.098662496 -32.121376 -25.817682 -118.49651
160849000 -25.524078 -124.43628 -0.10175178 -32.328224 -0.099616967 -32.323174 -25.788483 -118.76189
161848000 -25.505445 -124.58118 -0.10229612 -32.526924 -0.099455938 -32.521717 -25.745207 -118.91134
162847000 -25.463549 -124.78943 -0.10190602 -32.726414 -0.10016952 -32.724052 -25.716753 -119.14461
163846000 -25.422119 -124.9851 -0.10221529 -32.927647 -0.10006462 -32.91819 -25.639942 -119.1466
164845000 -25.362091 -125.00204 -0.1023979 -33.127434 -0.10082413 -33.121204 -25.57609 -119.25377
165844000 -25.306808 -125.06638 -0.10256805 -33.32056 -0.10138664 -33.319893 -25.494663 -119.3952
166843000 -25.245506 -125.18663 -0.10245302 -33.5219 -0.10091051 -33.520004 -25.424088 -119.54207
167842000 -25.190577 -125.30659 -0.10286677 -33.722099 -0.10172635 -33.711056 -25.340017 -119.49986
168841000 -25.10877 -125.48948 -0.10355016 -33.919102 -0.10210239 -33.920826 -25.267349 -119.57171
169840000 -25.04056 -125.74622 -0.10314165 -34.11039 -0.10208755 -34.110622 -25.181318 -119.76411
170839000 -24.984163 -126.0328 -0.1034009 -34.311459 -0.10255745 -34.310349 -25.09614 -119.97958
171838000 -24.919819 -126.43664 -0.10439567 -34.511921 -0.10319944 -34.508522 -25.030136 -120.21706
172837000 -24.855581 -126.80062 -0.10557524 -34.70702 -0.10434104 -34.70298 -24.961031 -120.42692
173836000 -24.787342 -127.2487 -0.10670261 -34.906315 -0.10530047 -34.904621 -24.9182 -120.66866
174835000 -24.737825 -127.66587 -0.10677637 -35.100403 -0.10546146 -35.101357 -24.87192 -121.01229
175834000 -24.681408 -128.07149 -0.10816678 -35.301788 -0.10671588 -35.299458 -24.809767 -121.3038
176833000 -24.632708 -128.39766 -0.10872784 -35.496567 -0.10724598 -35.495197 -24.754301 -121.43488
177832000 -24.588757 -128.87756 -0.10914458 -35.694286 -0.10780295 -35.69685 -24.729008 -121.60229
178831000 -24.547777 -129.26111 -0.1096909 -35.885414 -0.10816412 -35.886368 -24.693186 -121.82925
179830000 -24.510811 -129.71164 -0.11068604 -36.08736 -0.10855692 -36.085205 -24.662424 -121.92433
180829000 -24.468781 -129.90543 -0.11104772 -36.287102 -0.10873474 -36.284153 -24.634295 -122.10238
181828000 -24.450304 -130.24239 -0.10990674 -36.481583 -0.10852507 -36.478088 -24.61825 -122.19386
182827000 -24.420473 -130.62669 -0.10991232 -36.679863 -0.10944879 -36.675365 -24.605568 -122.29794
183826000 -24.381521 -130.90468 -0.11136429 -36.872051 -0.10938508 -36.87175 -24.598192 -122.42094
184825000 -24.387415 -131.2402 -0.11131967 -37.069088 -0.1097971 -37.068268 -24.581865 -122.52421
185824000 -24.361143 -131.57921 -0.11137757 -37.265156 -0.10977214 -37.269783 -24.573568 -122.57544
186823000 -24.344585 -131.94365 -0.11133029 -37.463436 -0.11048529 -37.466072 -24.576273 -122.55943
187822000 -24.328232 -132.25197 -0.11184077 -37.660145 -0.11128355 -37.660488 -24.537073 -122.60463
188821000 -24.303736 -132.4967 -0.11198048 -37.854332 -0.11077951 -37.862278 -24.526264 -122.73237
189820000 -24.288389 -132.75903 -0.11221052 -38.057323 -0.11126018 -38.057877 -24.518398 -122.85741
190819000 -24.259672 -133.00661 -0.11337761 -38.256016 -0.11261722 -38.254025 -24.484209 -122.81508
191818000 -24.220745 -133.19612 -0.11484482 -38.45142 -0.11334652 -38.449951 -24.456938 -122.73167
192817000 -24.160009 -133.47411 -0.11475977 -38.632778 -0.11344271 -38.634171 -24.384287 -122.79707
193816000 -24.122145 -133.82672 -0.11397389 -38.826763 -0.11224505 -38.826508 -24.330227 -123.07982
194815000 -24.060986 -134.30008 -0.11328993 -39.023426 -0.11294214 -39.027817 -24.258898 -123.18166
195814000 -24.008398 -134.49298 -0.1144411 -39.220528 -0.11339939 -39.22353 -24.214228 -123.31876
196813000 -23.960726 -134.85439 -0.11398798 -39.418919 -0.11226258 -39.418598 -24.133635 -123.48422
197812000 -23.900152 -135.05992 -0.1144722 -39.614471 -0.11308375 -39.61174 -24.070465 -123.56313
198811000 -23.848372 -135.26733 -0.11407355 -39.804272 -0.11286695 -39.811005 -23.996387 -123.75529
199810000 -23.78216 -135.63043 -0.11421493 -40.004677 -0.11231412 -40.003353 -23.921934 -123.86115
200809000 -23.723995 -135.91806 -0.11470767 -40.20488 -0.1130965 -40.202736 -23.844133 -124.07647
201808000 -23.666937 -136.15384 -0.11592409 -40.399658 -0.11408099 -40.40403 -23.77297 -124.13821
202807000 -23.60973 -136.51601 -0.11587251 -40.604836 -0.11443126 -40.606102 -23.720619 -124.32179
