!Keysight Technologies,E5080B,MY59205177,A.15.75.32
!Date: Friday, February 23, 2024 03:04:54
!Correction: S11(Cdelta 2-Port  ) 
!S21(Cdelta 2-Port  ) 
!S12(Cdelta 2-Port  ) 
!S22(Cdelta 2-Port  ) 
!S2P File: Measurements: S11, S21, S12, S22:
# Hz S  dB   R 50
10000000 -44.22039 -3.5401447 -0.027374303 -2.0414875 -0.030354884 -2.0930774 -48.004631 -150.32143
10999000 -43.562325 -5.4628005 -0.028624345 -2.2571006 -0.03030353 -2.3073747 -47.741734 -142.74043
11998000 -42.804089 -8.1461992 -0.029112684 -2.4798992 -0.029873444 -2.522404 -47.815727 -137.41075
12997000 -42.160732 -12.913675 -0.027829153 -2.6540973 -0.029712887 -2.6877701 -47.131844 -131.43506
13996000 -41.894562 -16.211285 -0.027175028 -2.8388047 -0.030013151 -2.8595462 -46.743095 -126.00204
14995000 -41.605186 -19.832401 -0.029038412 -3.0446086 -0.029904461 -3.0696535 -46.224045 -122.37433
15994000 -41.472263 -24.121243 -0.030367136 -3.2672219 -0.032561801 -3.2841485 -46.061871 -118.94579
16993000 -41.437149 -28.114803 -0.028986555 -3.4571307 -0.0310864 -3.4686692 -45.111504 -119.47535
17992000 -41.536205 -32.422661 -0.030308483 -3.6594958 -0.031363815 -3.6639473 -44.536709 -120.13662
18991000 -41.790318 -37.073463 -0.030903118 -3.8694785 -0.032215983 -3.8664331 -43.851566 -119.78535
19990000 -41.633709 -42.194111 -0.033444986 -4.0760708 -0.0346472 -4.0740218 -43.105556 -121.35815
20989000 -41.541649 -45.354427 -0.035548557 -4.2803235 -0.036029842 -4.2708859 -42.540661 -121.03612
21988000 -41.447445 -49.711899 -0.036343593 -4.4760098 -0.036943235 -4.4633536 -42.282864 -120.48522
22987000 -41.212551 -54.371521 -0.036886059 -4.6751208 -0.038676832 -4.6681857 -41.987415 -120.08794
23986000 -41.239307 -58.227097 -0.036681648 -4.8702765 -0.037681866 -4.8691812 -41.843151 -120.01067
24985000 -40.868504 -60.756828 -0.037908781 -5.075192 -0.037856296 -5.0725269 -41.633129 -117.49136
25984000 -40.610535 -63.025043 -0.038959954 -5.2816749 -0.037444782 -5.28585 -41.290222 -116.27336
26983000 -40.346653 -64.652824 -0.040224832 -5.4810538 -0.038673956 -5.4987059 -41.146259 -115.34604
27982000 -40.203487 -65.561241 -0.041083965 -5.6813159 -0.04030478 -5.7167172 -40.840927 -114.03411
28981000 -40.201057 -66.988075 -0.038565572 -5.8790903 -0.04026768 -5.9008026 -40.602051 -113.03514
29980000 -39.808582 -68.469193 -0.038798019 -6.0699868 -0.040984403 -6.076335 -40.279995 -112.59052
30979000 -39.4333 -67.746613 -0.036737252 -6.4229631 -0.035205372 -6.4174056 -39.77774 -113.23231
31978000 -39.254978 -68.770836 -0.034573354 -6.6172423 -0.03518945 -6.6109014 -39.524658 -112.59943
32977000 -39.079887 -70.50045 -0.03575474 -6.8273587 -0.036874052 -6.826303 -39.291668 -112.93829
33976000 -38.934822 -71.441864 -0.03603689 -7.0276632 -0.037601184 -7.0233455 -38.975922 -112.40694
34975000 -38.663845 -72.532677 -0.036392149 -7.2269993 -0.037677426 -7.2270217 -38.748436 -112.15015
35974000 -38.499985 -73.060432 -0.035760742 -7.421267 -0.037396736 -7.4218311 -38.467258 -111.37026
36973000 -38.274189 -73.96833 -0.036073953 -7.6209722 -0.038491923 -7.6263657 -38.148468 -110.62796
37972000 -38.10146 -73.820816 -0.035906643 -7.8330479 -0.038741343 -7.837831 -37.914917 -110.11739
38971000 -37.776817 -73.729988 -0.036155391 -8.0300255 -0.039080888 -8.0394907 -37.719536 -108.58764
39970000 -37.440701 -74.228699 -0.03523434 -8.2303486 -0.038044833 -8.2414236 -37.451153 -108.11322
40969000 -37.192947 -74.155792 -0.035300363 -8.4196396 -0.037358094 -8.4400482 -37.174309 -106.79469
41968000 -36.858437 -74.301201 -0.035369523 -8.6228085 -0.037885804 -8.6446018 -36.972744 -105.78623
42967000 -36.57692 -74.628265 -0.035050098 -8.8372812 -0.037780568 -8.8516827 -36.739429 -104.00767
43966000 -36.312157 -75.500572 -0.035797283 -9.0364561 -0.039485767 -9.0515242 -36.449299 -103.4244
44965000 -36.075687 -76.344475 -0.036787115 -9.2388697 -0.03978749 -9.255929 -36.229885 -103.39037
45964000 -35.862663 -77.568237 -0.037318669 -9.4384975 -0.040319674 -9.4523096 -36.001495 -103.23957
46963000 -35.687435 -79.555534 -0.037562799 -9.6306915 -0.041365158 -9.6495647 -35.816803 -103.526
47962000 -35.535885 -80.946671 -0.039199475 -9.8321209 -0.042606685 -9.8479109 -35.60146 -103.79077
48961000 -35.330856 -82.458794 -0.041475181 -10.028439 -0.043511786 -10.047189 -35.367012 -103.96906
49960000 -35.122238 -83.940689 -0.042183742 -10.22826 -0.044653758 -10.249878 -35.228065 -104.26417
50959000 -34.915878 -85.324158 -0.043013461 -10.439683 -0.046376571 -10.452188 -35.058102 -104.61994
51958000 -34.722328 -86.386726 -0.045520574 -10.638265 -0.047369342 -10.647595 -34.878281 -105.1635
52957000 -34.517113 -87.528282 -0.046639524 -10.838487 -0.048245598 -10.842091 -34.700428 -104.94778
53956000 -34.349007 -88.256027 -0.04724713 -11.039908 -0.049440917 -11.041116 -34.555607 -104.92532
54955000 -34.186684 -88.683334 -0.048865207 -11.240317 -0.050596759 -11.235155 -34.410965 -105.05512
55954000 -34.027988 -89.5802 -0.049932126 -11.440058 -0.050448529 -11.43539 -34.31205 -104.6559
56953000 -33.925381 -89.681976 -0.049043749 -11.638019 -0.049312104 -11.624212 -34.236496 -105.01272
57952000 -33.766933 -90.298462 -0.05101319 -11.830438 -0.050777994 -11.825929 -34.141598 -105.04419
58951000 -33.639919 -90.612015 -0.051769938 -12.038828 -0.050846089 -12.018738 -33.973011 -105.09968
59950000 -33.513695 -91.035385 -0.052066755 -12.238007 -0.052109193 -12.217237 -33.906647 -105.40255
60949000 -33.408604 -91.54792 -0.05211129 -12.440482 -0.052287348 -12.415132 -33.821274 -105.68271
61948000 -33.366459 -91.800293 -0.052838359 -12.638627 -0.051895682 -12.617971 -33.739361 -105.79784
62947000 -33.274178 -92.095863 -0.052964918 -12.850117 -0.053120047 -12.830132 -33.605324 -106.14568
63946000 -33.21064 -92.78878 -0.054309372 -13.046091 -0.054428637 -13.028128 -33.49543 -106.21687
64945000 -33.107368 -93.028259 -0.054626808 -13.247917 -0.054721441 -13.228123 -33.382751 -106.82082
65944000 -33.003506 -93.218872 -0.054985948 -13.44473 -0.05432903 -13.429071 -33.296787 -107.1767
66943000 -32.867447 -93.704506 -0.053223819 -13.649774 -0.053386293 -13.631051 -33.20179 -107.46671
67942000 -32.809727 -93.687157 -0.055350102 -13.846095 -0.054800868 -13.831743 -33.081459 -107.82081
68941000 -32.698345 -93.720978 -0.054885283 -14.038911 -0.054769672 -14.029097 -32.985611 -107.73142
69940000 -32.613724 -93.826157 -0.054603476 -14.238548 -0.055249952 -14.227579 -32.825016 -108.07256
70939000 -32.49939 -93.864998 -0.05505516 -14.432536 -0.054374903 -14.427196 -32.702744 -108.03606
71938000 -32.357964 -93.464577 -0.055957355 -14.627731 -0.054840978 -14.621924 -32.567543 -107.92477
72937000 -32.191219 -93.298088 -0.054486044 -14.824562 -0.054810569 -14.822988 -32.420948 -107.62299
73936000 -32.056126 -93.008606 -0.054415267 -15.022758 -0.054323528 -15.019455 -32.313343 -107.44159
74935000 -31.936106 -93.287048 -0.053449713 -15.22335 -0.0529471 -15.219831 -32.161949 -107.18424
75934000 -31.81666 -93.600746 -0.054296006 -15.428229 -0.052305162 -15.423775 -32.071285 -107.13605
76933000 -31.676943 -93.991226 -0.055049654 -15.620979 -0.055020031 -15.618325 -31.89328 -107.56368
77932000 -31.585163 -94.838097 -0.055519212 -15.818655 -0.055882622 -15.808425 -31.784557 -107.55209
78931000 -31.516661 -95.509995 -0.054966025 -16.015776 -0.055205382 -16.009737 -31.691387 -107.42423
79930000 -31.40448 -96.426414 -0.057398733 -16.209906 -0.057505231 -16.207418 -31.599663 -107.77405
80929000 -31.276962 -97.297729 -0.059419729 -16.405088 -0.058920361 -16.403189 -31.495268 -108.15044
81928000 -31.193153 -98.168045 -0.059047624 -16.594725 -0.059308201 -16.592855 -31.374828 -108.22146
82927000 -31.095646 -98.916359 -0.060742293 -16.798103 -0.060248286 -16.79088 -31.269905 -108.53806
83926000 -30.989195 -99.597527 -0.061538547 -16.990992 -0.062103074 -16.992447 -31.154861 -108.72189
84925000 -30.883831 -100.03479 -0.062865436 -17.190239 -0.061624929 -17.185661 -31.060183 -108.79627
85924000 -30.802958 -100.54576 -0.063384168 -17.386812 -0.062958404 -17.388577 -30.979589 -108.82682
86923000 -30.691711 -101.04247 -0.063411221 -17.585138 -0.063100234 -17.583471 -30.871235 -108.71767
87922000 -30.585457 -101.42258 -0.063309833 -17.795755 -0.063397825 -17.785883 -30.792797 -108.82234
88921000 -30.516586 -101.7064 -0.064146489 -17.992516 -0.063890092 -17.987154 -30.697884 -108.78568
89920000 -30.421299 -102.25019 -0.064702682 -18.187782 -0.064604945 -18.184017 -30.645149 -108.9096
90919000 -30.322205 -102.50048 -0.065623179 -18.38546 -0.065551959 -18.381605 -30.565342 -109.13526
91918000 -30.236641 -102.85082 -0.0667326 -18.584377 -0.065654978 -18.576752 -30.492487 -109.11465
92917000 -30.14411 -103.25719 -0.067710318 -18.784639 -0.066669516 -18.781321 -30.430737 -109.21042
93916000 -30.067118 -103.59753 -0.067869127 -18.977556 -0.06627734 -18.973738 -30.346275 -109.82603
94915000 -29.987637 -104.23582 -0.068167306 -19.180138 -0.067341976 -19.170237 -30.284885 -109.71485
95914000 -29.928865 -104.45679 -0.069631159 -19.372219 -0.068184927 -19.372688 -30.206539 -109.9841
96913000 -29.849073 -104.71196 -0.070916846 -19.573238 -0.069210842 -19.56781 -30.139278 -110.34347
97912000 -29.767384 -105.19237 -0.071421541 -19.769611 -0.069148242 -19.768633 -30.065924 -110.59037
98911000 -29.666372 -105.34181 -0.071924195 -19.969427 -0.070694774 -19.966648 -30.020258 -110.85719
99910000 -29.602217 -105.50571 -0.072928615 -20.167768 -0.071118928 -20.16662 -29.912004 -111.11504
100909000 -29.51766 -105.8087 -0.072503492 -20.37649 -0.0700147 -20.368204 -29.824507 -111.3428
101908000 -29.438297 -106.06487 -0.073263995 -20.577276 -0.072037101 -20.573721 -29.716789 -111.12177
102907000 -29.300228 -106.14342 -0.073192127 -20.774609 -0.0716497 -20.776379 -29.646307 -111.0852
103906000 -29.196936 -106.16071 -0.074095465 -20.979437 -0.07123708 -20.974649 -29.492214 -111.06286
104905000 -29.061462 -106.11935 -0.074456483 -21.176428 -0.071373649 -21.175097 -29.367022 -110.75227
105904000 -28.926479 -106.22991 -0.074183144 -21.380802 -0.071515754 -21.371387 -29.254086 -110.65131
106903000 -28.817251 -106.32462 -0.075037964 -21.5839 -0.072018415 -21.582794 -29.131073 -110.55295
107902000 -28.649153 -106.67 -0.07551074 -21.786425 -0.073240042 -21.776663 -28.992838 -110.49188
108901000 -28.543407 -106.94414 -0.076324724 -21.985992 -0.073740527 -21.979052 -28.862932 -110.48241
109900000 -28.420418 -107.4201 -0.076613471 -22.184816 -0.075443842 -22.176693 -28.708723 -110.53612
110899000 -28.297943 -108.07307 -0.079132684 -22.382978 -0.076032303 -22.372433 -28.579313 -110.83904
111898000 -28.21419 -108.73107 -0.079831593 -22.584929 -0.076471731 -22.576431 -28.470177 -111.00177
112897000 -28.08482 -109.31808 -0.080991074 -22.782955 -0.078260191 -22.771797 -28.338223 -111.16784
113896000 -27.985771 -109.85876 -0.082485899 -22.981297 -0.079225741 -22.969534 -28.222446 -111.25745
114895000 -27.877121 -110.53136 -0.083120972 -23.181812 -0.080840744 -23.166569 -28.115908 -111.41778
115894000 -27.751629 -110.85155 -0.08492431 -23.380453 -0.081576601 -23.367495 -28.042183 -111.54102
116893000 -27.677992 -111.44957 -0.085139714 -23.57622 -0.08328747 -23.555309 -27.916019 -111.69563
117892000 -27.595882 -111.90305 -0.085329525 -23.773567 -0.083174534 -23.760595 -27.847467 -111.89714
118891000 -27.538271 -112.32971 -0.085909829 -23.971483 -0.083041549 -23.957832 -27.748295 -112.04144
119890000 -27.450031 -112.68644 -0.086514764 -24.175381 -0.083989687 -24.157511 -27.743311 -112.16881
120889000 -27.392899 -113.21086 -0.087216981 -24.376801 -0.084550545 -24.356022 -27.667604 -112.12711
121888000 -27.349936 -113.51094 -0.08798191 -24.570942 -0.084756427 -24.557978 -27.603643 -112.41874
122887000 -27.313856 -113.717 -0.088640772 -24.771008 -0.084822945 -24.760292 -27.558062 -112.4761
123886000 -27.258226 -114.15241 -0.089922056 -24.974081 -0.086104691 -24.957119 -27.550131 -112.62925
124885000 -27.226274 -114.65895 -0.089332491 -25.172022 -0.086606137 -25.157581 -27.518064 -112.69035
125884000 -27.167732 -114.82521 -0.090322711 -25.369938 -0.086471193 -25.354736 -27.485487 -112.84028
126883000 -27.151951 -115.20528 -0.090338044 -25.57173 -0.086890027 -25.560966 -27.44451 -112.91663
127882000 -27.105648 -115.49033 -0.090338573 -25.773195 -0.08803501 -25.754002 -27.409218 -113.05242
128881000 -27.063972 -115.8612 -0.090704642 -25.972971 -0.087481365 -25.956696 -27.365818 -113.14709
129880000 -27.016003 -116.18573 -0.091631196 -26.17371 -0.088010177 -26.15489 -27.322977 -113.15089
130879000 -26.957247 -116.31691 -0.09114106 -26.372326 -0.088854775 -26.357256 -27.244896 -113.24214
131878000 -26.88978 -116.54084 -0.090993553 -26.57649 -0.089107893 -26.556761 -27.183668 -113.18964
132877000 -26.824926 -116.6454 -0.090805881 -26.777182 -0.089931041 -26.759298 -27.104111 -113.17533
133876000 -26.736595 -116.76852 -0.091887116 -26.978634 -0.088927172 -26.959906 -27.00663 -113.09457
134875000 -26.641329 -116.90526 -0.091615334 -27.179405 -0.089244507 -27.158409 -26.912003 -112.92861
135874000 -26.561773 -116.92739 -0.092419118 -27.376209 -0.090205632 -27.35907 -26.814371 -112.92986
136873000 -26.452711 -116.88065 -0.092267334 -27.579012 -0.089041315 -27.561819 -26.72039 -112.89346
137872000 -26.376778 -117.00023 -0.091580965 -27.783983 -0.08982189 -27.769033 -26.619261 -112.87645
138871000 -26.30126 -117.19907 -0.092775844 -27.977356 -0.090277784 -27.962791 -26.520279 -113.04509
139870000 -26.202347 -117.44863 -0.093682468 -28.182325 -0.091125727 -28.163166 -26.442373 -113.21004
140869000 -26.112719 -117.93666 -0.095034033 -28.374479 -0.093303189 -28.352968 -26.335634 -113.30707
141868000 -26.014688 -118.41391 -0.095260784 -28.562624 -0.093346298 -28.552389 -26.265623 -113.68484
142867000 -25.943419 -118.6679 -0.094133735 -28.766842 -0.091904044 -28.747299 -26.185722 -113.83865
143866000 -25.872049 -119.16835 -0.095716983 -28.962099 -0.093262985 -28.947432 -26.112257 -114.40636
144865000 -25.816725 -119.69297 -0.097142503 -29.160309 -0.094293781 -29.145346 -26.05584 -114.69677
145864000 -25.753691 -120.01914 -0.097070239 -29.361528 -0.095625423 -29.346413 -26.023775 -114.94285
146863000 -25.715206 -120.34766 -0.097879797 -29.557095 -0.096012846 -29.544773 -25.975136 -115.26854
147862000 -25.674572 -120.71706 -0.099108726 -29.754995 -0.096054398 -29.742506 -25.932768 -115.56409
148861000 -25.639891 -121.20953 -0.09870778 -29.95446 -0.096744128 -29.936983 -25.913088 -115.85306
149860000 -25.626686 -121.40857 -0.099161953 -30.150621 -0.096697539 -30.142492 -25.881418 -115.95787
150859000 -25.608822 -121.76342 -0.10003866 -30.352097 -0.097421788 -30.34024 -25.870899 -116.19825
151858000 -25.591951 -122.0907 -0.099957071 -30.551813 -0.097732857 -30.538378 -25.862387 -116.52952
152857000 -25.567146 -122.42595 -0.10020501 -30.744501 -0.097588569 -30.737419 -25.849915 -116.62902
153856000 -25.563019 -122.62495 -0.099896148 -30.947844 -0.096206836 -30.932247 -25.860861 -116.90922
154855000 -25.561386 -122.78212 -0.10035919 -31.144054 -0.097643636 -31.134186 -25.849188 -117.12716
155854000 -25.564938 -123.0351 -0.10042594 -31.34424 -0.097363017 -31.331861 -25.844893 -117.38881
156853000 -25.560276 -123.72887 -0.098696925 -31.530035 -0.098176606 -31.521532 -25.840086 -117.70866
157852000 -25.558994 -123.99562 -0.10019389 -31.733715 -0.099378072 -31.723419 -25.830164 -118.05236
158851000 -25.554916 -124.17654 -0.10026541 -31.933273 -0.099059202 -31.919954 -25.813107 -118.31382
159850000 -25.543379 -124.33394 -0.10128701 -32.129322 -0.099484801 -32.121834 -25.813084 -118.47189
160849000 -25.527325 -124.43182 -0.10115559 -32.328564 -0.099951245 -32.324188 -25.781843 -118.80456
161848000 -25.511005 -124.58183 -0.10138611 -32.527626 -0.099758938 -32.522366 -25.745462 -118.91491
162847000 -25.469877 -124.73801 -0.10192934 -32.727264 -0.10057907 -32.720306 -25.719349 -119.12951
163846000 -25.423004 -124.99089 -0.1016548 -32.924606 -0.099881314 -32.919014 -25.635374 -119.13742
164845000 -25.359678 -124.99062 -0.10212226 -33.125938 -0.1007783 -33.11668 -25.569809 -119.24699
165844000 -25.305805 -125.08261 -0.10282727 -33.323597 -0.10092349 -33.319874 -25.493532 -119.41195
166843000 -25.246861 -125.1855 -0.10153767 -33.52359 -0.10087739 -33.520473 -25.426811 -119.56757
167842000 -25.186361 -125.33327 -0.10257176 -33.719486 -0.10119268 -33.7183 -25.343752 -119.51032
168841000 -25.109774 -125.55407 -0.10294098 -33.916615 -0.10120513 -33.916798 -25.262823 -119.58653
169840000 -25.041466 -125.77374 -0.10296404 -34.114277 -0.1023327 -34.111111 -25.175798 -119.77103
170839000 -24.986095 -126.05196 -0.10369544 -34.309505 -0.10208384 -34.306206 -25.093616 -119.95942
171838000 -24.92433 -126.48053 -0.10324503 -34.51268 -0.10309287 -34.50449 -25.025629 -120.23399
172837000 -24.857121 -126.78562 -0.10508115 -34.707054 -0.10365328 -34.703934 -24.961779 -120.44677
173836000 -24.787209 -127.23987 -0.10608027 -34.908016 -0.10517105 -34.901737 -24.91572 -120.67021
174835000 -24.734358 -127.66366 -0.10653654 -35.100365 -0.10554262 -35.100769 -24.866386 -120.99832
175834000 -24.682035 -128.06326 -0.10721971 -35.300159 -0.10645271 -35.294426 -24.799688 -121.26814
176833000 -24.625673 -128.4109 -0.10801763 -35.496082 -0.10724996 -35.4967 -24.751207 -121.43909
177832000 -24.582285 -128.90997 -0.10824215 -35.69466 -0.10721786 -35.692139 -24.728312 -121.58521
178831000 -24.545429 -129.24992 -0.10866361 -35.88588 -0.10843112 -35.886688 -24.690144 -121.82552
179830000 -24.509867 -129.70454 -0.10923589 -36.087456 -0.10864902 -36.08918 -24.66853 -121.96718
180829000 -24.469578 -129.90271 -0.10970497 -36.282402 -0.10824879 -36.281555 -24.633286 -122.11753
181828000 -24.446205 -130.25356 -0.10997126 -36.4837 -0.10918918 -36.477562 -24.621181 -122.22219
182827000 -24.419893 -130.60844 -0.11001825 -36.676907 -0.10898823 -36.680706 -24.603325 -122.29398
183826000 -24.377218 -130.92375 -0.11098611 -36.874092 -0.10900522 -36.87175 -24.594843 -122.4331
184825000 -24.385414 -131.21167 -0.11064674 -37.068588 -0.1095133 -37.069916 -24.577974 -122.50181
185824000 -24.354914 -131.556 -0.11042741 -37.263615 -0.11001002 -37.26939 -24.576574 -122.56351
186823000 -24.341766 -131.94287 -0.11068073 -37.463631 -0.11048317 -37.466282 -24.573111 -122.56122
187822000 -24.320425 -132.2547 -0.11138076 -37.659225 -0.11080208 -37.659332 -24.541426 -122.61183
188821000 -24.302349 -132.47778 -0.11128674 -37.856392 -0.11074287 -37.859146 -24.523432 -122.70394
189820000 -24.288586 -132.75104 -0.11140598 -38.056683 -0.11126496 -38.055637 -24.515423 -122.8576
190819000 -24.258284 -132.99893 -0.11304363 -38.255974 -0.11207903 -38.253578 -24.486996 -122.80643
191818000 -24.226158 -133.21736 -0.11469066 -38.449005 -0.11350913 -38.448254 -24.455799 -122.71536
192817000 -24.15724 -133.44818 -0.11474409 -38.633995 -0.11384554 -38.635639 -24.380924 -122.82323
193816000 -24.119741 -133.83237 -0.11305851 -38.828739 -0.11313078 -38.824711 -24.329369 -123.07578
194815000 -24.063221 -134.29747 -0.11363775 -39.02565 -0.11313928 -39.026558 -24.263723 -123.18442
195814000 -24.011534 -134.49591 -0.11393696 -39.223141 -0.11292088 -39.222992 -24.21176 -123.30103
196813000 -23.958601 -134.8327 -0.11386149 -39.416229 -0.11282365 -39.415596 -24.134081 -123.4787
197812000 -23.905418 -135.09608 -0.11344271 -39.615791 -0.11359151 -39.613388 -24.066044 -123.58469
198811000 -23.85132 -135.25789 -0.11363243 -39.809376 -0.1127644 -39.810234 -24.00024 -123.76611
199810000 -23.783016 -135.63249 -0.11483578 -40.005737 -0.11291637 -40.006519 -23.921825 -123.86141
200809000 -23.723284 -135.93016 -0.11464867 -40.203434 -0.11328142 -40.20385 -23.843889 -124.05055
201808000 -23.667915 -136.15167 -0.11489479 -40.403084 -0.11413228 -40.404732 -23.7759 -124.15783
202807000 -23.609077 -136.49966 -0.11580233 -40.604729 -0.1150867 -40.607132 -23.720016 -124.3464
