!Keysight Technologies,E5080B,MY59205177,A.15.75.32
!Date: Friday, February 23, 2024 03:43:06
!Correction: S11(Cdelta 2-Port  ) 
!S21(Cdelta 2-Port  ) 
!S12(Cdelta 2-Port  ) 
!S22(Cdelta 2-Port  ) 
!S2P File: Measurements: S11, S21, S12, S22:
# Hz S  dB   R 50
10000000 -46.077892 -2.9724765 -0.014487145 -2.0424166 -0.018369425 -2.0925374 -45.892143 -157.56001
10999000 -45.306541 -5.0126085 -0.015195991 -2.2602317 -0.017574549 -2.3152649 -45.824032 -151.27202
11998000 -44.365189 -7.996316 -0.016042134 -2.487309 -0.017809253 -2.5307381 -45.976456 -147.0175
12997000 -43.585911 -13.436556 -0.015945483 -2.6652358 -0.017321926 -2.6973507 -45.578568 -140.89063
13996000 -43.292057 -17.293232 -0.014569478 -2.8451204 -0.018025775 -2.864712 -45.335827 -136.23024
14995000 -42.903717 -21.650969 -0.01693444 -3.0558665 -0.017017599 -3.0826464 -45.077087 -133.03195
15994000 -42.719143 -26.30134 -0.017896589 -3.2743559 -0.020099783 -3.2948868 -44.885681 -129.22031
16993000 -42.734001 -31.021612 -0.016780339 -3.4689665 -0.019387275 -3.4807925 -44.051632 -128.80672
17992000 -42.711887 -36.506653 -0.017507233 -3.6711686 -0.019905781 -3.6751988 -43.483059 -129.09041
18991000 -42.963261 -41.938511 -0.018780956 -3.8793252 -0.020786397 -3.8764684 -42.885475 -128.04478
19990000 -42.706299 -47.440819 -0.020452179 -4.0877433 -0.022551544 -4.0838604 -42.191204 -128.57855
20989000 -42.5284 -51.119492 -0.022165935 -4.2964191 -0.024409823 -4.2841806 -41.694141 -128.00735
21988000 -42.365589 -56.215618 -0.023671102 -4.4894533 -0.025383264 -4.4779553 -41.386677 -127.40241
22987000 -42.006866 -61.00275 -0.024616521 -4.6884365 -0.026460577 -4.6803641 -41.154907 -126.72756
23986000 -41.892689 -65.153419 -0.024413988 -4.8857722 -0.025710309 -4.8866439 -40.976257 -126.549
24985000 -41.500656 -67.788589 -0.025556678 -5.0923905 -0.025918892 -5.0855956 -40.792706 -124.46657
25984000 -41.16169 -69.904617 -0.02597462 -5.2981563 -0.026399635 -5.2989621 -40.445236 -122.79568
26983000 -40.834557 -71.476616 -0.027110428 -5.4959826 -0.026984096 -5.5193934 -40.346264 -122.10385
27982000 -40.670811 -72.608795 -0.027939357 -5.6966548 -0.028842969 -5.7303457 -40.068787 -120.47639
28981000 -40.638985 -74.318672 -0.02670045 -5.8943529 -0.028977172 -5.9177957 -39.853951 -119.70361
29980000 -40.210815 -75.467987 -0.026669456 -6.0878811 -0.0291635 -6.0929861 -39.608715 -118.85796
30979000 -39.843853 -74.5289 -0.023787444 -6.4381194 -0.02414795 -6.4319711 -39.071293 -119.21397
31978000 -39.620235 -75.391914 -0.023271859 -6.6381063 -0.02455977 -6.6281586 -38.839409 -118.71594
32977000 -39.443993 -77.096214 -0.023384027 -6.8474255 -0.025662396 -6.8443198 -38.61174 -118.67007
33976000 -39.265747 -78.000473 -0.024051119 -7.0466394 -0.025920454 -7.044394 -38.335804 -118.18179
34975000 -38.964931 -78.790306 -0.024554562 -7.2464356 -0.027339397 -7.2460923 -38.09647 -117.74457
35974000 -38.79472 -79.223267 -0.023329373 -7.4393644 -0.026457191 -7.4494262 -37.845383 -116.89708
36973000 -38.55397 -80.033005 -0.023713266 -7.6435032 -0.027005455 -7.6448379 -37.580017 -115.98491
37972000 -38.370258 -79.548576 -0.023087084 -7.852519 -0.027027335 -7.8596268 -37.355175 -115.27374
38971000 -38.053715 -79.163872 -0.024167994 -8.0553074 -0.027628815 -8.0680799 -37.192341 -113.70581
39970000 -37.731518 -79.487854 -0.022425607 -8.2501793 -0.026322545 -8.2664671 -36.935879 -113.17189
40969000 -37.458897 -79.219757 -0.022897113 -8.4384165 -0.026518395 -8.4641705 -36.691185 -111.72438
41968000 -37.101479 -78.971497 -0.0223387 -8.6521568 -0.02696404 -8.6625242 -36.513252 -110.55804
42967000 -36.85458 -79.016327 -0.022594219 -8.8623991 -0.026535586 -8.8810043 -36.33189 -108.64869
43966000 -36.544437 -79.688316 -0.02316724 -9.0599461 -0.02793128 -9.0761099 -36.068222 -108.01731
44965000 -36.326889 -80.584503 -0.024022486 -9.2631836 -0.027073961 -9.283946 -35.845078 -107.76965
45964000 -36.087132 -81.670952 -0.02454441 -9.4589968 -0.029007923 -9.4827719 -35.605591 -107.50348
46963000 -35.886181 -83.481766 -0.025292132 -9.6586857 -0.029650075 -9.6827688 -35.446014 -107.53262
47962000 -35.717331 -84.888618 -0.026899183 -9.858923 -0.030707592 -9.8798647 -35.219494 -107.64085
48961000 -35.513157 -86.225471 -0.029085059 -10.054176 -0.032141659 -10.077031 -34.999718 -107.80035
49960000 -35.274132 -87.586685 -0.029891428 -10.25511 -0.033168744 -10.277863 -34.869259 -107.95352
50959000 -35.044727 -88.940208 -0.030362966 -10.470814 -0.034782626 -10.479431 -34.701767 -108.27697
51958000 -34.843201 -89.856606 -0.032807227 -10.666853 -0.035679311 -10.675737 -34.509811 -108.64128
52957000 -34.628056 -90.887169 -0.034081534 -10.869195 -0.03666468 -10.875831 -34.356743 -108.41405
53956000 -34.464272 -91.636169 -0.035361171 -11.071697 -0.037776653 -11.072012 -34.214516 -108.3168
54955000 -34.278522 -92.04351 -0.035592139 -11.270098 -0.038754139 -11.270042 -34.078568 -108.34708
55954000 -34.111485 -92.930428 -0.037094917 -11.47082 -0.038956556 -11.470486 -33.95089 -108.0538
56953000 -33.995266 -92.897835 -0.03627938 -11.671581 -0.037536167 -11.662752 -33.878544 -108.19527
57952000 -33.822472 -93.579788 -0.038510725 -11.863914 -0.039130777 -11.858097 -33.777843 -108.32953
58951000 -33.712978 -93.854103 -0.03901846 -12.070763 -0.040393353 -12.054812 -33.624294 -108.3826
59950000 -33.576778 -94.137062 -0.039644331 -12.270754 -0.040737208 -12.248849 -33.560986 -108.68472
60949000 -33.461002 -94.809647 -0.040551953 -12.472865 -0.041151389 -12.455991 -33.445332 -108.93422
61948000 -33.389091 -95.092087 -0.040591668 -12.670704 -0.041181441 -12.659319 -33.357986 -109.00431
62947000 -33.300468 -95.242935 -0.040450573 -12.884329 -0.041149821 -12.863161 -33.224216 -109.29473
63946000 -33.222862 -96.051262 -0.042019069 -13.082434 -0.042657398 -13.063087 -33.123856 -109.41282
64945000 -33.12801 -96.167839 -0.042310778 -13.287725 -0.043661609 -13.264414 -33.001633 -109.88808
65944000 -33.019283 -96.470985 -0.043017644 -13.483054 -0.043243531 -13.467703 -32.905632 -110.36697
66943000 -32.876167 -96.877754 -0.041308183 -13.686417 -0.041998159 -13.669958 -32.803249 -110.6141
67942000 -32.8102 -96.889847 -0.042918038 -13.88462 -0.043980099 -13.867733 -32.677631 -110.91277
68941000 -32.703072 -96.950302 -0.04301529 -14.075583 -0.042652693 -14.068391 -32.574127 -110.85548
69940000 -32.59972 -96.93943 -0.043149408 -14.275921 -0.043523028 -14.267568 -32.439125 -111.15816
70939000 -32.509842 -96.801826 -0.042618971 -14.466561 -0.04364958 -14.464263 -32.300228 -111.0389
71938000 -32.366425 -96.475594 -0.042709943 -14.667045 -0.043467861 -14.661604 -32.171436 -110.85034
72937000 -32.20586 -96.283958 -0.042452976 -14.867941 -0.041806053 -14.860664 -32.029633 -110.65558
73936000 -32.071884 -95.889946 -0.042099316 -15.069325 -0.041974377 -15.0574 -31.921682 -110.40257
74935000 -31.94462 -96.190079 -0.041559596 -15.259607 -0.041110359 -15.257246 -31.761484 -110.07611
75934000 -31.820538 -96.355759 -0.041575015 -15.471579 -0.041303743 -15.462003 -31.679972 -109.99194
76933000 -31.695795 -96.732071 -0.042731643 -15.663119 -0.043142349 -15.659537 -31.522573 -110.29004
77932000 -31.584005 -97.469849 -0.043515708 -15.861833 -0.044065606 -15.854917 -31.410433 -110.26492
78931000 -31.520641 -98.149185 -0.04254264 -16.060354 -0.044143274 -16.059294 -31.312807 -110.13844
79930000 -31.400377 -99.003586 -0.044954274 -16.252949 -0.045393445 -16.252665 -31.213184 -110.45599
80929000 -31.294241 -99.869362 -0.046364274 -16.451357 -0.047398128 -16.450773 -31.109959 -110.70131
81928000 -31.184557 -100.55956 -0.046791025 -16.64188 -0.048130952 -16.642239 -30.986328 -110.71448
82927000 -31.100582 -101.32645 -0.04834637 -16.841949 -0.048397414 -16.840891 -30.875605 -110.99537
83926000 -30.967175 -101.96737 -0.04979125 -17.039013 -0.05011595 -17.038507 -30.759758 -111.11598
84925000 -30.871536 -102.38557 -0.050694186 -17.238047 -0.05009605 -17.236921 -30.655119 -111.20501
85924000 -30.774809 -102.76391 -0.051132627 -17.43865 -0.051972963 -17.434895 -30.585533 -111.17062
86923000 -30.671072 -103.22807 -0.05197899 -17.637259 -0.051730119 -17.633362 -30.481108 -111.03026
87922000 -30.555521 -103.64255 -0.051881272 -17.842388 -0.051255472 -17.839684 -30.392984 -111.04967
88921000 -30.487179 -103.9074 -0.052675642 -18.044544 -0.053011037 -18.035339 -30.305857 -111.10599
89920000 -30.391338 -104.40609 -0.052825257 -18.243935 -0.052989028 -18.226711 -30.246675 -111.17735
90919000 -30.285179 -104.72145 -0.053928271 -18.435112 -0.05424856 -18.429558 -30.161133 -111.37774
91918000 -30.190683 -105.02301 -0.054593254 -18.637108 -0.053823959 -18.631973 -30.097206 -111.34762
92917000 -30.094402 -105.29478 -0.056036018 -18.837034 -0.055242609 -18.835117 -30.023315 -111.4623
93916000 -30.009323 -105.69754 -0.055442914 -19.028008 -0.054751325 -19.027096 -29.934887 -112.05647
94915000 -29.924683 -106.28018 -0.056574129 -19.231544 -0.055599444 -19.226255 -29.87491 -111.9385
95914000 -29.862934 -106.44551 -0.057744987 -19.425194 -0.056668017 -19.425413 -29.788828 -112.18942
96913000 -29.771408 -106.68764 -0.058918525 -19.627012 -0.058038015 -19.623455 -29.726185 -112.58025
97912000 -29.707493 -107.13497 -0.060271386 -19.820169 -0.058615468 -19.820864 -29.644814 -112.76816
98911000 -29.596329 -107.27637 -0.060256686 -20.024956 -0.059833333 -20.021627 -29.608683 -113.01547
99910000 -29.527967 -107.41965 -0.061512027 -20.222795 -0.059984244 -20.220276 -29.499777 -113.31037
100909000 -29.441292 -107.71641 -0.060200516 -20.431179 -0.059512366 -20.422941 -29.413624 -113.53184
101908000 -29.347609 -107.91257 -0.062079966 -20.632763 -0.06099667 -20.631508 -29.305622 -113.26727
102907000 -29.218218 -107.95354 -0.062662423 -20.83176 -0.060803719 -20.831438 -29.238064 -113.25005
103906000 -29.118299 -107.93085 -0.063253626 -21.035887 -0.060286872 -21.032404 -29.087152 -113.19602
104905000 -28.979532 -107.84396 -0.063026696 -21.234272 -0.061066236 -21.237425 -28.963713 -112.9359
105904000 -28.839359 -107.93378 -0.062868588 -21.43865 -0.061116643 -21.428328 -28.856577 -112.81503
106903000 -28.73386 -108.03098 -0.063336626 -21.643911 -0.061167836 -21.637815 -28.731449 -112.68537
107902000 -28.564751 -108.27895 -0.063820213 -21.847082 -0.062382739 -21.835831 -28.599861 -112.68215
108901000 -28.451761 -108.53362 -0.064745508 -22.041761 -0.062800035 -22.039579 -28.473377 -112.61138
109900000 -28.329884 -109.02224 -0.065058716 -22.243971 -0.06453269 -22.237434 -28.316008 -112.64341
110899000 -28.206192 -109.6123 -0.067190282 -22.443283 -0.064129412 -22.433477 -28.191759 -112.97149
111898000 -28.119368 -110.24565 -0.068251722 -22.646315 -0.06584131 -22.639404 -28.078522 -113.09727
112897000 -27.993727 -110.84154 -0.069221094 -22.847073 -0.066529408 -22.8339 -27.940098 -113.23476
113896000 -27.890936 -111.37751 -0.070684254 -23.044621 -0.067982718 -23.031895 -27.836805 -113.35526
114895000 -27.788343 -111.99734 -0.071573123 -23.242659 -0.069298953 -23.227854 -27.722971 -113.44572
115894000 -27.669292 -112.34143 -0.072673537 -23.44232 -0.070452727 -23.433914 -27.655312 -113.65163
116893000 -27.586508 -112.84891 -0.07337641 -23.639193 -0.07103315 -23.62398 -27.528133 -113.70338
117892000 -27.503323 -113.33149 -0.073320337 -23.840244 -0.072373733 -23.822386 -27.45505 -113.8854
118891000 -27.44421 -113.77273 -0.074554443 -24.039545 -0.072498493 -24.024403 -27.360622 -113.9847
119890000 -27.355921 -114.09853 -0.075458594 -24.239351 -0.072894126 -24.223904 -27.350248 -114.15997
120889000 -27.314819 -114.61517 -0.076194055 -24.437136 -0.073034436 -24.426285 -27.275497 -114.09814
121888000 -27.278116 -114.94093 -0.075704612 -24.631571 -0.073481984 -24.626764 -27.220997 -114.33237
122887000 -27.234301 -115.11176 -0.07697022 -24.838057 -0.073772915 -24.826065 -27.176186 -114.40074
123886000 -27.183197 -115.52706 -0.077640064 -25.038002 -0.075113557 -25.025471 -27.159576 -114.52138
124885000 -27.151436 -116.02338 -0.078224607 -25.241232 -0.07495448 -25.230001 -27.131018 -114.59179
125884000 -27.092184 -116.22565 -0.078104161 -25.441523 -0.074969225 -25.424669 -27.1003 -114.71792
126883000 -27.07843 -116.57932 -0.07882452 -25.64467 -0.076005436 -25.627274 -27.068981 -114.70053
127882000 -27.028694 -116.91013 -0.07883665 -25.842157 -0.07640297 -25.824808 -27.026409 -114.8707
128881000 -26.99954 -117.21078 -0.078875929 -26.044561 -0.076220401 -26.026781 -26.989498 -114.97986
129880000 -26.94174 -117.53041 -0.080186762 -26.243938 -0.076756805 -26.224405 -26.949766 -114.92602
130879000 -26.882956 -117.69893 -0.079833701 -26.442976 -0.076997623 -26.428825 -26.879906 -114.95826
131878000 -26.820152 -117.90241 -0.080441222 -26.645765 -0.077672742 -26.629181 -26.817427 -114.79044
132877000 -26.760782 -117.99158 -0.079767786 -26.850363 -0.077352561 -26.833376 -26.741713 -114.79581
133876000 -26.673601 -118.1787 -0.080458626 -27.051334 -0.077636108 -27.033712 -26.650967 -114.63836
134875000 -26.575138 -118.26479 -0.080587313 -27.248243 -0.078953162 -27.230995 -26.558405 -114.51118
135874000 -26.490944 -118.30312 -0.080502927 -27.447395 -0.078059621 -27.431217 -26.45863 -114.47092
136873000 -26.383768 -118.20229 -0.080945186 -27.651375 -0.078312114 -27.633833 -26.374922 -114.41675
137872000 -26.311684 -118.36898 -0.080314122 -27.85523 -0.077548884 -27.840748 -26.28229 -114.34847
138871000 -26.234007 -118.56503 -0.080494754 -28.055195 -0.07869035 -28.039383 -26.185669 -114.50728
139870000 -26.132866 -118.88092 -0.081575543 -28.253588 -0.080296457 -28.236404 -26.101818 -114.67022
140869000 -26.060452 -119.38843 -0.082750261 -28.453384 -0.080077596 -28.433823 -26.00691 -114.86512
141868000 -25.982807 -119.7929 -0.083741352 -28.649639 -0.081566572 -28.633041 -25.95397 -115.09822
142867000 -25.898779 -119.97838 -0.082176447 -28.843733 -0.08049766 -28.829327 -25.874609 -115.25661
143866000 -25.827671 -120.47115 -0.083916321 -29.044441 -0.082005769 -29.029676 -25.801167 -115.71394
144865000 -25.766243 -120.99579 -0.085453607 -29.241762 -0.083581962 -29.229635 -25.744333 -115.99773
145864000 -25.713646 -121.28005 -0.085554458 -29.443798 -0.084836937 -29.430819 -25.714695 -116.24049
146863000 -25.670425 -121.68465 -0.087162048 -29.645084 -0.085300222 -29.631765 -25.663403 -116.55162
147862000 -25.633865 -121.9772 -0.088015459 -29.84024 -0.085926987 -29.827116 -25.631762 -116.84621
148861000 -25.601334 -122.43051 -0.088308685 -30.037804 -0.087256067 -30.02475 -25.615282 -117.00949
149860000 -25.564276 -122.62146 -0.090102822 -30.230892 -0.087465517 -30.217699 -25.56074 -117.12247
150859000 -25.541838 -123.08353 -0.08916682 -30.426212 -0.087786444 -30.418751 -25.541288 -117.47902
151858000 -25.530077 -123.43465 -0.089382701 -30.634235 -0.087101035 -30.614063 -25.531372 -117.82719
152857000 -25.518934 -123.77822 -0.089271985 -30.828485 -0.087087303 -30.815741 -25.511843 -117.96856
153856000 -25.512257 -123.96568 -0.08858978 -31.030905 -0.086123437 -31.014889 -25.530319 -118.3115
154855000 -25.510178 -124.14324 -0.089613922 -31.226273 -0.086814761 -31.217955 -25.518955 -118.54723
155854000 -25.521137 -124.38653 -0.089493155 -31.427399 -0.087294891 -31.418573 -25.50684 -118.81282
156853000 -25.512674 -125.07055 -0.086962387 -31.615282 -0.086769864 -31.60601 -25.506985 -119.11584
157852000 -25.521837 -125.29228 -0.088885687 -31.8176 -0.088362053 -31.807365 -25.491428 -119.48872
158851000 -25.510496 -125.49194 -0.089043692 -32.016033 -0.088553056 -32.007622 -25.477642 -119.76089
159850000 -25.501806 -125.57325 -0.089588553 -32.215298 -0.088999301 -32.206528 -25.47444 -119.95061
160849000 -25.492945 -125.74601 -0.089643516 -32.413685 -0.089124545 -32.410992 -25.447277 -120.2304
161848000 -25.470737 -125.79098 -0.090626664 -32.616669 -0.089431055 -32.611607 -25.410044 -120.32907
162847000 -25.430878 -125.96007 -0.089184783 -32.812206 -0.089977548 -32.811581 -25.376322 -120.60191
163846000 -25.385914 -126.14072 -0.089920469 -33.014454 -0.089138813 -33.007931 -25.300932 -120.58797
164845000 -25.331577 -126.14952 -0.090602353 -33.214207 -0.089887172 -33.207912 -25.243038 -120.71265
165844000 -25.279581 -126.17432 -0.090520941 -33.412865 -0.090435833 -33.407543 -25.158611 -120.83398
166843000 -25.216475 -126.22337 -0.090404116 -33.61541 -0.090611339 -33.606895 -25.095377 -120.9568
167842000 -25.162317 -126.29248 -0.09157382 -33.812088 -0.090505876 -33.811707 -25.021626 -120.86167
168841000 -25.08186 -126.45544 -0.091191292 -34.013046 -0.090751693 -34.007446 -24.943024 -120.95913
169840000 -25.020704 -126.69684 -0.091316856 -34.203442 -0.091761269 -34.207233 -24.856628 -121.12138
170839000 -24.955669 -126.93054 -0.092150733 -34.401176 -0.09195824 -34.402142 -24.778421 -121.34351
171838000 -24.900892 -127.33759 -0.092172675 -34.605423 -0.092194356 -34.602737 -24.72039 -121.55055
172837000 -24.831078 -127.66814 -0.093713947 -34.801735 -0.093458436 -34.795277 -24.64933 -121.73114
173836000 -24.763035 -128.03281 -0.095257349 -35.003979 -0.094422087 -35.000614 -24.606796 -121.97472
174835000 -24.714697 -128.46571 -0.095102295 -35.20108 -0.095012866 -35.19912 -24.56885 -122.28426
175834000 -24.659771 -128.83961 -0.096148349 -35.399319 -0.09620472 -35.394924 -24.505693 -122.51637
176833000 -24.610897 -129.14941 -0.097109146 -35.597805 -0.096988969 -35.597656 -24.462545 -122.69131
177832000 -24.570438 -129.58748 -0.098125502 -35.797386 -0.097409874 -35.797852 -24.438116 -122.81526
178831000 -24.523354 -129.80984 -0.099534333 -35.994091 -0.099182874 -35.994389 -24.394836 -122.88633
179830000 -24.450249 -130.22746 -0.10060292 -36.177685 -0.10056636 -36.177967 -24.333918 -122.9529
180829000 -24.400585 -130.57674 -0.09982039 -36.369438 -0.099608496 -36.371635 -24.293596 -123.28609
181828000 -24.378511 -131.00772 -0.099365883 -36.570618 -0.098718107 -36.565899 -24.273481 -123.48317
182827000 -24.357176 -131.36847 -0.09893579 -36.76786 -0.098806821 -36.76482 -24.262373 -123.59293
183826000 -24.314291 -131.73427 -0.099551283 -36.966755 -0.098845221 -36.964264 -24.250795 -123.72225
184825000 -24.316551 -132.04941 -0.099294908 -37.162148 -0.099091507 -37.164005 -24.235607 -123.82874
185824000 -24.290155 -132.42877 -0.099222071 -37.356613 -0.099319801 -37.359844 -24.226633 -123.91479
186823000 -24.268986 -132.7905 -0.099318475 -37.561749 -0.099609554 -37.560425 -24.223104 -123.94044
187822000 -24.250572 -133.11414 -0.10012873 -37.754803 -0.099959724 -37.754501 -24.185181 -124.03147
188821000 -24.228666 -133.38654 -0.099227108 -37.946636 -0.10044608 -37.952709 -24.168089 -124.16525
189820000 -24.210857 -133.66867 -0.10017058 -38.151447 -0.10042965 -38.150021 -24.151417 -124.35059
190819000 -24.178251 -133.99979 -0.10053138 -38.34631 -0.10078201 -38.348499 -24.109587 -124.34884
191818000 -24.147068 -134.29454 -0.10098972 -38.544788 -0.1010708 -38.54509 -24.084061 -124.40282
192817000 -24.100891 -134.53455 -0.10126528 -38.742691 -0.10117996 -38.743679 -24.041065 -124.50566
193816000 -24.070156 -134.79501 -0.10127005 -38.939163 -0.10085937 -38.935139 -23.992983 -124.63622
194815000 -24.008076 -135.20209 -0.10160471 -39.132038 -0.10156099 -39.132584 -23.926493 -124.72794
195814000 -23.95599 -135.37251 -0.10246892 -39.333092 -0.10251769 -39.332924 -23.871798 -124.76809
196813000 -23.902462 -135.70882 -0.10186467 -39.522228 -0.10152257 -39.524521 -23.789236 -124.94808
197812000 -23.842337 -135.9001 -0.1018917 -39.719517 -0.10229559 -39.722809 -23.721411 -125.03079
198811000 -23.793526 -136.08104 -0.10221715 -39.920586 -0.10279812 -39.920578 -23.652956 -125.18595
199810000 -23.721779 -136.4257 -0.10271727 -40.112137 -0.10253359 -40.112804 -23.582603 -125.28168
200809000 -23.665966 -136.68399 -0.10318035 -40.311241 -0.10237563 -40.310238 -23.497122 -125.43514
201808000 -23.607656 -136.89507 -0.10354618 -40.512329 -0.10326517 -40.515236 -23.438446 -125.5368
202807000 -23.549513 -137.19592 -0.10450623 -40.70895 -0.10416047 -40.718182 -23.38258 -125.71204
