!Keysight Technologies,E5080B,MY59205177,A.15.75.32
!Date: Friday, February 23, 2024 02:47:40
!Correction: S11(Cdelta 2-Port  ) 
!S21(Cdelta 2-Port  ) 
!S12(Cdelta 2-Port  ) 
!S22(Cdelta 2-Port  ) 
!S2P File: Measurements: S11, S21, S12, S22:
# Hz S  dB   R 50
10000000 -40.543865 -3.2525911 -0.056485228 -2.0500207 -0.059599757 -2.1050394 -54.635681 -95.045433
10999000 -40.127865 -4.5685563 -0.05750864 -2.2685947 -0.059405558 -2.324158 -52.741547 -89.319962
11998000 -39.588829 -6.3831563 -0.057632454 -2.4933019 -0.058653776 -2.5392828 -51.860401 -81.883797
12997000 -39.100246 -9.7961187 -0.057224829 -2.6756632 -0.058813829 -2.7058945 -50.128311 -80.992821
13996000 -38.975288 -12.316396 -0.056322634 -2.8518806 -0.059012726 -2.874099 -48.9547 -78.622902
14995000 -38.74868 -15.117496 -0.058659285 -3.0648234 -0.058362018 -3.0868607 -48.192017 -78.287125
15994000 -38.676147 -17.943111 -0.059422091 -3.2835333 -0.061162062 -3.3025122 -47.537476 -75.633766
16993000 -38.720478 -20.800516 -0.059086461 -3.4807134 -0.060408138 -3.492254 -46.938896 -80.648071
17992000 -38.844563 -24.145615 -0.059123725 -3.6766601 -0.061185688 -3.6806998 -46.398079 -84.628853
18991000 -39.118835 -27.315264 -0.06083627 -3.8889513 -0.061562963 -3.8883426 -45.680824 -87.255745
19990000 -39.093021 -31.05728 -0.063309044 -4.0979986 -0.064336695 -4.0961008 -45.160641 -91.296722
20989000 -39.112164 -33.160839 -0.064779408 -4.3015251 -0.065463401 -4.2934542 -44.500942 -93.805298
21988000 -39.125393 -37.012562 -0.065287597 -4.4983034 -0.066644803 -4.488667 -44.178017 -93.916138
22987000 -39.082092 -40.560837 -0.067019664 -4.6970844 -0.067546517 -4.6908002 -43.937641 -94.856079
23986000 -39.189919 -43.447647 -0.067072764 -4.8914247 -0.06658487 -4.8902612 -43.751598 -94.918983
24985000 -39.026344 -45.744823 -0.068172835 -5.1025438 -0.066720247 -5.0991645 -43.297695 -93.002121
25984000 -38.862377 -47.793751 -0.068844207 -5.3087993 -0.067307793 -5.3133254 -42.85741 -93.036926
26983000 -38.691082 -49.733086 -0.069338933 -5.5057678 -0.067794718 -5.5268955 -42.646641 -92.29747
27982000 -38.614525 -50.854 -0.070682146 -5.7072158 -0.070517972 -5.7429218 -42.295048 -91.523735
28981000 -38.636581 -52.285553 -0.068486288 -5.9113617 -0.070082046 -5.9324389 -41.945473 -91.419785
29980000 -38.381824 -54.118713 -0.068962291 -6.0984111 -0.07123813 -6.106956 -41.586567 -91.948059
30979000 -38.037624 -53.934998 -0.066958152 -6.4567766 -0.065176442 -6.4457736 -41.084606 -93.988762
31978000 -37.897621 -55.136929 -0.066466324 -6.6516337 -0.065718576 -6.6419926 -40.775707 -93.864876
32977000 -37.806988 -56.764942 -0.065710694 -6.8609147 -0.067349337 -6.859035 -40.520966 -94.496956
33976000 -37.692596 -57.935593 -0.067111149 -7.0594072 -0.067595683 -7.0565691 -40.152477 -94.647377
34975000 -37.480377 -59.201962 -0.066971816 -7.2641063 -0.068173617 -7.2608914 -39.892181 -94.911385
35974000 -37.331829 -60.176598 -0.06615486 -7.4551992 -0.067942224 -7.4570308 -39.536442 -94.730515
36973000 -37.163376 -60.942364 -0.066701055 -7.6561589 -0.069184013 -7.6596065 -39.198376 -94.413857
37972000 -36.996574 -61.087914 -0.066079684 -7.8672862 -0.068974659 -7.8775349 -38.908115 -94.199959
38971000 -36.698032 -61.382366 -0.067357481 -8.0692759 -0.068815276 -8.0848627 -38.634071 -92.85434
39970000 -36.4137 -62.317062 -0.065194048 -8.2635031 -0.067472897 -8.2828531 -38.354427 -92.948303
40969000 -36.163483 -62.459431 -0.066004522 -8.4581537 -0.068332449 -8.4777308 -38.006207 -91.903648
41968000 -35.86134 -63.099892 -0.066175096 -8.6684179 -0.067693755 -8.6818848 -37.754574 -91.062752
42967000 -35.629913 -63.620636 -0.066680029 -8.8758125 -0.068371102 -8.8961563 -37.452023 -89.357536
43966000 -35.391918 -64.648796 -0.06736511 -9.0747471 -0.06950096 -9.0905981 -37.13203 -89.463806
44965000 -35.209343 -65.707863 -0.068271965 -9.2777891 -0.070627421 -9.2959356 -36.875378 -89.520828
45964000 -35.035683 -66.868942 -0.069153503 -9.4810705 -0.070893958 -9.4992704 -36.664688 -89.764488
46963000 -34.915775 -68.868248 -0.069572501 -9.6712646 -0.071746022 -9.6980162 -36.483105 -90.317543
47962000 -34.838745 -70.403633 -0.071239442 -9.8763943 -0.073430642 -9.8923874 -36.278732 -90.947426
48961000 -34.665073 -71.882889 -0.073499359 -10.07215 -0.074739046 -10.093206 -36.050373 -91.43502
49960000 -34.510574 -73.554764 -0.074766964 -10.271079 -0.076020189 -10.293889 -35.917023 -91.752716
50959000 -34.346863 -75.031799 -0.074976861 -10.48702 -0.077568643 -10.495676 -35.76355 -92.424271
51958000 -34.19791 -76.195709 -0.077143073 -10.684093 -0.078727782 -10.696171 -35.599689 -93.231705
52957000 -34.040455 -77.464165 -0.078208797 -10.882357 -0.079918608 -10.896076 -35.441364 -93.303833
53956000 -33.895901 -78.359261 -0.079859808 -11.090313 -0.081344754 -11.088477 -35.293152 -93.508553
54955000 -33.75589 -78.996925 -0.08046522 -11.288475 -0.082065389 -11.284369 -35.138786 -93.707634
55954000 -33.620647 -80.014877 -0.081971742 -11.490074 -0.081860684 -11.490735 -35.024963 -93.574234
56953000 -33.513912 -80.243683 -0.081465028 -11.687441 -0.081241891 -11.674655 -34.958775 -93.980385
57952000 -33.381809 -80.983665 -0.082344227 -11.883874 -0.082218125 -11.876628 -34.859657 -94.095886
58951000 -33.270252 -81.516449 -0.083889402 -12.091258 -0.083496988 -12.07091 -34.6917 -94.508934
59950000 -33.156345 -81.95874 -0.084160179 -12.290565 -0.08403033 -12.270319 -34.64259 -94.852623
60949000 -33.0625 -82.667931 -0.084916659 -12.494204 -0.084690966 -12.472424 -34.557571 -95.232727
61948000 -33.005554 -82.965721 -0.08563973 -12.694753 -0.083788589 -12.673975 -34.465679 -95.41925
62947000 -32.920021 -83.268661 -0.085504562 -12.905596 -0.084977895 -12.881576 -34.341251 -95.890266
63946000 -32.87299 -84.091072 -0.086443998 -13.102861 -0.08636082 -13.081593 -34.224693 -96.169106
64945000 -32.767464 -84.323227 -0.087355644 -13.305763 -0.086295597 -13.282897 -34.132393 -96.781746
65944000 -32.680511 -84.673119 -0.088064857 -13.502813 -0.086569428 -13.488331 -34.050434 -97.354324
66943000 -32.543755 -85.238228 -0.086911947 -13.705407 -0.085057884 -13.685699 -33.949314 -97.740723
67942000 -32.479973 -85.252037 -0.088415153 -13.903804 -0.087020218 -13.890858 -33.839081 -98.179733
68941000 -32.372746 -85.479752 -0.087807834 -14.097166 -0.086519785 -14.087744 -33.731155 -98.258446
69940000 -32.264248 -85.554955 -0.088080712 -14.292198 -0.087145932 -14.282178 -33.584595 -98.678032
70939000 -32.164921 -85.56884 -0.088699684 -14.490126 -0.087320246 -14.484828 -33.452213 -98.700951
71938000 -32.008785 -85.440208 -0.088514224 -14.684157 -0.087507777 -14.682287 -33.303669 -98.718529
72937000 -31.856409 -85.376343 -0.087943345 -14.887644 -0.086220078 -14.876637 -33.148834 -98.546822
73936000 -31.705395 -85.127052 -0.087642744 -15.081673 -0.08658237 -15.077849 -33.024971 -98.388489
74935000 -31.586567 -85.516998 -0.087784588 -15.280959 -0.085096955 -15.275192 -32.852467 -98.183563
75934000 -31.47175 -85.889519 -0.087355375 -15.490232 -0.085712336 -15.481517 -32.767662 -98.245842
76933000 -31.35166 -86.351204 -0.088795856 -15.684776 -0.086861499 -15.675334 -32.604229 -98.853508
77932000 -31.270605 -87.197327 -0.089860477 -15.882222 -0.088578686 -15.872532 -32.497684 -98.891518
78931000 -31.208359 -87.979889 -0.088243432 -16.0802 -0.088472478 -16.07271 -32.396889 -98.785713
79930000 -31.115993 -88.885742 -0.090970293 -16.270874 -0.090841033 -16.269346 -32.299252 -99.271812
80929000 -31.00486 -89.876953 -0.093136303 -16.465511 -0.091840588 -16.463676 -32.203518 -99.680428
81928000 -30.936335 -90.778519 -0.09283746 -16.657314 -0.092491567 -16.65448 -32.074196 -99.912117
82927000 -30.861538 -91.586227 -0.094709128 -16.860474 -0.094545893 -16.856831 -31.976032 -100.33238
83926000 -30.756344 -92.397316 -0.096265063 -17.054708 -0.09532059 -17.057405 -31.862406 -100.68139
84925000 -30.67182 -92.905151 -0.097108088 -17.258076 -0.095632039 -17.25308 -31.774935 -100.89126
85924000 -30.585394 -93.384338 -0.097477913 -17.454187 -0.096237801 -17.4531 -31.682512 -100.96078
86923000 -30.485634 -94.010025 -0.09793672 -17.655094 -0.097237535 -17.651007 -31.578253 -100.93859
87922000 -30.38805 -94.546341 -0.097404577 -17.862213 -0.097382873 -17.84956 -31.484735 -101.07111
88921000 -30.318518 -94.843086 -0.099225253 -18.05975 -0.098263718 -18.059683 -31.387463 -101.13947
89920000 -30.228165 -95.513817 -0.10051999 -18.256855 -0.098946385 -18.249956 -31.342165 -101.44128
90919000 -30.137501 -95.901253 -0.10143645 -18.453337 -0.098938435 -18.453417 -31.259245 -101.71435
91918000 -30.053017 -96.348404 -0.10202792 -18.651646 -0.10053933 -18.649933 -31.190186 -101.78947
92917000 -29.964319 -96.723885 -0.10345048 -18.852961 -0.10177563 -18.848169 -31.123877 -101.94212
93916000 -29.888388 -97.179443 -0.10225478 -19.046562 -0.10167494 -19.042221 -31.047062 -102.66006
94915000 -29.823376 -97.886162 -0.1040401 -19.246378 -0.10235628 -19.241739 -30.978786 -102.57424
95914000 -29.756773 -98.152809 -0.10497109 -19.441597 -0.10328957 -19.437559 -30.895885 -102.92628
96913000 -29.676327 -98.438721 -0.10610016 -19.643049 -0.10503527 -19.639315 -30.8356 -103.31568
97912000 -29.598661 -98.937149 -0.10730886 -19.837812 -0.1049687 -19.837605 -30.752871 -103.65341
98911000 -29.501753 -99.21608 -0.10756014 -20.04055 -0.1060044 -20.035555 -30.710609 -103.87772
99910000 -29.44054 -99.395805 -0.10783824 -20.237066 -0.10656572 -20.239298 -30.603737 -104.24596
100909000 -29.346096 -99.745033 -0.10784037 -20.447479 -0.10581024 -20.44087 -30.513281 -104.47329
101908000 -29.26405 -99.999207 -0.10883083 -20.648062 -0.10701833 -20.646454 -30.391109 -104.29082
102907000 -29.126036 -100.07948 -0.10996144 -20.847134 -0.10703266 -20.844803 -30.31637 -104.28529
103906000 -29.032091 -100.21136 -0.10987409 -21.054117 -0.10695359 -21.050228 -30.155872 -104.37498
104905000 -28.884712 -100.25877 -0.11033448 -21.251116 -0.10720565 -21.25107 -30.016294 -104.08463
105904000 -28.741751 -100.46209 -0.11065683 -21.454353 -0.10729799 -21.445448 -29.897181 -104.00928
106903000 -28.631077 -100.5696 -0.10971798 -21.658539 -0.10799534 -21.650751 -29.755762 -103.99136
107902000 -28.47681 -101.02963 -0.11144662 -21.861822 -0.10859965 -21.85384 -29.613613 -104.03703
108901000 -28.369902 -101.35915 -0.11222035 -22.056562 -0.11011038 -22.050421 -29.469225 -104.08728
109900000 -28.246658 -101.94891 -0.11315097 -22.262438 -0.11092503 -22.251474 -29.313238 -104.25155
110899000 -28.136311 -102.63886 -0.11548491 -22.458372 -0.11129232 -22.450943 -29.187731 -104.65903
111898000 -28.051636 -103.36082 -0.11617959 -22.659515 -0.11329604 -22.652575 -29.067163 -104.83621
112897000 -27.938545 -103.95943 -0.11781425 -22.859159 -0.1139638 -22.847744 -28.93119 -105.17599
113896000 -27.845402 -104.62768 -0.11865801 -23.058704 -0.11568189 -23.049711 -28.817884 -105.39961
114895000 -27.745251 -105.34384 -0.11994845 -23.256266 -0.1171927 -23.244129 -28.698662 -105.56241
115894000 -27.618038 -105.7819 -0.12094381 -23.457466 -0.11862556 -23.449753 -28.627087 -105.80876
116893000 -27.54578 -106.39541 -0.12153182 -23.653248 -0.11863221 -23.636332 -28.495564 -106.04002
117892000 -27.461626 -106.92397 -0.1218228 -23.849468 -0.12018157 -23.839739 -28.424755 -106.3518
118891000 -27.40222 -107.38686 -0.12255124 -24.052004 -0.12092412 -24.03776 -28.332182 -106.5456
119890000 -27.314116 -107.80662 -0.12305665 -24.250826 -0.12122037 -24.235466 -28.322233 -106.72204
120889000 -27.270426 -108.36983 -0.12458494 -24.450583 -0.12083921 -24.437555 -28.235294 -106.73106
121888000 -27.227638 -108.7338 -0.12486946 -24.650217 -0.12186539 -24.633741 -28.173687 -107.11052
122887000 -27.182705 -108.93312 -0.12470535 -24.849039 -0.12320764 -24.837051 -28.12574 -107.17506
123886000 -27.129801 -109.35765 -0.12582731 -25.054783 -0.122625 -25.035864 -28.117582 -107.38317
124885000 -27.094585 -109.90233 -0.1266761 -25.25684 -0.12337116 -25.24155 -28.081276 -107.40026
125884000 -27.042597 -110.14096 -0.12736565 -25.451084 -0.12339939 -25.43725 -28.053078 -107.6142
126883000 -27.019754 -110.52183 -0.12745601 -25.652342 -0.12483909 -25.637785 -28.008659 -107.69824
127882000 -26.966732 -110.84746 -0.12811716 -25.853043 -0.1250754 -25.836178 -27.965111 -107.89033
128881000 -26.934412 -111.18957 -0.12826379 -26.057255 -0.12487186 -26.036552 -27.922268 -108.01973
129880000 -26.888435 -111.52896 -0.12922665 -26.255623 -0.12496537 -26.237812 -27.873163 -107.9976
130879000 -26.815781 -111.71106 -0.1293072 -26.453686 -0.12584864 -26.439352 -27.792953 -108.10614
131878000 -26.749187 -111.98251 -0.12921652 -26.656769 -0.12628326 -26.639393 -27.730639 -108.05327
132877000 -26.667551 -112.05061 -0.12837711 -26.860849 -0.12641332 -26.840225 -27.637363 -108.07552
133876000 -26.592367 -112.25109 -0.12903625 -27.060694 -0.12640639 -27.04059 -27.538313 -108.00967
134875000 -26.495983 -112.44012 -0.13037112 -27.258499 -0.12781003 -27.244261 -27.420597 -107.91857
135874000 -26.411777 -112.51131 -0.13007718 -27.465254 -0.12668009 -27.441963 -27.316446 -107.95747
136873000 -26.297722 -112.48466 -0.13004836 -27.663784 -0.12689333 -27.643909 -27.220146 -107.95896
137872000 -26.208822 -112.65651 -0.13042714 -27.86552 -0.12720197 -27.84853 -27.114567 -107.96
138871000 -26.140535 -112.82725 -0.13151269 -28.063925 -0.12814142 -28.049196 -27.018616 -108.18857
139870000 -26.044765 -113.1985 -0.13202181 -28.263477 -0.12875067 -28.245993 -26.933977 -108.36338
140869000 -25.964584 -113.67684 -0.13326363 -28.459135 -0.12998222 -28.438568 -26.82234 -108.56326
141868000 -25.871052 -114.19907 -0.13350815 -28.653831 -0.13082008 -28.635679 -26.756012 -109.00368
142867000 -25.797085 -114.45149 -0.13200633 -28.848404 -0.12971604 -28.832899 -26.677078 -109.18497
143866000 -25.730854 -115.02597 -0.1341323 -29.04763 -0.13157032 -29.031538 -26.611267 -109.74705
144865000 -25.672176 -115.57291 -0.13540572 -29.245333 -0.13340244 -29.230082 -26.559299 -110.08194
145864000 -25.624336 -115.92648 -0.13615622 -29.445227 -0.13374573 -29.43828 -26.525106 -110.38711
146863000 -25.581482 -116.31809 -0.13723999 -29.64394 -0.1338955 -29.631609 -26.478497 -110.72637
147862000 -25.542538 -116.73286 -0.13735968 -29.844177 -0.13453653 -29.829857 -26.453146 -111.09453
148861000 -25.512745 -117.28237 -0.13813457 -30.042238 -0.13563994 -30.024611 -26.428295 -111.36037
149860000 -25.498089 -117.45957 -0.13920093 -30.238543 -0.13600422 -30.232283 -26.398966 -111.5471
150859000 -25.48016 -117.85347 -0.13919772 -30.440937 -0.1365494 -30.423477 -26.390871 -111.8006
151858000 -25.464937 -118.18226 -0.1393704 -30.640175 -0.13632797 -30.625492 -26.387135 -112.10114
152857000 -25.449785 -118.55635 -0.13987347 -30.834677 -0.13735487 -30.822165 -26.375135 -112.25723
153856000 -25.441578 -118.77274 -0.13958798 -31.033802 -0.1364105 -31.01927 -26.402409 -112.51637
154855000 -25.434746 -118.94028 -0.14018787 -31.233582 -0.13641718 -31.225357 -26.390512 -112.79517
155854000 -25.448605 -119.19099 -0.14012371 -31.434324 -0.13729742 -31.422586 -26.379118 -113.04099
156853000 -25.436602 -119.86374 -0.13774738 -31.621481 -0.13683124 -31.61319 -26.37855 -113.35255
157852000 -25.443016 -120.13271 -0.13987723 -31.820066 -0.13799882 -31.814301 -26.374262 -113.71377
158851000 -25.438105 -120.3369 -0.14013548 -32.021309 -0.13864045 -32.012512 -26.363338 -113.94776
159850000 -25.421343 -120.50598 -0.14049 -32.220531 -0.13864072 -32.211105 -26.368391 -114.11254
160849000 -25.403219 -120.59877 -0.14093278 -32.417858 -0.13933565 -32.409962 -26.33746 -114.46227
161848000 -25.379326 -120.72638 -0.14074828 -32.617786 -0.13957515 -32.60952 -26.304199 -114.56454
162847000 -25.33489 -120.95023 -0.14147297 -32.815178 -0.14006543 -32.812435 -26.272202 -114.83159
163846000 -25.29431 -121.19495 -0.14161202 -33.016689 -0.13965802 -33.006451 -26.191345 -114.85548
164845000 -25.232937 -121.24172 -0.14216673 -33.217674 -0.14081781 -33.213547 -26.116367 -114.95467
165844000 -25.178854 -121.33898 -0.1421563 -33.411442 -0.14127159 -33.408035 -26.034182 -115.12997
166843000 -25.110447 -121.43586 -0.1422312 -33.613155 -0.14104776 -33.609859 -25.960848 -115.37038
167842000 -25.054646 -121.6251 -0.14270198 -33.811665 -0.14138685 -33.805443 -25.875933 -115.30381
168841000 -24.973976 -121.8587 -0.14287907 -34.008987 -0.14165589 -34.004944 -25.799433 -115.41449
169840000 -24.908659 -122.16023 -0.143042 -34.205051 -0.14191318 -34.20335 -25.71104 -115.68107
170839000 -24.854183 -122.43749 -0.14436913 -34.403404 -0.14268567 -34.400532 -25.619749 -115.86968
171838000 -24.797739 -122.8511 -0.14429046 -34.604763 -0.14349735 -34.598011 -25.558779 -116.15378
172837000 -24.728807 -123.26974 -0.14577645 -34.801117 -0.14483185 -34.794075 -25.487795 -116.42067
173836000 -24.660433 -123.71695 -0.14689396 -34.997837 -0.14542417 -34.995094 -25.449123 -116.67905
174835000 -24.612581 -124.15133 -0.1478923 -35.192635 -0.14682648 -35.193832 -25.402983 -117.05588
175834000 -24.562386 -124.58031 -0.14861818 -35.394077 -0.1470921 -35.389771 -25.334677 -117.41331
176833000 -24.512283 -124.96286 -0.14903875 -35.589531 -0.14830156 -35.589672 -25.284401 -117.61066
177832000 -24.470158 -125.47729 -0.14946365 -35.785091 -0.14871782 -35.787731 -25.262081 -117.80302
178831000 -24.437103 -125.88531 -0.14985082 -35.983891 -0.14927638 -35.983025 -25.229839 -118.06005
179830000 -24.392118 -126.29868 -0.15108114 -36.180046 -0.14940497 -36.180988 -25.203176 -118.21584
180829000 -24.355034 -126.54699 -0.15082224 -36.378384 -0.15030609 -36.378693 -25.167376 -118.36908
181828000 -24.330952 -126.92639 -0.15106773 -36.57885 -0.14978732 -36.573677 -25.15657 -118.52222
182827000 -24.306072 -127.27715 -0.15160865 -36.76815 -0.1514505 -36.772861 -25.135082 -118.62491
183826000 -24.265285 -127.60825 -0.15291534 -36.972691 -0.15117709 -36.964767 -25.127403 -118.79134
184825000 -24.268967 -127.94028 -0.15283008 -37.166199 -0.15193675 -37.163246 -25.107868 -118.93193
185824000 -24.239109 -128.33469 -0.15318885 -37.362381 -0.1511184 -37.35907 -25.103106 -118.96116
186823000 -24.224159 -128.67068 -0.15290569 -37.559731 -0.15146229 -37.559422 -25.099901 -118.9472
187822000 -24.204281 -129.01756 -0.15360129 -37.754017 -0.15260378 -37.75528 -25.064873 -119.00927
188821000 -24.178841 -129.25836 -0.15312369 -37.951012 -0.15258019 -37.953735 -25.046875 -119.12238
189820000 -24.163183 -129.53348 -0.15373753 -38.153168 -0.15302207 -38.153309 -25.037735 -119.2888
190819000 -24.134264 -129.7899 -0.15511945 -38.352962 -0.15386385 -38.352081 -24.999491 -119.24188
191818000 -24.101515 -129.97882 -0.15611002 -38.546471 -0.15545909 -38.548141 -24.962152 -119.16534
192817000 -24.029552 -130.29324 -0.15715557 -38.734608 -0.15599437 -38.732052 -24.886127 -119.23534
193816000 -23.985838 -130.61412 -0.1557934 -38.925785 -0.15508324 -38.923714 -24.832016 -119.5127
194815000 -23.930988 -131.09993 -0.15590127 -39.123291 -0.15523481 -39.123459 -24.759628 -119.69245
195814000 -23.881063 -131.3311 -0.15674119 -39.319633 -0.1554666 -39.322613 -24.708113 -119.82696
196813000 -23.829584 -131.70547 -0.15588382 -39.515121 -0.15478627 -39.516468 -24.629547 -120.01052
197812000 -23.769417 -131.93141 -0.15625949 -39.713444 -0.15598203 -39.711304 -24.555578 -120.13438
198811000 -23.717424 -132.13487 -0.15633757 -39.911346 -0.15557286 -39.91283 -24.486683 -120.34818
199810000 -23.647036 -132.56297 -0.15660298 -40.102505 -0.15512964 -40.104366 -24.401758 -120.46895
200809000 -23.588535 -132.84061 -0.15676963 -40.297638 -0.15562706 -40.298672 -24.31756 -120.69453
201808000 -23.534035 -133.08604 -0.15744868 -40.505226 -0.15688156 -40.507927 -24.248402 -120.78934
202807000 -23.474272 -133.50935 -0.15832596 -40.704765 -0.15727609 -40.705238 -24.193493 -121.00246
203806000 -23.424238 -133.94862 -0.16045223 -40.901825 -0.1574825 -40.904118 -24.126345 -121.24332
204805000 -23.375114 -134.31026 -0.16159017 -41.102676 -0.15957318 -41.103062 -24.063242 -121.45322
