!Keysight Technologies,E5080B,MY59205177,A.15.75.32
!Date: Friday, February 23, 2024 03:26:56
!Correction: S11(Cdelta 2-Port  ) 
!S21(Cdelta 2-Port  ) 
!S12(Cdelta 2-Port  ) 
!S22(Cdelta 2-Port  ) 
!S2P File: Measurements: S11, S21, S12, S22:
# Hz S  dB   R 50
10000000 -45.943378 -0.53486174 -0.016343793 -2.0587204 -0.019775499 -2.1127579 -46.146564 -159.45767
10999000 -45.159565 -2.6422238 -0.017784562 -2.2785776 -0.019195387 -2.331367 -46.165367 -152.93254
11998000 -44.264477 -5.7009521 -0.01846925 -2.5027809 -0.019121805 -2.5470936 -46.32354 -148.92566
12997000 -43.528347 -11.423113 -0.01757117 -2.683624 -0.019047445 -2.7162485 -46.054958 -142.73869
13996000 -43.248055 -15.003378 -0.016250513 -2.864573 -0.018743258 -2.8861778 -45.828251 -137.42978
14995000 -42.811562 -19.266273 -0.018679824 -3.0775819 -0.019184725 -3.0992539 -45.567749 -133.67227
15994000 -42.697815 -23.636841 -0.020263623 -3.2943704 -0.021710116 -3.3149023 -45.444111 -130.00314
16993000 -42.653458 -28.027014 -0.019404437 -3.4933755 -0.020755444 -3.5017769 -44.593399 -129.86609
17992000 -42.733315 -33.70977 -0.020086 -3.6889164 -0.021839155 -3.6931102 -44.035778 -129.65398
18991000 -43.018669 -38.358173 -0.020848041 -3.9039578 -0.022194294 -3.9040439 -43.413391 -128.64674
19990000 -42.868099 -44.497459 -0.02322085 -4.1139035 -0.02373643 -4.106379 -42.745808 -129.26109
20989000 -42.68924 -47.781742 -0.025437422 -4.3198137 -0.026129307 -4.3092513 -42.169949 -128.47574
21988000 -42.51421 -52.64539 -0.025804574 -4.5132561 -0.027316734 -4.5041466 -41.887608 -127.77419
22987000 -42.2271 -57.626431 -0.027472772 -4.7180061 -0.02795577 -4.7117238 -41.64296 -127.20557
23986000 -42.195724 -62.051041 -0.027398007 -4.9129167 -0.027386025 -4.9140892 -41.558861 -127.31858
24985000 -41.86446 -64.832794 -0.028023768 -5.121192 -0.027759073 -5.1206903 -41.368118 -124.73811
25984000 -41.452843 -66.87252 -0.029335503 -5.3279595 -0.02800006 -5.3272586 -41.008625 -122.82235
26983000 -41.164654 -68.872726 -0.029652681 -5.528533 -0.028943297 -5.5481725 -40.920876 -122.51869
27982000 -41.069569 -69.946251 -0.031496793 -5.7278843 -0.030074928 -5.7636509 -40.630013 -120.609
28981000 -40.999592 -71.398537 -0.028942514 -5.9244809 -0.029999597 -5.9510694 -40.418518 -120.00898
29980000 -40.563408 -72.975098 -0.02950751 -6.1216102 -0.030175542 -6.1293974 -40.142941 -118.91257
30979000 -40.203499 -71.512543 -0.027021606 -6.4730692 -0.026211342 -6.4643617 -39.618038 -119.58462
31978000 -39.985043 -72.473824 -0.025995973 -6.6681471 -0.027047653 -6.6623669 -39.356388 -118.80017
32977000 -39.808506 -74.304733 -0.02617931 -6.8850112 -0.027696809 -6.882668 -39.110325 -118.75243
33976000 -39.621231 -75.492455 -0.02692497 -7.0854607 -0.028160291 -7.0785389 -38.830502 -118.24914
34975000 -39.331814 -76.27655 -0.027308658 -7.2851396 -0.029737908 -7.2845616 -38.607807 -117.88356
35974000 -39.132381 -76.79483 -0.026724933 -7.482923 -0.029574493 -7.4854922 -38.321651 -116.79102
36973000 -38.900841 -77.442535 -0.027229208 -7.6850166 -0.029959457 -7.6878314 -38.053253 -115.82702
37972000 -38.72551 -77.302956 -0.026778327 -7.8934994 -0.029640432 -7.9007583 -37.831318 -115.06077
38971000 -38.37532 -76.69313 -0.027567074 -8.0961132 -0.030858016 -8.1028767 -37.649925 -113.43732
39970000 -38.055004 -77.106262 -0.026134517 -8.2893457 -0.028846357 -8.3026838 -37.403576 -112.78075
40969000 -37.776882 -76.842865 -0.02668873 -8.4878616 -0.028485723 -8.5051413 -37.170929 -111.24953
41968000 -37.405052 -76.847435 -0.026656695 -8.6926699 -0.029000627 -8.7063675 -36.951481 -109.92404
42967000 -37.145096 -76.935036 -0.026542617 -8.9011173 -0.029804112 -8.9213409 -36.747047 -107.98849
43966000 -36.857147 -77.677773 -0.027446201 -9.1027317 -0.030366875 -9.1262722 -36.490299 -107.41683
44965000 -36.605694 -78.377167 -0.028770007 -9.3083935 -0.031220412 -9.3307734 -36.255032 -107.04737
45964000 -36.3661 -79.468521 -0.029751724 -9.5085936 -0.032688033 -9.527173 -36.015892 -106.70412
46963000 -36.162205 -81.497696 -0.029926093 -9.7039585 -0.03288652 -9.7258539 -35.832779 -106.84682
47962000 -36.011913 -82.994576 -0.031822212 -9.9070501 -0.034275386 -9.9236097 -35.633984 -106.95265
48961000 -35.792137 -84.351326 -0.033969346 -10.105309 -0.035892289 -10.128687 -35.402042 -107.02791
49960000 -35.577454 -85.621323 -0.035182405 -10.305573 -0.036992054 -10.326381 -35.262867 -107.16338
50959000 -35.329376 -86.990112 -0.036339156 -10.518216 -0.038492445 -10.528966 -35.081558 -107.34807
51958000 -35.146347 -88.09201 -0.0373547 -10.718846 -0.039803427 -10.727466 -34.906471 -107.86754
52957000 -34.921379 -89.213402 -0.038913202 -10.919244 -0.041057836 -10.927093 -34.736965 -107.6153
53956000 -34.766705 -89.863998 -0.039909229 -11.123871 -0.041975681 -11.125776 -34.612942 -107.56381
54955000 -34.587803 -90.386818 -0.041013148 -11.326779 -0.043447729 -11.320896 -34.450695 -107.49099
55954000 -34.422794 -91.189201 -0.042347632 -11.524646 -0.042895291 -11.525303 -34.357136 -107.17616
56953000 -34.298729 -91.101814 -0.042607993 -11.722832 -0.041976988 -11.713006 -34.273983 -107.38528
57952000 -34.132656 -91.683434 -0.043629184 -11.919384 -0.043422367 -11.912321 -34.179176 -107.44807
58951000 -34.021347 -92.044426 -0.044558037 -12.127418 -0.043617159 -12.110495 -34.024544 -107.40015
59950000 -33.890087 -92.448753 -0.044692468 -12.327425 -0.044839714 -12.308482 -33.952347 -107.73293
60949000 -33.785091 -93.053719 -0.04549703 -12.532086 -0.045211911 -12.508494 -33.861443 -108.01218
61948000 -33.715416 -93.288788 -0.04612802 -12.731453 -0.045115653 -12.714925 -33.77462 -108.10685
62947000 -33.630264 -93.531898 -0.046728227 -12.942107 -0.046151306 -12.923497 -33.638939 -108.35517
63946000 -33.555805 -94.325493 -0.047389753 -13.142075 -0.047467478 -13.121729 -33.532261 -108.48781
64945000 -33.454735 -94.371712 -0.047837023 -13.342296 -0.048442699 -13.324459 -33.418644 -109.02228
65944000 -33.351994 -94.786781 -0.049107891 -13.544834 -0.048601069 -13.526607 -33.324436 -109.46434
66943000 -33.207817 -95.125328 -0.046681389 -13.747446 -0.047192961 -13.727812 -33.230225 -109.71999
67942000 -33.154629 -95.02153 -0.048849761 -13.943569 -0.048843216 -13.930416 -33.090279 -109.96296
68941000 -33.024269 -95.138107 -0.048456311 -14.136751 -0.048125718 -14.126123 -32.986347 -109.92453
69940000 -32.932896 -95.143547 -0.048814159 -14.33362 -0.048961546 -14.328038 -32.83762 -110.25225
70939000 -32.817814 -95.101601 -0.049489617 -14.533152 -0.04917727 -14.523714 -32.7001 -110.1284
71938000 -32.674614 -94.60408 -0.049025424 -14.730269 -0.048543479 -14.725243 -32.567936 -110.00913
72937000 -32.509945 -94.454529 -0.048831172 -14.928992 -0.04873405 -14.927061 -32.422321 -109.62529
73936000 -32.367538 -94.177437 -0.048053738 -15.134356 -0.047656436 -15.124506 -32.303577 -109.49368
74935000 -32.244808 -94.266487 -0.048031751 -15.329275 -0.047227502 -15.324937 -32.153648 -109.11161
75934000 -32.113285 -94.600731 -0.04774411 -15.532873 -0.047119949 -15.530392 -32.05518 -109.03314
76933000 -31.977472 -94.982193 -0.049055532 -15.73259 -0.048767038 -15.722906 -31.892664 -109.4373
77932000 -31.878206 -95.752457 -0.050273333 -15.926787 -0.050173823 -15.921016 -31.788818 -109.33987
78931000 -31.806911 -96.430183 -0.049313411 -16.127466 -0.049279112 -16.122133 -31.679033 -109.15427
79930000 -31.689039 -97.338867 -0.050866779 -16.319139 -0.051421277 -16.319571 -31.572453 -109.48701
80929000 -31.573511 -98.171066 -0.052970685 -16.518177 -0.053055059 -16.516493 -31.469809 -109.70603
81928000 -31.474892 -98.940376 -0.053673524 -16.708735 -0.054402161 -16.706026 -31.344963 -109.69707
82927000 -31.379913 -99.698532 -0.05509422 -16.907482 -0.055400178 -16.909494 -31.237286 -110.02058
83926000 -31.252708 -100.36765 -0.056952316 -17.107349 -0.056545284 -17.106129 -31.112068 -110.18491
84925000 -31.14336 -100.77657 -0.057315849 -17.307535 -0.057083458 -17.305017 -31.016289 -110.28396
85924000 -31.05228 -101.18722 -0.0583064 -17.511854 -0.058443617 -17.507277 -30.927702 -110.21568
86923000 -30.935144 -101.66974 -0.058769226 -17.706673 -0.058773685 -17.703022 -30.825991 -110.06113
87922000 -30.828245 -102.0589 -0.058751382 -17.917076 -0.05820277 -17.908218 -30.733141 -110.10471
88921000 -30.763512 -102.26538 -0.060220465 -18.111923 -0.059070718 -18.106035 -30.640078 -110.03741
89920000 -30.650938 -102.81733 -0.06013621 -18.311253 -0.059972957 -18.303967 -30.595144 -110.17393
90919000 -30.538879 -103.08069 -0.061333235 -18.51162 -0.060286082 -18.510422 -30.502459 -110.38392
91918000 -30.454721 -103.42035 -0.0625256 -18.711536 -0.060838636 -18.705641 -30.430584 -110.40546
92917000 -30.357561 -103.76558 -0.063298017 -18.911293 -0.062393505 -18.905443 -30.35894 -110.43204
93916000 -30.273302 -104.14583 -0.063091569 -19.102362 -0.06127679 -19.09778 -30.282934 -111.03994
94915000 -30.197392 -104.74789 -0.064663276 -19.306644 -0.062188417 -19.298832 -30.21014 -110.89262
95914000 -30.129513 -104.92369 -0.065886773 -19.499329 -0.064043246 -19.495522 -30.127451 -111.16276
96913000 -30.043526 -105.12417 -0.066515215 -19.69998 -0.065553539 -19.695097 -30.068401 -111.51161
97912000 -29.968285 -105.57976 -0.068047404 -19.898417 -0.065382719 -19.898041 -29.977371 -111.76268
98911000 -29.860817 -105.80811 -0.068604887 -20.100367 -0.067138225 -20.096357 -29.948627 -111.96729
99910000 -29.787521 -105.93883 -0.069979973 -20.298565 -0.067115352 -20.297628 -29.834652 -112.24279
100909000 -29.699657 -106.20049 -0.06834349 -20.509453 -0.067239441 -20.498695 -29.74275 -112.49333
101908000 -29.615076 -106.47015 -0.070427731 -20.709524 -0.068275124 -20.704489 -29.630272 -112.24208
102907000 -29.473766 -106.45778 -0.070748448 -20.909241 -0.067542307 -20.906532 -29.558582 -112.25166
103906000 -29.379496 -106.51157 -0.07005126 -21.113453 -0.067275196 -21.110069 -29.40444 -112.23357
104905000 -29.228249 -106.36203 -0.071285754 -21.315075 -0.068245143 -21.314129 -29.289362 -111.91625
105904000 -29.086258 -106.49847 -0.071825765 -21.517838 -0.068444736 -21.51368 -29.17388 -111.7254
106903000 -28.969292 -106.55856 -0.071584962 -21.72378 -0.069339454 -21.718372 -29.037642 -111.67392
107902000 -28.798599 -106.90126 -0.072691701 -21.922764 -0.069409423 -21.915493 -28.898993 -111.58461
108901000 -28.697275 -107.17643 -0.073791079 -22.124491 -0.070566908 -22.117834 -28.761105 -111.5379
109900000 -28.562988 -107.63752 -0.074208692 -22.323986 -0.071889453 -22.318348 -28.620697 -111.62411
110899000 -28.446804 -108.21635 -0.076207489 -22.522701 -0.072640635 -22.516603 -28.488825 -111.87574
111898000 -28.360348 -108.88454 -0.077877246 -22.723959 -0.074388802 -22.720705 -28.368683 -112.01797
112897000 -28.229721 -109.48061 -0.079016432 -22.923994 -0.074981079 -22.916662 -28.232626 -112.20676
113896000 -28.12294 -110.03657 -0.079786509 -23.128988 -0.077169687 -23.11549 -28.121891 -112.31635
114895000 -28.02754 -110.67519 -0.081252962 -23.322554 -0.077979498 -23.312223 -28.005032 -112.42487
115894000 -27.899736 -111.0584 -0.082110234 -23.526085 -0.079255007 -23.513336 -27.94313 -112.58013
116893000 -27.82699 -111.52133 -0.082901441 -23.725286 -0.080476031 -23.708641 -27.820692 -112.63367
117892000 -27.737623 -112.05786 -0.083185613 -23.921225 -0.08096312 -23.903934 -27.742561 -112.86839
118891000 -27.682196 -112.46124 -0.084316693 -24.118425 -0.080979735 -24.109182 -27.637848 -112.98291
119890000 -27.585785 -112.77844 -0.084527314 -24.32165 -0.082050085 -24.311148 -27.6285 -113.09931
120889000 -27.536644 -113.34041 -0.085516706 -24.523924 -0.081910275 -24.506163 -27.556276 -113.02348
121888000 -27.499882 -113.67654 -0.085818209 -24.722509 -0.082839966 -24.711002 -27.494942 -113.29258
122887000 -27.465488 -113.80994 -0.086769335 -24.919371 -0.083647408 -24.914366 -27.449942 -113.27631
123886000 -27.41095 -114.26022 -0.087078057 -25.124643 -0.08364477 -25.107281 -27.437477 -113.46242
124885000 -27.368361 -114.76765 -0.087461554 -25.324369 -0.084142499 -25.313919 -27.404432 -113.51254
125884000 -27.315102 -114.93835 -0.088205129 -25.526325 -0.084612839 -25.513178 -27.373304 -113.66269
126883000 -27.299959 -115.3572 -0.089566089 -25.727558 -0.085192777 -25.716623 -27.329782 -113.64425
127882000 -27.242538 -115.62891 -0.089890338 -25.928036 -0.085812666 -25.912193 -27.288763 -113.80185
128881000 -27.217398 -115.94761 -0.089681305 -26.12862 -0.085970029 -26.115589 -27.248554 -113.90684
129880000 -27.156723 -116.31168 -0.090767555 -26.332756 -0.08621268 -26.314417 -27.21073 -113.87814
130879000 -27.099693 -116.46701 -0.090617947 -26.533566 -0.087009132 -26.51638 -27.133831 -113.92593
131878000 -27.028456 -116.65676 -0.090640679 -26.736355 -0.087192416 -26.717251 -27.066574 -113.79399
132877000 -26.960939 -116.77012 -0.090718389 -26.936644 -0.087573811 -26.921368 -26.990072 -113.74416
133876000 -26.867199 -116.93639 -0.091095597 -27.139097 -0.087192416 -27.123045 -26.900234 -113.67626
134875000 -26.773825 -117.04901 -0.091183357 -27.341568 -0.088063538 -27.320244 -26.795853 -113.47711
135874000 -26.69536 -117.06808 -0.091617443 -27.541656 -0.088465609 -27.52437 -26.693647 -113.46021
136873000 -26.576435 -117.02652 -0.091588892 -27.740738 -0.087974779 -27.723358 -26.6035 -113.42226
137872000 -26.494247 -117.14523 -0.09149874 -27.944717 -0.088309214 -27.930807 -26.504169 -113.3311
138871000 -26.418341 -117.38758 -0.091764174 -28.145067 -0.088611446 -28.126749 -26.405035 -113.46874
139870000 -26.318398 -117.67535 -0.093040034 -28.344685 -0.08981476 -28.327776 -26.321085 -113.65311
140869000 -26.24155 -118.22506 -0.093562387 -28.544308 -0.090630107 -28.523741 -26.217688 -113.88975
141868000 -26.158319 -118.62553 -0.094990902 -28.742226 -0.09244556 -28.727671 -26.164974 -114.10486
142867000 -26.073324 -118.83648 -0.093560532 -28.938179 -0.091132864 -28.921309 -26.088022 -114.24302
143866000 -25.997704 -119.33987 -0.095526718 -29.134237 -0.09228082 -29.12323 -26.012278 -114.71927
144865000 -25.946127 -119.85893 -0.096801564 -29.336523 -0.09417209 -29.318279 -25.952227 -114.98722
145864000 -25.890324 -120.16516 -0.097306892 -29.535568 -0.095814899 -29.52603 -25.923483 -115.26749
146863000 -25.838856 -120.48394 -0.098273247 -29.73587 -0.095429607 -29.722944 -25.870159 -115.55634
147862000 -25.808542 -120.85057 -0.099235579 -29.932013 -0.095940068 -29.921915 -25.843649 -115.82973
148861000 -25.776476 -121.31619 -0.10072452 -30.133398 -0.097563423 -30.119028 -25.823977 -116.03568
149860000 -25.739744 -121.46165 -0.10195716 -30.328188 -0.098663293 -30.316795 -25.767492 -116.08109
150859000 -25.723223 -121.92243 -0.10083552 -30.524683 -0.098204143 -30.507212 -25.746828 -116.44102
151858000 -25.711014 -122.28559 -0.10070889 -30.721304 -0.097848028 -30.710693 -25.739927 -116.77708
152857000 -25.695333 -122.62338 -0.10120831 -30.924135 -0.098512091 -30.911804 -25.730553 -116.9437
153856000 -25.693785 -122.8259 -0.1008297 -31.123226 -0.097897269 -31.112396 -25.743311 -117.27062
154855000 -25.693434 -122.98495 -0.10103954 -31.324488 -0.098063812 -31.310909 -25.734833 -117.4585
155854000 -25.709738 -123.23257 -0.10173271 -31.526617 -0.09885899 -31.509575 -25.732906 -117.74609
156853000 -25.699902 -123.9325 -0.099663325 -31.709734 -0.097848028 -31.701675 -25.728863 -118.06754
157852000 -25.710102 -124.1419 -0.10059497 -31.913643 -0.099432096 -31.905188 -25.719959 -118.41261
158851000 -25.70933 -124.36108 -0.10147355 -32.111401 -0.099838667 -32.103668 -25.709547 -118.67085
159850000 -25.701427 -124.46732 -0.10228764 -32.314732 -0.099988855 -32.305214 -25.708815 -118.85648
160849000 -25.682379 -124.54769 -0.10195372 -32.50914 -0.10121176 -32.505726 -25.679922 -119.14568
161848000 -25.668459 -124.63606 -0.10239843 -32.7122 -0.10072266 -32.704807 -25.642891 -119.26127
162847000 -25.631346 -124.83173 -0.10241538 -32.912663 -0.1017343 -32.908348 -25.617039 -119.52142
163846000 -25.58802 -125.01092 -0.10253306 -33.112698 -0.10173482 -33.100819 -25.536083 -119.5267
164845000 -25.530024 -125.00088 -0.10374501 -33.310371 -0.10213446 -33.305412 -25.475674 -119.63527
165844000 -25.478468 -125.0719 -0.10363181 -33.510414 -0.10271595 -33.505436 -25.395969 -119.75416
166843000 -25.413895 -125.1071 -0.10398522 -33.70969 -0.10314775 -33.707249 -25.328485 -119.94375
167842000 -25.35815 -125.21506 -0.10488411 -33.912899 -0.10327472 -33.902321 -25.251223 -119.8282
168841000 -25.27636 -125.39944 -0.10457862 -34.110218 -0.10362545 -34.106049 -25.174364 -119.93576
169840000 -25.212511 -125.63911 -0.10420687 -34.308498 -0.1039139 -34.300732 -25.091194 -120.11015
170839000 -25.152239 -125.87679 -0.10576224 -34.503269 -0.10437445 -34.50066 -25.009027 -120.31637
171838000 -25.097498 -126.27499 -0.10594764 -34.709156 -0.10543679 -34.7001 -24.940756 -120.54721
172837000 -25.020927 -126.64414 -0.10707272 -34.904953 -0.10617099 -34.895954 -24.873787 -120.75414
173836000 -24.95215 -127.03613 -0.10861265 -35.101826 -0.10713879 -35.10268 -24.835171 -120.97446
174835000 -24.9006 -127.44435 -0.1088165 -35.298939 -0.10827585 -35.29969 -24.792534 -121.27252
175834000 -24.844978 -127.80605 -0.10972329 -35.5019 -0.10885897 -35.495216 -24.724796 -121.56752
176833000 -24.798512 -128.15356 -0.11123362 -35.698532 -0.10934898 -35.696789 -24.675497 -121.70139
177832000 -24.752934 -128.58458 -0.1111428 -35.895973 -0.11085068 -35.898979 -24.655087 -121.82255
178831000 -24.710085 -128.84525 -0.11278699 -36.096462 -0.1116745 -36.093914 -24.616383 -121.95567
179830000 -24.647205 -129.18039 -0.11501892 -36.283562 -0.11362446 -36.284454 -24.56991 -121.94314
180829000 -24.587967 -129.53996 -0.11451153 -36.471516 -0.11306701 -36.474045 -24.512125 -122.27016
181828000 -24.559994 -129.96834 -0.11310793 -36.670467 -0.11224611 -36.666203 -24.488857 -122.48797
182827000 -24.538366 -130.35605 -0.11288714 -36.870869 -0.11262759 -36.87125 -24.472515 -122.60923
183826000 -24.494198 -130.69919 -0.11400977 -37.06773 -0.11261111 -37.064686 -24.459551 -122.75515
184825000 -24.497103 -131.04184 -0.11380568 -37.268612 -0.11354847 -37.267189 -24.444593 -122.88069
185824000 -24.468884 -131.38368 -0.11400393 -37.462242 -0.11330666 -37.46487 -24.437307 -122.97943
186823000 -24.45562 -131.75626 -0.1143813 -37.664089 -0.11314273 -37.661488 -24.431541 -122.99706
187822000 -24.427753 -132.09029 -0.11464601 -37.857639 -0.11404166 -37.857681 -24.390928 -123.08405
188821000 -24.402517 -132.33803 -0.11412351 -38.050407 -0.11395715 -38.056908 -24.367146 -123.2131
189820000 -24.378826 -132.64406 -0.11487778 -38.255173 -0.11399648 -38.254066 -24.355461 -123.41119
190819000 -24.34646 -132.9453 -0.11576298 -38.450607 -0.11485014 -38.450096 -24.31238 -123.41842
191818000 -24.314985 -133.22954 -0.11567206 -38.651085 -0.11504099 -38.648701 -24.282354 -123.48818
192817000 -24.267347 -133.51315 -0.11649227 -38.849342 -0.11540409 -38.848038 -24.237711 -123.5745
193816000 -24.238712 -133.79402 -0.11601953 -39.041706 -0.11497135 -39.042423 -24.183573 -123.69975
194815000 -24.172197 -134.16647 -0.11640479 -39.238262 -0.11567764 -39.241016 -24.119989 -123.7868
195814000 -24.115805 -134.34608 -0.11760573 -39.434868 -0.11606155 -39.437305 -24.062986 -123.89069
196813000 -24.059517 -134.70276 -0.1172927 -39.628826 -0.11616071 -39.633621 -23.978539 -124.05505
197812000 -24.003937 -134.91913 -0.11775095 -39.826717 -0.11695869 -39.824505 -23.90807 -124.15852
198811000 -23.946089 -135.08591 -0.11756158 -40.025829 -0.11678876 -40.028061 -23.836054 -124.32175
199810000 -23.877237 -135.45724 -0.11771105 -40.217815 -0.11674993 -40.217915 -23.757006 -124.42218
200809000 -23.814734 -135.69611 -0.11841248 -40.420372 -0.1176028 -40.420174 -23.676123 -124.58755
201808000 -23.753885 -135.93127 -0.11892778 -40.619137 -0.11775839 -40.6241 -23.610888 -124.69772
202807000 -23.698587 -136.2525 -0.11953228 -40.821941 -0.11889639 -40.819416 -23.549885 -124.88905
203806000 -23.645515 -136.68445 -0.12064518 -41.021667 -0.1196435 -41.024876 -23.490675 -125.03865
