!Keysight Technologies,E5080B,MY59205177,A.15.75.32
!Date: Friday, February 23, 2024 03:05:00
!Correction: S11(Cdelta 2-Port  ) 
!S21(Cdelta 2-Port  ) 
!S12(Cdelta 2-Port  ) 
!S22(Cdelta 2-Port  ) 
!S2P File: Measurements: S11, S21, S12, S22:
# Hz S  dB   R 50
10000000 -44.230263 -3.5763967 -0.02651527 -2.0378766 -0.029797856 -2.0907757 -47.901558 -150.65805
10999000 -43.554989 -5.5795636 -0.027785907 -2.2524731 -0.029967276 -2.3076284 -47.66375 -143.12447
11998000 -42.783123 -7.7615957 -0.027868753 -2.4784782 -0.029395444 -2.5186455 -47.774765 -138.0762
12997000 -42.120628 -12.558575 -0.02704661 -2.6589353 -0.029336546 -2.6883149 -47.141163 -131.54436
13996000 -41.965847 -16.363955 -0.025832437 -2.8382556 -0.028786944 -2.8614736 -46.731369 -126.04799
14995000 -41.620056 -19.900225 -0.029144738 -3.048362 -0.028680107 -3.0725093 -46.277512 -122.56029
15994000 -41.493748 -23.932251 -0.030329598 -3.2641115 -0.032310911 -3.2876661 -46.037395 -118.68919
16993000 -41.481533 -28.068184 -0.029118417 -3.4591644 -0.030485746 -3.4715998 -45.08955 -119.6086
17992000 -41.544701 -32.741592 -0.030021492 -3.659349 -0.031065021 -3.6618893 -44.503605 -120.34094
18991000 -41.808891 -37.067753 -0.030585326 -3.8669083 -0.031733554 -3.8635175 -43.826553 -119.71429
19990000 -41.633564 -41.944778 -0.03287087 -4.0757565 -0.034408711 -4.073422 -43.113358 -121.84125
20989000 -41.500732 -45.060741 -0.035166226 -4.2815099 -0.035935618 -4.272717 -42.506676 -121.22325
21988000 -41.433029 -49.878918 -0.035653993 -4.4746842 -0.036852643 -4.4652886 -42.280605 -120.69555
22987000 -41.21727 -54.300426 -0.037136432 -4.6758165 -0.037674032 -4.6663761 -42.002148 -120.18148
23986000 -41.239994 -58.379601 -0.036725245 -4.8697176 -0.036525801 -4.864881 -41.919769 -119.75751
24985000 -40.857052 -60.999416 -0.037828095 -5.0803571 -0.037048969 -5.0731382 -41.575954 -117.61852
25984000 -40.631866 -62.925873 -0.038102545 -5.2837405 -0.037518933 -5.2846146 -41.265087 -116.36719
26983000 -40.339115 -64.82486 -0.040249653 -5.4792585 -0.039184585 -5.4994469 -41.176067 -115.39381
27982000 -40.20406 -65.375328 -0.040066767 -5.6781626 -0.040325422 -5.7121711 -40.867813 -113.65759
28981000 -40.176498 -67.367134 -0.039115366 -5.878253 -0.040093936 -5.9076114 -40.606022 -113.13825
29980000 -39.779369 -68.718399 -0.038514122 -6.0701461 -0.040853228 -6.0751019 -40.277172 -112.47372
30979000 -39.458675 -67.796745 -0.036605943 -6.4239354 -0.034913879 -6.4153314 -39.800076 -113.15102
31978000 -39.279488 -68.743546 -0.035348903 -6.6184363 -0.036298174 -6.6103716 -39.513683 -112.86308
32977000 -39.085155 -70.512932 -0.035220768 -6.8289099 -0.036562085 -6.8253517 -39.294399 -112.84816
33976000 -38.94862 -71.562508 -0.035919957 -7.0258017 -0.03692966 -7.0220265 -38.958805 -112.46123
34975000 -38.68708 -72.492142 -0.035888895 -7.2267575 -0.038305975 -7.2235484 -38.711685 -112.22585
35974000 -38.475597 -73.234688 -0.034923796 -7.4212518 -0.037785791 -7.4235106 -38.441021 -111.4518
36973000 -38.263493 -74.03788 -0.035943709 -7.6197071 -0.038426895 -7.6266508 -38.145977 -110.61294
37972000 -38.088017 -73.966942 -0.035538636 -7.8300691 -0.038229983 -7.8414745 -37.906681 -110.08281
38971000 -37.755821 -73.725822 -0.036244664 -8.0338993 -0.038130485 -8.0420704 -37.720161 -108.61393
39970000 -37.46257 -74.290497 -0.035384137 -8.2257357 -0.037092831 -8.2398415 -37.428562 -108.1787
40969000 -37.177132 -74.225647 -0.03541128 -8.4189358 -0.036789726 -8.4440632 -37.174686 -106.84927
41968000 -36.858078 -74.267265 -0.034354702 -8.6222544 -0.037732001 -8.640111 -36.973057 -105.7813
42967000 -36.592495 -74.649788 -0.035258871 -8.8346319 -0.037677165 -8.8513126 -36.7444 -104.03728
43966000 -36.300003 -75.55555 -0.035397448 -9.034955 -0.039038572 -9.054821 -36.452621 -103.44105
44965000 -36.067673 -76.434418 -0.036930181 -9.2392817 -0.038430288 -9.2537184 -36.218842 -103.45254
45964000 -35.868004 -77.502434 -0.037845068 -9.4413099 -0.039310228 -9.4587269 -36.000923 -103.21694
46963000 -35.68803 -79.677528 -0.038200997 -9.6331873 -0.040303212 -9.6530104 -35.811523 -103.62675
47962000 -35.533657 -81.056282 -0.039221939 -9.8330183 -0.041865122 -9.8494425 -35.593838 -103.76041
48961000 -35.339455 -82.470665 -0.041244943 -10.028946 -0.042978689 -10.051183 -35.363579 -103.99826
49960000 -35.123878 -83.973602 -0.042226609 -10.226622 -0.044051487 -10.247849 -35.220745 -104.1927
50959000 -34.913193 -85.324432 -0.043099213 -10.439565 -0.045472965 -10.449663 -35.043789 -104.56108
51958000 -34.72472 -86.33123 -0.044816177 -10.638865 -0.047078602 -10.648808 -34.862801 -105.25905
52957000 -34.503933 -87.497917 -0.046083283 -10.838393 -0.048383541 -10.844058 -34.705814 -105.0104
53956000 -34.341812 -88.253448 -0.047654863 -11.038681 -0.04871311 -11.039701 -34.55537 -105.02753
54955000 -34.194622 -88.711823 -0.047924962 -11.238465 -0.049874518 -11.236693 -34.403053 -104.99008
55954000 -34.033298 -89.659775 -0.049208425 -11.438157 -0.049874783 -11.438179 -34.301998 -104.63132
56953000 -33.921516 -89.709999 -0.049075428 -11.63314 -0.048962332 -11.625534 -34.231522 -104.95132
57952000 -33.754284 -90.312393 -0.049805913 -11.837791 -0.050243482 -11.82696 -34.122604 -105.08492
58951000 -33.641739 -90.577766 -0.051173225 -12.039778 -0.05098464 -12.020276 -33.975487 -105.25057
59950000 -33.527805 -91.02755 -0.051862411 -12.234528 -0.051121101 -12.217821 -33.910046 -105.46339
60949000 -33.40987 -91.592789 -0.052563235 -12.442506 -0.052345771 -12.417509 -33.820263 -105.71419
61948000 -33.356472 -91.869217 -0.05314992 -12.637917 -0.05195646 -12.616052 -33.733822 -105.79947
62947000 -33.279434 -92.171707 -0.052707609 -12.845992 -0.053402018 -12.829228 -33.600243 -106.1236
63946000 -33.210262 -92.823326 -0.053182937 -13.047606 -0.053537767 -13.028701 -33.493271 -106.17887
64945000 -33.106529 -92.995094 -0.054145291 -13.249839 -0.054138999 -13.227168 -33.375923 -106.72974
65944000 -33.002277 -93.24794 -0.054778326 -13.448431 -0.054807425 -13.431032 -33.301311 -107.21387
66943000 -32.868172 -93.73642 -0.052964658 -13.647253 -0.052526031 -13.632468 -33.200859 -107.48619
67942000 -32.808601 -93.716499 -0.05573526 -13.846704 -0.054496005 -13.831708 -33.076286 -107.84467
68941000 -32.712086 -93.867836 -0.05478619 -14.034803 -0.05332366 -14.02777 -32.969856 -107.8107
69940000 -32.608002 -93.85273 -0.055074036 -14.235872 -0.054633625 -14.222928 -32.832523 -108.12843
70939000 -32.503395 -93.804138 -0.055005874 -14.430687 -0.053757649 -14.426025 -32.701725 -108.00526
71938000 -32.367123 -93.450409 -0.054453801 -14.627686 -0.053414859 -14.623 -32.561398 -107.99013
72937000 -32.199512 -93.37767 -0.05401843 -14.827703 -0.053696584 -14.82098 -32.414936 -107.71491
73936000 -32.059364 -92.995667 -0.05395684 -15.02818 -0.052585509 -15.015293 -32.311264 -107.49749
74935000 -31.943165 -93.325348 -0.053284355 -15.216615 -0.052285776 -15.216053 -32.151745 -107.21699
75934000 -31.82292 -93.570473 -0.052996889 -15.427143 -0.052351274 -15.420474 -32.069256 -107.17317
76933000 -31.684174 -94.086037 -0.054798771 -15.616019 -0.053795129 -15.614912 -31.891977 -107.55981
77932000 -31.594172 -94.831429 -0.055122275 -15.818582 -0.054745033 -15.812788 -31.797409 -107.67286
78931000 -31.520256 -95.559204 -0.054175958 -16.01729 -0.054630216 -16.01634 -31.700424 -107.46548
79930000 -31.413349 -96.353958 -0.056682706 -16.210493 -0.056933958 -16.207825 -31.595108 -107.75982
80929000 -31.287695 -97.33934 -0.058264948 -16.402899 -0.057754431 -16.400589 -31.494562 -108.15659
81928000 -31.201139 -98.2248 -0.058590017 -16.596794 -0.05791419 -16.591398 -31.37553 -108.20269
82927000 -31.107359 -98.886024 -0.060100254 -16.795479 -0.059527062 -16.791746 -31.277346 -108.54095
83926000 -30.990499 -99.618843 -0.061881717 -16.991167 -0.060754631 -16.993826 -31.154684 -108.79596
84925000 -30.899208 -100.04842 -0.062868588 -17.194313 -0.061346099 -17.188181 -31.058941 -108.79819
85924000 -30.807674 -100.47948 -0.063020125 -17.39119 -0.061496012 -17.391272 -30.97691 -108.85305
86923000 -30.707695 -101.00727 -0.063879579 -17.586744 -0.062547393 -17.585342 -30.876211 -108.7663
87922000 -30.596542 -101.355 -0.063350543 -17.79406 -0.062150341 -17.785744 -30.791456 -108.77387
88921000 -30.521782 -101.74093 -0.064387925 -17.992949 -0.063184284 -17.988388 -30.698441 -108.75522
89920000 -30.426369 -102.2268 -0.064861119 -18.190599 -0.063787639 -18.183121 -30.647079 -108.90439
90919000 -30.331419 -102.52916 -0.065623969 -18.383068 -0.064588651 -18.382563 -30.566833 -109.13478
91918000 -30.230713 -102.87222 -0.066350408 -18.587103 -0.064821184 -18.58181 -30.498598 -109.16236
92917000 -30.144258 -103.22919 -0.067946173 -18.783096 -0.066290744 -18.78075 -30.430285 -109.26591
93916000 -30.055336 -103.61012 -0.067023084 -18.977272 -0.066128045 -18.974693 -30.346325 -109.85886
94915000 -29.986151 -104.25588 -0.068601467 -19.180035 -0.067015193 -19.172014 -30.287445 -109.75766
95914000 -29.921413 -104.43398 -0.070016012 -19.375774 -0.067750022 -19.369358 -30.189665 -110.01033
96913000 -29.848038 -104.7172 -0.070622161 -19.570206 -0.068732962 -19.569427 -30.136955 -110.36975
97912000 -29.772429 -105.25877 -0.071940772 -19.767851 -0.069163233 -19.77013 -30.058315 -110.64767
98911000 -29.664215 -105.41441 -0.072139218 -19.968966 -0.070046 -19.967615 -30.027719 -110.80143
99910000 -29.608845 -105.51604 -0.07276962 -20.165443 -0.070886321 -20.164898 -29.911533 -111.15289
100909000 -29.515471 -105.87427 -0.072125003 -20.376648 -0.069706395 -20.370169 -29.829731 -111.36456
101908000 -29.429686 -106.0838 -0.073453814 -20.575554 -0.071425229 -20.571196 -29.71678 -111.13537
102907000 -29.30406 -106.09444 -0.07397487 -20.773766 -0.071311019 -20.773094 -29.645412 -111.13013
103906000 -29.202646 -106.17242 -0.073994875 -20.978971 -0.070749506 -20.976778 -29.495419 -111.1272
104905000 -29.066902 -106.10687 -0.074349828 -21.17383 -0.0707203 -21.180223 -29.377949 -110.76746
105904000 -28.920073 -106.18821 -0.074921295 -21.381952 -0.071650751 -21.371265 -29.256201 -110.67402
106903000 -28.812838 -106.32182 -0.07521522 -21.583542 -0.072116323 -21.578688 -29.12985 -110.55257
107902000 -28.653267 -106.67426 -0.075800493 -21.788195 -0.072859645 -21.774023 -28.989544 -110.5024
108901000 -28.54258 -106.9062 -0.076155327 -21.984291 -0.073631793 -21.975521 -28.853437 -110.44392
109900000 -28.421362 -107.43672 -0.076913312 -22.1842 -0.074837282 -22.177641 -28.703562 -110.52934
110899000 -28.306339 -108.06333 -0.078777336 -22.381359 -0.075337954 -22.375132 -28.580946 -110.90257
111898000 -28.211643 -108.72274 -0.080049649 -22.58066 -0.07664641 -22.574471 -28.47077 -110.99046
112897000 -28.082483 -109.2555 -0.081044875 -22.779427 -0.077648759 -22.769617 -28.329729 -111.18594
113896000 -27.980453 -109.84288 -0.082244508 -22.981022 -0.079034619 -22.971163 -28.223942 -111.33604
114895000 -27.883083 -110.48764 -0.082773477 -23.181473 -0.080299094 -23.165976 -28.111204 -111.44527
115894000 -27.760416 -110.86927 -0.084657706 -23.379776 -0.081241891 -23.365042 -28.04175 -111.59674
116893000 -27.673401 -111.42378 -0.085147634 -23.573614 -0.082570851 -23.557957 -27.918781 -111.70586
117892000 -27.594408 -111.90366 -0.084589876 -23.7715 -0.082454242 -23.763281 -27.851643 -111.89365
118891000 -27.53389 -112.31561 -0.085984021 -23.971138 -0.082732052 -23.958437 -27.750658 -112.01054
119890000 -27.448906 -112.68272 -0.086001448 -24.171194 -0.083330214 -24.158833 -27.736435 -112.1897
120889000 -27.391031 -113.18154 -0.087265313 -24.372143 -0.08348617 -24.357285 -27.665251 -112.13299
121888000 -27.350094 -113.52555 -0.08765173 -24.571112 -0.084103703 -24.555384 -27.605083 -112.44827
122887000 -27.307703 -113.71569 -0.088644996 -24.773796 -0.085109361 -24.758905 -27.561081 -112.49188
123886000 -27.255697 -114.13342 -0.089015156 -24.971691 -0.085495844 -24.954937 -27.547314 -112.65412
124885000 -27.22723 -114.65433 -0.088732712 -25.179167 -0.085676692 -25.154377 -27.517679 -112.69554
125884000 -27.171095 -114.8257 -0.090020895 -25.369797 -0.086078286 -25.355616 -27.482828 -112.88469
126883000 -27.148039 -115.18722 -0.089435816 -25.573591 -0.086733945 -25.558825 -27.445431 -112.92375
127882000 -27.100971 -115.51429 -0.090005301 -25.770117 -0.087470271 -25.753271 -27.403406 -113.11372
128881000 -27.068806 -115.79882 -0.090076126 -25.974783 -0.086770922 -25.955681 -27.36409 -113.19672
129880000 -27.009497 -116.14405 -0.091257907 -26.177286 -0.0869027 -26.156149 -27.326189 -113.14625
130879000 -26.954754 -116.29539 -0.09099514 -26.372257 -0.087758705 -26.356426 -27.246759 -113.26463
131878000 -26.890337 -116.55563 -0.091499537 -26.575603 -0.088658735 -26.552578 -27.18107 -113.19532
132877000 -26.819654 -116.61435 -0.091475211 -26.775448 -0.08870814 -26.754852 -27.099958 -113.1768
133876000 -26.738268 -116.78445 -0.091300204 -26.974628 -0.088228375 -26.959169 -27.012218 -113.1072
134875000 -26.638758 -116.91626 -0.091610044 -27.176437 -0.088968121 -27.159542 -26.908936 -112.95929
135874000 -26.564924 -116.94039 -0.091676138 -27.376003 -0.089229971 -27.362543 -26.808828 -112.96132
136873000 -26.449173 -116.88742 -0.092006892 -27.579668 -0.089110278 -27.557922 -26.72452 -112.90057
137872000 -26.370794 -117.00639 -0.092185102 -27.777767 -0.089245558 -27.76314 -26.617891 -112.86947
138871000 -26.300524 -117.20033 -0.092045762 -27.982265 -0.08978992 -27.963608 -26.518747 -113.06598
139870000 -26.19816 -117.47398 -0.093592539 -28.179258 -0.090493456 -28.160517 -26.442053 -113.2287
140869000 -26.106024 -117.94823 -0.094884276 -28.374664 -0.091205828 -28.354666 -26.331558 -113.39628
141868000 -26.015894 -118.40074 -0.095356308 -28.564926 -0.093133658 -28.548626 -26.260941 -113.67377
142867000 -25.944012 -118.66216 -0.093487799 -28.764782 -0.092026196 -28.748213 -26.183315 -113.85937
143866000 -25.872986 -119.18465 -0.094821043 -28.961266 -0.092918381 -28.945007 -26.110785 -114.37851
144865000 -25.813658 -119.68009 -0.096524701 -29.159294 -0.094160452 -29.145964 -26.054489 -114.69005
145864000 -25.756884 -120.0007 -0.097405635 -29.361485 -0.094982699 -29.348654 -26.020819 -114.93944
146863000 -25.709446 -120.36381 -0.098270603 -29.557617 -0.095953301 -29.543608 -25.968569 -115.23403
147862000 -25.674093 -120.74667 -0.098192222 -29.753893 -0.096053869 -29.740591 -25.937647 -115.57236
148861000 -25.639729 -121.24938 -0.098699041 -29.954723 -0.096376486 -29.937149 -25.910711 -115.77645
149860000 -25.627562 -121.41955 -0.099164605 -30.148405 -0.096984208 -30.142401 -25.875259 -115.9667
150859000 -25.609509 -121.82502 -0.099479243 -30.352747 -0.098047391 -30.338488 -25.872118 -116.24311
151858000 -25.585581 -122.13272 -0.099409059 -30.550364 -0.097094588 -30.531895 -25.862127 -116.51948
152857000 -25.570337 -122.41769 -0.10010435 -30.745131 -0.097722001 -30.733643 -25.847502 -116.64098
153856000 -25.561106 -122.60349 -0.099210419 -30.948215 -0.097125828 -30.936184 -25.858517 -116.91493
154855000 -25.559025 -122.82563 -0.099762119 -31.146029 -0.097571895 -31.13588 -25.855989 -117.18515
155854000 -25.575686 -123.05188 -0.10085566 -31.346252 -0.097839557 -31.33156 -25.844212 -117.41953
156853000 -25.550919 -123.75306 -0.097990997 -31.534027 -0.096748888 -31.521019 -25.836454 -117.74185
157852000 -25.558088 -123.97964 -0.099330395 -31.732548 -0.098667003 -31.723122 -25.832155 -118.06525
158851000 -25.560116 -124.22441 -0.10005455 -31.93111 -0.098636016 -31.922819 -25.815777 -118.30763
159850000 -25.544027 -124.36459 -0.1011434 -32.127617 -0.098509975 -32.119701 -25.815702 -118.4863
160849000 -25.522963 -124.46893 -0.10072425 -32.329113 -0.099754706 -32.321949 -25.789328 -118.75671
161848000 -25.504581 -124.57197 -0.1014142 -32.529938 -0.099382043 -32.521248 -25.739937 -118.90152
162847000 -25.467054 -124.79842 -0.10118632 -32.72657 -0.10008051 -32.722885 -25.715286 -119.12918
163846000 -25.423557 -125.0182 -0.10145288 -32.925613 -0.10026435 -32.918812 -25.639223 -119.14814
164845000 -25.361143 -125.01494 -0.10148097 -33.125546 -0.10073167 -33.118248 -25.570263 -119.25613
165844000 -25.313112 -125.09376 -0.10199108 -33.322998 -0.10126687 -33.316399 -25.49176 -119.39947
166843000 -25.250048 -125.19515 -0.10225981 -33.521664 -0.10029296 -33.51622 -25.4207 -119.58641
167842000 -25.190735 -125.32388 -0.10302024 -33.721607 -0.10095395 -33.710823 -25.346043 -119.48961
168841000 -25.113392 -125.53209 -0.10208251 -33.92128 -0.10110312 -33.915497 -25.266108 -119.59678
169840000 -25.04019 -125.80717 -0.10242811 -34.111702 -0.10247529 -34.110023 -25.178169 -119.74438
170839000 -24.986456 -126.05135 -0.10326783 -34.309872 -0.10204144 -34.306198 -25.092602 -119.98163
171838000 -24.927328 -126.4347 -0.10313847 -34.508945 -0.10307989 -34.504742 -25.031509 -120.25224
172837000 -24.855772 -126.83401 -0.10453673 -34.707405 -0.104209 -34.701214 -24.960739 -120.40079
173836000 -24.786491 -127.2454 -0.10592005 -34.904652 -0.10432089 -34.899426 -24.912928 -120.70171
174835000 -24.73815 -127.67913 -0.1063466 -35.099857 -0.10548454 -35.103848 -24.872839 -121.01429
175834000 -24.687546 -128.05264 -0.10740227 -35.299931 -0.10640284 -35.295582 -24.804054 -121.26884
176833000 -24.629147 -128.41676 -0.10825808 -35.497074 -0.10697588 -35.494972 -24.755346 -121.42097
177832000 -24.586458 -128.88011 -0.10848685 -35.691189 -0.10705601 -35.69598 -24.729244 -121.60341
178831000 -24.547258 -129.27179 -0.1084136 -35.887844 -0.10780905 -35.88448 -24.695133 -121.81725
179830000 -24.508133 -129.69386 -0.10864769 -36.085312 -0.10794545 -36.088688 -24.668089 -121.94755
180829000 -24.469868 -129.91267 -0.10961126 -36.28405 -0.1084473 -36.283176 -24.634201 -122.11508
181828000 -24.443665 -130.26555 -0.10966302 -36.481583 -0.10849985 -36.478146 -24.619326 -122.22535
182827000 -24.422537 -130.62915 -0.10955047 -36.678474 -0.1088011 -36.672138 -24.604591 -122.29256
183826000 -24.382469 -130.894 -0.11089954 -36.871719 -0.10889267 -36.870548 -24.596149 -122.44016
184825000 -24.382387 -131.25768 -0.11083528 -37.072918 -0.10979019 -37.06974 -24.576036 -122.52992
185824000 -24.359516 -131.58377 -0.11068816 -37.261593 -0.10990064 -37.266983 -24.574558 -122.56986
186823000 -24.342369 -131.96608 -0.11141793 -37.466408 -0.1095948 -37.464386 -24.572306 -122.54584
187822000 -24.325338 -132.25648 -0.11176109 -37.655033 -0.11004879 -37.657623 -24.540297 -122.62044
188821000 -24.304449 -132.49355 -0.11135685 -37.856606 -0.11123761 -37.857815 -24.525942 -122.71032
189820000 -24.290133 -132.74887 -0.11196348 -38.056519 -0.11090113 -38.056728 -24.514845 -122.86904
190819000 -24.257877 -133.00285 -0.1129363 -38.254543 -0.11171753 -38.253239 -24.481251 -122.85875
191818000 -24.22665 -133.18471 -0.114001 -38.44809 -0.11333696 -38.451061 -24.448162 -122.74424
192817000 -24.156517 -133.48009 -0.11463219 -38.634922 -0.11363137 -38.635525 -24.382586 -122.80243
193816000 -24.12051 -133.83051 -0.11354847 -38.827244 -0.11206734 -38.82856 -24.325397 -123.09138
194815000 -24.060198 -134.2892 -0.11315681 -39.023602 -0.11274023 -39.024059 -24.261288 -123.19622
195814000 -24.011816 -134.51541 -0.11350435 -39.221001 -0.11328993 -39.226933 -24.212326 -123.30557
196813000 -23.959278 -134.83675 -0.11349425 -39.416935 -0.11206814 -39.416481 -24.134972 -123.5078
197812000 -23.905663 -135.07481 -0.11361782 -39.612141 -0.11258481 -39.610058 -24.071308 -123.58667
198811000 -23.851877 -135.257 -0.11407754 -39.810474 -0.11287359 -39.81477 -23.992819 -123.77053
199810000 -23.782642 -135.66148 -0.11377114 -40.002666 -0.11233749 -40.004086 -23.921789 -123.89426
200809000 -23.727339 -135.91557 -0.11436615 -40.205139 -0.11300988 -40.201889 -23.8412 -124.07618
201808000 -23.663977 -136.15625 -0.1148225 -40.400581 -0.11395077 -40.405567 -23.774567 -124.17651
202807000 -23.606842 -136.50316 -0.11565717 -40.600903 -0.11485386 -40.607204 -23.716604 -124.368
203806000 -23.555485 -136.94357 -0.11724722 -40.802509 -0.11502185 -40.805782 -23.655985 -124.52686
