!Keysight Technologies,E5080B,MY59205177,A.15.75.32
!Date: Friday, February 23, 2024 03:43:12
!Correction: S11(Cdelta 2-Port  ) 
!S21(Cdelta 2-Port  ) 
!S12(Cdelta 2-Port  ) 
!S22(Cdelta 2-Port  ) 
!S2P File: Measurements: S11, S21, S12, S22:
# Hz S  dB   R 50
10000000 -46.099598 -3.0868406 -0.015207161 -2.0416255 -0.01827948 -2.0970464 -45.89819 -157.28369
10999000 -45.306713 -4.7982812 -0.015493174 -2.2587838 -0.016866874 -2.314518 -45.820621 -151.53156
11998000 -44.39146 -7.8875861 -0.016078249 -2.4849119 -0.017393656 -2.5279725 -45.982899 -147.13202
12997000 -43.612213 -13.373306 -0.015458883 -2.6627753 -0.017361689 -2.6970985 -45.57151 -141.40459
13996000 -43.319618 -17.608004 -0.014246646 -2.8426378 -0.017110376 -2.8664861 -45.38129 -136.03563
14995000 -42.912388 -21.88575 -0.017171968 -3.0546429 -0.017022276 -3.0782895 -45.054764 -133.08092
15994000 -42.743973 -26.54038 -0.018043971 -3.2728157 -0.019782001 -3.2950308 -44.889381 -129.81651
16993000 -42.687572 -31.180576 -0.016826335 -3.4719281 -0.018370206 -3.4801903 -44.058006 -128.96745
17992000 -42.715469 -36.716503 -0.017520228 -3.6708379 -0.019583853 -3.6737421 -43.485016 -129.2589
18991000 -42.971165 -41.929752 -0.018578956 -3.8797593 -0.019859754 -3.8792722 -42.847057 -127.95094
19990000 -42.741001 -47.91988 -0.019972095 -4.090868 -0.022031162 -4.0800781 -42.144424 -128.86697
20989000 -42.52562 -50.935684 -0.022603847 -4.2949433 -0.023912122 -4.2880874 -41.647953 -127.95187
21988000 -42.335915 -56.327709 -0.023413178 -4.4893765 -0.024585022 -4.4802532 -41.393795 -127.43222
22987000 -41.974888 -60.988087 -0.024875818 -4.6861987 -0.025804574 -4.6841359 -41.13673 -127.00578
23986000 -41.89143 -64.997253 -0.024135195 -4.8825164 -0.024908362 -4.8838201 -40.992661 -126.85013
24985000 -41.52066 -67.985191 -0.025864728 -5.0938439 -0.025549907 -5.0872846 -40.807659 -124.2668
25984000 -41.170513 -70.001854 -0.026199361 -5.3010874 -0.025981391 -5.298892 -40.454418 -122.7595
26983000 -40.85709 -71.782936 -0.026720766 -5.49789 -0.026574913 -5.5147982 -40.343918 -121.87541
27982000 -40.669933 -72.593109 -0.027639236 -5.6958957 -0.028506568 -5.7307444 -40.06604 -120.56973
28981000 -40.595879 -74.163155 -0.0261741 -5.8936973 -0.028039141 -5.9158349 -39.864937 -119.58074
29980000 -40.183487 -75.29744 -0.02589207 -6.090055 -0.029226828 -6.0947227 -39.609875 -119.12627
30979000 -39.812973 -74.385872 -0.023886874 -6.4401217 -0.023553459 -6.4364944 -39.091736 -119.4286
31978000 -39.628422 -75.471397 -0.023032174 -6.6392655 -0.024531653 -6.6251206 -38.85162 -118.73601
32977000 -39.434727 -76.95816 -0.023639608 -6.8472347 -0.024485577 -6.8436365 -38.636677 -118.70979
33976000 -39.272064 -78.056633 -0.024123222 -7.0485477 -0.026025141 -7.0435987 -38.312687 -118.08521
34975000 -38.949448 -78.76339 -0.023891039 -7.2459965 -0.026447816 -7.2501059 -38.095955 -117.78374
35974000 -38.790031 -79.345093 -0.023017341 -7.4424124 -0.026416041 -7.4469118 -37.848511 -116.88171
36973000 -38.537022 -80.003578 -0.023781979 -7.6437092 -0.026653569 -7.6483631 -37.575459 -116.02888
37972000 -38.36372 -79.698433 -0.023692444 -7.8537693 -0.027124494 -7.8613038 -37.3493 -115.23959
38971000 -38.064529 -79.15049 -0.024562893 -8.05266 -0.026990088 -8.0637665 -37.1917 -113.65897
39970000 -37.737701 -79.53167 -0.022650424 -8.2457476 -0.025490541 -8.262392 -36.924999 -113.14658
40969000 -37.458191 -79.095261 -0.023151884 -8.4428892 -0.025280936 -8.4659796 -36.696873 -111.75873
41968000 -37.096077 -79.080772 -0.023043364 -8.6465664 -0.026471255 -8.6670151 -36.5028 -110.53591
42967000 -36.842403 -79.22007 -0.023434518 -8.8628798 -0.026878085 -8.882102 -36.325588 -108.67231
43966000 -36.575428 -79.794891 -0.024139881 -9.0602036 -0.027685607 -9.0810604 -36.053463 -108.00771
44965000 -36.317799 -80.551788 -0.024643335 -9.2649479 -0.027859895 -9.2816629 -35.839024 -107.79932
45964000 -36.093803 -81.511093 -0.026352234 -9.4620581 -0.028341373 -9.483223 -35.613995 -107.39815
46963000 -35.895412 -83.438744 -0.025865508 -9.6571732 -0.028986033 -9.6828279 -35.424202 -107.68321
47962000 -35.714005 -84.877426 -0.027358413 -9.8616428 -0.030546485 -9.8775082 -35.233669 -107.64442
48961000 -35.498577 -86.231804 -0.02947728 -10.05545 -0.032119755 -10.078707 -35.002934 -107.80787
49960000 -35.267147 -87.518372 -0.030726884 -10.252401 -0.033390466 -10.279558 -34.85611 -107.91072
50959000 -35.053905 -88.892769 -0.03102096 -10.4703 -0.034072403 -10.480005 -34.677731 -108.1981
51958000 -34.838173 -89.887764 -0.033576723 -10.667692 -0.03574143 -10.677896 -34.500637 -108.67004
52957000 -34.617966 -90.970474 -0.034975205 -10.870323 -0.036669903 -10.872514 -34.347317 -108.39836
53956000 -34.450142 -91.664886 -0.036133468 -11.070181 -0.037398044 -11.07016 -34.209747 -108.37585
54955000 -34.28764 -92.049049 -0.03667669 -11.272817 -0.038587771 -11.263775 -34.061218 -108.31108
55954000 -34.122547 -92.913307 -0.037896771 -11.470732 -0.038891785 -11.46646 -33.959461 -108.07686
56953000 -33.986897 -92.990669 -0.03696464 -11.66566 -0.037802242 -11.657154 -33.881397 -108.24988
57952000 -33.831173 -93.503151 -0.038561653 -11.866517 -0.039334521 -11.859173 -33.777462 -108.32674
58951000 -33.706783 -93.852692 -0.039446842 -12.071601 -0.03959287 -12.053975 -33.630455 -108.38097
59950000 -33.585342 -94.2295 -0.039383888 -12.274754 -0.040430978 -12.249574 -33.553497 -108.67731
60949000 -33.461643 -94.702538 -0.040488981 -12.47409 -0.040891901 -12.455424 -33.447407 -108.95506
61948000 -33.397064 -95.071556 -0.040770393 -12.672106 -0.040717088 -12.655356 -33.360634 -109.07137
62947000 -33.30088 -95.340218 -0.040248867 -12.886486 -0.041319944 -12.863673 -33.220837 -109.17975
63946000 -33.221687 -96.035698 -0.042121794 -13.084547 -0.042444088 -13.064347 -33.102352 -109.3589
64945000 -33.123161 -96.171265 -0.042356521 -13.28444 -0.043228365 -13.267529 -33.002151 -109.88194
65944000 -33.019131 -96.478203 -0.043097381 -13.488121 -0.043697432 -13.466813 -32.903847 -110.36509
66943000 -32.873035 -96.872223 -0.040909149 -13.686037 -0.042388935 -13.667874 -32.807228 -110.59803
67942000 -32.818733 -96.817406 -0.042629428 -13.879704 -0.044316653 -13.872318 -32.671818 -110.84225
68941000 -32.70216 -96.95385 -0.041995287 -14.076908 -0.042265557 -14.069117 -32.569088 -110.86757
69940000 -32.610424 -96.932579 -0.042557277 -14.278104 -0.043465767 -14.26411 -32.424149 -111.15862
70939000 -32.510773 -96.863884 -0.041982479 -14.472459 -0.043272812 -14.465846 -32.293968 -111.00012
71938000 -32.37487 -96.416367 -0.04238658 -14.67076 -0.042980518 -14.657916 -32.165611 -110.89771
72937000 -32.206532 -96.258987 -0.041861985 -14.869866 -0.042433634 -14.860277 -32.038086 -110.6348
73936000 -32.077065 -95.966103 -0.041266371 -15.065881 -0.042187922 -15.060262 -31.912996 -110.41876
74935000 -31.94969 -96.134697 -0.041284926 -15.259425 -0.041704122 -15.258298 -31.76757 -110.07262
75934000 -31.820612 -96.344009 -0.041341897 -15.470725 -0.042116564 -15.463316 -31.676485 -110.01257
76933000 -31.696568 -96.726883 -0.042615309 -15.663533 -0.04255414 -15.657537 -31.502991 -110.3636
77932000 -31.599894 -97.482361 -0.043234903 -15.862285 -0.043739527 -15.855098 -31.403093 -110.31199
78931000 -31.518269 -98.207001 -0.042355474 -16.059645 -0.043374255 -16.052626 -31.301523 -110.20551
79930000 -31.403255 -99.076981 -0.045000829 -16.252586 -0.045658693 -16.251488 -31.204363 -110.47102
80929000 -31.289505 -99.824554 -0.046493001 -16.450249 -0.047799595 -16.44663 -31.110559 -110.72714
81928000 -31.192404 -100.49569 -0.046727702 -16.642626 -0.047792789 -16.638493 -30.974384 -110.7355
82927000 -31.088961 -101.25042 -0.048522539 -16.839294 -0.048790336 -16.838968 -30.876604 -110.96661
83926000 -30.978765 -101.95408 -0.049625244 -17.039587 -0.049455579 -17.039188 -30.756229 -111.13702
84925000 -30.869663 -102.39304 -0.050170943 -17.237658 -0.049455579 -17.233873 -30.665661 -111.21392
85924000 -30.777752 -102.82487 -0.051479429 -17.437437 -0.051748719 -17.436649 -30.578953 -111.1927
86923000 -30.674492 -103.33313 -0.05197873 -17.633968 -0.051968511 -17.631655 -30.47773 -111.06981
87922000 -30.560406 -103.61006 -0.051199418 -17.842503 -0.050931998 -17.833248 -30.392448 -111.06993
88921000 -30.494297 -103.90524 -0.05246865 -18.04038 -0.052618783 -18.037319 -30.301188 -110.99794
89920000 -30.388161 -104.38771 -0.053206261 -18.239471 -0.05258996 -18.231209 -30.2451 -111.21839
90919000 -30.291685 -104.71885 -0.053275183 -18.436441 -0.053332571 -18.433348 -30.164661 -111.36877
91918000 -30.194092 -105.02451 -0.054545283 -18.637304 -0.054256424 -18.63439 -30.093977 -111.3529
92917000 -30.092772 -105.31458 -0.056386359 -18.835472 -0.054907303 -18.835796 -30.03104 -111.48801
93916000 -30.009506 -105.71461 -0.055141937 -19.029894 -0.054902323 -19.022932 -29.939148 -112.08298
94915000 -29.931784 -106.26148 -0.05645664 -19.233206 -0.055969939 -19.225969 -29.878969 -111.9974
95914000 -29.863419 -106.46623 -0.057681769 -19.424267 -0.056892518 -19.424799 -29.788544 -112.19853
96913000 -29.781132 -106.67056 -0.058713861 -19.626755 -0.057990532 -19.620869 -29.730469 -112.53732
97912000 -29.701908 -107.13751 -0.059581649 -19.821339 -0.058059264 -19.821821 -29.649935 -112.78986
98911000 -29.592548 -107.31645 -0.060153797 -20.024706 -0.058990948 -20.02408 -29.607573 -112.95166
99910000 -29.530611 -107.45702 -0.061400183 -20.219429 -0.059375644 -20.218925 -29.499401 -113.32386
100909000 -29.436806 -107.72028 -0.060057208 -20.43092 -0.058743775 -20.425505 -29.415213 -113.54022
101908000 -29.35597 -107.94399 -0.06146057 -20.630947 -0.060097627 -20.628002 -29.299604 -113.32025
102907000 -29.211784 -107.95029 -0.061882243 -20.828426 -0.05994435 -20.831289 -29.236328 -113.29769
103906000 -29.124601 -108.01725 -0.061521482 -21.036196 -0.059399784 -21.030443 -29.087061 -113.22509
104905000 -28.980621 -107.80721 -0.062574968 -21.234085 -0.060070332 -21.235315 -28.970932 -112.98441
105904000 -28.840401 -107.88818 -0.062797412 -21.435808 -0.059918631 -21.430449 -28.849026 -112.85726
106903000 -28.725519 -108.0137 -0.062222026 -21.642616 -0.061129246 -21.636703 -28.732145 -112.67078
107902000 -28.566936 -108.31766 -0.063256778 -21.841572 -0.060849924 -21.832504 -28.593204 -112.66792
108901000 -28.45973 -108.59785 -0.064625964 -22.046124 -0.062511683 -22.039188 -28.468859 -112.59557
109900000 -28.32933 -108.99558 -0.065059505 -22.246555 -0.063741669 -22.236053 -28.320356 -112.68153
110899000 -28.205639 -109.61342 -0.066717878 -22.442657 -0.064200342 -22.433372 -28.195011 -112.93842
111898000 -28.123899 -110.26991 -0.068309046 -22.643488 -0.065441847 -22.639992 -28.083475 -113.10181
112897000 -27.993664 -110.79562 -0.069822922 -22.844095 -0.06641034 -22.832314 -27.94071 -113.20545
113896000 -27.89801 -111.41231 -0.070362225 -23.045374 -0.068063967 -23.033909 -27.832853 -113.396
114895000 -27.794609 -112.00729 -0.071789972 -23.243742 -0.069443882 -23.22541 -27.728817 -113.39606
115894000 -27.665632 -112.37449 -0.072685115 -23.441288 -0.070687935 -23.429419 -27.664547 -113.64207
116893000 -27.592628 -112.85946 -0.073843218 -23.640266 -0.071555227 -23.620646 -27.530827 -113.71111
117892000 -27.508841 -113.34159 -0.073947482 -23.833061 -0.071957879 -23.822327 -27.456572 -113.8867
118891000 -27.448286 -113.73788 -0.074320339 -24.03599 -0.072093688 -24.021891 -27.369083 -114.01234
119890000 -27.363832 -114.1093 -0.07500162 -24.238838 -0.072682753 -24.222963 -27.354731 -114.11446
120889000 -27.31085 -114.62126 -0.075800754 -24.439358 -0.072428741 -24.423422 -27.276861 -114.10115
121888000 -27.278698 -114.91049 -0.07609237 -24.636122 -0.073504366 -24.625069 -27.221106 -114.35836
122887000 -27.23451 -115.10579 -0.07706482 -24.841358 -0.073559128 -24.823404 -27.17248 -114.34012
123886000 -27.185246 -115.52078 -0.077702522 -25.041573 -0.07429453 -25.022903 -27.159948 -114.50438
124885000 -27.139427 -116.04504 -0.077831127 -25.237349 -0.07521943 -25.224907 -27.133642 -114.56877
125884000 -27.095743 -116.19228 -0.078565672 -25.438963 -0.074859664 -25.425219 -27.10218 -114.71005
126883000 -27.072592 -116.60941 -0.078141324 -25.642679 -0.075720415 -25.627131 -27.069439 -114.75773
127882000 -27.026854 -116.93422 -0.078614175 -25.838997 -0.075888999 -25.824577 -27.023308 -114.84435
128881000 -26.998306 -117.21818 -0.07911212 -26.043873 -0.076205119 -26.025436 -26.981876 -114.94153
129880000 -26.940868 -117.57821 -0.079874836 -26.243587 -0.07649307 -26.225183 -26.943424 -114.88755
130879000 -26.880703 -117.71434 -0.079070203 -26.444239 -0.07711304 -26.424105 -26.879063 -114.97658
131878000 -26.815863 -117.9105 -0.080129012 -26.648678 -0.077057704 -26.627649 -26.819212 -114.78448
132877000 -26.748165 -117.98711 -0.07917618 -26.846872 -0.077377066 -26.832315 -26.735003 -114.80017
133876000 -26.669792 -118.16691 -0.079763308 -27.049971 -0.077326998 -27.028919 -26.651819 -114.65165
134875000 -26.573841 -118.30837 -0.080660097 -27.248917 -0.078626566 -27.233656 -26.554815 -114.47083
135874000 -26.495445 -118.30453 -0.080299094 -27.450991 -0.078162938 -27.434855 -26.461222 -114.4585
136873000 -26.382059 -118.26237 -0.080288544 -27.653841 -0.077922046 -27.635498 -26.376186 -114.42587
137872000 -26.303984 -118.34145 -0.080417231 -27.855145 -0.078063048 -27.837006 -26.278753 -114.36218
138871000 -26.231892 -118.57892 -0.080780089 -28.051561 -0.078397512 -28.037504 -26.179707 -114.48552
139870000 -26.137957 -118.88887 -0.081319958 -28.251436 -0.078905717 -28.237762 -26.100651 -114.65582
140869000 -26.058712 -119.41161 -0.082488276 -28.450464 -0.080036201 -28.431435 -25.998493 -114.86777
141868000 -25.971359 -119.82407 -0.083217017 -28.649851 -0.081725895 -28.635574 -25.952456 -115.13784
142867000 -25.90337 -120.01031 -0.082226306 -28.849415 -0.080798291 -28.830669 -25.872225 -115.24084
143866000 -25.824963 -120.45622 -0.083904184 -29.043314 -0.082002074 -29.026724 -25.799507 -115.68804
144865000 -25.771534 -120.96822 -0.085495844 -29.242964 -0.083655849 -29.227715 -25.744225 -116.00526
145864000 -25.714052 -121.29222 -0.085539147 -29.443539 -0.084650315 -29.429626 -25.711126 -116.26051
146863000 -25.669548 -121.64955 -0.087004907 -29.644367 -0.084939092 -29.631397 -25.66007 -116.56165
147862000 -25.629807 -121.99819 -0.088067763 -29.841122 -0.085632868 -29.82901 -25.632887 -116.86499
148861000 -25.598572 -122.46331 -0.088519767 -30.04183 -0.087324999 -30.024679 -25.607784 -117.02351
149860000 -25.562052 -122.61176 -0.089450084 -30.229561 -0.087621354 -30.223759 -25.554703 -117.09246
150859000 -25.541479 -123.07349 -0.089317434 -30.430763 -0.087327905 -30.415295 -25.539742 -117.43246
151858000 -25.527079 -123.45443 -0.088599823 -30.628204 -0.087008603 -30.617918 -25.52919 -117.82497
152857000 -25.512451 -123.74921 -0.08855623 -30.82568 -0.087036595 -30.813715 -25.512857 -117.97379
153856000 -25.51107 -123.95656 -0.08876732 -31.029194 -0.086130038 -31.013998 -25.530357 -118.3125
154855000 -25.506756 -124.12586 -0.089104459 -31.226252 -0.087242864 -31.217667 -25.518911 -118.53474
155854000 -25.528717 -124.4144 -0.089317963 -31.430349 -0.087218568 -31.412682 -25.510117 -118.80933
156853000 -25.505795 -125.01942 -0.086686939 -31.615074 -0.086215325 -31.607367 -25.504257 -119.14316
157852000 -25.517052 -125.27813 -0.088257968 -31.816154 -0.08770059 -31.80492 -25.491407 -119.4974
158851000 -25.514326 -125.4934 -0.088633105 -32.015072 -0.088232607 -32.0061 -25.47716 -119.73707
159850000 -25.499781 -125.5596 -0.088992961 -32.215641 -0.088048741 -32.205654 -25.478458 -119.90694
160849000 -25.487 -125.67995 -0.089489982 -32.413273 -0.089035235 -32.408478 -25.44343 -120.2373
161848000 -25.471991 -125.7514 -0.090009265 -32.614998 -0.088777892 -32.609112 -25.410624 -120.33772
162847000 -25.42762 -125.93192 -0.090287298 -32.810677 -0.089374244 -32.809769 -25.37937 -120.57706
163846000 -25.391111 -126.15417 -0.089944251 -33.013996 -0.089212269 -33.003361 -25.300028 -120.59296
164845000 -25.333181 -126.12457 -0.090231262 -33.213104 -0.089469634 -33.209381 -25.240084 -120.67657
165844000 -25.277779 -126.17388 -0.090693541 -33.413185 -0.089736797 -33.407646 -25.163067 -120.82374
166843000 -25.220131 -126.23206 -0.090309761 -33.612019 -0.089506634 -33.60677 -25.09549 -121.01057
167842000 -25.162106 -126.33954 -0.091244422 -33.80883 -0.090693541 -33.806801 -25.021109 -120.92547
168841000 -25.087078 -126.47449 -0.091898754 -34.012379 -0.091528617 -34.007259 -24.944611 -120.96564
169840000 -25.020124 -126.71218 -0.091408059 -34.205677 -0.09157382 -34.202477 -24.864208 -121.15858
170839000 -24.958118 -126.97029 -0.093097158 -34.407303 -0.091784537 -34.400696 -24.777126 -121.34532
171838000 -24.901041 -127.33939 -0.092601836 -34.605942 -0.092690952 -34.598526 -24.718281 -121.5562
172837000 -24.834229 -127.65343 -0.094611242 -34.804066 -0.093441248 -34.797661 -24.649662 -121.75733
173836000 -24.762585 -128.06422 -0.095102824 -35.002918 -0.094352506 -35.00069 -24.608917 -121.95888
174835000 -24.71254 -128.46046 -0.095949598 -35.199902 -0.094955713 -35.199947 -24.558783 -122.29333
175834000 -24.65699 -128.84732 -0.096574992 -35.397453 -0.096048042 -35.396618 -24.506781 -122.54226
176833000 -24.610674 -129.16068 -0.097496442 -35.601192 -0.096365638 -35.595345 -24.454222 -122.69955
177832000 -24.568594 -129.58858 -0.098406702 -35.7948 -0.09745726 -35.7995 -24.432068 -122.7981
178831000 -24.51399 -129.82365 -0.099521093 -35.994507 -0.099263653 -35.988674 -24.398615 -122.85181
179830000 -24.447105 -130.21762 -0.10041111 -36.177635 -0.099726625 -36.175289 -24.32822 -122.93102
180829000 -24.403467 -130.59801 -0.10034753 -36.372211 -0.099268951 -36.369495 -24.293348 -123.29037
181828000 -24.382523 -131.01196 -0.099683456 -36.566822 -0.09877637 -36.561981 -24.27177 -123.44134
182827000 -24.354027 -131.3782 -0.099019475 -36.769348 -0.099272661 -36.764488 -24.260031 -123.58823
183826000 -24.312641 -131.70827 -0.099655643 -36.966862 -0.098648727 -36.962833 -24.253096 -123.72684
184825000 -24.318844 -132.05391 -0.099224456 -37.164711 -0.098983988 -37.163902 -24.235207 -123.84916
185824000 -24.292183 -132.42023 -0.099197179 -37.356121 -0.09954413 -37.35754 -24.231218 -123.91399
186823000 -24.275751 -132.77353 -0.099545196 -37.558994 -0.099697754 -37.555878 -24.2241 -123.94851
187822000 -24.24873 -133.13004 -0.10024793 -37.755753 -0.10013428 -37.754509 -24.185793 -124.02494
188821000 -24.233501 -133.34596 -0.10002436 -37.947304 -0.10000025 -37.95245 -24.168139 -124.13063
189820000 -24.205149 -133.68141 -0.1005547 -38.151028 -0.099722385 -38.148705 -24.150324 -124.30045
190819000 -24.172129 -133.99121 -0.10100615 -38.346863 -0.10037562 -38.3438 -24.111013 -124.35303
191818000 -24.145515 -134.24065 -0.10105173 -38.547131 -0.10111849 -38.546101 -24.085283 -124.41545
192817000 -24.100801 -134.54436 -0.10115877 -38.739391 -0.10059337 -38.741379 -24.039213 -124.49975
193816000 -24.06875 -134.77464 -0.10121758 -38.937611 -0.10052396 -38.940063 -23.988834 -124.64152
194815000 -24.008192 -135.17563 -0.10193834 -39.134697 -0.10195531 -39.133339 -23.925344 -124.68459
195814000 -23.954205 -135.37207 -0.10315358 -39.330368 -0.10165745 -39.328815 -23.86725 -124.76895
196813000 -23.902224 -135.69662 -0.10207324 -39.524879 -0.10176344 -39.52721 -23.792494 -124.9509
197812000 -23.842712 -135.92838 -0.10272045 -39.722195 -0.1022516 -39.718586 -23.722652 -125.01447
198811000 -23.791559 -136.09312 -0.10157371 -39.92009 -0.10201414 -39.920315 -23.654514 -125.18102
199810000 -23.720335 -136.42351 -0.10220813 -40.109749 -0.1021705 -40.114983 -23.577581 -125.26982
200809000 -23.664114 -136.67207 -0.1028946 -40.313721 -0.10295822 -40.309322 -23.503622 -125.47631
201808000 -23.606524 -136.88635 -0.10336246 -40.512135 -0.10329222 -40.516319 -23.439026 -125.5555
202807000 -23.547976 -137.21632 -0.10459612 -40.710518 -0.10414165 -40.71669 -23.380722 -125.72862
