!Keysight Technologies,E5080B,MY59205177,A.15.75.32
!Date: Friday, February 23, 2024 03:43:18
!Correction: S11(Cdelta 2-Port  ) 
!S21(Cdelta 2-Port  ) 
!S12(Cdelta 2-Port  ) 
!S22(Cdelta 2-Port  ) 
!S2P File: Measurements: S11, S21, S12, S22:
# Hz S  dB   R 50
10000000 -46.149075 -3.1195478 -0.014757006 -2.038588 -0.017506974 -2.0917337 -45.88081 -157.43939
10999000 -45.313583 -5.0621471 -0.015780507 -2.260906 -0.017867737 -2.3140399 -45.841827 -151.12379
11998000 -44.380119 -7.9763899 -0.016034599 -2.4816682 -0.016958868 -2.5276945 -45.949974 -146.98366
12997000 -43.656967 -13.804957 -0.015200407 -2.6624203 -0.017052162 -2.6943853 -45.583984 -141.07988
13996000 -43.344097 -17.432846 -0.014354687 -2.8455467 -0.016918588 -2.8652372 -45.3549 -136.44312
14995000 -42.911427 -21.889051 -0.016891042 -3.0567956 -0.016551666 -3.0789361 -45.03381 -132.80118
15994000 -42.766857 -26.330456 -0.017833687 -3.2715096 -0.018699583 -3.2952874 -44.87455 -129.38524
16993000 -42.670391 -31.23769 -0.01687493 -3.4694188 -0.01929887 -3.480947 -44.088753 -129.19475
17992000 -42.724506 -36.442795 -0.017292816 -3.6689415 -0.019525867 -3.6741462 -43.491493 -128.95404
18991000 -42.95121 -41.943207 -0.018149247 -3.8755865 -0.019851692 -3.876713 -42.854805 -128.13165
19990000 -42.692215 -47.925652 -0.020637881 -4.0869522 -0.021513702 -4.082644 -42.167248 -128.59901
20989000 -42.556175 -50.923409 -0.022985071 -4.2912889 -0.024364788 -4.2809081 -41.636475 -128.04224
21988000 -42.312843 -56.56422 -0.023711443 -4.4924064 -0.025209336 -4.4789338 -41.385345 -127.30177
22987000 -41.991802 -60.617615 -0.024129469 -4.687149 -0.025609277 -4.6792703 -41.125481 -126.81358
23986000 -41.884182 -65.123878 -0.024103958 -4.8829699 -0.025060408 -4.8834639 -40.975452 -126.78602
24985000 -41.4688 -67.78096 -0.025350977 -5.0921221 -0.025644429 -5.0935454 -40.796825 -124.4221
25984000 -41.146149 -69.729774 -0.025977224 -5.2975841 -0.026048318 -5.2991476 -40.451912 -122.54275
26983000 -40.828682 -71.67144 -0.026718423 -5.4937329 -0.026672842 -5.5131049 -40.364342 -121.89999
27982000 -40.674522 -72.68856 -0.028030803 -5.6940517 -0.027895067 -5.7306819 -40.089424 -120.49991
28981000 -40.615376 -74.365608 -0.026196497 -5.8945417 -0.028333295 -5.9164543 -39.838974 -119.73494
29980000 -40.246151 -75.494049 -0.026101964 -6.0899358 -0.028478948 -6.0910058 -39.588428 -119.05954
30979000 -39.846783 -74.519333 -0.023737732 -6.4447184 -0.023367111 -6.4313474 -39.089714 -119.34379
31978000 -39.633335 -75.47818 -0.022762839 -6.636292 -0.024026129 -6.625495 -38.840885 -118.58907
32977000 -39.434147 -76.997688 -0.023058198 -6.8486595 -0.025552511 -6.8449216 -38.600849 -118.74026
33976000 -39.265972 -77.91433 -0.023731224 -7.0480113 -0.025703279 -7.0440655 -38.315544 -118.13913
34975000 -38.968956 -78.771858 -0.024228904 -7.2496891 -0.026625961 -7.2472219 -38.101028 -117.71645
35974000 -38.771496 -79.335747 -0.023012137 -7.4416986 -0.026080869 -7.4433107 -37.823605 -116.91687
36973000 -38.534954 -79.95594 -0.023176348 -7.6411967 -0.027164608 -7.6473012 -37.564831 -115.94045
37972000 -38.391907 -79.686333 -0.023729403 -7.8504605 -0.026766347 -7.8611045 -37.350559 -115.30197
38971000 -38.042015 -79.216957 -0.024454337 -8.0512667 -0.026762178 -8.0649805 -37.174995 -113.67295
39970000 -37.737492 -79.577309 -0.022564296 -8.2471304 -0.025051035 -8.2640581 -36.924511 -113.20184
40969000 -37.440365 -79.191849 -0.023213822 -8.4407864 -0.025711091 -8.4672728 -36.692608 -111.60492
41968000 -37.11964 -79.115829 -0.022861984 -8.647665 -0.026238946 -8.6675892 -36.518734 -110.45199
42967000 -36.853626 -79.103058 -0.022702988 -8.8539495 -0.026877824 -8.8749962 -36.316185 -108.68934
43966000 -36.563396 -79.840286 -0.023676047 -9.0613852 -0.027975831 -9.081831 -36.047565 -107.93946
44965000 -36.30262 -80.667183 -0.024471259 -9.260294 -0.027708793 -9.2800102 -35.828098 -107.69349
45964000 -36.088799 -81.649773 -0.026169673 -9.4655838 -0.028876325 -9.4814444 -35.609535 -107.3511
46963000 -35.883892 -83.466934 -0.025754837 -9.6565619 -0.029432973 -9.6821346 -35.425564 -107.67973
47962000 -35.716606 -84.831085 -0.027485797 -9.8591299 -0.030504253 -9.8755188 -35.220551 -107.67438
48961000 -35.497562 -86.263512 -0.029004535 -10.056845 -0.032080375 -10.074646 -35.008301 -107.80589
49960000 -35.269241 -87.475449 -0.030610614 -10.257659 -0.033282213 -10.278069 -34.874458 -107.97635
50959000 -35.041843 -88.933441 -0.031120555 -10.469042 -0.034528475 -10.47703 -34.686474 -108.21779
51958000 -34.845322 -89.915649 -0.033534985 -10.666356 -0.035335857 -10.678687 -34.501595 -108.6236
52957000 -34.629959 -90.884499 -0.034678511 -10.869787 -0.036388494 -10.874247 -34.340191 -108.42851
53956000 -34.459663 -91.652817 -0.035493225 -11.067413 -0.037271153 -11.070149 -34.215073 -108.34451
54955000 -34.290501 -92.170647 -0.036826797 -11.272696 -0.038251657 -11.264491 -34.050266 -108.34924
55954000 -34.113201 -92.983177 -0.037726518 -11.470539 -0.038810294 -11.467809 -33.963226 -108.03273
56953000 -34.003635 -92.943359 -0.03664954 -11.668386 -0.037417889 -11.657692 -33.882328 -108.26279
57952000 -33.822617 -93.469452 -0.037760723 -11.86691 -0.038853649 -11.858213 -33.77562 -108.33162
58951000 -33.709064 -93.762245 -0.039069656 -12.074623 -0.039515283 -12.050855 -33.630089 -108.36829
59950000 -33.575901 -94.206245 -0.039344706 -12.269474 -0.040651243 -12.252793 -33.542202 -108.69907
60949000 -33.463196 -94.82605 -0.040528435 -12.476931 -0.04144565 -12.451976 -33.456043 -108.94942
61948000 -33.383427 -95.093819 -0.041035101 -12.670262 -0.040462591 -12.654779 -33.3643 -109.03039
62947000 -33.31229 -95.306198 -0.04064079 -12.882103 -0.041286495 -12.862956 -33.22472 -109.21747
63946000 -33.236771 -96.036575 -0.041960523 -13.083666 -0.04266132 -13.064188 -33.115265 -109.39867
64945000 -33.120686 -96.180305 -0.041795339 -13.287206 -0.043126401 -13.26468 -32.994965 -109.94252
65944000 -33.021378 -96.492577 -0.043201175 -13.483451 -0.043166663 -13.468758 -32.909061 -110.37084
66943000 -32.86813 -96.796951 -0.041630942 -13.685275 -0.041101735 -13.669414 -32.805134 -110.61808
67942000 -32.820717 -96.850777 -0.043400403 -13.882567 -0.043619249 -13.868765 -32.68161 -110.9615
68941000 -32.710373 -97.026497 -0.042695042 -14.074499 -0.042258237 -14.067111 -32.565823 -110.82259
69940000 -32.604538 -96.931595 -0.04269452 -14.27615 -0.043199085 -14.26396 -32.426075 -111.13026
70939000 -32.506626 -96.873779 -0.043146271 -14.472033 -0.043384191 -14.46316 -32.303654 -111.05358
71938000 -32.36927 -96.481415 -0.042964049 -14.668499 -0.042796213 -14.659163 -32.171627 -110.89657
72937000 -32.204685 -96.248909 -0.042339269 -14.866114 -0.04258028 -14.858665 -32.036911 -110.64426
73936000 -32.075558 -95.902405 -0.04195451 -15.065243 -0.041945886 -15.05592 -31.913731 -110.41882
74935000 -31.947449 -96.138 -0.041164193 -15.261011 -0.04078947 -15.257825 -31.756819 -110.09621
75934000 -31.818714 -96.395561 -0.041622579 -15.472363 -0.040912282 -15.469511 -31.68075 -109.99749
76933000 -31.698355 -96.772003 -0.042711511 -15.664672 -0.042333256 -15.655688 -31.512142 -110.38457
77932000 -31.600471 -97.522682 -0.044481672 -15.862723 -0.044075545 -15.856291 -31.406027 -110.3366
78931000 -31.523495 -98.26944 -0.042310778 -16.061472 -0.043090586 -16.057301 -31.310303 -110.18499
79930000 -31.41057 -99.070709 -0.04407816 -16.253004 -0.044736404 -16.251896 -31.20705 -110.52039
80929000 -31.29356 -99.839462 -0.046577774 -16.450018 -0.047256026 -16.445444 -31.110529 -110.7156
81928000 -31.191645 -100.5698 -0.046845715 -16.640579 -0.047509614 -16.637934 -30.979631 -110.67514
82927000 -31.099047 -101.30759 -0.047844872 -16.839352 -0.048964687 -16.84099 -30.874855 -111.00323
83926000 -30.980341 -101.95873 -0.049892325 -17.039127 -0.050130617 -17.037186 -30.761293 -111.1376
84925000 -30.875031 -102.39337 -0.05033147 -17.236898 -0.049212091 -17.231813 -30.667076 -111.22599
85924000 -30.779089 -102.83217 -0.050768305 -17.440189 -0.051607784 -17.431341 -30.583506 -111.14322
86923000 -30.671566 -103.26003 -0.051242638 -17.639435 -0.051021047 -17.630827 -30.482698 -111.03477
87922000 -30.559553 -103.64764 -0.050923616 -17.845798 -0.051380675 -17.835772 -30.392574 -111.03525
88921000 -30.491049 -103.8754 -0.052020907 -18.040131 -0.051750291 -18.032803 -30.303619 -111.01833
89920000 -30.386936 -104.40423 -0.05315752 -18.238155 -0.052799053 -18.233416 -30.251835 -111.21156
90919000 -30.286753 -104.61217 -0.053813998 -18.43709 -0.052715205 -18.433758 -30.165348 -111.35545
91918000 -30.18988 -104.96091 -0.054743461 -18.636799 -0.0537511 -18.628735 -30.092115 -111.34923
92917000 -30.104761 -105.34102 -0.05525703 -18.838127 -0.055082161 -18.829647 -30.029951 -111.46389
93916000 -30.013554 -105.68478 -0.054914642 -19.028482 -0.054807685 -19.025145 -29.945677 -112.08521
94915000 -29.940119 -106.28989 -0.056873634 -19.228703 -0.055399131 -19.22279 -29.874603 -111.92547
95914000 -29.862642 -106.5182 -0.058038015 -19.427673 -0.057092376 -19.421421 -29.788309 -112.25454
96913000 -29.778687 -106.7121 -0.058940303 -19.626232 -0.057949081 -19.623701 -29.723715 -112.57111
97912000 -29.704697 -107.18172 -0.059804987 -19.820415 -0.057842311 -19.823259 -29.644464 -112.77211
98911000 -29.592283 -107.32079 -0.060428612 -20.022861 -0.059208483 -20.020708 -29.609056 -112.98833
99910000 -29.526115 -107.42585 -0.060719717 -20.223345 -0.059340216 -20.220156 -29.501957 -113.29106
100909000 -29.445427 -107.70135 -0.060084503 -20.431065 -0.058669783 -20.427307 -29.413235 -113.52136
101908000 -29.345564 -107.92894 -0.062059745 -20.630911 -0.06026141 -20.626926 -29.301651 -113.27508
102907000 -29.224533 -107.95522 -0.061909027 -20.829432 -0.060444884 -20.830854 -29.236515 -113.30034
103906000 -29.124744 -107.99951 -0.062584423 -21.040234 -0.059485074 -21.029551 -29.094109 -113.20924
104905000 -28.977289 -107.90244 -0.062297393 -21.232288 -0.060713157 -21.233576 -28.968969 -112.92063
105904000 -28.841078 -107.94039 -0.063728534 -21.439526 -0.06016377 -21.431559 -28.857643 -112.79133
106903000 -28.728874 -108.03724 -0.06347242 -21.645679 -0.060702395 -21.638767 -28.73591 -112.74102
107902000 -28.567245 -108.3551 -0.063505784 -21.844889 -0.061306193 -21.83602 -28.599928 -112.67484
108901000 -28.458803 -108.58891 -0.063931599 -22.049347 -0.062449705 -22.035782 -28.469791 -112.63154
109900000 -28.32897 -109.00282 -0.06562686 -22.243059 -0.063424356 -22.236052 -28.316956 -112.69876
110899000 -28.21002 -109.64398 -0.066951841 -22.445549 -0.064023018 -22.432875 -28.191187 -112.92884
111898000 -28.123148 -110.30035 -0.068380833 -22.644316 -0.06565655 -22.636576 -28.080828 -113.10431
112897000 -27.999817 -110.80058 -0.069802932 -22.845263 -0.066481307 -22.83436 -27.949251 -113.25319
113896000 -27.898661 -111.4016 -0.071442857 -23.043438 -0.067927241 -23.034077 -27.838747 -113.38567
114895000 -27.789097 -112.01749 -0.071877085 -23.241285 -0.069519632 -23.230051 -27.729155 -113.42743
115894000 -27.671349 -112.32729 -0.072746716 -23.44273 -0.070638739 -23.430393 -27.663589 -113.61729
116893000 -27.592665 -112.88746 -0.074006461 -23.637789 -0.071434438 -23.624756 -27.536215 -113.70891
117892000 -27.514788 -113.33559 -0.073807403 -23.837736 -0.071210496 -23.821823 -27.462458 -113.90286
118891000 -27.456379 -113.73319 -0.074147075 -24.033997 -0.072560616 -24.019566 -27.367376 -114.00575
119890000 -27.360222 -114.08166 -0.073950909 -24.238848 -0.072804891 -24.223097 -27.349344 -114.19732
120889000 -27.311501 -114.65446 -0.075926147 -24.436911 -0.073563077 -24.421518 -27.279064 -114.10477
121888000 -27.274302 -114.94276 -0.076153487 -24.634983 -0.073729739 -24.619745 -27.222107 -114.37197
122887000 -27.229395 -115.11481 -0.076747321 -24.839018 -0.074167609 -24.823179 -27.170616 -114.36908
123886000 -27.180815 -115.53416 -0.077310666 -25.044964 -0.074405655 -25.020929 -27.159235 -114.52092
124885000 -27.14225 -116.01986 -0.078141853 -25.242035 -0.074734837 -25.227278 -27.130228 -114.59491
125884000 -27.093309 -116.22009 -0.078516908 -25.439232 -0.074934199 -25.42523 -27.098471 -114.72542
126883000 -27.071585 -116.61198 -0.079011418 -25.641972 -0.075693808 -25.627081 -27.063997 -114.73998
127882000 -27.02771 -116.91228 -0.078735165 -25.841125 -0.076911993 -25.823696 -27.022423 -114.89093
128881000 -26.993032 -117.21203 -0.079112388 -26.042572 -0.076168768 -26.025131 -26.980486 -114.96744
129880000 -26.938805 -117.57107 -0.079827376 -26.2428 -0.076393224 -26.223471 -26.941986 -114.95425
130879000 -26.879751 -117.69798 -0.080006145 -26.444138 -0.077036619 -26.427839 -26.872316 -114.96178
131878000 -26.818409 -117.94316 -0.080371611 -26.649124 -0.076980233 -26.625088 -26.814383 -114.81499
132877000 -26.746592 -118.00584 -0.079982147 -26.845047 -0.07747747 -26.829332 -26.733803 -114.76715
133876000 -26.664047 -118.16299 -0.080242403 -27.052773 -0.077376276 -27.032906 -26.649652 -114.69937
134875000 -26.570612 -118.28976 -0.080217615 -27.251081 -0.077057704 -27.226488 -26.543049 -114.52177
135874000 -26.496614 -118.28164 -0.080875032 -27.447834 -0.077926263 -27.433029 -26.455452 -114.47825
136873000 -26.384586 -118.2693 -0.080507942 -27.653046 -0.077971332 -27.633028 -26.370686 -114.41222
137872000 -26.300659 -118.38095 -0.08004728 -27.855227 -0.078817144 -27.836361 -26.271481 -114.3586
138871000 -26.230125 -118.56702 -0.081276178 -28.052786 -0.078462616 -28.033962 -26.178928 -114.51151
139870000 -26.133911 -118.89655 -0.081401989 -28.255281 -0.079168797 -28.23488 -26.096064 -114.67691
140869000 -26.055283 -119.39586 -0.082705408 -28.449947 -0.079767525 -28.431601 -25.999271 -114.85316
141868000 -25.976009 -119.82798 -0.083671153 -28.651302 -0.081090234 -28.63423 -25.947258 -115.12635
142867000 -25.894203 -120.00024 -0.082270361 -28.846331 -0.080649555 -28.832264 -25.873245 -115.26189
143866000 -25.827988 -120.51431 -0.084168889 -29.044523 -0.082109705 -29.027882 -25.795959 -115.73022
144865000 -25.764675 -121.01436 -0.085929893 -29.242546 -0.08335951 -29.226032 -25.738451 -116.02216
145864000 -25.714804 -121.29801 -0.086290844 -29.444481 -0.084539458 -29.431244 -25.706799 -116.24432
146863000 -25.661423 -121.66434 -0.087048747 -29.644709 -0.085009046 -29.63031 -25.653093 -116.5567
147862000 -25.625032 -121.99513 -0.087902665 -29.840828 -0.084962323 -29.83008 -25.633833 -116.85052
148861000 -25.591978 -122.4443 -0.088870101 -30.036289 -0.086571544 -30.02442 -25.608484 -117.01691
149860000 -25.556118 -122.60767 -0.089166291 -30.230412 -0.086935446 -30.2174 -25.557182 -117.09142
150859000 -25.5392 -123.08533 -0.089266174 -30.42948 -0.086527444 -30.415485 -25.535126 -117.43953
151858000 -25.527479 -123.42706 -0.08881171 -30.634508 -0.087265313 -30.613749 -25.531059 -117.80154
152857000 -25.512093 -123.79524 -0.089408331 -30.830925 -0.086919867 -30.816751 -25.509523 -117.98537
153856000 -25.511374 -123.99921 -0.088735357 -31.026709 -0.08608304 -31.017162 -25.526003 -118.29341
154855000 -25.514147 -124.10855 -0.088579215 -31.227621 -0.086054787 -31.216478 -25.517269 -118.51962
155854000 -25.523268 -124.38452 -0.089497648 -31.426968 -0.086572066 -31.417213 -25.506229 -118.8025
156853000 -25.509611 -125.05145 -0.087388389 -31.615839 -0.085904285 -31.609039 -25.504457 -119.13073
157852000 -25.514925 -125.29437 -0.089042105 -31.816322 -0.087018639 -31.807587 -25.49106 -119.4721
158851000 -25.5123 -125.49438 -0.090029083 -32.015701 -0.087240487 -32.005527 -25.479765 -119.75916
159850000 -25.49894 -125.63719 -0.090278313 -32.213333 -0.087776668 -32.205582 -25.47072 -119.94113
160849000 -25.486116 -125.69971 -0.090043619 -32.413692 -0.088673003 -32.409317 -25.444252 -120.2092
161848000 -25.468157 -125.78105 -0.090703323 -32.615223 -0.089041576 -32.608013 -25.410517 -120.34586
162847000 -25.429632 -125.94576 -0.090246856 -32.815296 -0.089608103 -32.810913 -25.378004 -120.56442
163846000 -25.386511 -126.14215 -0.091112509 -33.013496 -0.089423656 -33.006809 -25.300333 -120.5983
164845000 -25.330643 -126.08412 -0.09110564 -33.212074 -0.089397237 -33.205059 -25.23764 -120.68552
165844000 -25.277174 -126.17175 -0.091127314 -33.410175 -0.089472808 -33.406494 -25.165859 -120.81012
166843000 -25.215666 -126.1908 -0.090434775 -33.610783 -0.089765869 -33.605858 -25.093029 -120.96872
167842000 -25.165571 -126.31667 -0.091380566 -33.811775 -0.090384558 -33.804695 -25.019985 -120.92286
168841000 -25.083046 -126.47286 -0.091713682 -34.01038 -0.090550542 -34.007122 -24.942955 -120.96951
169840000 -25.021315 -126.71266 -0.092368342 -34.206284 -0.091173843 -34.202202 -24.863171 -121.17431
170839000 -24.961142 -126.95561 -0.092745431 -34.402237 -0.090934344 -34.403805 -24.782486 -121.32832
171838000 -24.903778 -127.36157 -0.092339784 -34.606991 -0.092174262 -34.598724 -24.718113 -121.55969
172837000 -24.829586 -127.6782 -0.0938171 -34.801151 -0.093141854 -34.796322 -24.651365 -121.75625
173836000 -24.765984 -128.0741 -0.095453158 -35.001244 -0.094313882 -35.001148 -24.609146 -121.98121
174835000 -24.713011 -128.45595 -0.09588661 -35.197338 -0.095057048 -35.197483 -24.561646 -122.27662
175834000 -24.664032 -128.85088 -0.096622899 -35.39819 -0.095232472 -35.394321 -24.50379 -122.56925
176833000 -24.60977 -129.15445 -0.097194389 -35.596622 -0.096552491 -35.595444 -24.458414 -122.68029
177832000 -24.571344 -129.6125 -0.099104486 -35.796265 -0.097103588 -35.795841 -24.434994 -122.79223
178831000 -24.523407 -129.80698 -0.099949919 -35.990234 -0.09945143 -35.987846 -24.398661 -122.87463
179830000 -24.448439 -130.26233 -0.1013983 -36.176411 -0.099664114 -36.17997 -24.335316 -122.96758
180829000 -24.404379 -130.58521 -0.10000793 -36.370438 -0.098836213 -36.375214 -24.290659 -123.27805
181828000 -24.379414 -130.99977 -0.099465206 -36.569206 -0.098193817 -36.567123 -24.274731 -123.47477
182827000 -24.357473 -131.39842 -0.099547043 -36.763432 -0.098897651 -36.762684 -24.262333 -123.58936
183826000 -24.315123 -131.71004 -0.10026753 -36.970329 -0.098877266 -36.959671 -24.252729 -123.70477
184825000 -24.32016 -132.0721 -0.10029614 -37.159901 -0.099143684 -37.161427 -24.235292 -123.85616
185824000 -24.289209 -132.44116 -0.099847414 -37.358166 -0.099504143 -37.361679 -24.226091 -123.92
186823000 -24.273304 -132.78358 -0.10010753 -37.559387 -0.098990344 -37.555408 -24.219748 -123.91734
187822000 -24.251123 -133.15154 -0.10080744 -37.752659 -0.099444285 -37.750538 -24.183725 -124.01395
188821000 -24.227123 -133.38747 -0.1000964 -37.947628 -0.10014515 -37.950321 -24.168755 -124.14383
189820000 -24.208969 -133.65601 -0.10039522 -38.146679 -0.099948063 -38.147243 -24.150679 -124.30849
190819000 -24.174391 -133.99071 -0.10162883 -38.348907 -0.10024634 -38.345833 -24.110933 -124.35881
191818000 -24.142374 -134.26642 -0.10089381 -38.542408 -0.10077512 -38.545589 -24.08292 -124.39636
192817000 -24.098745 -134.54155 -0.10189701 -38.740559 -0.10134132 -38.739059 -24.04447 -124.5143
193816000 -24.06805 -134.79922 -0.10206661 -38.937584 -0.10131827 -38.93634 -23.988239 -124.66774
194815000 -24.007856 -135.17848 -0.10262848 -39.131496 -0.10161081 -39.132465 -23.927797 -124.67978
195814000 -23.948147 -135.38318 -0.10303456 -39.327984 -0.1013983 -39.328079 -23.870438 -124.79089
196813000 -23.901449 -135.70819 -0.10261364 -39.524387 -0.10175973 -39.524826 -23.793571 -124.9348
197812000 -23.845119 -135.90628 -0.10340408 -39.724205 -0.10270376 -39.719566 -23.722677 -125.01104
198811000 -23.790754 -136.08073 -0.10298313 -39.91798 -0.10230089 -39.918999 -23.654541 -125.18301
199810000 -23.718964 -136.41629 -0.10332455 -40.113754 -0.10237245 -40.112614 -23.577677 -125.27174
200809000 -23.666079 -136.67549 -0.10365779 -40.31184 -0.10225478 -40.310982 -23.501406 -125.46867
201808000 -23.608683 -136.85635 -0.10472235 -40.509239 -0.10360106 -40.514339 -23.432701 -125.5144
202807000 -23.546915 -137.21175 -0.10488994 -40.71067 -0.1043246 -40.714176 -23.38246 -125.70313
