!Keysight Technologies,E5080B,MY59205177,A.15.75.32
!Date: Friday, February 23, 2024 03:05:07
!Correction: S11(Cdelta 2-Port  ) 
!S21(Cdelta 2-Port  ) 
!S12(Cdelta 2-Port  ) 
!S22(Cdelta 2-Port  ) 
!S2P File: Measurements: S11, S21, S12, S22:
# Hz S  dB   R 50
10000000 -44.240753 -3.9236231 -0.026910905 -2.037123 -0.029569279 -2.0939527 -47.990036 -150.78067
10999000 -43.549934 -5.4067926 -0.028365605 -2.2574189 -0.029825484 -2.3082731 -47.695393 -142.98198
11998000 -42.791424 -7.8898845 -0.028996717 -2.4794886 -0.029386584 -2.5243223 -47.817444 -137.93686
12997000 -42.199886 -12.707666 -0.02818791 -2.6559639 -0.028395569 -2.6854165 -47.094467 -131.39583
13996000 -41.911831 -16.161945 -0.026733007 -2.8329802 -0.029371206 -2.8565319 -46.723591 -125.76953
14995000 -41.604893 -19.948137 -0.029414469 -3.0472746 -0.028458884 -3.0691764 -46.282642 -122.52787
15994000 -41.493923 -23.843351 -0.030477142 -3.2640617 -0.031485319 -3.2847826 -46.04063 -118.69939
16993000 -41.482948 -27.963171 -0.029924791 -3.4607034 -0.030697946 -3.4687293 -45.123875 -119.78709
17992000 -41.538074 -32.643631 -0.029625837 -3.6601162 -0.031370595 -3.6591744 -44.499893 -120.19738
18991000 -41.775372 -37.320969 -0.030501908 -3.8683465 -0.031910874 -3.8629835 -43.813717 -119.88135
19990000 -41.669441 -42.297878 -0.0329872 -4.07512 -0.034072924 -4.070899 -43.160641 -121.10593
20989000 -41.541592 -45.071423 -0.035201456 -4.2797647 -0.035887852 -4.270155 -42.543861 -121.08266
21988000 -41.460411 -49.799885 -0.035634421 -4.4748645 -0.036609337 -4.464601 -42.282093 -120.45401
22987000 -41.202251 -54.415421 -0.03697874 -4.6738887 -0.037539039 -4.6670675 -41.981762 -120.18669
23986000 -41.170155 -58.134159 -0.036500741 -4.8685141 -0.037031736 -4.8661017 -41.841824 -120.0897
24985000 -40.894768 -60.510551 -0.037892591 -5.0778031 -0.037012938 -5.0726161 -41.61591 -117.57261
25984000 -40.66988 -62.971737 -0.038182713 -5.2819982 -0.037497263 -5.2838225 -41.267075 -116.33857
26983000 -40.365082 -64.55806 -0.03921384 -5.4777002 -0.038273335 -5.4932137 -41.142258 -115.34414
27982000 -40.18589 -65.768288 -0.040848263 -5.6818767 -0.039782528 -5.7119179 -40.81916 -113.7353
28981000 -40.171104 -67.121216 -0.039491512 -5.8759031 -0.039860114 -5.8992796 -40.611252 -113.26897
29980000 -39.813976 -68.312859 -0.03807408 -6.0698004 -0.040251218 -6.0755568 -40.281376 -112.39758
30979000 -39.42786 -67.883049 -0.036254846 -6.424655 -0.034977291 -6.4110808 -39.784435 -113.30149
31978000 -39.268574 -68.809235 -0.035651125 -6.619781 -0.036369175 -6.609076 -39.540157 -112.59346
32977000 -39.087505 -70.376869 -0.035462692 -6.8305855 -0.036751091 -6.8234105 -39.277042 -112.9286
33976000 -38.951256 -71.605598 -0.03639815 -7.0266428 -0.03678111 -7.025413 -38.963657 -112.31594
34975000 -38.649239 -72.437889 -0.03638301 -7.2278523 -0.038146678 -7.2243109 -38.724907 -112.34909
35974000 -38.484299 -73.240448 -0.035636246 -7.4225264 -0.03734478 -7.4231768 -38.446175 -111.45489
36973000 -38.264412 -73.963211 -0.035476785 -7.6238317 -0.03810855 -7.6221504 -38.128048 -110.72759
37972000 -38.102013 -74.019753 -0.035229903 -7.8343792 -0.038080346 -7.8392191 -37.903625 -110.13883
38971000 -37.79047 -73.617737 -0.036739342 -8.0359135 -0.038733765 -8.0429325 -37.695763 -108.66366
39970000 -37.461605 -74.217041 -0.034285039 -8.225462 -0.037333552 -8.2397404 -37.435623 -108.20676
40969000 -37.164135 -74.201881 -0.034912053 -8.4232149 -0.036573313 -8.4373093 -37.157539 -106.95734
41968000 -36.84465 -74.456711 -0.035102811 -8.628664 -0.03811064 -8.6384459 -36.970932 -105.87123
42967000 -36.584236 -74.632965 -0.034886219 -8.8372536 -0.036728639 -8.852272 -36.743454 -104.03182
43966000 -36.310928 -75.540215 -0.035514887 -9.0334721 -0.038904842 -9.0537682 -36.436317 -103.41652
44965000 -36.083168 -76.439407 -0.035577264 -9.2391214 -0.038524829 -9.2559032 -36.227978 -103.455
45964000 -35.858551 -77.650604 -0.037310313 -9.4424248 -0.040268201 -9.455884 -35.9813 -103.21057
46963000 -35.691975 -79.6661 -0.038129441 -9.630887 -0.039874483 -9.6520462 -35.799515 -103.55238
47962000 -35.534992 -81.025681 -0.039300039 -9.8324337 -0.04129355 -9.8513327 -35.582577 -103.68249
48961000 -35.337212 -82.605484 -0.041728429 -10.029652 -0.043145224 -10.050415 -35.363098 -104.15318
49960000 -35.114025 -84.060051 -0.042033184 -10.231471 -0.04389485 -10.249841 -35.21957 -104.21369
50959000 -34.908176 -85.376289 -0.043307848 -10.442062 -0.045323342 -10.450448 -35.033394 -104.63459
51958000 -34.699875 -86.374222 -0.045282535 -10.637919 -0.046841267 -10.651435 -34.870209 -105.11397
52957000 -34.512848 -87.522629 -0.04681693 -10.837555 -0.048143514 -10.84444 -34.701359 -104.97907
53956000 -34.350845 -88.295593 -0.047424823 -11.040849 -0.048478037 -11.043678 -34.570812 -104.98772
54955000 -34.1978 -88.786133 -0.048633005 -11.238742 -0.049241673 -11.237291 -34.416042 -105.11039
55954000 -34.02467 -89.720177 -0.049596969 -11.435812 -0.0500133 -11.436955 -34.304867 -104.73646
56953000 -33.918312 -89.677376 -0.049678661 -11.641492 -0.048233557 -11.6275 -34.223408 -104.9183
57952000 -33.757164 -90.323204 -0.049923223 -11.831648 -0.05013271 -11.823633 -34.139133 -105.06812
58951000 -33.639114 -90.635857 -0.051121887 -12.040359 -0.050603569 -12.017406 -33.973591 -105.20825
59950000 -33.516163 -91.051498 -0.051772557 -12.238411 -0.05098857 -12.217312 -33.91753 -105.44711
60949000 -33.409195 -91.618835 -0.05223757 -12.442229 -0.051900659 -12.420135 -33.814781 -105.74382
61948000 -33.350006 -91.852554 -0.052449524 -12.637877 -0.051485192 -12.622204 -33.733173 -105.85646
62947000 -33.271072 -92.136093 -0.052435901 -12.84586 -0.05213644 -12.826897 -33.596188 -106.07861
63946000 -33.202831 -92.871056 -0.054034159 -13.051176 -0.053204164 -13.026771 -33.495087 -106.22546
64945000 -33.108154 -92.977997 -0.05414398 -13.246411 -0.054071378 -13.228798 -33.376896 -106.79547
65944000 -33.001404 -93.245125 -0.055432428 -13.44556 -0.054204788 -13.431211 -33.297131 -107.14416
66943000 -32.863796 -93.736786 -0.052720711 -13.646926 -0.052761324 -13.632701 -33.192314 -107.49245
67942000 -32.800018 -93.714058 -0.054945577 -13.846755 -0.054427851 -13.831254 -33.068138 -107.81993
68941000 -32.709599 -93.842621 -0.054683693 -14.037457 -0.054192733 -14.026963 -32.967056 -107.76654
69940000 -32.613503 -93.845062 -0.055035498 -14.235779 -0.054214749 -14.229351 -32.819599 -108.08714
70939000 -32.503647 -93.857277 -0.055488009 -14.436618 -0.054567304 -14.426393 -32.706493 -108.05183
71938000 -32.363556 -93.481232 -0.054941121 -14.630216 -0.054111741 -14.620007 -32.558064 -107.92274
72937000 -32.201748 -93.355316 -0.054195616 -14.828429 -0.053671949 -14.820104 -32.422848 -107.71249
73936000 -32.064854 -93.006027 -0.053564236 -15.023167 -0.052939765 -15.017571 -32.306511 -107.53999
74935000 -31.938992 -93.250801 -0.05265075 -15.221555 -0.052274246 -15.213078 -32.153061 -107.23473
75934000 -31.812899 -93.568993 -0.05339573 -15.425695 -0.052482277 -15.419888 -32.06572 -107.17466
76933000 -31.687483 -94.025124 -0.05499224 -15.620045 -0.053997464 -15.617873 -31.895826 -107.5647
77932000 -31.584719 -94.852028 -0.055800814 -15.818672 -0.055538353 -15.812222 -31.797949 -107.58071
78931000 -31.523458 -95.607941 -0.054402947 -16.018328 -0.054068495 -16.01506 -31.705954 -107.44118
79930000 -31.405638 -96.344582 -0.057323191 -16.20858 -0.056968577 -16.209631 -31.60379 -107.80782
80929000 -31.282253 -97.291008 -0.058415279 -16.404076 -0.058093369 -16.402195 -31.506804 -108.16872
81928000 -31.206575 -98.197784 -0.058173385 -16.595749 -0.058832198 -16.59111 -31.384703 -108.20815
82927000 -31.119898 -98.884842 -0.059926502 -16.797499 -0.060062196 -16.794933 -31.274155 -108.49542
83926000 -30.997572 -99.631187 -0.061727326 -16.990093 -0.060545158 -16.991606 -31.162663 -108.76135
84925000 -30.88386 -100.07964 -0.062826566 -17.191603 -0.060870398 -17.189415 -31.061113 -108.81103
85924000 -30.807808 -100.54539 -0.063355796 -17.390108 -0.061704483 -17.388659 -30.97797 -108.82932
86923000 -30.704926 -101.03761 -0.062994391 -17.583433 -0.062426068 -17.583508 -30.882151 -108.6953
87922000 -30.588755 -101.44663 -0.064074241 -17.79505 -0.061718401 -17.783451 -30.79463 -108.82071
88921000 -30.529621 -101.67605 -0.064192466 -17.991177 -0.063127026 -17.98678 -30.702026 -108.74052
89920000 -30.426607 -102.23351 -0.065244235 -18.192583 -0.063587472 -18.18169 -30.65288 -108.94218
90919000 -30.334677 -102.55362 -0.065584809 -18.387358 -0.064030111 -18.381187 -30.565834 -109.12186
91918000 -30.2386 -102.91173 -0.066985227 -18.585339 -0.064390294 -18.581139 -30.497766 -109.1191
92917000 -30.150948 -103.27232 -0.068283536 -18.783758 -0.066329904 -18.779045 -30.426172 -109.26826
93916000 -30.064465 -103.60757 -0.066696852 -18.978662 -0.065635264 -18.974834 -30.342037 -109.84756
94915000 -29.990015 -104.20829 -0.068728492 -19.177805 -0.067242332 -19.172457 -30.289797 -109.78999
95914000 -29.925997 -104.46004 -0.069653518 -19.372633 -0.067409016 -19.371243 -30.200493 -109.97475
96913000 -29.844164 -104.74626 -0.070587955 -19.571491 -0.068890497 -19.567589 -30.134356 -110.36071
97912000 -29.777651 -105.20835 -0.072149217 -19.765059 -0.068880498 -19.7686 -30.054401 -110.63736
98911000 -29.66894 -105.38239 -0.072713286 -19.970026 -0.069903947 -19.965561 -30.01996 -110.80455
99910000 -29.603592 -105.5553 -0.073281899 -20.166386 -0.070192531 -20.166859 -29.91604 -111.19023
100909000 -29.516199 -105.80814 -0.072338983 -20.374487 -0.070059419 -20.370609 -29.82336 -111.35604
101908000 -29.436302 -106.05666 -0.073293217 -20.576538 -0.071086563 -20.570423 -29.71763 -111.10696
102907000 -29.300339 -106.10497 -0.073542275 -20.772324 -0.071039729 -20.774734 -29.635904 -111.14455
103906000 -29.208858 -106.16299 -0.074080721 -20.980597 -0.07054849 -20.974737 -29.487591 -111.06611
104905000 -29.067451 -106.09333 -0.074682958 -21.177156 -0.070780553 -21.175852 -29.369404 -110.78725
105904000 -28.918886 -106.25113 -0.074990295 -21.376801 -0.071605489 -21.374355 -29.253994 -110.64734
106903000 -28.819315 -106.29424 -0.074581571 -21.587992 -0.071506277 -21.578917 -29.133926 -110.55151
107902000 -28.655836 -106.67614 -0.075474657 -21.780903 -0.071988672 -21.774134 -28.993832 -110.47161
108901000 -28.543301 -106.91021 -0.077333853 -21.983366 -0.073234245 -21.979811 -28.860903 -110.47263
109900000 -28.417664 -107.4494 -0.077179968 -22.186329 -0.074203953 -22.175598 -28.7117 -110.57564
110899000 -28.302887 -108.0373 -0.079159833 -22.382689 -0.074522577 -22.369419 -28.583473 -110.80309
111898000 -28.203068 -108.74973 -0.079932317 -22.580109 -0.076022029 -22.577063 -28.474144 -110.97552
112897000 -28.085911 -109.29319 -0.081241891 -22.780825 -0.077658772 -22.771587 -28.335085 -111.19048
113896000 -27.988306 -109.88334 -0.082255855 -22.982082 -0.078853518 -22.970842 -28.231909 -111.35086
114895000 -27.883429 -110.52508 -0.083669312 -23.176914 -0.080323093 -23.166233 -28.115089 -111.39732
115894000 -27.750208 -110.86123 -0.084738746 -23.379696 -0.081248745 -23.367678 -28.0415 -111.55929
116893000 -27.671501 -111.47205 -0.085670091 -23.575132 -0.082116567 -23.558212 -27.91769 -111.71383
117892000 -27.595676 -111.93116 -0.084400363 -23.774445 -0.082377732 -23.758656 -27.840298 -111.92908
118891000 -27.533827 -112.34426 -0.085959464 -23.970007 -0.082519405 -23.957163 -27.752306 -112.0276
119890000 -27.442469 -112.65305 -0.086592138 -24.177763 -0.082706988 -24.160492 -27.735912 -112.1849
120889000 -27.388157 -113.20918 -0.087395258 -24.374022 -0.083189048 -24.360201 -27.656275 -112.15276
121888000 -27.34865 -113.47984 -0.087842703 -24.56703 -0.084251501 -24.551643 -27.605803 -112.43673
122887000 -27.311405 -113.70909 -0.088133015 -24.77121 -0.084609672 -24.758541 -27.558905 -112.46569
123886000 -27.258753 -114.15029 -0.088946983 -24.971769 -0.085452288 -24.954573 -27.539171 -112.67651
124885000 -27.215309 -114.65073 -0.089523546 -25.175026 -0.085191719 -25.157652 -27.513994 -112.71678
125884000 -27.168812 -114.84328 -0.089511916 -25.368126 -0.085069761 -25.357059 -27.486334 -112.88371
126883000 -27.146456 -115.24232 -0.090260603 -25.571461 -0.086482026 -25.559532 -27.440878 -112.87308
127882000 -27.095259 -115.49847 -0.09052676 -25.770359 -0.086788878 -25.751656 -27.404396 -113.12521
128881000 -27.067677 -115.82838 -0.090713896 -25.972406 -0.086928844 -25.956955 -27.358532 -113.23239
129880000 -27.014404 -116.14565 -0.091425247 -26.173733 -0.086681135 -26.15534 -27.322798 -113.22626
130879000 -26.95064 -116.29087 -0.091252618 -26.374405 -0.088079914 -26.356577 -27.242859 -113.28243
131878000 -26.884075 -116.5759 -0.091817319 -26.573366 -0.088180296 -26.555349 -27.185043 -113.15344
132877000 -26.819983 -116.62306 -0.091180712 -26.776569 -0.088144109 -26.758995 -27.091032 -113.18077
133876000 -26.739071 -116.75501 -0.091891088 -26.978666 -0.087900028 -26.954775 -27.002066 -113.09272
134875000 -26.632803 -116.93351 -0.092100225 -27.17795 -0.088394016 -27.158377 -26.90831 -112.97829
135874000 -26.5588 -116.93012 -0.091993406 -27.377262 -0.08849626 -27.354101 -26.802843 -112.97041
136873000 -26.447407 -116.87759 -0.09299428 -27.579725 -0.088379487 -27.559162 -26.716684 -112.92417
137872000 -26.36458 -117.0125 -0.092375219 -27.78051 -0.088307105 -27.764917 -26.61702 -112.87379
138871000 -26.293488 -117.20692 -0.092939802 -27.981606 -0.089099176 -27.965769 -26.516819 -113.04283
139870000 -26.197515 -117.47908 -0.093701251 -28.183456 -0.08979626 -28.165583 -26.43726 -113.2273
140869000 -26.106808 -117.92507 -0.095034823 -28.374401 -0.091535755 -28.356277 -26.333336 -113.36404
141868000 -26.012533 -118.42068 -0.095511898 -28.564745 -0.092126667 -28.552034 -26.258692 -113.68092
142867000 -25.93343 -118.65496 -0.093903601 -28.762432 -0.091280639 -28.745975 -26.179766 -113.9054
143866000 -25.87113 -119.1485 -0.095316619 -28.961897 -0.092344016 -28.945154 -26.110733 -114.38169
144865000 -25.809727 -119.69409 -0.097312719 -29.159853 -0.093744099 -29.142488 -26.052473 -114.71996
145864000 -25.757519 -120.01154 -0.097133242 -29.36174 -0.09463717 -29.348303 -26.016966 -114.98003
146863000 -25.706734 -120.37226 -0.098372012 -29.557487 -0.094559655 -29.546562 -25.963156 -115.25449
147862000 -25.671049 -120.74834 -0.098826684 -29.756178 -0.095522486 -29.741014 -25.93162 -115.60158
148861000 -25.633297 -121.23545 -0.099728219 -29.954693 -0.096416451 -29.938465 -25.911076 -115.82445
149860000 -25.622528 -121.4306 -0.098874882 -30.150263 -0.096561491 -30.139196 -25.879255 -115.98018
150859000 -25.602758 -121.83112 -0.10021746 -30.351042 -0.096561231 -30.339165 -25.87038 -116.24001
151858000 -25.589968 -122.09361 -0.099490896 -30.551245 -0.097109415 -30.535622 -25.858963 -116.49081
152857000 -25.571531 -122.44385 -0.10021243 -30.749023 -0.09807308 -30.735388 -25.840862 -116.64523
153856000 -25.56423 -122.65398 -0.10083394 -30.94606 -0.096828297 -30.937445 -25.859428 -116.95663
154855000 -25.560642 -122.81007 -0.10050118 -31.147135 -0.097196244 -31.134161 -25.852608 -117.14855
155854000 -25.570866 -123.07722 -0.10117704 -31.34573 -0.097548068 -31.332432 -25.844748 -117.43053
156853000 -25.558754 -123.76371 -0.09919215 -31.530861 -0.096885473 -31.521822 -25.840048 -117.73287
157852000 -25.564934 -123.98409 -0.10038277 -31.732203 -0.098631255 -31.721813 -25.832029 -118.09812
158851000 -25.558344 -124.21535 -0.10059655 -31.931995 -0.098661967 -31.921839 -25.812069 -118.32002
159850000 -25.5453 -124.35548 -0.10164712 -32.130154 -0.098164424 -32.120415 -25.813486 -118.50299
160849000 -25.523605 -124.48959 -0.10131006 -32.326733 -0.09942998 -32.320553 -25.782066 -118.7875
161848000 -25.51376 -124.58978 -0.10204965 -32.527348 -0.099622265 -32.519142 -25.743004 -118.87962
162847000 -25.464003 -124.81481 -0.10181697 -32.725945 -0.10012766 -32.719631 -25.711964 -119.1101
163846000 -25.42561 -125.02353 -0.10175894 -32.926521 -0.099263653 -32.916683 -25.636683 -119.13015
164845000 -25.366764 -125.06646 -0.10196511 -33.123131 -0.099974021 -33.114849 -25.571125 -119.23411
165844000 -25.309782 -125.12672 -0.10150322 -33.319664 -0.10101674 -33.32201 -25.494013 -119.38243
166843000 -25.248226 -125.18031 -0.10216202 -33.523914 -0.1001976 -33.514244 -25.425676 -119.56324
167842000 -25.191954 -125.32914 -0.10309923 -33.720886 -0.10056052 -33.716537 -25.343386 -119.48003
168841000 -25.114471 -125.54325 -0.10290732 -33.920063 -0.10077989 -33.912605 -25.266712 -119.55318
169840000 -25.047487 -125.78252 -0.10302608 -34.115932 -0.10176875 -34.115753 -25.18236 -119.77194
170839000 -24.987419 -126.04865 -0.10381553 -34.309727 -0.10154881 -34.31052 -25.098732 -119.97179
171838000 -24.930868 -126.45428 -0.10353796 -34.511932 -0.10236185 -34.506874 -25.031176 -120.19019
172837000 -24.856993 -126.83193 -0.1052713 -34.707985 -0.10366071 -34.700512 -24.963474 -120.44083
173836000 -24.796564 -127.25397 -0.10653601 -34.90601 -0.10447839 -34.90374 -24.920029 -120.66769
174835000 -24.739748 -127.66202 -0.10688753 -35.101967 -0.10523338 -35.101593 -24.869642 -120.97055
175834000 -24.684063 -128.05322 -0.10806169 -35.300457 -0.10619195 -35.294014 -24.806314 -121.28978
176833000 -24.632362 -128.43228 -0.10907742 -35.497971 -0.10682651 -35.493217 -24.75363 -121.4281
177832000 -24.587238 -128.90678 -0.10901716 -35.693359 -0.10682465 -35.692692 -24.730768 -121.60815
178831000 -24.544865 -129.26129 -0.10931341 -35.891148 -0.10731231 -35.88538 -24.694057 -121.84602
179830000 -24.506029 -129.67703 -0.1098863 -36.087353 -0.10752034 -36.086304 -24.665058 -121.96976
180829000 -24.474222 -129.89906 -0.11036262 -36.283455 -0.10776287 -36.2878 -24.633961 -122.11474
181828000 -24.447094 -130.24112 -0.11070117 -36.479797 -0.10772944 -36.480057 -24.622644 -122.24865
182827000 -24.425377 -130.58911 -0.1104537 -36.673691 -0.10873953 -36.673809 -24.608284 -122.31129
183826000 -24.379833 -130.91566 -0.11106366 -36.868332 -0.10891842 -36.8731 -24.59343 -122.44005
184825000 -24.387989 -131.23068 -0.11136641 -37.067993 -0.10990595 -37.068123 -24.580488 -122.52424
185824000 -24.357744 -131.57784 -0.11060239 -37.262577 -0.10969568 -37.263851 -24.573429 -122.60938
186823000 -24.346117 -131.93169 -0.1112323 -37.462841 -0.10975833 -37.461372 -24.572525 -122.59415
187822000 -24.324419 -132.25008 -0.11215367 -37.661259 -0.11026013 -37.660381 -24.536386 -122.64877
188821000 -24.306011 -132.50061 -0.1117656 -37.855671 -0.11056389 -37.861214 -24.524017 -122.72952
189820000 -24.28446 -132.76971 -0.11213242 -38.058098 -0.11054079 -38.055244 -24.512169 -122.88356
190819000 -24.260084 -133.02078 -0.11375785 -38.256187 -0.11131064 -38.253014 -24.483763 -122.85249
191818000 -24.224993 -133.19908 -0.11500271 -38.447666 -0.11337389 -38.450275 -24.452127 -122.75834
192817000 -24.153952 -133.46239 -0.11538123 -38.633831 -0.11326309 -38.634663 -24.376909 -122.85439
193816000 -24.121916 -133.84248 -0.11446475 -38.827343 -0.11239646 -38.825027 -24.324238 -123.09446
194815000 -24.065119 -134.26822 -0.11414211 -39.022709 -0.11337203 -39.027836 -24.262959 -123.23309
195814000 -24.011806 -134.48979 -0.11500484 -39.222164 -0.11269321 -39.225174 -24.210207 -123.31038
196813000 -23.960276 -134.87383 -0.11350435 -39.420551 -0.11196189 -39.419613 -24.131626 -123.50038
197812000 -23.902088 -135.07024 -0.11430077 -39.61459 -0.11289006 -39.611244 -24.065187 -123.61858
198811000 -23.848404 -135.25293 -0.11378974 -39.811256 -0.11211143 -39.813278 -23.993404 -123.7821
199810000 -23.780291 -135.63525 -0.11444163 -40.007935 -0.11207611 -40.001366 -23.913591 -123.88033
200809000 -23.718428 -135.94458 -0.11441213 -40.197269 -0.11256649 -40.205215 -23.841452 -124.0589
201808000 -23.666071 -136.13635 -0.11498889 -40.403442 -0.11351977 -40.408272 -23.773596 -124.14463
202807000 -23.609888 -136.51944 -0.115713 -40.604069 -0.11393377 -40.603523 -23.716311 -124.33743
203806000 -23.554178 -136.97688 -0.11714616 -40.803047 -0.11436003 -40.80167 -23.652548 -124.53461
