!Keysight Technologies,E5080B,MY59205177,A.15.75.32
!Date: Friday, February 23, 2024 03:43:25
!Correction: S11(Cdelta 2-Port  ) 
!S21(Cdelta 2-Port  ) 
!S12(Cdelta 2-Port  ) 
!S22(Cdelta 2-Port  ) 
!S2P File: Measurements: S11, S21, S12, S22:
# Hz S  dB   R 50
10000000 -46.07415 -2.9799907 -0.014591295 -2.0439966 -0.018101938 -2.0966594 -45.861809 -157.23375
10999000 -45.326405 -5.1016102 -0.016315991 -2.2591262 -0.017673835 -2.3152537 -45.834396 -151.24287
11998000 -44.356098 -7.7391815 -0.016657427 -2.4846265 -0.017425884 -2.5285892 -46.027298 -146.7001
12997000 -43.628445 -13.715583 -0.015468755 -2.6639915 -0.016700562 -2.6962123 -45.570099 -141.38712
13996000 -43.311768 -17.48587 -0.01451078 -2.842303 -0.017656421 -2.8640144 -45.331051 -136.00945
14995000 -42.893574 -22.049049 -0.017404051 -3.0544693 -0.017642906 -3.0804217 -45.023087 -132.49866
15994000 -42.746326 -26.084318 -0.018299237 -3.2740483 -0.019128306 -3.2941141 -44.872105 -128.93338
16993000 -42.691711 -30.842894 -0.017303731 -3.4725375 -0.018587274 -3.4819655 -44.123203 -128.80676
17992000 -42.709259 -36.600636 -0.017506713 -3.6695995 -0.01873468 -3.6720691 -43.494724 -129.19635
18991000 -42.985298 -42.063213 -0.01862159 -3.8822927 -0.020428512 -3.8778865 -42.883106 -127.92422
19990000 -42.681381 -47.702522 -0.021084484 -4.0881786 -0.022549983 -4.0844364 -42.225433 -128.60757
20989000 -42.517944 -51.213459 -0.023315061 -4.292532 -0.023590676 -4.2785578 -41.692947 -128.1004
21988000 -42.339844 -56.142071 -0.023530295 -4.4858651 -0.02515596 -4.4783134 -41.424194 -127.31402
22987000 -42.001339 -60.954937 -0.025039319 -4.6903667 -0.025769159 -4.6826301 -41.12616 -127.05878
23986000 -41.871193 -65.204765 -0.024765173 -4.8806715 -0.025115864 -4.8815517 -41.011444 -126.73915
24985000 -41.516754 -67.796562 -0.025632191 -5.0925193 -0.025132008 -5.0882607 -40.811947 -124.41983
25984000 -41.152641 -69.998459 -0.027096361 -5.2984252 -0.026054567 -5.2996607 -40.465897 -122.79557
26983000 -40.833237 -71.803162 -0.027235201 -5.4966178 -0.027358152 -5.5149407 -40.369549 -122.16309
27982000 -40.630135 -72.53035 -0.02779242 -5.6982594 -0.028184261 -5.7313161 -40.091038 -120.60719
28981000 -40.623535 -74.256325 -0.026563453 -5.8924327 -0.028784599 -5.9183426 -39.853973 -119.96716
29980000 -40.210007 -75.435928 -0.02689762 -6.0878158 -0.028598027 -6.0903473 -39.570042 -118.98464
30979000 -39.816772 -74.301445 -0.02424244 -6.4412928 -0.022865886 -6.4350491 -39.084175 -119.31017
31978000 -39.618717 -75.299049 -0.023664594 -6.6353159 -0.024110988 -6.6273131 -38.842415 -118.64139
32977000 -39.449799 -76.897636 -0.024074025 -6.8453612 -0.025313484 -6.8450651 -38.597015 -118.74696
33976000 -39.261734 -78.027489 -0.024228645 -7.0448422 -0.025383525 -7.0440793 -38.308388 -118.18532
34975000 -38.950577 -78.791939 -0.024165651 -7.2456732 -0.026416562 -7.25003 -38.090939 -117.97453
35974000 -38.776016 -79.307884 -0.023537843 -7.4435639 -0.025746765 -7.4454665 -37.838104 -116.94215
36973000 -38.545395 -79.914703 -0.023343688 -7.6434307 -0.026321504 -7.6466856 -37.548737 -115.86687
37972000 -38.355782 -79.765602 -0.023019163 -7.8519454 -0.026805155 -7.8657379 -37.348537 -115.2339
38971000 -38.072845 -79.167747 -0.023802541 -8.0531864 -0.026610333 -8.0639505 -37.173988 -113.74305
39970000 -37.714745 -79.486664 -0.022623623 -8.245923 -0.025254639 -8.2639971 -36.935596 -113.05186
40969000 -37.439396 -79.209549 -0.022863805 -8.4449348 -0.025378836 -8.460372 -36.682419 -111.70611
41968000 -37.09309 -79.103065 -0.023158131 -8.6479158 -0.025940506 -8.6651773 -36.499214 -110.51321
42967000 -36.858498 -79.070473 -0.023262229 -8.8604317 -0.026467608 -8.8773222 -36.307911 -108.64137
43966000 -36.558521 -79.779137 -0.024554042 -9.0576029 -0.027003892 -9.0806065 -36.045059 -107.8702
44965000 -36.319771 -80.716217 -0.024513431 -9.2604523 -0.027016135 -9.2824688 -35.822643 -107.73128
45964000 -36.085682 -81.664154 -0.026249103 -9.4655828 -0.028797368 -9.4832878 -35.611073 -107.32673
46963000 -35.871571 -83.554733 -0.026215509 -9.6569805 -0.029459557 -9.6800098 -35.414135 -107.56487
47962000 -35.712368 -84.958908 -0.027511846 -9.8568544 -0.030309526 -9.8789206 -35.221367 -107.63119
48961000 -35.517513 -86.367882 -0.029704809 -10.053933 -0.032081939 -10.077504 -34.986607 -107.87125
49960000 -35.278976 -87.605408 -0.030797273 -10.254104 -0.033235781 -10.278399 -34.858334 -107.86838
50959000 -35.036633 -88.934395 -0.031245442 -10.467163 -0.03387047 -10.478992 -34.683208 -108.21748
51958000 -34.827446 -89.903625 -0.033092316 -10.665073 -0.035545945 -10.678482 -34.514606 -108.55149
52957000 -34.627708 -91.010643 -0.034208331 -10.867931 -0.036572266 -10.874332 -34.354286 -108.3523
53956000 -34.450916 -91.650398 -0.03579624 -11.069225 -0.037337206 -11.068536 -34.221607 -108.3577
54955000 -34.282471 -92.067345 -0.036361605 -11.269982 -0.038159996 -11.271753 -34.060574 -108.34682
55954000 -34.110603 -92.909271 -0.03764949 -11.469491 -0.038573928 -11.465615 -33.958084 -108.09499
56953000 -33.988956 -92.997879 -0.037077688 -11.665565 -0.038509682 -11.659404 -33.894089 -108.25286
57952000 -33.824631 -93.542572 -0.038834061 -11.867558 -0.038621984 -11.856978 -33.789154 -108.3395
58951000 -33.698002 -93.865295 -0.03986064 -12.072652 -0.039961219 -12.054954 -33.619625 -108.45018
59950000 -33.582214 -94.131683 -0.039930914 -12.270289 -0.03979376 -12.251258 -33.547375 -108.69326
60949000 -33.459011 -94.790726 -0.040308699 -12.473822 -0.04079809 -12.452714 -33.459393 -108.96358
61948000 -33.39624 -95.017921 -0.040891379 -12.670448 -0.04054803 -12.657287 -33.375889 -109.05882
62947000 -33.299911 -95.378815 -0.041351303 -12.884843 -0.041865122 -12.864293 -33.228249 -109.35254
63946000 -33.238415 -96.02359 -0.042106893 -13.084656 -0.042666286 -13.063708 -33.109116 -109.45619
64945000 -33.112019 -96.138466 -0.042726934 -13.282331 -0.042407233 -13.264838 -33.006824 -109.89274
65944000 -33.018723 -96.495384 -0.043333992 -13.483754 -0.042519897 -13.467392 -32.897766 -110.29212
66943000 -32.876949 -96.844475 -0.040916201 -13.684977 -0.041746464 -13.666819 -32.808056 -110.552
67942000 -32.819843 -96.857208 -0.043647751 -13.881664 -0.043653764 -13.871946 -32.666683 -110.92286
68941000 -32.704018 -96.984436 -0.04323281 -14.075059 -0.04257793 -14.069677 -32.559441 -110.86036
69940000 -32.606422 -96.882713 -0.043155685 -14.27288 -0.04299359 -14.268116 -32.425522 -111.12213
70939000 -32.505581 -96.906647 -0.043146271 -14.467791 -0.043331638 -14.466549 -32.290791 -111.02585
71938000 -32.368134 -96.482178 -0.043773782 -14.663751 -0.043268628 -14.661488 -32.159901 -110.84135
72937000 -32.209644 -96.243698 -0.041937523 -14.867537 -0.042738177 -14.860294 -32.024834 -110.60503
73936000 -32.07589 -95.903183 -0.042582635 -15.069604 -0.042416383 -15.060547 -31.917982 -110.3998
74935000 -31.947235 -96.168381 -0.042031355 -15.261292 -0.042133033 -15.261477 -31.767611 -110.07115
75934000 -31.830435 -96.420776 -0.042308424 -15.470682 -0.041589912 -15.468988 -31.674755 -109.93578
76933000 -31.696335 -96.71669 -0.043106008 -15.664479 -0.043189149 -15.660663 -31.512503 -110.27289
77932000 -31.592684 -97.476669 -0.044043381 -15.865756 -0.044149812 -15.851601 -31.412205 -110.29885
78931000 -31.517248 -98.237564 -0.042437293 -16.062246 -0.043254249 -16.061476 -31.315786 -110.15405
79930000 -31.397526 -99.077492 -0.044588637 -16.251537 -0.045808852 -16.249327 -31.20981 -110.39243
80929000 -31.288816 -99.870148 -0.046581961 -16.452482 -0.047170456 -16.448227 -31.11215 -110.69149
81928000 -31.187187 -100.54888 -0.047133297 -16.642004 -0.047589697 -16.638182 -30.980305 -110.70534
82927000 -31.085804 -101.2785 -0.048359197 -16.839312 -0.049049508 -16.838226 -30.879948 -110.95982
83926000 -30.973934 -102.00981 -0.050118309 -17.036501 -0.049546435 -17.038792 -30.765959 -111.14146
84925000 -30.867565 -102.33984 -0.051153582 -17.234642 -0.050045773 -17.234724 -30.674728 -111.17582
85924000 -30.775082 -102.81877 -0.051368367 -17.438393 -0.051293451 -17.436409 -30.586092 -111.1783
86923000 -30.667334 -103.25813 -0.051866341 -17.636658 -0.051542036 -17.631369 -30.486385 -111.0295
87922000 -30.55621 -103.60552 -0.051755793 -17.845938 -0.051503792 -17.833803 -30.39131 -111.10592
88921000 -30.492079 -103.85744 -0.052660968 -18.040962 -0.052220803 -18.038223 -30.305574 -111.02143
89920000 -30.381201 -104.43305 -0.053170886 -18.240335 -0.052842811 -18.239635 -30.251146 -111.1966
90919000 -30.278532 -104.6916 -0.054783568 -18.438423 -0.053082574 -18.432997 -30.161133 -111.3645
91918000 -30.18821 -105.02058 -0.054513305 -18.636925 -0.05393194 -18.632105 -30.087938 -111.39654
92917000 -30.097235 -105.29837 -0.055783246 -18.834591 -0.054982804 -18.834024 -30.030136 -111.54911
93916000 -30.00259 -105.67574 -0.055926673 -19.030252 -0.05548932 -19.026379 -29.940376 -112.09703
94915000 -29.931767 -106.29597 -0.057277028 -19.232521 -0.055822313 -19.224201 -29.880402 -111.95004
95914000 -29.859562 -106.48086 -0.057386406 -19.427687 -0.057856478 -19.42345 -29.786198 -112.25386
96913000 -29.782442 -106.67483 -0.058823016 -19.623753 -0.058571652 -19.622158 -29.728718 -112.56555
97912000 -29.699097 -107.16884 -0.060239889 -19.818975 -0.05834103 -19.82181 -29.640581 -112.83323
98911000 -29.60203 -107.28907 -0.06075437 -20.023575 -0.059030306 -20.02166 -29.604589 -113.00799
99910000 -29.535145 -107.46384 -0.061391782 -20.222078 -0.059915479 -20.222275 -29.496021 -113.27928
100909000 -29.445335 -107.71855 -0.061423287 -20.432205 -0.059362259 -20.425381 -29.415215 -113.48431
101908000 -29.353825 -107.93245 -0.062253013 -20.631802 -0.060719717 -20.627016 -29.311581 -113.27085
102907000 -29.218264 -107.95174 -0.061854672 -20.82855 -0.059924927 -20.827621 -29.230333 -113.2663
103906000 -29.119741 -107.97601 -0.062607013 -21.036425 -0.060299471 -21.031084 -29.093081 -113.20124
104905000 -28.975744 -107.8407 -0.062807657 -21.234623 -0.060539383 -21.235195 -28.963289 -112.92532
105904000 -28.83429 -107.96523 -0.062805027 -21.434383 -0.06046956 -21.430265 -28.853863 -112.80635
106903000 -28.730726 -108.03016 -0.062967859 -21.642492 -0.06131538 -21.637173 -28.726316 -112.70161
107902000 -28.562765 -108.32408 -0.063778445 -21.841455 -0.061853621 -21.836481 -28.600414 -112.63458
108901000 -28.456488 -108.57287 -0.065276556 -22.047758 -0.063307732 -22.036676 -28.46854 -112.56055
109900000 -28.329702 -109.05537 -0.0654881 -22.244225 -0.064526387 -22.23555 -28.318163 -112.69102
110899000 -28.211884 -109.62204 -0.067469746 -22.442907 -0.064924449 -22.435696 -28.203705 -112.88554
111898000 -28.120886 -110.27215 -0.067950115 -22.642361 -0.066281281 -22.638704 -28.079948 -113.06084
112897000 -27.992676 -110.84906 -0.069660358 -22.843361 -0.067602783 -22.833168 -27.950577 -113.20532
113896000 -27.889166 -111.35738 -0.07089027 -23.042513 -0.068538882 -23.032322 -27.839247 -113.38364
114895000 -27.791353 -112.02634 -0.071786284 -23.242754 -0.069508061 -23.228327 -27.736496 -113.45829
115894000 -27.671453 -112.38735 -0.073096298 -23.443932 -0.070703723 -23.431421 -27.667671 -113.59512
116893000 -27.589199 -112.82603 -0.073166326 -23.640152 -0.07226187 -23.626379 -27.544611 -113.64313
117892000 -27.504654 -113.31493 -0.07378608 -23.834526 -0.072050788 -23.822517 -27.470449 -113.91022
118891000 -27.448475 -113.72479 -0.074404344 -24.036205 -0.072106577 -24.022797 -27.364527 -114.05544
119890000 -27.36067 -114.12383 -0.074913919 -24.236881 -0.073119469 -24.226196 -27.355438 -114.16195
120889000 -27.305365 -114.58602 -0.076450922 -24.436947 -0.072859645 -24.42614 -27.277868 -114.11069
121888000 -27.274658 -114.90894 -0.076015182 -24.63452 -0.073888764 -24.622175 -27.228882 -114.38739
122887000 -27.232031 -115.12452 -0.077403679 -24.838621 -0.075138837 -24.825483 -27.17934 -114.41124
123886000 -27.175848 -115.51466 -0.077609755 -25.037537 -0.074286371 -25.02412 -27.163639 -114.5147
124885000 -27.138723 -116.01441 -0.078183226 -25.241568 -0.0749126 -25.224346 -27.127163 -114.58034
125884000 -27.094849 -116.19726 -0.078329511 -25.437386 -0.075637706 -25.423597 -27.102377 -114.72137
126883000 -27.075495 -116.58694 -0.079053596 -25.639795 -0.075843163 -25.626366 -27.062967 -114.75986
127882000 -27.027008 -116.8812 -0.07929112 -25.84045 -0.076729402 -25.823303 -27.013702 -114.87581
128881000 -26.996649 -117.23202 -0.079454578 -26.045536 -0.077052169 -26.02389 -26.975658 -114.95634
129880000 -26.946613 -117.52322 -0.080365278 -26.243973 -0.077055596 -26.227638 -26.945538 -114.95359
130879000 -26.882326 -117.69864 -0.079517849 -26.445215 -0.07841754 -26.42816 -26.868456 -114.95086
131878000 -26.819056 -117.92278 -0.079744585 -26.648561 -0.077795811 -26.628326 -26.80653 -114.83323
132877000 -26.753061 -117.99925 -0.079845309 -26.851162 -0.078409895 -26.832619 -26.72924 -114.76308
133876000 -26.666746 -118.12748 -0.08021234 -27.046312 -0.077970542 -27.030371 -26.641802 -114.65246
134875000 -26.575087 -118.28619 -0.080127433 -27.250784 -0.078361399 -27.230268 -26.542255 -114.49597
135874000 -26.491623 -118.30455 -0.080385059 -27.4484 -0.078826368 -27.430164 -26.449846 -114.46052
136873000 -26.379692 -118.24333 -0.081330247 -27.650637 -0.078180857 -27.632597 -26.367563 -114.4232
137872000 -26.302727 -118.3686 -0.081605613 -27.852406 -0.078039326 -27.834045 -26.267477 -114.35487
138871000 -26.235605 -118.58367 -0.081742771 -28.053572 -0.078987956 -28.0361 -26.179916 -114.46934
139870000 -26.135464 -118.86497 -0.082604095 -28.253166 -0.079639129 -28.237072 -26.1028 -114.63274
140869000 -26.051105 -119.39755 -0.083410963 -28.448423 -0.079819463 -28.433773 -25.997837 -114.88837
141868000 -25.97538 -119.78242 -0.083920278 -28.648863 -0.081978336 -28.635389 -25.949471 -115.09753
142867000 -25.892231 -119.97967 -0.082015269 -28.845709 -0.080839425 -28.829832 -25.87796 -115.22858
143866000 -25.821577 -120.47615 -0.084239095 -29.042538 -0.08182323 -29.027378 -25.799498 -115.71609
144865000 -25.763601 -120.95922 -0.085482381 -29.243181 -0.083253697 -29.2278 -25.740116 -116.02174
145864000 -25.708899 -121.30634 -0.085654519 -29.445341 -0.085175887 -29.431675 -25.713518 -116.24337
146863000 -25.665512 -121.66649 -0.08664865 -29.646235 -0.085299693 -29.633631 -25.665337 -116.55554
147862000 -25.629021 -121.99173 -0.088382132 -29.84247 -0.085932538 -29.82567 -25.636562 -116.85217
148861000 -25.593988 -122.42529 -0.088467725 -30.038979 -0.087065116 -30.025621 -25.607609 -117.0209
149860000 -25.561337 -122.59594 -0.089950331 -30.234301 -0.087581731 -30.220821 -25.55538 -117.10808
150859000 -25.536503 -123.06161 -0.089738123 -30.426754 -0.087377824 -30.418398 -25.540224 -117.47827
151858000 -25.52466 -123.41389 -0.089200638 -30.630493 -0.087413751 -30.617538 -25.527411 -117.81065
152857000 -25.51561 -123.76154 -0.089103408 -30.824152 -0.086878665 -30.816488 -25.512877 -117.96782
153856000 -25.506096 -123.97139 -0.088289142 -31.028883 -0.086927257 -31.015251 -25.525742 -118.30018
154855000 -25.5072 -124.13421 -0.08937715 -31.228851 -0.086651027 -31.213995 -25.515495 -118.54763
155854000 -25.519648 -124.34775 -0.089493416 -31.42832 -0.087205626 -31.413038 -25.504942 -118.82967
156853000 -25.514431 -125.04721 -0.087134846 -31.614883 -0.086385377 -31.606691 -25.503067 -119.14888
157852000 -25.51494 -125.27847 -0.088542752 -31.816301 -0.088037387 -31.806942 -25.489103 -119.51734
158851000 -25.516314 -125.53675 -0.08914198 -32.017654 -0.088427037 -32.007301 -25.480017 -119.77552
159850000 -25.50421 -125.57953 -0.090126604 -32.213387 -0.088373408 -32.205093 -25.471788 -119.94662
160849000 -25.487524 -125.674 -0.08965911 -32.412598 -0.089267492 -32.406925 -25.442068 -120.23135
161848000 -25.471743 -125.78641 -0.090172857 -32.615326 -0.089256659 -32.60815 -25.404961 -120.35035
162847000 -25.435801 -125.97446 -0.08993791 -32.811981 -0.0898396 -32.808781 -25.379595 -120.60117
163846000 -25.389877 -126.16966 -0.090239197 -33.016685 -0.089843825 -33.008751 -25.297964 -120.57861
164845000 -25.331036 -126.1335 -0.090689577 -33.213566 -0.090155415 -33.209473 -25.238237 -120.71248
165844000 -25.277815 -126.14149 -0.090367116 -33.409859 -0.090426318 -33.404484 -25.161051 -120.84541
166843000 -25.219467 -126.22572 -0.090371341 -33.612431 -0.090460151 -33.606216 -25.096447 -120.99027
167842000 -25.162565 -126.36198 -0.091116741 -33.811573 -0.090296812 -33.807564 -25.020153 -120.89545
168841000 -25.087589 -126.52164 -0.09105356 -34.009415 -0.090813547 -34.006046 -24.947426 -121.00496
169840000 -25.021334 -126.72476 -0.091260552 -34.210102 -0.091322407 -34.203598 -24.858702 -121.15325
170839000 -24.960056 -126.9555 -0.092662394 -34.402065 -0.091855131 -34.402885 -24.778593 -121.2974
171838000 -24.903461 -127.34875 -0.092850685 -34.604214 -0.092469618 -34.601025 -24.717299 -121.55573
172837000 -24.834335 -127.67757 -0.094310977 -34.802559 -0.093767904 -34.797729 -24.652594 -121.74345
173836000 -24.765919 -128.07442 -0.094783738 -35.005501 -0.094543517 -35.001873 -24.617498 -121.98071
174835000 -24.715155 -128.44582 -0.095343873 -35.196579 -0.09507107 -35.197945 -24.563122 -122.26708
175834000 -24.655434 -128.82921 -0.096599609 -35.398483 -0.096270353 -35.394608 -24.509338 -122.50881
176833000 -24.60833 -129.17065 -0.097570039 -35.598316 -0.096576847 -35.597137 -24.461992 -122.68506
177832000 -24.56354 -129.60413 -0.098388165 -35.794437 -0.097544625 -35.794716 -24.442839 -122.77138
178831000 -24.518013 -129.81187 -0.099411972 -35.992271 -0.099814035 -35.986866 -24.400862 -122.85928
179830000 -24.451189 -130.22087 -0.1004474 -36.173374 -0.099734306 -36.175018 -24.337494 -122.93523
180829000 -24.401844 -130.56506 -0.099420182 -36.370335 -0.099588104 -36.367519 -24.298159 -123.26769
181828000 -24.375528 -131.01381 -0.099404022 -36.571758 -0.098489851 -36.567142 -24.278051 -123.49148
182827000 -24.352299 -131.37022 -0.099219956 -36.767757 -0.098724991 -36.7658 -24.267557 -123.55177
183826000 -24.317141 -131.69769 -0.099662527 -36.964943 -0.098910898 -36.962986 -24.254122 -123.74512
184825000 -24.316414 -132.02072 -0.099432625 -37.160488 -0.099406675 -37.161514 -24.235489 -123.84703
185824000 -24.28887 -132.40562 -0.099702261 -37.35598 -0.099413291 -37.361038 -24.229582 -123.91583
186823000 -24.272467 -132.74843 -0.099943563 -37.557426 -0.099743843 -37.555035 -24.221239 -123.92941
187822000 -24.246256 -133.13451 -0.10049615 -37.751743 -0.1000376 -37.754669 -24.184475 -124.02826
188821000 -24.229517 -133.34991 -0.10059232 -37.951473 -0.10032184 -37.951866 -24.166052 -124.1709
189820000 -24.206032 -133.67119 -0.10066279 -38.150509 -0.10042356 -38.151089 -24.148901 -124.36098
190819000 -24.175888 -133.94855 -0.10095157 -38.348583 -0.10128648 -38.345539 -24.108202 -124.40862
191818000 -24.143959 -134.26871 -0.10151064 -38.544693 -0.10036714 -38.544918 -24.080456 -124.44019
192817000 -24.101305 -134.53584 -0.10185275 -38.740372 -0.10118738 -38.742321 -24.039085 -124.51183
193816000 -24.070467 -134.81189 -0.10200778 -38.93597 -0.10134053 -38.936211 -23.988945 -124.64512
194815000 -24.013077 -135.1794 -0.10236158 -39.129356 -0.10159703 -39.133568 -23.919842 -124.7244
195814000 -23.958813 -135.37144 -0.10312707 -39.329899 -0.10219435 -39.331604 -23.866896 -124.80847
196813000 -23.900597 -135.71112 -0.10264438 -39.523708 -0.10194789 -39.525902 -23.787905 -124.92458
197812000 -23.839163 -135.91122 -0.1027573 -39.722759 -0.102664 -39.720837 -23.718596 -125.01977
198811000 -23.789595 -136.0593 -0.10339057 -39.914703 -0.10219382 -39.923344 -23.653921 -125.17531
199810000 -23.717203 -136.41527 -0.10309976 -40.111683 -0.10201997 -40.113262 -23.573584 -125.27784
200809000 -23.665651 -136.69624 -0.1033903 -40.313232 -0.10207297 -40.31168 -23.498182 -125.45536
201808000 -23.604563 -136.88507 -0.10449483 -40.508808 -0.10330017 -40.513824 -23.435671 -125.53781
202807000 -23.551414 -137.21278 -0.10453195 -40.711346 -0.10472553 -40.714622 -23.382162 -125.69339
