!Keysight Technologies,E5080B,MY59205177,A.15.75.32
!Date: Friday, February 23, 2024 03:05:13
!Correction: S11(Cdelta 2-Port  ) 
!S21(Cdelta 2-Port  ) 
!S12(Cdelta 2-Port  ) 
!S22(Cdelta 2-Port  ) 
!S2P File: Measurements: S11, S21, S12, S22:
# Hz S  dB   R 50
10000000 -44.237282 -3.8965316 -0.02704687 -2.0412409 -0.029579183 -2.0902619 -47.962276 -150.48164
10999000 -43.537586 -5.3234205 -0.027909396 -2.2566042 -0.029135095 -2.3078084 -47.713608 -142.98831
11998000 -42.771919 -8.1171942 -0.028612619 -2.478586 -0.029876832 -2.5213544 -47.791832 -137.48128
12997000 -42.166889 -12.883619 -0.02773224 -2.6587851 -0.028990462 -2.6903448 -47.15741 -131.1084
13996000 -41.95208 -15.982557 -0.026760096 -2.8375354 -0.028830461 -2.8592613 -46.758678 -125.92294
14995000 -41.623421 -19.885258 -0.028804664 -3.0452349 -0.029086623 -3.0716686 -46.329475 -122.6085
15994000 -41.486851 -23.817211 -0.030250093 -3.2650805 -0.032094717 -3.2902579 -46.139595 -118.71325
16993000 -41.462196 -27.981604 -0.029542696 -3.4603145 -0.030776938 -3.4689672 -45.101414 -119.51428
17992000 -41.567657 -32.754551 -0.029615151 -3.6596944 -0.03127699 -3.6623638 -44.526218 -120.61542
18991000 -41.814213 -37.264496 -0.031263955 -3.8704159 -0.031995364 -3.8653915 -43.801933 -120.03423
19990000 -41.6357 -42.317436 -0.032924078 -4.0767612 -0.034139715 -4.0751653 -43.082951 -121.38103
20989000 -41.521191 -45.3997 -0.035562649 -4.2798729 -0.036314622 -4.2719688 -42.55965 -121.10706
21988000 -41.408424 -49.917526 -0.036161397 -4.4764199 -0.036201593 -4.4646249 -42.239258 -120.65875
22987000 -41.205307 -54.364944 -0.037125204 -4.673183 -0.038158689 -4.6666441 -41.989628 -120.20364
23986000 -41.226021 -58.048878 -0.036564697 -4.8656244 -0.037005369 -4.8693519 -41.860973 -120.04574
24985000 -40.903427 -60.828373 -0.037699882 -5.0758414 -0.037350263 -5.0726123 -41.584049 -117.62605
25984000 -40.611744 -62.972397 -0.038329743 -5.2859135 -0.037363056 -5.2857747 -41.313522 -116.31371
26983000 -40.333469 -64.761894 -0.038998611 -5.477366 -0.037879795 -5.5001345 -41.168674 -115.25156
27982000 -40.191719 -65.647491 -0.040118236 -5.6794152 -0.039889898 -5.7136436 -40.80497 -113.69393
28981000 -40.144386 -66.94931 -0.037988428 -5.8769889 -0.039514501 -5.9047546 -40.613701 -113.07101
29980000 -39.837666 -68.654694 -0.038429506 -6.0672555 -0.040316015 -6.074687 -40.295517 -112.13335
30979000 -39.442089 -67.713638 -0.036402851 -6.4251547 -0.035247386 -6.4112635 -39.778992 -113.18126
31978000 -39.264412 -68.817703 -0.035206415 -6.6183276 -0.035554819 -6.6108909 -39.508751 -112.6621
32977000 -39.103802 -70.454926 -0.035415713 -6.8286381 -0.037251309 -6.8236237 -39.266468 -112.94675
33976000 -38.948029 -71.592995 -0.036029581 -7.0276046 -0.036903553 -7.0242558 -38.965904 -112.34772
34975000 -38.636013 -72.689735 -0.036123808 -7.226512 -0.037398826 -7.2277045 -38.723907 -112.12927
35974000 -38.468697 -73.249184 -0.034751311 -7.4266672 -0.037527028 -7.4239821 -38.437782 -111.55454
36973000 -38.256622 -74.099548 -0.035184752 -7.6205602 -0.038528748 -7.6269016 -38.153236 -110.72954
37972000 -38.101536 -74.018402 -0.035023741 -7.8307915 -0.038468678 -7.8392191 -37.905285 -110.13974
38971000 -37.772346 -73.778587 -0.036114153 -8.0322552 -0.038228415 -8.0377808 -37.707581 -108.5905
39970000 -37.45845 -74.298294 -0.034111537 -8.2244139 -0.03718238 -8.241169 -37.438263 -108.17831
40969000 -37.164719 -74.260071 -0.035082716 -8.4205265 -0.036809828 -8.4410114 -37.165932 -106.88741
41968000 -36.828102 -74.406677 -0.03561563 -8.6242046 -0.03739439 -8.6449289 -36.942287 -105.70959
42967000 -36.578159 -74.639877 -0.034564223 -8.83564 -0.037232772 -8.8551521 -36.733612 -103.93465
43966000 -36.302696 -75.59539 -0.03468373 -9.0390444 -0.038614672 -9.0555325 -36.443607 -103.48758
44965000 -36.082691 -76.454567 -0.035635464 -9.234024 -0.03865698 -9.256465 -36.204189 -103.40171
45964000 -35.866955 -77.619911 -0.037468281 -9.4371586 -0.039963309 -9.4590235 -35.988338 -103.1946
46963000 -35.691063 -79.546684 -0.03719883 -9.6283236 -0.040254615 -9.6536446 -35.798256 -103.50695
47962000 -35.545795 -81.069221 -0.039109621 -9.8330593 -0.041672237 -9.8475418 -35.594536 -103.8522
48961000 -35.32206 -82.532158 -0.041288845 -10.02698 -0.043503679 -10.051385 -35.371075 -104.06504
49960000 -35.121338 -83.96067 -0.043068886 -10.226952 -0.043852229 -10.24754 -35.216 -104.1553
50959000 -34.91494 -85.225937 -0.043156207 -10.439614 -0.045607161 -10.452758 -35.039028 -104.63233
51958000 -34.711342 -86.39257 -0.045184445 -10.636289 -0.047198717 -10.647861 -34.861629 -105.15739
52957000 -34.50098 -87.4944 -0.045965556 -10.838508 -0.04797757 -10.843989 -34.689976 -105.03259
53956000 -34.353474 -88.226051 -0.047253411 -11.038304 -0.048962593 -11.038751 -34.556934 -105.01295
54955000 -34.196056 -88.764511 -0.048483536 -11.236341 -0.049579162 -11.234426 -34.415771 -105.03455
55954000 -34.03125 -89.670998 -0.050169896 -11.439528 -0.05007248 -11.433607 -34.30695 -104.78136
56953000 -33.911781 -89.740166 -0.049015999 -11.632498 -0.048406575 -11.626422 -34.224583 -105.0257
57952000 -33.761936 -90.22332 -0.049974024 -11.834508 -0.050119355 -11.824687 -34.133377 -105.03217
58951000 -33.648651 -90.569641 -0.051191296 -12.036482 -0.050289832 -12.016002 -33.971031 -105.17049
59950000 -33.536606 -91.029037 -0.051990777 -12.236756 -0.051854029 -12.217407 -33.907856 -105.43301
60949000 -33.415791 -91.637566 -0.052233376 -12.439474 -0.051325146 -12.418783 -33.821335 -105.63979
61948000 -33.351658 -91.887711 -0.05268193 -12.636769 -0.051663842 -12.618629 -33.735703 -105.82294
62947000 -33.269238 -92.080292 -0.052839145 -12.848723 -0.052515291 -12.828303 -33.586926 -106.09151
63946000 -33.205769 -92.757477 -0.053707592 -13.049157 -0.05311507 -13.02562 -33.483509 -106.16124
64945000 -33.090157 -93.003784 -0.053886861 -13.249126 -0.053847283 -13.229285 -33.389553 -106.78138
65944000 -32.998009 -93.290436 -0.054791693 -13.447923 -0.05403075 -13.43118 -33.295444 -107.13639
66943000 -32.872543 -93.760475 -0.052705772 -13.648267 -0.052820802 -13.630538 -33.185795 -107.48455
67942000 -32.812695 -93.683113 -0.054806899 -13.842107 -0.054299675 -13.829852 -33.080231 -107.78109
68941000 -32.68977 -93.850342 -0.054578837 -14.035523 -0.053369522 -14.028635 -32.962708 -107.79568
69940000 -32.599258 -93.848625 -0.055006921 -14.234965 -0.054616585 -14.22705 -32.832287 -108.12019
70939000 -32.496719 -93.810799 -0.05520669 -14.43415 -0.054466646 -14.426289 -32.692352 -108.03564
71938000 -32.355347 -93.534386 -0.054075308 -14.628509 -0.053776521 -14.621478 -32.557983 -107.90934
72937000 -32.197083 -93.338745 -0.053936135 -14.828342 -0.053116903 -14.820937 -32.428066 -107.72749
73936000 -32.058643 -93.066742 -0.054254591 -15.024854 -0.052833118 -15.017795 -32.306622 -107.51827
74935000 -31.935516 -93.250793 -0.053655703 -15.217916 -0.052833904 -15.219997 -32.16568 -107.24104
75934000 -31.810406 -93.587463 -0.053891577 -15.430065 -0.052436162 -15.422436 -32.07436 -107.14023
76933000 -31.682692 -94.004684 -0.05469837 -15.622746 -0.053501602 -15.613106 -31.89683 -107.63364
77932000 -31.587919 -94.77578 -0.055701438 -15.818132 -0.055458121 -15.811893 -31.800135 -107.52618
78931000 -31.526861 -95.605362 -0.054386437 -16.018541 -0.054260619 -16.011194 -31.695814 -107.47639
79930000 -31.410097 -96.406906 -0.057533562 -16.208771 -0.057262339 -16.208136 -31.593849 -107.76118
80929000 -31.280207 -97.316673 -0.05922449 -16.402029 -0.058325291 -16.400993 -31.499538 -108.16669
81928000 -31.208094 -98.172745 -0.05847536 -16.596401 -0.058681063 -16.593615 -31.375601 -108.24313
82927000 -31.117817 -98.858017 -0.06070213 -16.794899 -0.059397161 -16.790476 -31.273424 -108.51537
83926000 -30.993517 -99.595169 -0.061747018 -16.990244 -0.060860161 -16.993654 -31.154802 -108.76325
84925000 -30.896639 -100.06244 -0.063042454 -17.190889 -0.060764868 -17.188152 -31.060696 -108.81188
85924000 -30.807674 -100.51209 -0.063850425 -17.3874 -0.062347025 -17.389366 -30.973272 -108.82006
86923000 -30.706787 -101.02869 -0.06372118 -17.587845 -0.062269822 -17.579248 -30.882946 -108.71288
87922000 -30.595623 -101.40893 -0.063722752 -17.792356 -0.061917953 -17.784164 -30.789598 -108.79111
88921000 -30.524324 -101.71699 -0.064461753 -17.991739 -0.06354019 -17.988235 -30.699598 -108.78326
89920000 -30.427301 -102.23605 -0.064915776 -18.190628 -0.063841753 -18.184502 -30.649965 -108.92234
90919000 -30.323427 -102.48942 -0.06595879 -18.388969 -0.064549245 -18.377604 -30.571413 -109.13982
91918000 -30.229126 -102.868 -0.06699416 -18.58621 -0.064686395 -18.579754 -30.494663 -109.1576
92917000 -30.147703 -103.19579 -0.068258822 -18.784206 -0.066285484 -18.778734 -30.434616 -109.25594
93916000 -30.061472 -103.6337 -0.066913985 -18.977034 -0.066559903 -18.973396 -30.347219 -109.88632
94915000 -29.989882 -104.30754 -0.068912327 -19.1782 -0.066624038 -19.172258 -30.291462 -109.75226
95914000 -29.930492 -104.49983 -0.06949833 -19.371248 -0.068240941 -19.372623 -30.200609 -110.05701
96913000 -29.846195 -104.7319 -0.071007885 -19.571972 -0.069056451 -19.570944 -30.131243 -110.38855
97912000 -29.77002 -105.18668 -0.071663648 -19.767403 -0.069670096 -19.768492 -30.059284 -110.61503
98911000 -29.672892 -105.3926 -0.071786024 -19.967306 -0.070383266 -19.964138 -30.019152 -110.87787
99910000 -29.595484 -105.52585 -0.07284569 -20.168486 -0.070509024 -20.167368 -29.908903 -111.14372
100909000 -29.520779 -105.81146 -0.072555348 -20.376753 -0.06956619 -20.368813 -29.824961 -111.41108
101908000 -29.429321 -106.08837 -0.073386155 -20.574697 -0.070912898 -20.572937 -29.715328 -111.17823
102907000 -29.29525 -106.13796 -0.073511206 -20.771059 -0.071178921 -20.769547 -29.644434 -111.14561
103906000 -29.207838 -106.21801 -0.073578611 -20.97974 -0.070405632 -20.976046 -29.500198 -111.08976
104905000 -29.061483 -106.07957 -0.074112318 -21.174505 -0.071086034 -21.175455 -29.370306 -110.78357
105904000 -28.923702 -106.25212 -0.075127773 -21.379412 -0.070938163 -21.371515 -29.253914 -110.68638
106903000 -28.809273 -106.29337 -0.075286597 -21.585615 -0.072032362 -21.576128 -29.126841 -110.56818
107902000 -28.649584 -106.65672 -0.075277641 -21.784306 -0.072284766 -21.774427 -28.985332 -110.49857
108901000 -28.546328 -106.96713 -0.076506771 -21.985107 -0.07346303 -21.978409 -28.851711 -110.46792
109900000 -28.416283 -107.45362 -0.076855868 -22.182621 -0.074817002 -22.171803 -28.712763 -110.53106
110899000 -28.298878 -108.04439 -0.078808971 -22.381983 -0.075732008 -22.37307 -28.57897 -110.84254
111898000 -28.208252 -108.69576 -0.080155648 -22.584488 -0.07676708 -22.577381 -28.471878 -110.97914
112897000 -28.087547 -109.29388 -0.080993444 -22.782747 -0.077013962 -22.771748 -28.330147 -111.22945
113896000 -27.984274 -109.9192 -0.082074359 -22.98385 -0.078847721 -22.968826 -28.221354 -111.34962
114895000 -27.879234 -110.4947 -0.082877696 -23.182899 -0.079992697 -23.166599 -28.113026 -111.39583
115894000 -27.759005 -110.82372 -0.084496699 -23.378246 -0.081721142 -23.366241 -28.047501 -111.59544
116893000 -27.673506 -111.4379 -0.084934078 -23.572887 -0.081891023 -23.553961 -27.919092 -111.71761
117892000 -27.593006 -111.9312 -0.085321873 -23.774176 -0.082237385 -23.75746 -27.844454 -111.94341
118891000 -27.536922 -112.31656 -0.086127661 -23.971912 -0.082562938 -23.954191 -27.743595 -112.07639
119890000 -27.450218 -112.71939 -0.086383261 -24.171535 -0.083410174 -24.158361 -27.732185 -112.18382
120889000 -27.395168 -113.19929 -0.087460235 -24.371101 -0.083814718 -24.3563 -27.658092 -112.17603
121888000 -27.353487 -113.49536 -0.087327905 -24.569633 -0.08402136 -24.558075 -27.597013 -112.43011
122887000 -27.31155 -113.73376 -0.088571288 -24.77116 -0.084815554 -24.758989 -27.5536 -112.51617
123886000 -27.254463 -114.1608 -0.089184783 -24.97595 -0.085001126 -24.954798 -27.547161 -112.66759
124885000 -27.221024 -114.6697 -0.08993315 -25.176773 -0.085326888 -25.161325 -27.512041 -112.73256
125884000 -27.166597 -114.86743 -0.090432137 -25.370182 -0.08607696 -25.358095 -27.47979 -112.90421
126883000 -27.147781 -115.23099 -0.090345442 -25.574568 -0.086350784 -25.55632 -27.435385 -112.93614
127882000 -27.090956 -115.47202 -0.090987474 -25.772791 -0.087047949 -25.754354 -27.39485 -113.10094
128881000 -27.063971 -115.85217 -0.09088359 -25.974899 -0.08751253 -25.956398 -27.365446 -113.22502
129880000 -27.007584 -116.18391 -0.091464899 -26.173613 -0.087157026 -26.154251 -27.316767 -113.15269
130879000 -26.947487 -116.33247 -0.090976112 -26.372911 -0.088245817 -26.355686 -27.244196 -113.2777
131878000 -26.885134 -116.57759 -0.091586247 -26.574852 -0.088398769 -26.556669 -27.182278 -113.14312
132877000 -26.81748 -116.63243 -0.091008626 -26.777769 -0.088712372 -26.758202 -27.093014 -113.18166
133876000 -26.735586 -116.78574 -0.091745406 -26.977573 -0.088459007 -26.957991 -27.008171 -113.11362
134875000 -26.639387 -116.91396 -0.091478117 -27.179113 -0.088682778 -27.158665 -26.902311 -112.95393
135874000 -26.556442 -116.96617 -0.091975957 -27.374479 -0.088742487 -27.359327 -26.805973 -112.97178
136873000 -26.446323 -116.8952 -0.092156813 -27.580286 -0.088737734 -27.559429 -26.718214 -112.94839
137872000 -26.365173 -117.00102 -0.092434719 -27.7824 -0.088685684 -27.762274 -26.613258 -112.86843
138871000 -26.296139 -117.22487 -0.092986874 -27.977642 -0.089005642 -27.964758 -26.514132 -113.05817
139870000 -26.194544 -117.47241 -0.093860485 -28.181387 -0.08959727 -28.16398 -26.435627 -113.23752
140869000 -26.115021 -117.92279 -0.095201783 -28.375376 -0.091157712 -28.354673 -26.329664 -113.39582
141868000 -26.014601 -118.40408 -0.095923394 -28.569067 -0.092617176 -28.551319 -26.261845 -113.7071
142867000 -25.939497 -118.66578 -0.093878999 -28.762362 -0.091384009 -28.746927 -26.176903 -113.87119
143866000 -25.867449 -119.16794 -0.09519437 -28.961273 -0.092672445 -28.945444 -26.107956 -114.39278
144865000 -25.815052 -119.69822 -0.096950591 -29.161009 -0.093857311 -29.143454 -26.050093 -114.68783
145864000 -25.757219 -119.98376 -0.097058587 -29.357786 -0.095086418 -29.34819 -26.013739 -114.93117
146863000 -25.704599 -120.40551 -0.098365396 -29.557621 -0.095823362 -29.543983 -25.966564 -115.23365
147862000 -25.668694 -120.74697 -0.098634429 -29.75515 -0.095802724 -29.741062 -25.933418 -115.58527
148861000 -25.637774 -121.26086 -0.098484814 -29.954313 -0.096426509 -29.939507 -25.911335 -115.81641
149860000 -25.625135 -121.42086 -0.099745169 -30.152676 -0.09669172 -30.135399 -25.876282 -115.97406
150859000 -25.603683 -121.80795 -0.10030621 -30.351681 -0.097138532 -30.33814 -25.866959 -116.23766
151858000 -25.583414 -122.09647 -0.09981139 -30.548281 -0.096853442 -30.534798 -25.860197 -116.51464
152857000 -25.570971 -122.44718 -0.10071207 -30.747934 -0.096855558 -30.737101 -25.845417 -116.65159
153856000 -25.564892 -122.62479 -0.099905685 -30.946758 -0.096250243 -30.932079 -25.859369 -116.94362
154855000 -25.55579 -122.81931 -0.1005502 -31.144201 -0.096326731 -31.132912 -25.850216 -117.15685
155854000 -25.571451 -123.07621 -0.10104378 -31.346577 -0.097752713 -31.329006 -25.844069 -117.42149
156853000 -25.559494 -123.77733 -0.098348975 -31.53537 -0.096796803 -31.522385 -25.839365 -117.70685
157852000 -25.563986 -123.98228 -0.10001905 -31.732311 -0.098423652 -31.722231 -25.829208 -118.03029
158851000 -25.559462 -124.23595 -0.10038886 -31.931681 -0.098290458 -31.922388 -25.812872 -118.32232
159850000 -25.546257 -124.35912 -0.10084559 -32.130001 -0.0984639 -32.119659 -25.814699 -118.47688
160849000 -25.528004 -124.47298 -0.10125786 -32.330753 -0.0991074 -32.323566 -25.787548 -118.79072
161848000 -25.506945 -124.56461 -0.10163572 -32.52483 -0.099033773 -32.521259 -25.744215 -118.88166
162847000 -25.464777 -124.80417 -0.10172369 -32.724106 -0.099669151 -32.72176 -25.713575 -119.15601
163846000 -25.423861 -125.00671 -0.10198578 -32.925316 -0.10006303 -32.916981 -25.634983 -119.13471
164845000 -25.362614 -125.0351 -0.10200195 -33.123268 -0.099525593 -33.119827 -25.574492 -119.24055
165844000 -25.312283 -125.08887 -0.10246627 -33.324322 -0.10072611 -33.316788 -25.495008 -119.3942
166843000 -25.246649 -125.16988 -0.10127906 -33.521778 -0.10051311 -33.513714 -25.424059 -119.59649
167842000 -25.196566 -125.32243 -0.10246892 -33.719894 -0.10041164 -33.718311 -25.347281 -119.49652
168841000 -25.114729 -125.51669 -0.10283893 -33.918152 -0.10093408 -33.915901 -25.267263 -119.58739
169840000 -25.05131 -125.81149 -0.10265764 -34.116177 -0.10215142 -34.107365 -25.177677 -119.77776
170839000 -24.986797 -126.081 -0.10344782 -34.31242 -0.10198287 -34.311031 -25.093723 -119.97784
171838000 -24.93232 -126.46444 -0.10394651 -34.511177 -0.10296193 -34.503662 -25.027479 -120.23412
172837000 -24.860319 -126.84663 -0.10568877 -34.707714 -0.10363366 -34.697662 -24.960621 -120.41745
173836000 -24.795752 -127.25321 -0.10649516 -34.905983 -0.10442297 -34.902988 -24.914228 -120.63033
174835000 -24.740301 -127.68426 -0.10674612 -35.099342 -0.10508963 -35.09988 -24.867733 -121.02512
175834000 -24.692789 -128.06149 -0.107402 -35.300301 -0.1060686 -35.297085 -24.806305 -121.26563
176833000 -24.634487 -128.44046 -0.10838705 -35.496471 -0.10627126 -35.49474 -24.751442 -121.44089
177832000 -24.591949 -128.89778 -0.10823525 -35.693283 -0.10628187 -35.69191 -24.731133 -121.59149
178831000 -24.551912 -129.30164 -0.11006472 -35.890381 -0.10709899 -35.886044 -24.691498 -121.79601
179830000 -24.516073 -129.6899 -0.10975993 -36.085369 -0.10702523 -36.087505 -24.665766 -121.94717
180829000 -24.475101 -129.91292 -0.10955126 -36.284016 -0.1079014 -36.283497 -24.63526 -122.11208
181828000 -24.447397 -130.26328 -0.11017251 -36.48365 -0.10816253 -36.475452 -24.621357 -122.21885
182827000 -24.42318 -130.58759 -0.10990462 -36.676441 -0.10825861 -36.674812 -24.603609 -122.3003
183826000 -24.381071 -130.90993 -0.11098292 -36.873615 -0.10787115 -36.870945 -24.593088 -122.41981
184825000 -24.387112 -131.21628 -0.11068392 -37.067913 -0.10874855 -37.069862 -24.58017 -122.55007
185824000 -24.361053 -131.59221 -0.11090326 -37.264515 -0.109066 -37.264469 -24.57337 -122.59255
186823000 -24.340919 -131.94771 -0.11107215 -37.462215 -0.10916953 -37.465351 -24.572918 -122.5716
187822000 -24.325651 -132.26387 -0.11123469 -37.661331 -0.10960913 -37.655205 -24.538673 -122.58739
188821000 -24.304327 -132.50398 -0.11173798 -37.855328 -0.11080819 -37.860455 -24.523962 -122.74239
189820000 -24.288378 -132.77402 -0.1120445 -38.056515 -0.11066692 -38.054203 -24.518015 -122.90208
190819000 -24.257915 -132.98311 -0.11287253 -38.255356 -0.11137039 -38.251217 -24.48135 -122.86878
191818000 -24.220842 -133.17465 -0.11412271 -38.452374 -0.11281089 -38.449516 -24.449806 -122.77156
192817000 -24.15539 -133.4726 -0.11473665 -38.632221 -0.11339568 -38.634819 -24.379581 -122.82325
193816000 -24.112461 -133.82426 -0.11395423 -38.828705 -0.11175923 -38.825085 -24.322735 -123.08321
194815000 -24.062077 -134.29785 -0.11381525 -39.02364 -0.11216775 -39.025181 -24.262461 -123.24606
195814000 -24.00588 -134.50455 -0.11421015 -39.221157 -0.11230615 -39.223148 -24.210518 -123.334
196813000 -23.958529 -134.84441 -0.11340126 -39.415253 -0.11188327 -39.415897 -24.132828 -123.51272
197812000 -23.901394 -135.08887 -0.11415222 -39.612766 -0.11250167 -39.61274 -24.060205 -123.60203
198811000 -23.847961 -135.25563 -0.11377326 -39.810364 -0.11302025 -39.808144 -23.997286 -123.78546
199810000 -23.780302 -135.63564 -0.1144605 -40.004513 -0.11272163 -40.005295 -23.918421 -123.90215
200809000 -23.722134 -135.93887 -0.11471113 -40.20496 -0.11261802 -40.201847 -23.840841 -124.0755
201808000 -23.666649 -136.15239 -0.11534721 -40.400928 -0.11369727 -40.403049 -23.768629 -124.16476
202807000 -23.607496 -136.51073 -0.11527915 -40.602123 -0.11401455 -40.606846 -23.718599 -124.37247
203806000 -23.553621 -136.94403 -0.11717249 -40.803116 -0.11416258 -40.801083 -23.650568 -124.5471
