!Keysight Technologies,E5080B,MY59205177,A.15.75.32
!Date: Friday, February 23, 2024 03:43:31
!Correction: S11(Cdelta 2-Port  ) 
!S21(Cdelta 2-Port  ) 
!S12(Cdelta 2-Port  ) 
!S22(Cdelta 2-Port  ) 
!S2P File: Measurements: S11, S21, S12, S22:
# Hz S  dB   R 50
10000000 -46.116089 -3.0778718 -0.014737266 -2.040596 -0.018004721 -2.0965006 -45.909481 -157.37083
10999000 -45.298523 -4.6578603 -0.015336008 -2.2616529 -0.01763095 -2.3123484 -45.811718 -150.6992
11998000 -44.306122 -8.2627068 -0.016337037 -2.4847238 -0.017878914 -2.5263028 -45.997196 -146.71532
12997000 -43.594009 -13.574434 -0.015022989 -2.6641107 -0.017313348 -2.6964164 -45.533142 -140.72966
13996000 -43.338276 -17.263561 -0.015346139 -2.8451576 -0.017502295 -2.8644195 -45.400509 -135.79716
14995000 -42.869019 -21.911409 -0.017063858 -3.055155 -0.017340377 -3.0795639 -45.050568 -132.7923
15994000 -42.741264 -26.408991 -0.017945196 -3.2762218 -0.019641841 -3.2962444 -44.918076 -129.11461
16993000 -42.687038 -31.234514 -0.016841928 -3.4714363 -0.018699583 -3.4811351 -44.094868 -128.97621
17992000 -42.728695 -36.75174 -0.018212155 -3.6677549 -0.019423159 -3.6743135 -43.520039 -129.28288
18991000 -42.958427 -41.891396 -0.018844651 -3.8819346 -0.020464662 -3.8756864 -42.884941 -127.9791
19990000 -42.693226 -47.633663 -0.021585763 -4.0884905 -0.022718601 -4.085228 -42.242264 -128.66556
20989000 -42.488041 -51.197273 -0.022585372 -4.2924619 -0.024510827 -4.283812 -41.694546 -127.96255
21988000 -42.378555 -56.212322 -0.024858896 -4.4896107 -0.024667807 -4.4800215 -41.409081 -127.24666
22987000 -42.020069 -60.875175 -0.025034633 -4.69101 -0.026139725 -4.6777043 -41.136482 -126.89451
23986000 -41.893078 -65.187485 -0.023963399 -4.8818731 -0.025121331 -4.8825102 -41.024929 -126.7193
24985000 -41.494179 -67.479042 -0.024879985 -5.0920129 -0.025264012 -5.0876231 -40.816853 -124.46756
25984000 -41.153103 -69.620834 -0.026449639 -5.294271 -0.025546262 -5.298058 -40.465099 -122.7785
26983000 -40.829506 -71.99276 -0.027078649 -5.494925 -0.026481412 -5.5111179 -40.338196 -122.15508
27982000 -40.679424 -72.782951 -0.028083952 -5.6936579 -0.028186867 -5.7280741 -40.11834 -120.56104
28981000 -40.599609 -74.220444 -0.026725715 -5.8980479 -0.028273368 -5.9179401 -39.868748 -120.00383
29980000 -40.237114 -75.490562 -0.026878346 -6.0875959 -0.028769225 -6.0940747 -39.593475 -119.30693
30979000 -39.834923 -74.350555 -0.024244264 -6.4365468 -0.02289165 -6.4334903 -39.099957 -119.53704
31978000 -39.64505 -75.538086 -0.023053253 -6.6360631 -0.024725601 -6.6316509 -38.818378 -118.72752
32977000 -39.443977 -76.918228 -0.02346679 -6.8498459 -0.024505101 -6.8472753 -38.608349 -118.74187
33976000 -39.259598 -77.935638 -0.024634484 -7.0466719 -0.025089828 -7.0434732 -38.322563 -118.17301
34975000 -38.979504 -78.737755 -0.024813335 -7.2457347 -0.026265251 -7.2453861 -38.110275 -117.85463
35974000 -38.769547 -79.286499 -0.023458462 -7.4430118 -0.0260504 -7.4446902 -37.833294 -116.90894
36973000 -38.526566 -79.888062 -0.023711964 -7.6436195 -0.027031763 -7.6462398 -37.546631 -115.97186
37972000 -38.36858 -79.80365 -0.023242971 -7.8540268 -0.026074098 -7.8622456 -37.336323 -115.28653
38971000 -38.072231 -79.31144 -0.024679521 -8.0549536 -0.026872875 -8.0655403 -37.176861 -113.68927
39970000 -37.719688 -79.571373 -0.022396984 -8.2500734 -0.025745723 -8.2696333 -36.92046 -113.05871
40969000 -37.447769 -79.240425 -0.02291533 -8.4388523 -0.025288748 -8.4684496 -36.694412 -111.82912
41968000 -37.10043 -79.11763 -0.023193523 -8.6499863 -0.025485072 -8.6653442 -36.491444 -110.53073
42967000 -36.837063 -79.139206 -0.022999125 -8.8591614 -0.025729058 -8.8801508 -36.321175 -108.74995
43966000 -36.557739 -79.841347 -0.023565952 -9.0609207 -0.027186489 -9.0802822 -36.040863 -107.94583
44965000 -36.307236 -80.59903 -0.023898067 -9.2628536 -0.027793461 -9.2836285 -35.822903 -107.76923
45964000 -36.07003 -81.684769 -0.026139725 -9.4623508 -0.029093139 -9.4824705 -35.610035 -107.30816
46963000 -35.873581 -83.538788 -0.026063161 -9.6559439 -0.02909809 -9.6796551 -35.433796 -107.58124
47962000 -35.718586 -84.973541 -0.027121369 -9.8579178 -0.030768596 -9.8754406 -35.219105 -107.66331
48961000 -35.490452 -86.318138 -0.029566674 -10.05638 -0.031765107 -10.079062 -35.009003 -107.798
49960000 -35.275047 -87.630966 -0.0309112 -10.257012 -0.033014849 -10.280212 -34.876869 -107.85262
50959000 -35.047066 -88.916992 -0.031571627 -10.465974 -0.034019701 -10.478744 -34.68993 -108.25672
51958000 -34.839474 -89.866936 -0.03355246 -10.667742 -0.03514874 -10.680056 -34.522701 -108.616
52957000 -34.620655 -91.012939 -0.034957457 -10.867293 -0.036923654 -10.873543 -34.356293 -108.40361
53956000 -34.44313 -91.617508 -0.036322452 -11.068638 -0.037762813 -11.069895 -34.230999 -108.36641
54955000 -34.276882 -92.079636 -0.037246346 -11.273985 -0.038144588 -11.265057 -34.070877 -108.32671
55954000 -34.120094 -93.031555 -0.03782966 -11.471429 -0.039167866 -11.466217 -33.955616 -108.07486
56953000 -33.99052 -92.96209 -0.037156012 -11.673015 -0.03778553 -11.659652 -33.882843 -108.32884
57952000 -33.820854 -93.500313 -0.039038312 -11.866388 -0.03903335 -11.861416 -33.788296 -108.34415
58951000 -33.700897 -93.884109 -0.039257985 -12.075396 -0.040612571 -12.053353 -33.625214 -108.44892
59950000 -33.581032 -94.231056 -0.040135741 -12.270242 -0.040891901 -12.248178 -33.549313 -108.78465
60949000 -33.458378 -94.830925 -0.040170487 -12.474261 -0.041382406 -12.450934 -33.458447 -108.97531
61948000 -33.38974 -95.058464 -0.040621456 -12.673583 -0.041246511 -12.653772 -33.361725 -109.02201
62947000 -33.310413 -95.290337 -0.040957227 -12.887062 -0.041518826 -12.861306 -33.215599 -109.32713
63946000 -33.231773 -96.126198 -0.042428143 -13.08422 -0.0428783 -13.06475 -33.119499 -109.43805
64945000 -33.120644 -96.19413 -0.042501338 -13.285925 -0.043181304 -13.266137 -32.998741 -109.94078
65944000 -33.017582 -96.543808 -0.043382622 -13.485982 -0.043892235 -13.465865 -32.908279 -110.37769
66943000 -32.873886 -96.862114 -0.041507848 -13.684863 -0.041571617 -13.667661 -32.796951 -110.50208
67942000 -32.820866 -96.794052 -0.043243792 -13.883547 -0.043703184 -13.870053 -32.671772 -110.90111
68941000 -32.709297 -96.884872 -0.042739484 -14.079822 -0.042626292 -14.068461 -32.564732 -110.91182
69940000 -32.609966 -96.933815 -0.04327438 -14.275048 -0.043318566 -14.265857 -32.433281 -111.16892
70939000 -32.508553 -96.821976 -0.043160651 -14.470003 -0.043420795 -14.466305 -32.286358 -110.95316
71938000 -32.364452 -96.446083 -0.042567994 -14.669223 -0.043890927 -14.663574 -32.165241 -110.87854
72937000 -32.207893 -96.294342 -0.042231575 -14.866515 -0.042391546 -14.860936 -32.016994 -110.57897
73936000 -32.075912 -95.927414 -0.042421348 -15.066638 -0.041944318 -15.060661 -31.911051 -110.3652
74935000 -31.940878 -96.155045 -0.041565083 -15.259355 -0.041107748 -15.261865 -31.767292 -110.07768
75934000 -31.816557 -96.330765 -0.041611865 -15.464383 -0.041629378 -15.4655 -31.668028 -109.94614
76933000 -31.690437 -96.748283 -0.042417951 -15.660384 -0.042242032 -15.654912 -31.500069 -110.29958
77932000 -31.580322 -97.467339 -0.043656901 -15.860258 -0.044416294 -15.855197 -31.408792 -110.25364
78931000 -31.516432 -98.191948 -0.042341884 -16.060539 -0.043452695 -16.057791 -31.314568 -110.15469
79930000 -31.402636 -99.094383 -0.0443075 -16.252525 -0.045520835 -16.251259 -31.212708 -110.41707
80929000 -31.289951 -99.866577 -0.046712529 -16.451378 -0.047509354 -16.448881 -31.117243 -110.70858
81928000 -31.186256 -100.48774 -0.046757795 -16.639713 -0.047818962 -16.640568 -30.989851 -110.65064
82927000 -31.090933 -101.2695 -0.048117079 -16.841635 -0.04917727 -16.838226 -30.879076 -110.97162
83926000 -30.976648 -102.02178 -0.049548004 -17.036001 -0.049800679 -17.037674 -30.768879 -111.15176
84925000 -30.862814 -102.46681 -0.050838493 -17.240519 -0.049819529 -17.236914 -30.673128 -111.21184
85924000 -30.778379 -102.79834 -0.051004283 -17.43932 -0.05151191 -17.435741 -30.582237 -111.11343
86923000 -30.668873 -103.31977 -0.051910091 -17.634195 -0.051441185 -17.632936 -30.484121 -111.02077
87922000 -30.552391 -103.65631 -0.051384866 -17.84255 -0.0506934 -17.834099 -30.394075 -111.08028
88921000 -30.495895 -103.94598 -0.053278327 -18.040447 -0.051922143 -18.041096 -30.29821 -111.09343
89920000 -30.384453 -104.40406 -0.053368211 -18.239809 -0.052941859 -18.234751 -30.258137 -111.25101
90919000 -30.28224 -104.68219 -0.05389839 -18.439182 -0.053780977 -18.434505 -30.167978 -111.39119
91918000 -30.189938 -105.02485 -0.054859854 -18.636496 -0.05368086 -18.631962 -30.096624 -111.36986
92917000 -30.092016 -105.35056 -0.056036018 -18.836071 -0.055476736 -18.834915 -30.026657 -111.51558
93916000 -30.007122 -105.6786 -0.05528482 -19.030531 -0.054933518 -19.021317 -29.935532 -112.08184
94915000 -29.938742 -106.31902 -0.057125159 -19.231615 -0.056346498 -19.225473 -29.880457 -111.99362
95914000 -29.864574 -106.52737 -0.05815712 -19.425486 -0.056619763 -19.422199 -29.782892 -112.24195
96913000 -29.779312 -106.68653 -0.058558796 -19.625921 -0.058373563 -19.62344 -29.727625 -112.59959
97912000 -29.701487 -107.17702 -0.059722316 -19.820826 -0.058330011 -19.823355 -29.641392 -112.81269
98911000 -29.598293 -107.35826 -0.060482159 -20.025049 -0.059055235 -20.022835 -29.596994 -112.98026
99910000 -29.528803 -107.46862 -0.061186478 -20.220194 -0.059139207 -20.221794 -29.493519 -113.30707
100909000 -29.431841 -107.72596 -0.06074807 -20.429453 -0.059052087 -20.426348 -29.414284 -113.50594
101908000 -29.348831 -107.95439 -0.061996728 -20.632561 -0.060901113 -20.630203 -29.301161 -113.30436
102907000 -29.216198 -107.9552 -0.062498286 -20.833437 -0.060348026 -20.829964 -29.229679 -113.28021
103906000 -29.118977 -108.02031 -0.062228329 -21.035006 -0.060161669 -21.0317 -29.088049 -113.2741
104905000 -28.975952 -107.86706 -0.063229986 -21.235344 -0.060432024 -21.233997 -28.961836 -112.92221
105904000 -28.839787 -107.95601 -0.062797934 -21.435585 -0.060600016 -21.432522 -28.852957 -112.75951
106903000 -28.727564 -108.01666 -0.063371293 -21.641502 -0.06068638 -21.633333 -28.727526 -112.70181
107902000 -28.568571 -108.31847 -0.064090528 -21.842087 -0.061085928 -21.835569 -28.59882 -112.64127
108901000 -28.456188 -108.55919 -0.064836949 -22.046471 -0.062347289 -22.038063 -28.466211 -112.56994
109900000 -28.322971 -108.99787 -0.065660499 -22.245327 -0.064235546 -22.230921 -28.320864 -112.65608
110899000 -28.211342 -109.60264 -0.066906363 -22.44504 -0.064313576 -22.431608 -28.198366 -112.93244
111898000 -28.122641 -110.28317 -0.06835112 -22.644375 -0.065431863 -22.6381 -28.076099 -113.06038
112897000 -27.999062 -110.82736 -0.069859751 -22.84243 -0.066410072 -22.832407 -27.944996 -113.20032
113896000 -27.894701 -111.36472 -0.070697412 -23.043421 -0.068161525 -23.032589 -27.847286 -113.36074
114895000 -27.78907 -111.9966 -0.071662337 -23.242674 -0.069499902 -23.2306 -27.734705 -113.41942
115894000 -27.670708 -112.40568 -0.073405109 -23.44635 -0.07072372 -23.429903 -27.663492 -113.6133
116893000 -27.588142 -112.83253 -0.073798195 -23.640316 -0.071726017 -23.623449 -27.542196 -113.66781
117892000 -27.511469 -113.32402 -0.073357195 -23.838043 -0.071698122 -23.824183 -27.469175 -113.87768
118891000 -27.450613 -113.74853 -0.074246608 -24.036282 -0.071893662 -24.024122 -27.3694 -114.02246
119890000 -27.364643 -114.09582 -0.074839123 -24.23797 -0.072789885 -24.224466 -27.352245 -114.15076
120889000 -27.310404 -114.57911 -0.076199852 -24.439974 -0.072852269 -24.425251 -27.281816 -114.10036
121888000 -27.268402 -114.92479 -0.075853705 -24.637266 -0.073315598 -24.623034 -27.221024 -114.35077
122887000 -27.23456 -115.13352 -0.077329107 -24.834425 -0.07479699 -24.825722 -27.180338 -114.39559
123886000 -27.180082 -115.52327 -0.076917529 -25.039574 -0.074253716 -25.021791 -27.159876 -114.53123
124885000 -27.145536 -116.03472 -0.077864334 -25.238586 -0.075119875 -25.227259 -27.131361 -114.63065
125884000 -27.094786 -116.21943 -0.078635529 -25.439142 -0.075148322 -25.4272 -27.09837 -114.76692
126883000 -27.075939 -116.62748 -0.078924164 -25.64287 -0.076106593 -25.626408 -27.066065 -114.78896
127882000 -27.025854 -116.89396 -0.079115018 -25.8407 -0.076389007 -25.825293 -27.020006 -114.90899
128881000 -26.994015 -117.23686 -0.079170644 -26.041584 -0.076782621 -26.027149 -26.975859 -114.9604
129880000 -26.938168 -117.53089 -0.080107391 -26.242926 -0.076401651 -26.225683 -26.944454 -114.93386
130879000 -26.878958 -117.69245 -0.079735361 -26.442337 -0.077638485 -26.427429 -26.867197 -114.95759
131878000 -26.816408 -117.96175 -0.079932049 -26.646904 -0.077826641 -26.627237 -26.814436 -114.85065
132877000 -26.747904 -118.03423 -0.080114774 -26.847534 -0.077867754 -26.832365 -26.734129 -114.79642
133876000 -26.663954 -118.13762 -0.080468386 -27.048334 -0.077638216 -27.031515 -26.645273 -114.68523
134875000 -26.573891 -118.29169 -0.08069016 -27.249704 -0.079081014 -27.232658 -26.551361 -114.4782
135874000 -26.489666 -118.31554 -0.080483153 -27.448662 -0.07873068 -27.432505 -26.452854 -114.45854
136873000 -26.38199 -118.2591 -0.080758467 -27.650087 -0.078465775 -27.631985 -26.372581 -114.41852
137872000 -26.309105 -118.36975 -0.080837846 -27.85746 -0.078512169 -27.84005 -26.267359 -114.33958
138871000 -26.235695 -118.54012 -0.081677094 -28.054354 -0.078708805 -28.038239 -26.177137 -114.47081
139870000 -26.135662 -118.86894 -0.081516191 -28.25481 -0.079580858 -28.236782 -26.096313 -114.64713
140869000 -26.056147 -119.38271 -0.082830735 -28.451077 -0.080165669 -28.434711 -26.001251 -114.85767
141868000 -25.971073 -119.76252 -0.08339671 -28.647102 -0.081779703 -28.634302 -25.953806 -115.13904
142867000 -25.895523 -119.98586 -0.082871892 -28.845409 -0.080616325 -28.832548 -25.87365 -115.2441
143866000 -25.825712 -120.49134 -0.084272876 -29.044594 -0.082622036 -29.027912 -25.803167 -115.65662
144865000 -25.764378 -121.01489 -0.085583761 -29.243837 -0.083885975 -29.228104 -25.750292 -115.97272
145864000 -25.713024 -121.30805 -0.085891612 -29.439287 -0.084941208 -29.43174 -25.714922 -116.21272
146863000 -25.667837 -121.66227 -0.087464459 -29.643482 -0.085223928 -29.633305 -25.6625 -116.53437
147862000 -25.625786 -122.00506 -0.088331409 -29.840237 -0.085940987 -29.827135 -25.632784 -116.84158
148861000 -25.599382 -122.43025 -0.088563889 -30.039217 -0.087195322 -30.025349 -25.609953 -116.97967
149860000 -25.556961 -122.62273 -0.090433188 -30.233921 -0.087691084 -30.220289 -25.561876 -117.12011
150859000 -25.539915 -123.08918 -0.089934207 -30.428352 -0.087505661 -30.414198 -25.542412 -117.49963
151858000 -25.528351 -123.42374 -0.088959932 -30.631691 -0.087732024 -30.61788 -25.531116 -117.86153
152857000 -25.512402 -123.75355 -0.089850172 -30.828972 -0.088147014 -30.819828 -25.519072 -118.03428
153856000 -25.509682 -123.97147 -0.089028366 -31.028809 -0.087224372 -31.015593 -25.530993 -118.32505
154855000 -25.508884 -124.13399 -0.089445852 -31.225805 -0.086774617 -31.215004 -25.518976 -118.55988
155854000 -25.526466 -124.38772 -0.08973442 -31.427172 -0.087347187 -31.412127 -25.502741 -118.8452
156853000 -25.511316 -125.04803 -0.087018639 -31.61602 -0.086778313 -31.609043 -25.502939 -119.15159
157852000 -25.51589 -125.27305 -0.088679872 -31.81636 -0.088234186 -31.808624 -25.493816 -119.47561
158851000 -25.512829 -125.51947 -0.089238688 -32.016731 -0.088253736 -32.006844 -25.47098 -119.77604
159850000 -25.505451 -125.59954 -0.08976613 -32.214954 -0.088304721 -32.20459 -25.472673 -119.96213
160849000 -25.485363 -125.69643 -0.089888752 -32.413044 -0.08936394 -32.409683 -25.441032 -120.19354
161848000 -25.471992 -125.79319 -0.090617679 -32.614403 -0.089150175 -32.606533 -25.408825 -120.36329
162847000 -25.426952 -125.98749 -0.090945445 -32.812576 -0.089814231 -32.809361 -25.378258 -120.57565
163846000 -25.388433 -126.16219 -0.089925751 -33.012711 -0.089633472 -33.005417 -25.299767 -120.58192
164845000 -25.332325 -126.1526 -0.090866938 -33.213715 -0.089998692 -33.207073 -25.238235 -120.70063
165844000 -25.278748 -126.20634 -0.09052068 -33.414108 -0.090414159 -33.406796 -25.162027 -120.81795
166843000 -25.220057 -126.23702 -0.091255791 -33.61298 -0.090589397 -33.604836 -25.092136 -120.94507
167842000 -25.16609 -126.32533 -0.091468073 -33.80965 -0.090407819 -33.805473 -25.019039 -120.88087
168841000 -25.086998 -126.50095 -0.091660805 -34.011059 -0.090469398 -34.007523 -24.946863 -120.9916
169840000 -25.022017 -126.73491 -0.091949515 -34.206844 -0.091165379 -34.205673 -24.861914 -121.12746
170839000 -24.959345 -126.96729 -0.09273538 -34.40398 -0.091389559 -34.404491 -24.781075 -121.31422
171838000 -24.902641 -127.34886 -0.092176378 -34.60601 -0.09296228 -34.598301 -24.716064 -121.53826
172837000 -24.829121 -127.65395 -0.094075806 -34.80423 -0.093686439 -34.797043 -24.651398 -121.72591
173836000 -24.762753 -128.06091 -0.095653735 -35.002281 -0.094228968 -35.001877 -24.610018 -121.98512
174835000 -24.711748 -128.48322 -0.095934249 -35.197624 -0.095497079 -35.199821 -24.567987 -122.27662
175834000 -24.663324 -128.85023 -0.096662335 -35.399353 -0.096607283 -35.393826 -24.503595 -122.53735
176833000 -24.606506 -129.18851 -0.097317487 -35.598942 -0.097186446 -35.593845 -24.45612 -122.67024
177832000 -24.570383 -129.5833 -0.099191882 -35.797626 -0.098014824 -35.79784 -24.439837 -122.78167
178831000 -24.521418 -129.84502 -0.10044634 -35.991013 -0.099315561 -35.988274 -24.40045 -122.8511
179830000 -24.448923 -130.23413 -0.10094362 -36.175098 -0.10004766 -36.176849 -24.337212 -122.92102
180829000 -24.402517 -130.58873 -0.10058066 -36.371498 -0.099208303 -36.372688 -24.294851 -123.26614
181828000 -24.378893 -131.03949 -0.09968292 -36.571434 -0.099043041 -36.568542 -24.277494 -123.4781
182827000 -24.353224 -131.38104 -0.099689282 -36.764442 -0.098177925 -36.764717 -24.262796 -123.5909
183826000 -24.316414 -131.72406 -0.1008297 -36.967232 -0.09934523 -36.96357 -24.252598 -123.75124
184825000 -24.318283 -132.07484 -0.10008184 -37.161942 -0.09958148 -37.161125 -24.240135 -123.86343
185824000 -24.284153 -132.41637 -0.10013905 -37.357334 -0.099330127 -37.35725 -24.229656 -123.95281
186823000 -24.272339 -132.77786 -0.1001923 -37.558804 -0.1001621 -37.556015 -24.224377 -123.94846
187822000 -24.249916 -133.10756 -0.10071868 -37.751743 -0.10014726 -37.754177 -24.186615 -124.02805
188821000 -24.224312 -133.40364 -0.1005192 -37.946243 -0.10049006 -37.953434 -24.164021 -124.1606
189820000 -24.207302 -133.66838 -0.10055576 -38.148357 -0.10030197 -38.147179 -24.145714 -124.33627
190819000 -24.176329 -133.96889 -0.10117996 -38.347511 -0.100671 -38.345642 -24.11216 -124.37733
191818000 -24.146286 -134.27901 -0.10109173 -38.545204 -0.10090971 -38.541893 -24.081627 -124.39622
192817000 -24.100279 -134.53328 -0.10198127 -38.740231 -0.10137445 -38.743412 -24.038576 -124.48651
193816000 -24.064917 -134.79695 -0.1020629 -38.935852 -0.10052396 -38.935555 -23.990454 -124.6484
194815000 -24.005941 -135.19838 -0.10256249 -39.132137 -0.10211431 -39.133564 -23.920813 -124.70404
195814000 -23.951691 -135.37257 -0.10315491 -39.328758 -0.10194577 -39.331684 -23.869207 -124.76945
196813000 -23.899334 -135.69914 -0.10258819 -39.521946 -0.10252246 -39.52652 -23.786879 -124.92151
197812000 -23.838621 -135.91933 -0.10328797 -39.723289 -0.10207933 -39.719559 -23.718952 -125.04553
198811000 -23.788786 -136.07436 -0.10359098 -39.916615 -0.10208888 -39.920494 -23.650913 -125.17733
199810000 -23.71969 -136.42342 -0.10329619 -40.1143 -0.10284291 -40.111298 -23.578794 -125.25817
200809000 -23.664326 -136.67796 -0.10338394 -40.306553 -0.10244984 -40.311508 -23.497402 -125.41843
201808000 -23.609102 -136.855 -0.10453673 -40.512314 -0.10376357 -40.514294 -23.436077 -125.49962
202807000 -23.549963 -137.21999 -0.10529729 -40.7122 -0.104371 -40.714828 -23.376923 -125.70711
