!Keysight Technologies,E5080B,MY59205177,A.15.75.32
!Date: Friday, February 23, 2024 03:05:20
!Correction: S11(Cdelta 2-Port  ) 
!S21(Cdelta 2-Port  ) 
!S12(Cdelta 2-Port  ) 
!S22(Cdelta 2-Port  ) 
!S2P File: Measurements: S11, S21, S12, S22:
# Hz S  dB   R 50
10000000 -44.211639 -3.6871002 -0.027716609 -2.0385098 -0.029813755 -2.0927908 -47.957203 -151.24625
10999000 -43.577324 -5.4947042 -0.028060766 -2.2564464 -0.029608635 -2.3095222 -47.756744 -143.22621
11998000 -42.803848 -7.9635134 -0.028285876 -2.480427 -0.02924924 -2.5225279 -47.828812 -137.6181
12997000 -42.201233 -12.795532 -0.027515754 -2.657485 -0.028967531 -2.691215 -47.142673 -131.57547
13996000 -41.959198 -15.977146 -0.026463702 -2.8371384 -0.028900819 -2.8618937 -46.725548 -126.17931
14995000 -41.571323 -20.205002 -0.029530706 -3.0434225 -0.029063951 -3.0721769 -46.317471 -122.23247
15994000 -41.475689 -23.999685 -0.030307181 -3.2656479 -0.031964593 -3.2859213 -46.06921 -119.06647
16993000 -41.472721 -27.908405 -0.029840341 -3.4552219 -0.030505035 -3.4653754 -45.132675 -119.79093
17992000 -41.527119 -32.736946 -0.029930003 -3.6574631 -0.030760774 -3.6623445 -44.542721 -120.45942
18991000 -41.805531 -37.087219 -0.030898165 -3.8653316 -0.031845681 -3.8665133 -43.818104 -119.72049
19990000 -41.650906 -42.112522 -0.033270475 -4.0775924 -0.03389708 -4.0737367 -43.121723 -121.25523
20989000 -41.56464 -45.291843 -0.03511925 -4.2828445 -0.036136597 -4.2705679 -42.552734 -120.9388
21988000 -41.488464 -50.120403 -0.035963543 -4.475174 -0.037107188 -4.46596 -42.248348 -120.56195
22987000 -41.212212 -54.442764 -0.036669377 -4.6764622 -0.037739314 -4.6659827 -42.013523 -119.84607
23986000 -41.248245 -58.065548 -0.037223894 -4.870779 -0.037218932 -4.8671756 -41.865288 -120.1339
24985000 -40.863476 -60.649757 -0.037097007 -5.0792294 -0.037055757 -5.0752635 -41.633919 -117.64088
25984000 -40.625114 -62.787376 -0.038211178 -5.2842169 -0.037728868 -5.287066 -41.288788 -116.52449
26983000 -40.36515 -64.807701 -0.039519202 -5.4814949 -0.038229462 -5.499733 -41.157459 -115.44398
27982000 -40.197842 -65.543266 -0.040432546 -5.6786318 -0.039799768 -5.7112999 -40.821606 -113.94675
28981000 -40.20274 -67.176575 -0.03881656 -5.8764586 -0.039836343 -5.8958225 -40.590374 -113.46779
29980000 -39.810085 -68.912659 -0.038843464 -6.0680251 -0.040025227 -6.0774279 -40.2925 -112.50304
30979000 -39.447021 -67.739906 -0.036459755 -6.4221721 -0.035007302 -6.4122744 -39.783867 -113.27199
31978000 -39.262573 -68.905418 -0.035032354 -6.6188741 -0.035146393 -6.6104956 -39.531971 -112.66496
32977000 -39.103252 -70.575249 -0.035528719 -6.8276353 -0.037045576 -6.8237448 -39.269115 -112.78977
33976000 -38.924698 -71.669823 -0.036071606 -7.0282154 -0.036747172 -7.0224361 -38.954872 -112.40059
34975000 -38.678154 -72.576111 -0.036549035 -7.2274213 -0.037744794 -7.2289014 -38.737286 -112.1007
35974000 -38.465916 -73.301903 -0.035911866 -7.4196525 -0.036927309 -7.42278 -38.441975 -111.50385
36973000 -38.240707 -74.09594 -0.035831474 -7.6229973 -0.038659591 -7.6251898 -38.143723 -110.60893
37972000 -38.090073 -74.117134 -0.03513778 -7.8276906 -0.037930455 -7.8420939 -37.890327 -110.0499
38971000 -37.775459 -73.71666 -0.037186559 -8.030859 -0.038091052 -8.0407085 -37.716652 -108.52013
39970000 -37.443459 -74.434593 -0.03427669 -8.2235565 -0.036541201 -8.2382612 -37.422401 -108.15464
40969000 -37.157318 -74.196892 -0.03421694 -8.4226522 -0.036975868 -8.4380569 -37.172127 -106.8693
41968000 -36.831181 -74.441933 -0.03510464 -8.6248484 -0.037318408 -8.6425238 -36.9566 -105.86945
42967000 -36.58688 -74.638771 -0.034517776 -8.8368101 -0.037129641 -8.8556461 -36.735802 -104.01275
43966000 -36.299858 -75.54641 -0.034824636 -9.0370407 -0.038117692 -9.0544844 -36.444099 -103.39632
44965000 -36.086063 -76.343819 -0.036560781 -9.2362957 -0.038584638 -9.2551527 -36.225262 -103.34172
45964000 -35.857098 -77.595406 -0.037683956 -9.4351654 -0.03977913 -9.4551439 -35.988396 -103.15422
46963000 -35.67799 -79.596809 -0.037774563 -9.6293259 -0.040409815 -9.6545296 -35.797329 -103.6296
47962000 -35.532604 -80.998062 -0.039255373 -9.8328161 -0.041434672 -9.8497515 -35.597919 -103.77384
48961000 -35.33754 -82.541565 -0.041305311 -10.029513 -0.04301006 -10.048953 -35.346642 -104.0917
49960000 -35.121479 -83.87809 -0.042636223 -10.225757 -0.044796299 -10.253648 -35.216702 -104.18845
50959000 -34.915638 -85.258057 -0.043143135 -10.441102 -0.045403123 -10.449371 -35.039433 -104.5948
51958000 -34.72028 -86.455093 -0.045298491 -10.635505 -0.047058977 -10.648544 -34.864319 -105.11942
52957000 -34.523888 -87.481987 -0.046900142 -10.835709 -0.047805354 -10.843706 -34.704418 -105.02984
53956000 -34.357319 -88.230446 -0.047655649 -11.040038 -0.048817299 -11.042494 -34.567474 -104.96634
54955000 -34.189373 -88.838882 -0.048566516 -11.235979 -0.049115222 -11.233349 -34.422749 -104.96976
55954000 -34.039352 -89.645287 -0.049737837 -11.438799 -0.049760092 -11.435101 -34.310585 -104.73743
56953000 -33.916912 -89.760406 -0.049280424 -11.636226 -0.048574891 -11.626799 -34.227695 -105.0256
57952000 -33.764961 -90.268402 -0.050967094 -11.836878 -0.050386727 -11.826503 -34.124229 -105.13784
58951000 -33.645443 -90.644135 -0.051505886 -12.038331 -0.050715398 -12.020671 -33.973827 -105.1076
59950000 -33.52655 -91.044167 -0.051660437 -12.235161 -0.051148865 -12.215081 -33.910404 -105.4341
60949000 -33.408268 -91.626892 -0.051859792 -12.437485 -0.051432803 -12.421473 -33.821827 -105.64366
61948000 -33.354839 -91.943649 -0.052983262 -12.637371 -0.052033219 -12.618239 -33.729752 -105.79105
62947000 -33.268505 -92.108482 -0.05279329 -12.847496 -0.052817918 -12.830207 -33.593697 -106.00609
63946000 -33.202213 -92.866875 -0.053796701 -13.046944 -0.054202955 -13.026681 -33.490379 -106.25994
64945000 -33.091915 -93.044434 -0.054446463 -13.249843 -0.054024197 -13.229249 -33.383396 -106.75613
65944000 -32.999794 -93.380623 -0.055212196 -13.448359 -0.054327197 -13.430243 -33.28714 -107.22771
66943000 -32.857616 -93.698425 -0.053055324 -13.649502 -0.052608304 -13.628432 -33.186352 -107.48284
67942000 -32.807838 -93.740181 -0.055536516 -13.844625 -0.054360222 -13.833064 -33.079247 -107.81483
68941000 -32.689533 -93.838852 -0.054968648 -14.034612 -0.053492691 -14.027846 -32.971134 -107.77669
69940000 -32.599976 -93.89859 -0.055365831 -14.235579 -0.054224972 -14.227409 -32.825966 -108.13015
70939000 -32.486019 -93.842834 -0.055235792 -14.430993 -0.054088674 -14.422934 -32.696114 -108.07835
71938000 -32.353855 -93.517052 -0.054618157 -14.625897 -0.053826578 -14.616322 -32.551861 -107.95362
72937000 -32.200191 -93.340279 -0.053832605 -14.823379 -0.05357996 -14.821374 -32.411804 -107.63544
73936000 -32.05965 -93.065956 -0.054276347 -15.024711 -0.053122669 -15.01514 -32.309334 -107.4921
74935000 -31.936598 -93.30545 -0.053804826 -15.220345 -0.051661488 -15.213647 -32.151855 -107.16824
75934000 -31.810865 -93.550278 -0.053257622 -15.428839 -0.051536795 -15.42584 -32.065418 -107.19159
76933000 -31.681686 -94.036064 -0.054828659 -15.622688 -0.054070327 -15.61546 -31.897038 -107.56425
77932000 -31.590883 -94.773933 -0.055925362 -15.81829 -0.055099465 -15.808971 -31.796457 -107.56955
78931000 -31.518145 -95.634857 -0.054525625 -16.018167 -0.054437026 -16.010181 -31.699492 -107.45834
79930000 -31.409843 -96.377213 -0.057135653 -16.209805 -0.056916647 -16.208082 -31.603222 -107.8252
80929000 -31.279581 -97.291389 -0.058603399 -16.402283 -0.058582935 -16.397722 -31.495949 -108.11507
81928000 -31.201809 -98.173416 -0.058627013 -16.596186 -0.058666632 -16.59297 -31.379099 -108.24294
82927000 -31.109537 -98.873276 -0.060846247 -16.793457 -0.059414744 -16.793919 -31.268919 -108.49585
83926000 -30.992489 -99.585892 -0.061190415 -16.989738 -0.061088029 -16.992395 -31.16124 -108.74635
84925000 -30.895155 -100.03558 -0.062565513 -17.187927 -0.060896125 -17.18523 -31.069872 -108.7859
85924000 -30.809675 -100.51547 -0.063208975 -17.39337 -0.061944474 -17.385935 -30.983665 -108.85123
86923000 -30.704142 -101.04792 -0.06367889 -17.589369 -0.062535577 -17.57794 -30.874931 -108.75012
87922000 -30.589878 -101.46497 -0.063203193 -17.795507 -0.062740684 -17.784601 -30.795082 -108.76839
88921000 -30.525265 -101.68986 -0.064641729 -17.991774 -0.063357115 -17.987286 -30.698912 -108.75082
89920000 -30.420479 -102.22314 -0.065892823 -18.192377 -0.063676 -18.183374 -30.650414 -108.9331
90919000 -30.33617 -102.59429 -0.065934606 -18.386372 -0.065068968 -18.383816 -30.563251 -109.13488
91918000 -30.239225 -102.96169 -0.066341996 -18.584223 -0.065150164 -18.579866 -30.492224 -109.14278
92917000 -30.146807 -103.25751 -0.067766055 -18.784071 -0.06631387 -18.778543 -30.433977 -109.2408
93916000 -30.065321 -103.62809 -0.067008622 -18.976171 -0.06579873 -18.974787 -30.346615 -109.84064
94915000 -29.98769 -104.30488 -0.068261445 -19.178499 -0.067152947 -19.171688 -30.281155 -109.73206
95914000 -29.923849 -104.51906 -0.069655366 -19.371988 -0.067624867 -19.366419 -30.197245 -110.02448
96913000 -29.837374 -104.75422 -0.070389055 -19.572956 -0.068935208 -19.569647 -30.134115 -110.36295
97912000 -29.765453 -105.21842 -0.072008409 -19.76803 -0.069332883 -19.766222 -30.052441 -110.65935
98911000 -29.667084 -105.39808 -0.072047628 -19.968481 -0.070245937 -19.967648 -30.020084 -110.88017
99910000 -29.602934 -105.54037 -0.072188437 -20.170401 -0.070069678 -20.165239 -29.908888 -111.20597
100909000 -29.514957 -105.81697 -0.072318986 -20.375101 -0.070024431 -20.369364 -29.831924 -111.3409
101908000 -29.430122 -106.07888 -0.073853485 -20.573969 -0.071443118 -20.571333 -29.707781 -111.16785
102907000 -29.30369 -106.13097 -0.073434331 -20.777485 -0.071028411 -20.773008 -29.637402 -111.12705
103906000 -29.201685 -106.18497 -0.073877178 -20.976759 -0.071311019 -20.972231 -29.491951 -111.09167
104905000 -29.059992 -106.11115 -0.074018314 -21.172968 -0.071652599 -21.173672 -29.366083 -110.76726
105904000 -28.921625 -106.20406 -0.074428834 -21.378931 -0.071322337 -21.372694 -29.250891 -110.66164
106903000 -28.813496 -106.34341 -0.074497297 -21.585857 -0.072203703 -21.581352 -29.13121 -110.53817
107902000 -28.652983 -106.67979 -0.075284228 -21.786221 -0.072235808 -21.773308 -28.983721 -110.5097
108901000 -28.5422 -106.93015 -0.076217502 -21.987278 -0.074101254 -21.976625 -28.851068 -110.44774
109900000 -28.420322 -107.35017 -0.07741607 -22.184219 -0.075485982 -22.174837 -28.704079 -110.51392
110899000 -28.29686 -108.03973 -0.078629993 -22.380905 -0.075548939 -22.372856 -28.586199 -110.84973
111898000 -28.212364 -108.72088 -0.080201 -22.581409 -0.076062866 -22.577875 -28.463522 -110.98852
112897000 -28.091988 -109.29514 -0.081667863 -22.779432 -0.077480629 -22.771387 -28.328743 -111.19232
113896000 -27.98307 -109.88168 -0.082266144 -22.982189 -0.078868806 -22.971256 -28.221258 -111.35487
114895000 -27.883551 -110.51333 -0.083456881 -23.177534 -0.080253474 -23.165453 -28.109373 -111.40104
115894000 -27.757267 -110.85077 -0.084619172 -23.378048 -0.082087807 -23.36628 -28.050407 -111.5906
116893000 -27.671873 -111.4647 -0.085209936 -23.576115 -0.082795642 -23.557459 -27.906054 -111.69923
117892000 -27.59387 -111.92486 -0.085414268 -23.773415 -0.082634173 -23.757597 -27.843945 -111.92147
118891000 -27.535833 -112.33493 -0.085711807 -23.974138 -0.082986668 -23.958038 -27.743464 -112.02803
119890000 -27.446983 -112.69166 -0.086459048 -24.169731 -0.083432071 -24.15752 -27.732927 -112.19722
120889000 -27.392485 -113.21066 -0.087449402 -24.37208 -0.083331801 -24.357534 -27.654354 -112.13094
121888000 -27.357262 -113.53858 -0.086838529 -24.565939 -0.084033765 -24.554777 -27.607662 -112.44529
122887000 -27.311584 -113.73139 -0.088120595 -24.770502 -0.084726863 -24.757902 -27.555275 -112.44431
123886000 -27.252604 -114.11504 -0.08907751 -24.972206 -0.08474534 -24.958105 -27.535963 -112.61401
124885000 -27.220709 -114.67544 -0.089077778 -25.173599 -0.085365959 -25.160769 -27.510918 -112.70734
125884000 -27.162584 -114.87431 -0.08966624 -25.3687 -0.085641317 -25.355463 -27.481974 -112.88368
126883000 -27.14081 -115.20662 -0.090493716 -25.571646 -0.087049805 -25.557384 -27.441343 -112.92711
127882000 -27.089077 -115.5414 -0.090512745 -25.772699 -0.087122165 -25.755171 -27.404713 -113.10577
128881000 -27.068422 -115.87114 -0.090731077 -25.970304 -0.087655693 -25.956623 -27.357733 -113.2189
129880000 -27.006077 -116.2006 -0.091776602 -26.172735 -0.087149896 -26.155519 -27.318398 -113.21467
130879000 -26.947645 -116.32274 -0.091258965 -26.372583 -0.08829812 -26.35751 -27.240631 -113.24058
131878000 -26.883795 -116.56557 -0.091524124 -26.575632 -0.088521093 -26.555824 -27.18281 -113.19399
132877000 -26.807739 -116.59951 -0.0909888 -26.775614 -0.089046858 -26.757191 -27.092081 -113.19798
133876000 -26.727459 -116.81123 -0.091478914 -26.973774 -0.088690706 -26.959709 -27.002558 -113.11098
134875000 -26.635004 -116.94206 -0.091080792 -27.175266 -0.088915281 -27.155087 -26.899685 -112.98448
135874000 -26.557442 -116.92281 -0.09183424 -27.373451 -0.088574193 -27.361172 -26.808374 -112.95293
136873000 -26.442516 -116.91071 -0.092341371 -27.575445 -0.088359676 -27.56118 -26.718014 -112.95832
137872000 -26.364775 -117.01514 -0.092785627 -27.778625 -0.088861383 -27.7647 -26.612389 -112.91461
138871000 -26.294542 -117.19122 -0.093073361 -27.983036 -0.089186639 -27.963161 -26.516554 -113.06346
139870000 -26.195877 -117.43281 -0.093238123 -28.179712 -0.090603411 -28.160423 -26.438406 -113.23845
140869000 -26.10964 -117.9076 -0.095047258 -28.373562 -0.091924138 -28.356173 -26.327677 -113.36407
141868000 -26.013859 -118.42678 -0.095729418 -28.566925 -0.092882149 -28.549557 -26.259659 -113.67478
142867000 -25.940004 -118.68951 -0.093606025 -28.763374 -0.091672704 -28.748867 -26.183079 -113.87361
143866000 -25.871212 -119.18066 -0.095589437 -28.961853 -0.092649437 -28.943409 -26.104902 -114.36135
144865000 -25.809631 -119.67759 -0.097328335 -29.160048 -0.094346426 -29.141794 -26.047785 -114.68268
145864000 -25.756411 -120.00079 -0.097649194 -29.360374 -0.095101766 -29.344952 -26.019045 -114.91278
146863000 -25.711607 -120.33011 -0.098384462 -29.559498 -0.095779434 -29.548019 -25.96612 -115.24903
147862000 -25.66551 -120.75237 -0.099167779 -29.757874 -0.095401555 -29.742186 -25.93285 -115.60075
148861000 -25.639214 -121.26478 -0.099134944 -29.953203 -0.096592464 -29.938154 -25.902779 -115.82692
149860000 -25.622021 -121.44355 -0.099628098 -30.150959 -0.096445039 -30.138237 -25.873941 -115.97629
150859000 -25.605122 -121.81705 -0.099886611 -30.348717 -0.096629255 -30.337566 -25.871181 -116.20996
151858000 -25.58898 -122.13698 -0.099917606 -30.5485 -0.097021528 -30.538729 -25.858727 -116.52777
152857000 -25.569643 -122.46531 -0.10026673 -30.744894 -0.0973932 -30.734468 -25.842253 -116.65306
153856000 -25.565187 -122.6619 -0.10014673 -30.947372 -0.097017027 -30.934015 -25.85955 -116.91979
154855000 -25.560503 -122.82583 -0.10023468 -31.144339 -0.097154945 -31.134619 -25.849871 -117.14705
155854000 -25.576309 -123.06333 -0.10115135 -31.343769 -0.097740009 -31.327824 -25.843191 -117.42218
156853000 -25.556286 -123.80048 -0.099088863 -31.531612 -0.09734872 -31.526052 -25.837296 -117.7051
157852000 -25.558027 -124.00098 -0.099979326 -31.734518 -0.098903216 -31.723309 -25.825756 -118.0325
158851000 -25.559559 -124.23215 -0.10024025 -31.930311 -0.099035896 -31.920603 -25.813847 -118.33018
159850000 -25.538828 -124.37687 -0.10104325 -32.127476 -0.098463632 -32.121037 -25.80875 -118.46701
160849000 -25.529129 -124.48036 -0.10130476 -32.325859 -0.099523738 -32.321423 -25.785973 -118.76072
161848000 -25.507563 -124.59842 -0.10152204 -32.526909 -0.099963956 -32.519493 -25.74371 -118.88473
162847000 -25.461248 -124.79373 -0.10139803 -32.723965 -0.10012713 -32.722607 -25.711111 -119.14931
163846000 -25.421263 -125.01676 -0.10190707 -32.926968 -0.099940121 -32.918297 -25.636723 -119.15056
164845000 -25.363571 -125.04884 -0.10240452 -33.130165 -0.10035256 -33.113354 -25.573887 -119.23824
165844000 -25.308971 -125.1399 -0.10194285 -33.320564 -0.10091766 -33.312901 -25.491615 -119.41388
166843000 -25.243385 -125.18544 -0.10199293 -33.519474 -0.10051814 -33.519371 -25.423368 -119.59421
167842000 -25.192421 -125.31285 -0.10249437 -33.722366 -0.10094521 -33.714245 -25.342302 -119.46703
168841000 -25.108688 -125.51101 -0.10286438 -33.917328 -0.10086282 -33.913139 -25.264753 -119.58354
169840000 -25.048849 -125.76978 -0.10338315 -34.112404 -0.10206926 -34.111046 -25.173544 -119.77419
170839000 -24.984041 -126.02598 -0.10427369 -34.311977 -0.10247741 -34.308025 -25.096054 -119.97636
171838000 -24.930586 -126.47201 -0.10367502 -34.51339 -0.10261788 -34.506241 -25.025623 -120.22234
172837000 -24.861164 -126.83144 -0.10528721 -34.708435 -0.1039831 -34.703251 -24.959517 -120.449
173836000 -24.792761 -127.22054 -0.10666601 -34.907661 -0.10494828 -34.903839 -24.91884 -120.67462
174835000 -24.740164 -127.66157 -0.10716638 -35.101002 -0.10526228 -35.100563 -24.870985 -121.00171
175834000 -24.685867 -128.07201 -0.10767955 -35.299091 -0.10636093 -35.297516 -24.80669 -121.26561
176833000 -24.636862 -128.41168 -0.10857284 -35.495197 -0.10652858 -35.493839 -24.756542 -121.43468
177832000 -24.589939 -128.92007 -0.10879473 -35.691265 -0.10658058 -35.689503 -24.729324 -121.60032
178831000 -24.544113 -129.26973 -0.10840324 -35.888927 -0.10781383 -35.886642 -24.694548 -121.836
179830000 -24.517118 -129.70694 -0.11019216 -36.083439 -0.10835866 -36.087784 -24.668905 -121.96181
180829000 -24.473225 -129.93321 -0.10961232 -36.284267 -0.10774005 -36.282616 -24.633831 -122.10198
181828000 -24.450712 -130.2556 -0.10996117 -36.480278 -0.10836184 -36.476887 -24.616137 -122.23254
182827000 -24.424448 -130.60556 -0.11002436 -36.674042 -0.1092558 -36.675465 -24.604809 -122.33206
183826000 -24.379019 -130.90871 -0.1105708 -36.872787 -0.10836688 -36.86742 -24.58988 -122.44337
184825000 -24.386446 -131.24376 -0.11083634 -37.06805 -0.10922979 -37.068916 -24.579611 -122.52981
185824000 -24.356472 -131.60149 -0.11073304 -37.265053 -0.11015605 -37.266388 -24.57341 -122.58334
186823000 -24.346081 -131.93445 -0.11090804 -37.464836 -0.10958524 -37.461193 -24.573915 -122.54753
187822000 -24.322918 -132.28218 -0.11205167 -37.659122 -0.11085864 -37.659729 -24.537401 -122.65726
188821000 -24.304405 -132.50812 -0.11196561 -37.852768 -0.11041254 -37.858284 -24.524342 -122.75237
189820000 -24.290689 -132.76961 -0.11206707 -38.05275 -0.11087909 -38.055134 -24.515657 -122.913
190819000 -24.257998 -133.0407 -0.11299261 -38.253384 -0.11170212 -38.25452 -24.4764 -122.8616
191818000 -24.220169 -133.19498 -0.11411129 -38.447857 -0.11277104 -38.449986 -24.452394 -122.74502
192817000 -24.15571 -133.45517 -0.11505427 -38.634808 -0.11309411 -38.633652 -24.382206 -122.85168
193816000 -24.120527 -133.84378 -0.11379107 -38.826077 -0.11153054 -38.827839 -24.322044 -123.10959
194815000 -24.065411 -134.27919 -0.11395769 -39.021965 -0.11261696 -39.025753 -24.262529 -123.21052
195814000 -24.006603 -134.49823 -0.1149538 -39.221775 -0.11205008 -39.224846 -24.209599 -123.35423
196813000 -23.957994 -134.8494 -0.11396353 -39.412617 -0.11251654 -39.414986 -24.136028 -123.49454
197812000 -23.904839 -135.08389 -0.11386946 -39.614487 -0.11330932 -39.610832 -24.063763 -123.59508
198811000 -23.84898 -135.25131 -0.11448017 -39.811142 -0.11256462 -39.814289 -23.994574 -123.79908
199810000 -23.776445 -135.61693 -0.11471725 -40.004978 -0.11219139 -40.00272 -23.919285 -123.89436
200809000 -23.723646 -135.93805 -0.11438608 -40.204109 -0.11327319 -40.201828 -23.839529 -124.08134
201808000 -23.663177 -136.13232 -0.11520419 -40.400726 -0.11398639 -40.40667 -23.768486 -124.14922
202807000 -23.6105 -136.50359 -0.11592941 -40.600384 -0.1144682 -40.606842 -23.714214 -124.37989
