!Keysight Technologies,E5080B,MY59205177,A.15.75.32
!Date: Friday, February 23, 2024 03:43:37
!Correction: S11(Cdelta 2-Port  ) 
!S21(Cdelta 2-Port  ) 
!S12(Cdelta 2-Port  ) 
!S22(Cdelta 2-Port  ) 
!S2P File: Measurements: S11, S21, S12, S22:
# Hz S  dB   R 50
10000000 -46.08765 -2.8297729 -0.014942206 -2.040983 -0.018780436 -2.0959516 -45.970589 -156.92271
10999000 -45.286057 -4.9490209 -0.016324306 -2.2587259 -0.017985744 -2.3130815 -45.752575 -150.87669
11998000 -44.364826 -7.9150028 -0.01665041 -2.4850364 -0.01782017 -2.5285797 -46.014137 -146.99464
12997000 -43.585819 -13.420307 -0.015946783 -2.6643002 -0.01760366 -2.6988225 -45.584671 -140.84106
13996000 -43.312927 -17.455917 -0.014564543 -2.8457868 -0.017455772 -2.8671296 -45.378227 -135.93555
14995000 -42.900097 -21.754925 -0.016712515 -3.0550451 -0.01697316 -3.0751297 -45.049175 -132.42993
15994000 -42.740059 -26.275543 -0.018077504 -3.274251 -0.019908642 -3.2971146 -44.871365 -129.3765
16993000 -42.683971 -30.984457 -0.017595602 -3.4734251 -0.018914849 -3.4790907 -44.093185 -128.97874
17992000 -42.775429 -36.597778 -0.017382741 -3.6693156 -0.019658482 -3.672544 -43.524143 -129.10515
18991000 -42.948826 -42.082027 -0.018473668 -3.8780179 -0.020230856 -3.877162 -42.87019 -127.98139
19990000 -42.697025 -47.76096 -0.02079602 -4.0870509 -0.023073813 -4.0836167 -42.212471 -128.6497
20989000 -42.537956 -51.019218 -0.022885663 -4.2933593 -0.023749184 -4.2846451 -41.705116 -128.10695
21988000 -42.338459 -56.37529 -0.023926958 -4.4876041 -0.02564469 -4.4783068 -41.406475 -127.39751
22987000 -41.979713 -61.160286 -0.024791727 -4.6880112 -0.02674499 -4.6810913 -41.174038 -126.91483
23986000 -41.891109 -65.208672 -0.025088266 -4.8798122 -0.025157262 -4.8835926 -40.969494 -126.85275
24985000 -41.474758 -67.803879 -0.025673073 -5.0933213 -0.025414769 -5.0869279 -40.792404 -124.263
25984000 -41.129047 -70.009232 -0.026692636 -5.2964234 -0.026298065 -5.2982478 -40.482563 -122.85925
26983000 -40.830757 -71.717819 -0.027532427 -5.4966965 -0.026332702 -5.5153751 -40.386333 -122.23674
27982000 -40.659176 -72.722847 -0.028359352 -5.6969514 -0.028481815 -5.733603 -40.103558 -120.41927
28981000 -40.609558 -74.194633 -0.026418647 -5.8927898 -0.028941732 -5.919776 -39.863136 -120.0353
29980000 -40.184715 -75.385406 -0.026424637 -6.0892949 -0.028585259 -6.0939631 -39.607868 -119.46598
30979000 -39.81102 -74.344482 -0.023553198 -6.4466705 -0.023597443 -6.4337273 -39.083019 -119.46076
31978000 -39.640312 -75.374367 -0.023774171 -6.6340585 -0.024702691 -6.6287045 -38.845272 -118.7212
32977000 -39.428749 -76.974754 -0.023507131 -6.8465514 -0.025586624 -6.843399 -38.589115 -118.79639
33976000 -39.260365 -77.906494 -0.024141964 -7.0472984 -0.025485333 -7.0425143 -38.302254 -118.08037
34975000 -38.976906 -78.736984 -0.024613397 -7.2467198 -0.026365777 -7.24756 -38.101337 -117.70174
35974000 -38.790936 -79.328339 -0.023368932 -7.4427156 -0.026203528 -7.4481626 -37.806866 -116.77441
36973000 -38.548649 -79.930389 -0.024441322 -7.6443272 -0.026945027 -7.6465192 -37.564888 -116.12051
37972000 -38.391472 -79.681458 -0.023164896 -7.8503165 -0.026862197 -7.859673 -37.341244 -115.25278
38971000 -38.061359 -79.316986 -0.024245305 -8.0532379 -0.026647838 -8.0624933 -37.177845 -113.72293
39970000 -37.726604 -79.560654 -0.022639755 -8.2527685 -0.025927225 -8.2595711 -36.910088 -113.11448
40969000 -37.448647 -79.124062 -0.022977265 -8.4438858 -0.026363693 -8.4611301 -36.689682 -111.73859
41968000 -37.118313 -79.150276 -0.022847932 -8.6506634 -0.026050661 -8.6612272 -36.4935 -110.51824
42967000 -36.843323 -79.192322 -0.022924699 -8.8549519 -0.025718903 -8.8739128 -36.300301 -108.60072
43966000 -36.577034 -79.872276 -0.023853296 -9.0624199 -0.028465919 -9.0769043 -36.051212 -107.88682
44965000 -36.327904 -80.722679 -0.025005994 -9.2648716 -0.027398268 -9.2832222 -35.845154 -107.74544
45964000 -36.085823 -81.675072 -0.025473876 -9.4611244 -0.029044928 -9.4834709 -35.604568 -107.30357
46963000 -35.893276 -83.640411 -0.025396282 -9.6595612 -0.029091835 -9.6804237 -35.436775 -107.54977
47962000 -35.727543 -84.920181 -0.027624127 -9.8579197 -0.029913323 -9.8788748 -35.239655 -107.67786
48961000 -35.496605 -86.362534 -0.029512463 -10.054005 -0.032024309 -10.078413 -35.008045 -107.71801
49960000 -35.259808 -87.610657 -0.031094743 -10.253807 -0.033551157 -10.279338 -34.869297 -107.9352
50959000 -35.046192 -88.840439 -0.031234492 -10.468956 -0.034417324 -10.480317 -34.68259 -108.08167
51958000 -34.832779 -89.964607 -0.033040408 -10.665842 -0.035569172 -10.675338 -34.520401 -108.62668
52957000 -34.603745 -90.989876 -0.034931365 -10.865972 -0.036926527 -10.875043 -34.353695 -108.43722
53956000 -34.44294 -91.618591 -0.035765965 -11.068162 -0.037467755 -11.069775 -34.223888 -108.33506
54955000 -34.276066 -92.105469 -0.036897287 -11.271778 -0.038633216 -11.269218 -34.070328 -108.2855
55954000 -34.101269 -92.903267 -0.038369175 -11.470708 -0.03893723 -11.465225 -33.962452 -108.03771
56953000 -33.981594 -92.972679 -0.037335642 -11.66857 -0.03711215 -11.657196 -33.89349 -108.25815
57952000 -33.81609 -93.477776 -0.039065216 -11.863124 -0.038875066 -11.861953 -33.782284 -108.40414
58951000 -33.708279 -93.86293 -0.039467741 -12.073256 -0.039704416 -12.054233 -33.625107 -108.4361
59950000 -33.583866 -94.192612 -0.039897475 -12.275807 -0.039873179 -12.249941 -33.550762 -108.68572
60949000 -33.461498 -94.780319 -0.040538628 -12.474973 -0.040673453 -12.450403 -33.458298 -109.01561
61948000 -33.387997 -95.073792 -0.041513599 -12.673543 -0.0411736 -12.655598 -33.366215 -109.13226
62947000 -33.309025 -95.2901 -0.040916726 -12.884447 -0.041718498 -12.864614 -33.224144 -109.3477
63946000 -33.235939 -95.985359 -0.042647727 -13.082021 -0.041822519 -13.062859 -33.121578 -109.48785
64945000 -33.121227 -96.111221 -0.04242187 -13.284238 -0.042968493 -13.266298 -33.00013 -109.94561
65944000 -33.017342 -96.469894 -0.043584999 -13.483141 -0.04308274 -13.468166 -32.909378 -110.39451
66943000 -32.877361 -96.878281 -0.041473351 -13.684031 -0.041955557 -13.667181 -32.798107 -110.67712
67942000 -32.820683 -96.778 -0.043198299 -13.882494 -0.043318305 -13.871226 -32.669064 -110.88644
68941000 -32.710651 -96.967186 -0.043078296 -14.075287 -0.042541072 -14.067807 -32.561623 -110.90354
69940000 -32.609165 -96.923431 -0.043226536 -14.274405 -0.043425243 -14.265203 -32.42017 -111.17232
70939000 -32.505707 -96.85463 -0.043623958 -14.471274 -0.04342838 -14.468067 -32.291405 -111.02722
71938000 -32.378922 -96.476624 -0.043141045 -14.669368 -0.043263923 -14.661379 -32.151615 -110.88065
72937000 -32.2178 -96.331444 -0.04208703 -14.869269 -0.041936215 -14.862852 -32.022888 -110.57317
73936000 -32.078045 -95.87133 -0.042653214 -15.063934 -0.04177469 -15.059244 -31.918598 -110.36145
74935000 -31.952522 -96.129356 -0.041594617 -15.261173 -0.041562472 -15.257445 -31.759043 -110.04759
75934000 -31.830795 -96.391296 -0.041971501 -15.471975 -0.041035362 -15.462263 -31.680094 -109.98131
76933000 -31.68997 -96.715927 -0.043372951 -15.663415 -0.042662103 -15.656746 -31.507833 -110.20308
77932000 -31.584009 -97.472275 -0.044363204 -15.861848 -0.04390531 -15.854858 -31.402023 -110.24632
78931000 -31.512415 -98.232613 -0.042897385 -16.058912 -0.043398574 -16.057474 -31.31023 -110.14721
79930000 -31.404968 -99.111275 -0.045553796 -16.252302 -0.045242514 -16.254795 -31.221699 -110.44857
80929000 -31.285019 -99.920044 -0.046845715 -16.449471 -0.047468003 -16.448326 -31.114828 -110.67368
81928000 -31.192028 -100.5451 -0.047294233 -16.641737 -0.047905073 -16.637728 -30.989056 -110.62759
82927000 -31.079969 -101.31818 -0.04858641 -16.841312 -0.049166799 -16.836382 -30.87882 -110.98009
83926000 -30.970226 -101.98159 -0.050347444 -17.041977 -0.050066195 -17.041037 -30.772945 -111.1281
84925000 -30.864471 -102.49404 -0.051336408 -17.239359 -0.049941555 -17.232697 -30.673449 -111.18108
85924000 -30.771664 -102.80734 -0.052311976 -17.439127 -0.051617216 -17.436371 -30.58148 -111.16534
86923000 -30.670282 -103.25818 -0.051680349 -17.639753 -0.051801112 -17.627562 -30.488661 -110.98994
87922000 -30.556244 -103.6377 -0.051538631 -17.842535 -0.051272236 -17.830015 -30.394987 -111.10719
88921000 -30.477674 -103.85688 -0.05301759 -18.039425 -0.052542798 -18.038345 -30.309095 -111.09908
89920000 -30.38673 -104.39689 -0.053817146 -18.241648 -0.053031214 -18.236509 -30.253063 -111.24892
90919000 -30.274525 -104.63106 -0.05463808 -18.437258 -0.05345941 -18.43259 -30.161379 -111.41943
91918000 -30.180773 -105.00423 -0.054862212 -18.63693 -0.053967584 -18.632286 -30.094601 -111.38659
92917000 -30.09568 -105.32177 -0.055644803 -18.838909 -0.054785926 -18.832716 -30.029434 -111.5299
93916000 -30.008101 -105.64742 -0.055442128 -19.027929 -0.055087142 -19.022676 -29.932117 -112.09238
94915000 -29.928894 -106.28713 -0.056814622 -19.230421 -0.056136452 -19.222006 -29.879938 -112.01562
95914000 -29.859474 -106.46958 -0.058195684 -19.42734 -0.057311911 -19.422159 -29.786192 -112.23347
96913000 -29.77721 -106.70463 -0.05900643 -19.625214 -0.05799368 -19.624683 -29.714613 -112.60703
97912000 -29.698997 -107.1585 -0.060501322 -19.820765 -0.058310598 -19.823206 -29.640102 -112.78329
98911000 -29.599913 -107.29191 -0.060399476 -20.022676 -0.059592407 -20.021519 -29.596027 -113.07087
99910000 -29.52157 -107.46855 -0.061773539 -20.220371 -0.059411593 -20.223663 -29.489859 -113.32884
100909000 -29.436754 -107.71801 -0.060753055 -20.430616 -0.059002493 -20.424301 -29.405333 -113.51235
101908000 -29.341105 -107.9424 -0.061704483 -20.630125 -0.060405251 -20.627247 -29.299618 -113.27633
102907000 -29.21731 -107.93357 -0.062327854 -20.830046 -0.060309444 -20.828165 -29.22109 -113.27679
103906000 -29.122145 -107.98801 -0.062817112 -21.036549 -0.0601223 -21.032381 -29.082886 -113.21423
104905000 -28.982973 -107.86014 -0.063224733 -21.236475 -0.061049961 -21.231462 -28.962896 -112.91063
105904000 -28.84477 -107.93629 -0.063906111 -21.439089 -0.060908463 -21.430548 -28.853642 -112.79769
106903000 -28.72724 -108.03154 -0.063362367 -21.643301 -0.061187003 -21.63545 -28.722525 -112.65986
107902000 -28.567122 -108.3141 -0.064164087 -21.839943 -0.061342161 -21.834555 -28.593138 -112.6601
108901000 -28.453096 -108.59402 -0.065105751 -22.043247 -0.062816322 -22.039196 -28.465834 -112.57945
109900000 -28.330282 -108.99057 -0.066061288 -22.246634 -0.063728794 -22.238569 -28.318861 -112.67475
110899000 -28.213839 -109.64956 -0.067790247 -22.442518 -0.064341947 -22.434061 -28.196613 -112.88901
111898000 -28.11886 -110.28714 -0.068243831 -22.641033 -0.06603054 -22.637762 -28.08057 -113.06384
112897000 -27.99346 -110.80489 -0.070235156 -22.843321 -0.066897951 -22.830912 -27.946573 -113.22291
113896000 -27.88826 -111.39008 -0.071327336 -23.042768 -0.068571493 -23.032526 -27.841915 -113.36194
114895000 -27.78549 -112.0232 -0.072220542 -23.241989 -0.069640897 -23.228483 -27.729124 -113.46052
115894000 -27.664679 -112.31542 -0.073206343 -23.441504 -0.071232602 -23.429241 -27.662098 -113.60149
116893000 -27.591146 -112.85428 -0.073800564 -23.638948 -0.07158944 -23.623217 -27.539179 -113.67805
117892000 -27.505203 -113.3611 -0.073328234 -23.838457 -0.07142733 -23.820656 -27.473282 -113.91278
118891000 -27.446497 -113.72781 -0.074261881 -24.034819 -0.072238445 -24.024458 -27.372021 -113.98731
119890000 -27.366297 -114.09115 -0.075813398 -24.241039 -0.072925456 -24.227676 -27.355783 -114.18243
120889000 -27.308201 -114.56745 -0.076092102 -24.437832 -0.073429331 -24.423546 -27.28343 -114.11469
121888000 -27.274385 -114.91252 -0.076194584 -24.636177 -0.073022328 -24.622831 -27.223919 -114.37932
122887000 -27.23428 -115.10661 -0.077269822 -24.838495 -0.074278206 -24.823269 -27.183924 -114.39651
123886000 -27.175358 -115.5433 -0.077373646 -25.04122 -0.074652143 -25.021324 -27.16485 -114.53624
124885000 -27.144489 -116.0325 -0.078321077 -25.241709 -0.07508643 -25.224007 -27.132547 -114.59087
125884000 -27.098852 -116.21851 -0.078646071 -25.437674 -0.075915344 -25.424837 -27.105755 -114.76278
126883000 -27.079954 -116.61945 -0.078944728 -25.641249 -0.075956441 -25.62809 -27.063242 -114.75642
127882000 -27.030334 -116.92266 -0.079383656 -25.839119 -0.076340005 -25.822573 -27.027573 -114.88844
128881000 -26.996777 -117.24194 -0.080144309 -26.043755 -0.076670386 -26.028067 -26.983337 -114.98235
129880000 -26.939543 -117.5447 -0.080837585 -26.245152 -0.076307334 -26.227779 -26.941618 -114.94785
130879000 -26.882696 -117.70767 -0.080070481 -26.446123 -0.077136748 -26.429317 -26.869087 -114.92211
131878000 -26.821775 -117.92655 -0.080527194 -26.64518 -0.078243062 -26.627602 -26.809664 -114.83163
132877000 -26.750229 -117.98731 -0.079539731 -26.848024 -0.078005858 -26.833988 -26.732243 -114.78301
133876000 -26.668167 -118.15163 -0.080646917 -27.04814 -0.077394985 -27.029585 -26.648769 -114.67706
134875000 -26.570274 -118.27406 -0.081376404 -27.248581 -0.078805014 -27.232677 -26.549314 -114.50977
135874000 -26.497265 -118.31837 -0.080661684 -27.452278 -0.078433096 -27.432579 -26.456264 -114.45308
136873000 -26.385098 -118.25095 -0.08081042 -27.653606 -0.077971064 -27.63702 -26.372158 -114.43111
137872000 -26.308147 -118.37446 -0.0808658 -27.855007 -0.078287072 -27.838772 -26.276201 -114.35462
138871000 -26.227787 -118.54365 -0.08141122 -28.052176 -0.078733057 -28.037922 -26.184309 -114.49416
139870000 -26.13303 -118.86962 -0.081685267 -28.254335 -0.080331787 -28.237261 -26.098598 -114.66521
140869000 -26.053362 -119.4166 -0.082815431 -28.450661 -0.079697132 -28.430876 -26.003391 -114.90436
141868000 -25.976114 -119.80825 -0.083080068 -28.648615 -0.081760183 -28.634941 -25.953949 -115.10179
142867000 -25.894196 -119.98104 -0.082311518 -28.849617 -0.080841541 -28.832354 -25.874184 -115.24776
143866000 -25.828253 -120.48629 -0.084720001 -29.045095 -0.081939295 -29.026024 -25.801426 -115.70973
144865000 -25.764549 -121.0164 -0.085439615 -29.241192 -0.083229944 -29.226215 -25.745052 -115.98925
145864000 -25.707064 -121.30976 -0.086130038 -29.440647 -0.084587231 -29.432556 -25.71409 -116.25134
146863000 -25.663042 -121.64368 -0.087168381 -29.640406 -0.084607825 -29.631605 -25.662651 -116.55949
147862000 -25.628736 -121.99643 -0.08802893 -29.839235 -0.085972935 -29.832678 -25.634701 -116.83186
148861000 -25.589394 -122.44769 -0.089002997 -30.040739 -0.086992495 -30.024996 -25.608437 -117.01457
149860000 -25.560513 -122.60995 -0.08998733 -30.231375 -0.087209053 -30.218761 -25.565517 -117.12768
150859000 -25.538649 -123.09662 -0.08944004 -30.432667 -0.08659821 -30.415373 -25.536242 -117.47514
151858000 -25.525227 -123.45025 -0.089417845 -30.632132 -0.086548038 -30.615955 -25.525906 -117.8027
152857000 -25.511208 -123.76569 -0.089838542 -30.831125 -0.087666258 -30.814823 -25.511726 -118.0335
153856000 -25.509312 -123.97265 -0.089498438 -31.030079 -0.086577088 -31.015125 -25.525854 -118.3612
154855000 -25.506374 -124.13405 -0.089530945 -31.229538 -0.087513588 -31.215263 -25.51874 -118.57165
155854000 -25.522028 -124.35242 -0.089492097 -31.430351 -0.087214075 -31.413557 -25.510099 -118.84553
156853000 -25.510414 -125.05405 -0.087458648 -31.615673 -0.086336792 -31.606667 -25.499887 -119.11305
157852000 -25.517769 -125.27627 -0.089289427 -31.817017 -0.08847142 -31.807354 -25.491629 -119.54613
158851000 -25.518301 -125.47988 -0.089376621 -32.015091 -0.088131167 -32.005749 -25.473001 -119.77044
159850000 -25.504591 -125.6294 -0.090102024 -32.213173 -0.087926179 -32.206326 -25.474487 -119.9508
160849000 -25.488676 -125.68079 -0.090238929 -32.414211 -0.088557817 -32.407433 -25.443644 -120.24722
161848000 -25.46833 -125.78292 -0.090589665 -32.616627 -0.088676438 -32.607597 -25.405968 -120.38734
162847000 -25.430845 -125.96333 -0.09095946 -32.81419 -0.089424983 -32.806992 -25.375158 -120.57875
163846000 -25.386715 -126.13652 -0.090647817 -33.015854 -0.08934544 -33.005749 -25.297234 -120.58447
164845000 -25.335497 -126.12304 -0.091118328 -33.212738 -0.090084851 -33.207386 -25.237261 -120.68204
165844000 -25.280386 -126.16406 -0.09113472 -33.412811 -0.090530455 -33.4077 -25.157953 -120.81281
166843000 -25.216394 -126.22422 -0.091128372 -33.612118 -0.08980789 -33.604977 -25.093824 -120.97956
167842000 -25.161896 -126.33807 -0.091609515 -33.810375 -0.090441652 -33.805561 -25.021374 -120.88869
168841000 -25.089172 -126.48466 -0.091434501 -34.009552 -0.091090307 -34.010033 -24.946428 -120.96834
169840000 -25.02142 -126.72559 -0.091914088 -34.211342 -0.091166437 -34.203075 -24.858852 -121.15062
170839000 -24.954556 -126.96336 -0.092203081 -34.401688 -0.091532052 -34.403717 -24.780457 -121.34163
171838000 -24.901356 -127.35772 -0.092396371 -34.607128 -0.092032805 -34.600697 -24.717812 -121.5313
172837000 -24.831861 -127.65897 -0.093932435 -34.801323 -0.093055375 -34.799454 -24.648966 -121.7543
173836000 -24.760376 -128.07028 -0.095550798 -35.003296 -0.094416529 -35.001549 -24.612328 -121.96181
174835000 -24.712545 -128.48224 -0.095942713 -35.198421 -0.094954655 -35.200809 -24.562586 -122.27118
175834000 -24.658024 -128.85466 -0.096661016 -35.396404 -0.096364573 -35.392212 -24.505058 -122.51605
176833000 -24.612961 -129.19202 -0.097839557 -35.598038 -0.096798122 -35.595444 -24.458015 -122.68473
177832000 -24.567047 -129.59019 -0.098786168 -35.794212 -0.097830288 -35.796314 -24.437168 -122.79114
178831000 -24.518457 -129.80981 -0.10045402 -35.991848 -0.099710733 -35.987915 -24.39959 -122.84525
179830000 -24.447393 -130.25386 -0.10091342 -36.177544 -0.099847943 -36.176971 -24.333475 -122.95199
180829000 -24.396938 -130.56967 -0.099923164 -36.369286 -0.098550223 -36.366859 -24.294039 -123.25336
181828000 -24.377304 -131.03033 -0.10002542 -36.57217 -0.098571405 -36.567467 -24.274517 -123.47802
182827000 -24.351673 -131.35742 -0.09916646 -36.767788 -0.098368838 -36.765713 -24.263439 -123.59417
183826000 -24.316217 -131.71916 -0.10025004 -36.963558 -0.098870113 -36.9618 -24.256792 -123.74152
184825000 -24.318474 -132.04408 -0.10061351 -37.160553 -0.099746227 -37.164608 -24.240414 -123.86671
185824000 -24.286905 -132.41402 -0.10040634 -37.355316 -0.099488251 -37.359844 -24.230543 -123.9258
186823000 -24.270044 -132.77707 -0.099834166 -37.557983 -0.099324569 -37.556446 -24.223518 -123.92779
187822000 -24.250374 -133.14737 -0.10129204 -37.753014 -0.10037614 -37.752056 -24.183203 -124.02125
188821000 -24.226965 -133.3912 -0.10077114 -37.949432 -0.10043548 -37.9547 -24.16209 -124.17924
189820000 -24.207108 -133.65965 -0.1004482 -38.150974 -0.10018197 -38.14938 -24.147348 -124.3534
190819000 -24.175209 -133.95381 -0.10118314 -38.347954 -0.10037906 -38.344727 -24.107471 -124.37973
191818000 -24.144863 -134.24796 -0.10124302 -38.542152 -0.10104907 -38.544155 -24.079092 -124.40835
192817000 -24.097481 -134.52953 -0.1020674 -38.740662 -0.10112856 -38.744438 -24.034948 -124.48611
193816000 -24.06492 -134.78687 -0.10228022 -38.93729 -0.1010761 -38.935219 -23.983837 -124.63423
194815000 -24.008043 -135.21411 -0.1023918 -39.129059 -0.10220283 -39.133114 -23.918203 -124.70966
195814000 -23.953461 -135.37529 -0.1031777 -39.32761 -0.10241353 -39.330414 -23.860298 -124.78973
196813000 -23.899435 -135.70819 -0.10233508 -39.520454 -0.1025866 -39.524506 -23.792599 -124.93319
197812000 -23.840273 -135.90707 -0.10308174 -39.722782 -0.10285404 -39.72176 -23.718128 -125.01937
198811000 -23.789537 -136.08948 -0.10315225 -39.917736 -0.10233004 -39.921093 -23.649948 -125.17657
199810000 -23.720604 -136.40109 -0.10331926 -40.113953 -0.10202183 -40.110638 -23.573189 -125.26062
200809000 -23.664492 -136.67152 -0.10399264 -40.312031 -0.10241432 -40.31031 -23.497585 -125.44245
201808000 -23.606489 -136.86867 -0.10431717 -40.513905 -0.1036562 -40.512589 -23.43371 -125.50288
202807000 -23.551514 -137.22908 -0.10514984 -40.712925 -0.10348202 -40.716862 -23.381449 -125.6877
