!Keysight Technologies,E5080B,MY59205177,A.15.75.32
!Date: Friday, February 23, 2024 03:05:27
!Correction: S11(Cdelta 2-Port  ) 
!S21(Cdelta 2-Port  ) 
!S12(Cdelta 2-Port  ) 
!S22(Cdelta 2-Port  ) 
!S2P File: Measurements: S11, S21, S12, S22:
# Hz S  dB   R 50
10000000 -44.194702 -3.587352 -0.02705208 -2.0375862 -0.030207604 -2.0958314 -48.040936 -150.94777
10999000 -43.539074 -5.3378839 -0.02779242 -2.2537348 -0.030495651 -2.3095694 -47.733807 -143.37555
11998000 -42.82402 -7.9328036 -0.027938053 -2.4784739 -0.030093694 -2.5242519 -47.811882 -137.73674
12997000 -42.185116 -12.899987 -0.027827851 -2.6565819 -0.029197119 -2.6924052 -47.183254 -131.59665
13996000 -41.962513 -16.218859 -0.027128141 -2.837853 -0.029209888 -2.8584394 -46.759933 -126.00916
14995000 -41.631199 -19.94455 -0.029131968 -3.0462868 -0.028969094 -3.0715668 -46.230003 -122.67365
15994000 -41.508858 -23.834175 -0.029930785 -3.2652154 -0.031442035 -3.2875876 -46.05571 -118.99503
16993000 -41.497005 -28.022776 -0.029264094 -3.462533 -0.031212069 -3.4724517 -45.156055 -119.45349
17992000 -41.535793 -32.84967 -0.030378606 -3.656462 -0.031976327 -3.6637096 -44.520626 -120.33363
18991000 -41.809387 -37.149063 -0.030925019 -3.8692906 -0.032126274 -3.8656869 -43.850292 -120.03098
19990000 -41.67062 -42.140469 -0.033393335 -4.0740995 -0.034713477 -4.0727558 -43.12603 -121.20032
20989000 -41.50264 -45.26918 -0.035228334 -4.2788658 -0.036526322 -4.2707248 -42.572681 -121.16338
21988000 -41.427547 -50.008606 -0.036083352 -4.4755058 -0.03697665 -4.4659786 -42.264698 -120.43076
22987000 -41.238174 -54.479855 -0.036991533 -4.6750464 -0.038196295 -4.6685948 -41.980911 -120.19315
23986000 -41.20388 -58.239563 -0.036776934 -4.8693094 -0.037020251 -4.8695822 -41.889103 -119.86776
24985000 -40.880703 -60.903793 -0.037559144 -5.0773802 -0.037690222 -5.0728865 -41.620022 -117.72446
25984000 -40.650146 -62.824463 -0.038710784 -5.2813296 -0.038233638 -5.2861547 -41.251003 -116.22771
26983000 -40.329758 -64.890282 -0.039435349 -5.4807353 -0.038282212 -5.4995909 -41.122269 -115.28388
27982000 -40.219856 -65.671539 -0.040471997 -5.6731305 -0.040341098 -5.7144418 -40.837784 -113.75413
28981000 -40.152515 -67.247421 -0.038849469 -5.8764005 -0.040246777 -5.9048285 -40.61599 -113.41805
29980000 -39.812153 -68.556511 -0.038428981 -6.0693936 -0.040609434 -6.0750127 -40.306946 -112.56417
30979000 -39.463619 -67.948723 -0.036998581 -6.4189501 -0.034696776 -6.4145989 -39.769146 -113.28419
31978000 -39.253193 -68.80455 -0.035484351 -6.6186991 -0.036316969 -6.6108041 -39.519524 -112.85166
32977000 -39.078625 -70.391968 -0.035833824 -6.8279634 -0.036950544 -6.823545 -39.296612 -112.89788
33976000 -38.929749 -71.57235 -0.036551382 -7.0279183 -0.037284989 -7.0236783 -38.967972 -112.43596
34975000 -38.659462 -72.63681 -0.03604237 -7.2275858 -0.03802368 -7.2273612 -38.738037 -112.36988
35974000 -38.476707 -73.205872 -0.035908211 -7.4222627 -0.037788663 -7.4236398 -38.436634 -111.50257
36973000 -38.256474 -73.973663 -0.035889156 -7.6242089 -0.038747348 -7.6291404 -38.164265 -110.66989
37972000 -38.104389 -73.992943 -0.035365608 -7.8305907 -0.03803543 -7.8401122 -37.911572 -110.02438
38971000 -37.77615 -73.661842 -0.036329761 -8.03444 -0.038352203 -8.0461521 -37.704361 -108.63976
39970000 -37.470284 -74.299454 -0.034466114 -8.2241621 -0.037509535 -8.2388515 -37.423489 -108.30163
40969000 -37.169949 -74.147926 -0.034890134 -8.4177818 -0.037176378 -8.4366579 -37.170795 -106.91547
41968000 -36.826534 -74.435501 -0.034877349 -8.6225586 -0.037799109 -8.6352396 -36.946861 -105.71575
42967000 -36.604656 -74.737503 -0.034419931 -8.837039 -0.037337732 -8.8531837 -36.730961 -104.05973
43966000 -36.310017 -75.585335 -0.034257121 -9.0330448 -0.039659481 -9.050209 -36.434727 -103.48299
44965000 -36.08614 -76.416115 -0.036072649 -9.2407093 -0.039022379 -9.2612734 -36.231934 -103.40556
45964000 -35.882633 -77.638123 -0.037086565 -9.4397259 -0.040256966 -9.4602804 -35.993309 -103.20761
46963000 -35.681164 -79.595894 -0.037670638 -9.6305437 -0.040652286 -9.6532478 -35.802753 -103.63013
47962000 -35.53146 -81.079651 -0.038958125 -9.834754 -0.041738622 -9.8490295 -35.595284 -103.85033
48961000 -35.315647 -82.700584 -0.041147728 -10.025023 -0.043830004 -10.047973 -35.358509 -104.01319
49960000 -35.111214 -83.977715 -0.042430758 -10.225438 -0.045051835 -10.24998 -35.209438 -104.32441
50959000 -34.90126 -85.234482 -0.042865489 -10.441671 -0.045669943 -10.450356 -35.040405 -104.61307
51958000 -34.700626 -86.530052 -0.045001354 -10.640226 -0.047031239 -10.645503 -34.859173 -105.19046
52957000 -34.503391 -87.567184 -0.046337847 -10.842981 -0.048811015 -10.842153 -34.706261 -104.97611
53956000 -34.339939 -88.278999 -0.047292665 -11.042077 -0.048738502 -11.042445 -34.560387 -105.05663
54955000 -34.185284 -88.806602 -0.048128072 -11.240334 -0.049689919 -11.240048 -34.405186 -105.08176
55954000 -34.020363 -89.645111 -0.049279898 -11.44152 -0.05044565 -11.440184 -34.293385 -104.75803
56953000 -33.917343 -89.6502 -0.049008932 -11.635148 -0.048871227 -11.628662 -34.238514 -105.00164
57952000 -33.74976 -90.304977 -0.05025186 -11.831322 -0.050842423 -11.826392 -34.133286 -105.06615
58951000 -33.639248 -90.660492 -0.050793707 -12.036742 -0.050952163 -12.021007 -33.96624 -105.14653
59950000 -33.515774 -90.986595 -0.051508244 -12.239464 -0.051993661 -12.212847 -33.913143 -105.40747
60949000 -33.40649 -91.588203 -0.052206129 -12.437876 -0.052017238 -12.415559 -33.816265 -105.6952
61948000 -33.345589 -91.861267 -0.052827615 -12.638011 -0.051967725 -12.6208 -33.724869 -105.79707
62947000 -33.265282 -92.052124 -0.052616164 -12.849856 -0.052512147 -12.830456 -33.593472 -106.13606
63946000 -33.20739 -92.764832 -0.053772852 -13.047586 -0.053602763 -13.025824 -33.488174 -106.21861
64945000 -33.089706 -93.033485 -0.054191682 -13.247659 -0.053946093 -13.228556 -33.389652 -106.72382
65944000 -33.004478 -93.257362 -0.05525231 -13.44821 -0.054610293 -13.430392 -33.293186 -107.2331
66943000 -32.857269 -93.726021 -0.053005274 -13.649377 -0.052721232 -13.631868 -33.195408 -107.48747
67942000 -32.813168 -93.734947 -0.05542928 -13.845069 -0.054817386 -13.832456 -33.079357 -107.81233
68941000 -32.702972 -93.848686 -0.05460269 -14.039634 -0.053354323 -14.028214 -32.963375 -107.78296
69940000 -32.603733 -93.855225 -0.055257291 -14.235491 -0.054734547 -14.230038 -32.82349 -108.12885
70939000 -32.501236 -93.875374 -0.054735333 -14.43032 -0.054050669 -14.425783 -32.686897 -108.01245
71938000 -32.359383 -93.487 -0.054159444 -14.627284 -0.054700468 -14.619327 -32.546318 -107.96683
72937000 -32.197319 -93.382645 -0.053898655 -14.826677 -0.053843092 -14.822445 -32.426537 -107.6597
73936000 -32.060066 -93.033012 -0.053920146 -15.02552 -0.052598085 -15.015677 -32.311188 -107.55773
74935000 -31.936605 -93.335838 -0.053315274 -15.221654 -0.053146515 -15.21335 -32.158531 -107.22725
75934000 -31.820835 -93.638054 -0.053469632 -15.428266 -0.052779663 -15.420824 -32.063545 -107.17281
76933000 -31.679312 -94.057854 -0.054488402 -15.621276 -0.053939279 -15.614471 -31.895004 -107.62091
77932000 -31.592714 -94.868256 -0.055052012 -15.818474 -0.055860858 -15.812163 -31.791019 -107.60918
78931000 -31.526703 -95.612534 -0.054148175 -16.017792 -0.054587487 -16.011129 -31.702702 -107.49555
79930000 -31.404591 -96.447258 -0.056863669 -16.208618 -0.057458803 -16.206467 -31.59565 -107.81294
80929000 -31.278994 -97.342079 -0.058541216 -16.40325 -0.058703367 -16.401213 -31.49707 -108.20132
81928000 -31.199238 -98.206734 -0.058164466 -16.597633 -0.058825377 -16.592272 -31.378994 -108.25847
82927000 -31.113831 -98.91954 -0.060458273 -16.793367 -0.060438324 -16.794428 -31.266582 -108.53123
83926000 -30.990007 -99.64669 -0.061630443 -16.991789 -0.061416462 -16.991119 -31.151306 -108.71783
84925000 -30.894447 -100.02895 -0.061894584 -17.18808 -0.06165801 -17.185535 -31.079031 -108.87472
85924000 -30.80406 -100.49678 -0.062597029 -17.390249 -0.062730707 -17.386974 -30.974775 -108.86021
86923000 -30.699326 -101.07634 -0.063396774 -17.588654 -0.062883295 -17.582865 -30.871506 -108.70896
87922000 -30.588787 -101.43867 -0.06307397 -17.793779 -0.063418835 -17.786736 -30.788219 -108.79364
88921000 -30.521427 -101.67554 -0.064433642 -17.996748 -0.063815482 -17.98671 -30.701189 -108.79113
89920000 -30.420179 -102.20784 -0.065668903 -18.191956 -0.063890614 -18.180679 -30.647913 -108.94994
90919000 -30.324055 -102.56531 -0.066184297 -18.385031 -0.065524101 -18.37756 -30.567003 -109.16237
91918000 -30.233845 -102.91354 -0.066619836 -18.585501 -0.065399542 -18.578892 -30.49497 -109.14675
92917000 -30.146387 -103.21629 -0.067268357 -18.785683 -0.066141449 -18.783493 -30.433374 -109.24151
93916000 -30.066061 -103.62534 -0.067007832 -18.976572 -0.066304408 -18.972086 -30.341286 -109.81467
94915000 -29.991137 -104.25565 -0.068318777 -19.17639 -0.067870446 -19.171003 -30.294073 -109.7874
95914000 -29.927164 -104.51141 -0.069477022 -19.374006 -0.068550713 -19.367336 -30.200029 -110.06748
96913000 -29.849791 -104.69309 -0.070462197 -19.571817 -0.069740064 -19.569828 -30.128927 -110.39384
97912000 -29.776335 -105.14052 -0.071731023 -19.765511 -0.069373652 -19.769178 -30.052074 -110.58784
98911000 -29.674183 -105.40256 -0.07262063 -19.969051 -0.070687674 -19.966837 -30.016539 -110.84195
99910000 -29.601555 -105.52069 -0.072500333 -20.167637 -0.070764765 -20.164301 -29.908369 -111.16614
100909000 -29.523403 -105.79812 -0.07199499 -20.376013 -0.070076518 -20.368351 -29.820032 -111.39262
101908000 -29.426918 -106.06818 -0.073467769 -20.574188 -0.071798652 -20.568766 -29.712597 -111.12208
102907000 -29.302547 -106.08985 -0.073800825 -20.775181 -0.072170012 -20.773514 -29.632931 -111.12612
103906000 -29.207762 -106.21235 -0.073082872 -20.979868 -0.071437858 -20.972355 -29.485415 -111.12642
104905000 -29.063919 -106.10934 -0.074692965 -21.177872 -0.07189656 -21.175871 -29.370243 -110.7975
105904000 -28.919502 -106.23065 -0.074779607 -21.376377 -0.071719706 -21.370155 -29.249741 -110.64964
106903000 -28.8118 -106.36186 -0.074473068 -21.58626 -0.072602466 -21.577238 -29.123299 -110.54104
107902000 -28.646143 -106.70697 -0.075390108 -21.782627 -0.072773039 -21.777039 -28.985231 -110.53616
108901000 -28.540064 -106.96954 -0.076548137 -21.986019 -0.074238181 -21.976156 -28.85746 -110.45714
109900000 -28.411476 -107.44207 -0.076741785 -22.182121 -0.07497739 -22.177414 -28.705709 -110.54848
110899000 -28.295397 -108.09093 -0.078797899 -22.381123 -0.075444102 -22.371813 -28.580042 -110.81158
111898000 -28.206415 -108.79617 -0.08014062 -22.581749 -0.076792106 -22.574371 -28.462116 -111.00807
112897000 -28.076797 -109.35409 -0.08142177 -22.781328 -0.07761687 -22.771999 -28.331163 -111.18913
113896000 -27.970762 -109.89097 -0.082680605 -22.984459 -0.079305097 -22.970945 -28.222071 -111.34172
114895000 -27.88171 -110.54697 -0.083630517 -23.180927 -0.080508202 -23.164398 -28.105371 -111.42204
115894000 -27.748812 -110.87719 -0.084641345 -23.380154 -0.081262194 -23.368557 -28.04476 -111.61514
116893000 -27.669205 -111.42423 -0.085116751 -23.57292 -0.081956968 -23.557268 -27.91328 -111.70716
117892000 -27.592062 -111.95673 -0.085168228 -23.77194 -0.082546577 -23.75683 -27.838923 -111.95434
118891000 -27.528519 -112.35022 -0.085970819 -23.968695 -0.083217807 -23.960653 -27.747684 -112.06188
119890000 -27.435877 -112.72795 -0.086675055 -24.172712 -0.083793871 -24.157551 -27.732876 -112.20222
120889000 -27.386961 -113.21996 -0.087902136 -24.374985 -0.083888613 -24.358715 -27.657347 -112.1769
121888000 -27.34428 -113.52319 -0.087500647 -24.567183 -0.084425695 -24.554066 -27.597956 -112.43996
122887000 -27.305031 -113.70565 -0.087545544 -24.773209 -0.084920883 -24.756929 -27.554256 -112.46886
123886000 -27.254574 -114.12231 -0.088299707 -24.975824 -0.085337445 -24.952312 -27.544331 -112.63744
124885000 -27.214939 -114.65884 -0.089465141 -25.175211 -0.085989565 -25.157738 -27.513811 -112.74623
125884000 -27.170191 -114.85553 -0.089681834 -25.371326 -0.086480968 -25.353655 -27.480433 -112.91599
126883000 -27.150589 -115.20943 -0.089791767 -25.574045 -0.086791515 -25.559015 -27.442379 -112.94238
127882000 -27.101175 -115.50241 -0.090385884 -25.770113 -0.087758705 -25.75267 -27.397421 -113.09733
128881000 -27.064026 -115.84959 -0.090816453 -25.974577 -0.087323681 -25.954653 -27.360792 -113.24772
129880000 -27.014341 -116.17603 -0.091152959 -26.173767 -0.087733351 -26.154343 -27.316347 -113.2048
130879000 -26.950487 -116.30338 -0.090996198 -26.373993 -0.087751575 -26.354292 -27.246038 -113.27695
131878000 -26.889633 -116.53405 -0.091491342 -26.574686 -0.088951215 -26.556971 -27.177877 -113.16443
132877000 -26.822552 -116.62952 -0.091235697 -26.774206 -0.088570498 -26.758459 -27.094683 -113.16254
133876000 -26.734776 -116.81835 -0.091031626 -26.975922 -0.088640504 -26.956255 -27.009115 -113.08099
134875000 -26.638418 -116.96082 -0.091605283 -27.17733 -0.089315057 -27.161297 -26.906036 -112.96368
135874000 -26.557449 -116.93954 -0.091103785 -27.375849 -0.089056373 -27.361032 -26.801857 -112.99217
136873000 -26.444611 -116.91358 -0.092067704 -27.579714 -0.089877389 -27.561378 -26.721741 -112.94079
137872000 -26.366875 -117.01098 -0.092375219 -27.777206 -0.089417316 -27.761419 -26.612986 -112.86712
138871000 -26.295494 -117.23512 -0.092280559 -27.976074 -0.089359708 -27.962505 -26.516827 -113.0545
139870000 -26.19725 -117.4875 -0.093081288 -28.179272 -0.091089778 -28.159792 -26.434183 -113.21992
140869000 -26.107735 -117.95016 -0.095484912 -28.370611 -0.092425987 -28.354578 -26.33078 -113.36692
141868000 -26.014959 -118.42837 -0.095081389 -28.563351 -0.092872366 -28.547749 -26.259293 -113.74515
142867000 -25.940464 -118.73231 -0.093525089 -28.764755 -0.091634631 -28.748489 -26.179565 -113.90286
143866000 -25.864752 -119.19438 -0.095318735 -28.961489 -0.093183644 -28.944939 -26.11075 -114.36938
144865000 -25.811728 -119.69402 -0.097055942 -29.159433 -0.094680026 -29.144274 -26.050842 -114.6974
145864000 -25.754057 -120.02377 -0.097360373 -29.359713 -0.095227182 -29.347466 -26.014183 -114.96279
146863000 -25.710136 -120.39512 -0.098383933 -29.559532 -0.095634155 -29.546286 -25.963306 -115.26235
147862000 -25.669241 -120.74112 -0.099308148 -29.757286 -0.096233301 -29.740044 -25.936928 -115.60172
148861000 -25.633884 -121.26469 -0.099398725 -29.956045 -0.097237006 -29.936825 -25.907965 -115.78966
149860000 -25.620153 -121.43887 -0.10007124 -30.151306 -0.097292073 -30.14031 -25.875128 -115.97888
150859000 -25.60181 -121.82233 -0.1001568 -30.350985 -0.097282805 -30.336296 -25.868393 -116.22601
151858000 -25.586578 -122.09477 -0.10019521 -30.551027 -0.09714859 -30.534464 -25.863058 -116.5126
152857000 -25.564362 -122.40803 -0.10003071 -30.747576 -0.097222187 -30.735178 -25.841255 -116.6621
153856000 -25.559559 -122.64057 -0.10001535 -30.946642 -0.096765302 -30.930355 -25.857929 -116.91673
154855000 -25.561304 -122.813 -0.10036025 -31.145308 -0.097303987 -31.134127 -25.849775 -117.13885
155854000 -25.569647 -123.05459 -0.10060769 -31.34551 -0.098003708 -31.333086 -25.835379 -117.42496
156853000 -25.555006 -123.77046 -0.098457545 -31.53286 -0.097737886 -31.522484 -25.837751 -117.71538
157852000 -25.562237 -123.97241 -0.10025004 -31.733002 -0.099234521 -31.720287 -25.824202 -118.05053
158851000 -25.559715 -124.24479 -0.10047972 -31.930332 -0.09888918 -31.918571 -25.80776 -118.28361
159850000 -25.546429 -124.34715 -0.10082122 -32.12809 -0.099302851 -32.121105 -25.807337 -118.48448
160849000 -25.526564 -124.47428 -0.10119877 -32.32642 -0.10035813 -32.320705 -25.782286 -118.79758
161848000 -25.508533 -124.56899 -0.10144096 -32.528023 -0.099833637 -32.519863 -25.741831 -118.87479
162847000 -25.464655 -124.77768 -0.10164261 -32.722469 -0.10047125 -32.723545 -25.714085 -119.14058
163846000 -25.426874 -125.024 -0.10190442 -32.925892 -0.10023468 -32.916569 -25.636492 -119.14912
164845000 -25.364084 -125.04899 -0.10157212 -33.126564 -0.10046383 -33.117294 -25.569101 -119.22952
165844000 -25.310421 -125.11317 -0.10213128 -33.322258 -0.10076028 -33.314339 -25.490639 -119.40504
166843000 -25.248899 -125.17384 -0.1018191 -33.520489 -0.10112273 -33.514492 -25.420153 -119.57926
167842000 -25.188538 -125.30232 -0.10282833 -33.720348 -0.10081486 -33.715126 -25.345181 -119.52538
168841000 -25.112333 -125.55127 -0.10297783 -33.919373 -0.10216944 -33.914333 -25.267529 -119.54951
169840000 -25.04241 -125.80521 -0.102708 -34.111774 -0.101994 -34.107254 -25.179016 -119.79468
170839000 -24.982723 -126.04944 -0.10411354 -34.308933 -0.10258448 -34.306458 -25.093788 -119.96956
171838000 -24.925337 -126.50128 -0.10321932 -34.509892 -0.10330202 -34.507294 -25.027082 -120.20313
172837000 -24.860422 -126.85518 -0.10547658 -34.706223 -0.10413688 -34.703609 -24.957792 -120.42161
173836000 -24.78755 -127.22666 -0.10703133 -34.90543 -0.10565163 -34.903683 -24.912569 -120.65138
174835000 -24.738127 -127.68626 -0.10656307 -35.099747 -0.10580733 -35.10041 -24.872791 -121.00597
175834000 -24.687836 -128.07907 -0.1076631 -35.299767 -0.1069329 -35.293304 -24.805426 -121.25368
176833000 -24.63397 -128.44519 -0.10769176 -35.496464 -0.10705441 -35.492462 -24.753025 -121.41721
177832000 -24.584526 -128.93692 -0.10867263 -35.696362 -0.10776182 -35.69186 -24.728073 -121.59244
178831000 -24.543512 -129.29124 -0.10869228 -35.890797 -0.10803594 -35.884121 -24.69887 -121.8492
179830000 -24.51298 -129.71909 -0.11013003 -36.085579 -0.10845686 -36.090347 -24.665365 -121.95354
180829000 -24.466135 -129.91646 -0.11056363 -36.283909 -0.10903522 -36.280777 -24.634459 -122.1311
181828000 -24.44759 -130.27361 -0.11038652 -36.47744 -0.10898425 -36.477684 -24.61974 -122.25549
182827000 -24.423836 -130.6203 -0.11072587 -36.676083 -0.10973816 -36.679283 -24.605528 -122.3222
183826000 -24.38139 -130.94084 -0.11116935 -36.871922 -0.10940631 -36.86924 -24.597527 -122.44978
184825000 -24.381531 -131.22229 -0.11065258 -37.067562 -0.1099256 -37.07143 -24.577679 -122.55066
185824000 -24.358948 -131.6035 -0.11075348 -37.264637 -0.11046538 -37.267487 -24.578272 -122.5747
186823000 -24.342663 -131.91089 -0.11062364 -37.464939 -0.10935376 -37.461956 -24.571548 -122.54045
187822000 -24.323561 -132.24593 -0.11151806 -37.659931 -0.11030102 -37.662846 -24.53829 -122.63364
188821000 -24.30492 -132.52843 -0.1113866 -37.851353 -0.11105622 -37.857689 -24.519318 -122.73503
189820000 -24.289646 -132.79286 -0.11204477 -38.05283 -0.11130028 -38.05579 -24.517292 -122.89429
190819000 -24.258678 -133.02911 -0.1131515 -38.253479 -0.11225329 -38.251972 -24.480633 -122.85802
191818000 -24.227587 -133.18803 -0.1142726 -38.447178 -0.1137063 -38.446571 -24.44614 -122.74965
192817000 -24.158731 -133.47824 -0.11428297 -38.635372 -0.11406292 -38.63422 -24.38105 -122.84901
193816000 -24.123976 -133.84229 -0.11427446 -38.823883 -0.11252797 -38.826206 -24.326006 -123.09032
194815000 -24.065628 -134.29649 -0.11351073 -39.021416 -0.11257897 -39.023365 -24.261997 -123.21349
195814000 -24.010525 -134.52103 -0.11433771 -39.216702 -0.11260527 -39.223343 -24.206306 -123.34598
196813000 -23.956524 -134.86375 -0.11365103 -39.412861 -0.11210081 -39.418186 -24.131041 -123.51041
197812000 -23.90073 -135.11237 -0.11378495 -39.612801 -0.11273332 -39.612251 -24.067518 -123.61575
198811000 -23.852068 -135.28134 -0.11390002 -39.809875 -0.11230934 -39.814598 -23.997305 -123.79901
199810000 -23.783005 -135.66148 -0.11408737 -40.002441 -0.11220627 -40.002884 -23.917072 -123.88559
200809000 -23.72249 -135.94553 -0.11453385 -40.199966 -0.11328488 -40.203362 -23.837868 -124.08301
201808000 -23.663168 -136.1579 -0.11532913 -40.399181 -0.11377539 -40.404442 -23.77037 -124.13922
202807000 -23.608879 -136.52872 -0.1152026 -40.602966 -0.11457585 -40.605129 -23.718117 -124.38003
