!Keysight Technologies,E5080B,MY59205177,A.15.75.32
!Date: Friday, February 23, 2024 03:43:44
!Correction: S11(Cdelta 2-Port  ) 
!S21(Cdelta 2-Port  ) 
!S12(Cdelta 2-Port  ) 
!S22(Cdelta 2-Port  ) 
!S2P File: Measurements: S11, S21, S12, S22:
# Hz S  dB   R 50
10000000 -46.093052 -3.2344024 -0.015395496 -2.039294 -0.017716723 -2.0997443 -45.867226 -157.31931
10999000 -45.301022 -5.306354 -0.016113585 -2.2606845 -0.016859338 -2.3147471 -45.831871 -150.99454
11998000 -44.36657 -8.0035105 -0.016534777 -2.4851956 -0.017371304 -2.5289295 -45.978756 -146.77921
12997000 -43.576328 -13.710753 -0.016179839 -2.6648228 -0.016987193 -2.6987891 -45.560768 -140.84596
13996000 -43.312138 -17.621929 -0.014834669 -2.8459027 -0.016487485 -2.8642778 -45.352505 -136.02003
14995000 -42.879658 -21.916508 -0.017097643 -3.056757 -0.016452147 -3.0808129 -45.065132 -132.65775
15994000 -42.743855 -26.63446 -0.018797334 -3.2740753 -0.019514427 -3.2960196 -44.89819 -129.10689
16993000 -42.687607 -31.083361 -0.017410289 -3.4700913 -0.018245688 -3.4802449 -44.084202 -128.89336
17992000 -42.701332 -36.71455 -0.017708145 -3.6699491 -0.019530807 -3.6730661 -43.51619 -128.99884
18991000 -42.964314 -41.829414 -0.018151067 -3.8821869 -0.020338524 -3.8779702 -42.876038 -127.92699
19990000 -42.700787 -47.647053 -0.021671873 -4.0903864 -0.022425085 -4.0818958 -42.223171 -128.89491
20989000 -42.553787 -50.815651 -0.023826487 -4.2938199 -0.023648458 -4.2789359 -41.705944 -128.02213
21988000 -42.345264 -56.324577 -0.024323137 -4.4910178 -0.024729766 -4.4766212 -41.428787 -127.24528
22987000 -42.011288 -61.130459 -0.024985425 -4.6885862 -0.025709789 -4.6815276 -41.118168 -126.84787
23986000 -41.917377 -65.188599 -0.024656091 -4.8867202 -0.024669368 -4.8822293 -40.997459 -126.86622
24985000 -41.539043 -67.751572 -0.02619233 -5.0899401 -0.025113001 -5.0861907 -40.835625 -124.32909
25984000 -41.171272 -69.771858 -0.026789267 -5.2977109 -0.025667604 -5.2995477 -40.439293 -122.74825
26983000 -40.831593 -71.608627 -0.027611362 -5.4962149 -0.026498342 -5.5143294 -40.367287 -122.28333
27982000 -40.707417 -72.633369 -0.028751506 -5.6953864 -0.027932322 -5.7278852 -40.079418 -120.49765
28981000 -40.61731 -74.187943 -0.026846047 -5.8942213 -0.027488662 -5.9171333 -39.851421 -119.92894
29980000 -40.218521 -75.202415 -0.026807239 -6.0887051 -0.027865626 -6.0947804 -39.575802 -119.19479
30979000 -39.852932 -74.259216 -0.024313506 -6.4417162 -0.022530988 -6.433301 -39.104168 -119.42168
31978000 -39.636204 -75.305092 -0.02368932 -6.6358566 -0.023876462 -6.6265368 -38.825523 -118.82823
32977000 -39.430187 -77.110588 -0.024366349 -6.8476691 -0.024671972 -6.847115 -38.600227 -118.66721
33976000 -39.278614 -78.03685 -0.024335112 -7.0471673 -0.024678741 -7.0422587 -38.327339 -118.08433
34975000 -38.974247 -78.678917 -0.024498332 -7.2472515 -0.02611186 -7.2531819 -38.091763 -117.89094
35974000 -38.778042 -79.336128 -0.023652362 -7.4411478 -0.025706924 -7.4440045 -37.820148 -116.98961
36973000 -38.541416 -79.949104 -0.023832213 -7.6437979 -0.026844746 -7.6434479 -37.579926 -116.01844
37972000 -38.396469 -79.8405 -0.02363232 -7.8495088 -0.026130609 -7.8636713 -37.352127 -115.1441
38971000 -38.05164 -79.211327 -0.024633443 -8.0490332 -0.026765045 -8.0662727 -37.184986 -113.69063
39970000 -37.736282 -79.534653 -0.023858242 -8.2552729 -0.025781138 -8.2620268 -36.920784 -113.14117
40969000 -37.460518 -79.190712 -0.023216946 -8.4445515 -0.025826449 -8.4641428 -36.708031 -111.62301
41968000 -37.094719 -78.993309 -0.024297627 -8.6477318 -0.026259521 -8.6671963 -36.507351 -110.47708
42967000 -36.841232 -79.198715 -0.023254162 -8.8585968 -0.025630368 -8.8829803 -36.321079 -108.62712
43966000 -36.552467 -79.836441 -0.024469437 -9.0601873 -0.027326893 -9.0737886 -36.026382 -107.92893
44965000 -36.319771 -80.640305 -0.024797976 -9.2601547 -0.027211495 -9.2842226 -35.827595 -107.69774
45964000 -36.098705 -81.53334 -0.026399113 -9.4643431 -0.029091053 -9.4820499 -35.606976 -107.31606
46963000 -35.894203 -83.554955 -0.026425939 -9.6602335 -0.028843751 -9.6802845 -35.441948 -107.56263
47962000 -35.716328 -84.944809 -0.02781222 -9.8619118 -0.030870531 -9.8768463 -35.233425 -107.61427
48961000 -35.5019 -86.351067 -0.029743122 -10.056237 -0.031648286 -10.079597 -35.008282 -107.75819
49960000 -35.274849 -87.530334 -0.03127021 -10.253952 -0.032869041 -10.281151 -34.878483 -107.94654
50959000 -35.05138 -88.834038 -0.031731468 -10.471833 -0.03428008 -10.48157 -34.693726 -108.15178
51958000 -34.839119 -89.873413 -0.033873603 -10.667741 -0.035385441 -10.67667 -34.503311 -108.59945
52957000 -34.625751 -90.900314 -0.034978073 -10.86925 -0.036699399 -10.875206 -34.356522 -108.46132
53956000 -34.4664 -91.628159 -0.036122244 -11.068843 -0.036854208 -11.072515 -34.214668 -108.37743
54955000 -34.281193 -92.04612 -0.036921825 -11.266934 -0.037783179 -11.267902 -34.067646 -108.38327
55954000 -34.116714 -92.95932 -0.038436033 -11.471346 -0.038832493 -11.466161 -33.96682 -108.05752
56953000 -33.990875 -92.951408 -0.037239298 -11.671967 -0.037148703 -11.657928 -33.885605 -108.25431
57952000 -33.817047 -93.486107 -0.038631387 -11.869308 -0.038726714 -11.856547 -33.790672 -108.36566
58951000 -33.70005 -93.725723 -0.039516069 -12.071438 -0.039226118 -12.049252 -33.624863 -108.36643
59950000 -33.557545 -94.203194 -0.039739683 -12.271669 -0.040537581 -12.252587 -33.564926 -108.67175
60949000 -33.46294 -94.791321 -0.040459458 -12.472877 -0.040784765 -12.450284 -33.463139 -108.9639
61948000 -33.387962 -95.117958 -0.041485634 -12.674392 -0.040628508 -12.656407 -33.367352 -109.06533
62947000 -33.312359 -95.285858 -0.041552279 -12.886539 -0.041554108 -12.867216 -33.22118 -109.19213
63946000 -33.222385 -96.018166 -0.042000514 -13.084478 -0.042272352 -13.061006 -33.119713 -109.43257
64945000 -33.124809 -96.196548 -0.043169539 -13.284776 -0.042589169 -13.266707 -33.010674 -109.92564
65944000 -33.019222 -96.477753 -0.043114636 -13.485361 -0.042951237 -13.463995 -32.90958 -110.34916
66943000 -32.879612 -96.904877 -0.041425265 -13.68587 -0.041560903 -13.668492 -32.786877 -110.59322
67942000 -32.810173 -96.800873 -0.043244313 -13.880619 -0.043087184 -13.87482 -32.678211 -110.88304
68941000 -32.710896 -97.008873 -0.04313137 -14.076093 -0.042218246 -14.069947 -32.565346 -110.8246
69940000 -32.604736 -96.95784 -0.043013982 -14.27579 -0.043808561 -14.266448 -32.429733 -111.11855
70939000 -32.498989 -96.857353 -0.042444352 -14.470019 -0.042927973 -14.466808 -32.294071 -110.94234
71938000 -32.367504 -96.486542 -0.042816341 -14.667401 -0.042887449 -14.661919 -32.159367 -110.82027
72937000 -32.205772 -96.273315 -0.042543422 -14.869575 -0.042303197 -14.856947 -32.028103 -110.57543
73936000 -32.082462 -95.905785 -0.042149238 -15.06496 -0.042391546 -15.059177 -31.914997 -110.38963
74935000 -31.946358 -96.163742 -0.041235536 -15.260795 -0.040362522 -15.256635 -31.761398 -110.03236
75934000 -31.827394 -96.352829 -0.042117611 -15.472245 -0.041212015 -15.46662 -31.676409 -109.97228
76933000 -31.699657 -96.759056 -0.043584473 -15.66338 -0.042306334 -15.658407 -31.506411 -110.28092
77932000 -31.595392 -97.453003 -0.044079989 -15.862556 -0.043867655 -15.856011 -31.402328 -110.29919
78931000 -31.523849 -98.211281 -0.042848498 -16.062958 -0.042878039 -16.055561 -31.306044 -110.1291
79930000 -31.394588 -99.098373 -0.045095254 -16.252199 -0.045365978 -16.251072 -31.201864 -110.43467
80929000 -31.284504 -99.807487 -0.047261521 -16.450508 -0.047004547 -16.450506 -31.105843 -110.63454
81928000 -31.188784 -100.63686 -0.046871096 -16.642494 -0.047457274 -16.639513 -30.985317 -110.6625
82927000 -31.091713 -101.3129 -0.048603948 -16.841522 -0.048387207 -16.838581 -30.878967 -111.0068
83926000 -30.971092 -101.99081 -0.050420508 -17.036629 -0.049341951 -17.037493 -30.758036 -111.15509
84925000 -30.870506 -102.41824 -0.051336933 -17.238617 -0.049576543 -17.234684 -30.674307 -111.20755
85924000 -30.773794 -102.7851 -0.051332217 -17.438839 -0.050931998 -17.435253 -30.581167 -111.18771
86923000 -30.671967 -103.29005 -0.05218517 -17.636152 -0.051178202 -17.631205 -30.487265 -111.0883
87922000 -30.552601 -103.61794 -0.051450353 -17.844509 -0.051025763 -17.834454 -30.397755 -111.08308
88921000 -30.481377 -103.92516 -0.053325497 -18.04285 -0.052173644 -18.039156 -30.303768 -111.0865
89920000 -30.383846 -104.48997 -0.053679813 -18.24044 -0.052805342 -18.23085 -30.248859 -111.22873
90919000 -30.278486 -104.63194 -0.053851217 -18.437483 -0.053116377 -18.431248 -30.164526 -111.36067
91918000 -30.179052 -104.98683 -0.055422988 -18.638479 -0.053768657 -18.635197 -30.091181 -111.43658
92917000 -30.089203 -105.34351 -0.055825986 -18.836044 -0.054606359 -18.836987 -30.024593 -111.48656
93916000 -30.01643 -105.66754 -0.055026323 -19.026272 -0.054452229 -19.025209 -29.940861 -112.06208
94915000 -29.932083 -106.28733 -0.05712726 -19.230997 -0.055210099 -19.22772 -29.878731 -111.9631
95914000 -29.863695 -106.47547 -0.058204606 -19.426332 -0.056513026 -19.424084 -29.795113 -112.24441
96913000 -29.774302 -106.72996 -0.059322894 -19.626232 -0.057656325 -19.624043 -29.714432 -112.56303
97912000 -29.70079 -107.1078 -0.059731763 -19.823662 -0.057602812 -19.824471 -29.635469 -112.81645
98911000 -29.599743 -107.2974 -0.061084878 -20.024673 -0.059045527 -20.020821 -29.599514 -113.01506
99910000 -29.52766 -107.4486 -0.060959391 -20.221008 -0.059131857 -20.225449 -29.491749 -113.28671
100909000 -29.435963 -107.67587 -0.060574293 -20.430414 -0.059080426 -20.424271 -29.404371 -113.51814
101908000 -29.350098 -107.94888 -0.061628342 -20.629839 -0.059858527 -20.629908 -29.297983 -113.25109
102907000 -29.214029 -107.93888 -0.061653022 -20.831182 -0.059913903 -20.828051 -29.226034 -113.26312
103906000 -29.122997 -107.99295 -0.062142462 -21.037413 -0.059879523 -21.030739 -29.07856 -113.23651
104905000 -28.980402 -107.91545 -0.063002266 -21.237488 -0.060294744 -21.235085 -28.962469 -112.90972
105904000 -28.838907 -107.98775 -0.062603593 -21.438755 -0.059859838 -21.434843 -28.853907 -112.79813
106903000 -28.730764 -108.06696 -0.06349501 -21.645592 -0.060451183 -21.634678 -28.728678 -112.68469
107902000 -28.571835 -108.33463 -0.064240806 -21.843071 -0.060692679 -21.837284 -28.596245 -112.66431
108901000 -28.452736 -108.56647 -0.064891338 -22.043859 -0.06194815 -22.037924 -28.459564 -112.60614
109900000 -28.328268 -109.01575 -0.065917261 -22.244827 -0.063416474 -22.237116 -28.31892 -112.67371
110899000 -28.2087 -109.61897 -0.06765642 -22.44202 -0.06440527 -22.436268 -28.194904 -112.90729
111898000 -28.123747 -110.30057 -0.068583064 -22.644407 -0.065130718 -22.637951 -28.076944 -113.06572
112897000 -27.994808 -110.82777 -0.069766633 -22.843889 -0.066091254 -22.830957 -27.943975 -113.20169
113896000 -27.894567 -111.39025 -0.070871063 -23.043419 -0.067344598 -23.033325 -27.838284 -113.36926
114895000 -27.792122 -112.01185 -0.071706809 -23.240772 -0.06865643 -23.228329 -27.72592 -113.44592
115894000 -27.667664 -112.34571 -0.073209241 -23.44475 -0.06953384 -23.433626 -27.657576 -113.66951
116893000 -27.592028 -112.83805 -0.074170768 -23.63855 -0.071131036 -23.624853 -27.536577 -113.70131
117892000 -27.507015 -113.34114 -0.073296115 -23.838966 -0.070837907 -23.826456 -27.46117 -113.9006
118891000 -27.448196 -113.75771 -0.073866382 -24.037729 -0.071274176 -24.022535 -27.371202 -113.98979
119890000 -27.362415 -114.09442 -0.074740894 -24.237032 -0.072750926 -24.223787 -27.35297 -114.15599
120889000 -27.314608 -114.60611 -0.076652996 -24.441114 -0.07262326 -24.421904 -27.281031 -114.07982
121888000 -27.274191 -114.93248 -0.076384 -24.632814 -0.072908081 -24.622536 -27.227539 -114.36829
122887000 -27.232849 -115.11448 -0.077364944 -24.838764 -0.074193418 -24.829773 -27.180552 -114.37751
123886000 -27.182604 -115.534 -0.077483267 -25.041512 -0.074068345 -25.023304 -27.160843 -114.51504
124885000 -27.150599 -116.00033 -0.077770509 -25.238758 -0.074575245 -25.225515 -27.13213 -114.57303
125884000 -27.10006 -116.16839 -0.079015903 -25.438107 -0.074806996 -25.425848 -27.104053 -114.72321
126883000 -27.076233 -116.57433 -0.079065464 -25.639048 -0.075745702 -25.62999 -27.063467 -114.77728
127882000 -27.023882 -116.90415 -0.079389982 -25.842154 -0.075620055 -25.825741 -27.025494 -114.91594
128881000 -26.996647 -117.22411 -0.079550274 -26.044977 -0.075880572 -26.028788 -26.982172 -114.9599
129880000 -26.942766 -117.54173 -0.080641642 -26.243963 -0.075721204 -26.225609 -26.950121 -114.93446
130879000 -26.883286 -117.70255 -0.079729296 -26.443583 -0.076839536 -26.429464 -26.873505 -114.94044
131878000 -26.81835 -117.91864 -0.080225527 -26.646666 -0.07741607 -26.629311 -26.813948 -114.78889
132877000 -26.756165 -118.01237 -0.080041215 -26.847448 -0.077458233 -26.831974 -26.737648 -114.80605
133876000 -26.668386 -118.14716 -0.080637686 -27.0527 -0.077049799 -27.03038 -26.649738 -114.70817
134875000 -26.577108 -118.2656 -0.081088386 -27.250372 -0.077962369 -27.232355 -26.552927 -114.50419
135874000 -26.49971 -118.29958 -0.08032757 -27.452204 -0.078440212 -27.430241 -26.458622 -114.49204
136873000 -26.386105 -118.24776 -0.080916964 -27.649961 -0.077670105 -27.635338 -26.373302 -114.41357
137872000 -26.305574 -118.3695 -0.080905363 -27.854359 -0.07816188 -27.839157 -26.2768 -114.3307
138871000 -26.234749 -118.57845 -0.081697933 -28.051701 -0.0786089 -28.036604 -26.180355 -114.49633
139870000 -26.137531 -118.83118 -0.082814634 -28.254442 -0.079093665 -28.240143 -26.097763 -114.68298
140869000 -26.057743 -119.43587 -0.083084822 -28.451103 -0.079646245 -28.428486 -26.001801 -114.87313
141868000 -25.974998 -119.79383 -0.084306926 -28.648153 -0.080834948 -28.632414 -25.947117 -115.11743
142867000 -25.898952 -120.01183 -0.082835481 -28.847902 -0.07997714 -28.831591 -25.876358 -115.23375
143866000 -25.818995 -120.44845 -0.084626295 -29.045141 -0.081565782 -29.025459 -25.800714 -115.69943
144865000 -25.77 -120.96008 -0.086318307 -29.240816 -0.083248682 -29.225826 -25.743332 -116.00108
145864000 -25.709827 -121.3121 -0.086661324 -29.442575 -0.084539719 -29.430975 -25.711872 -116.26799
146863000 -25.663698 -121.66981 -0.087587543 -29.64394 -0.08456374 -29.630341 -25.662592 -116.5435
147862000 -25.626156 -121.99841 -0.089033119 -29.843485 -0.085401334 -29.830305 -25.632114 -116.82988
148861000 -25.592859 -122.43523 -0.089466996 -30.042109 -0.08648783 -30.02416 -25.608955 -117.01342
149860000 -25.561911 -122.62982 -0.09101814 -30.231152 -0.087315761 -30.222631 -25.560467 -117.13041
150859000 -25.536942 -123.09509 -0.089723319 -30.431549 -0.087504081 -30.41666 -25.535902 -117.48611
151858000 -25.521496 -123.40093 -0.089438453 -30.628801 -0.087405562 -30.612928 -25.525728 -117.84392
152857000 -25.515549 -123.73575 -0.089702711 -30.82563 -0.086982988 -30.817585 -25.510639 -117.99532
153856000 -25.506001 -123.94662 -0.089042105 -31.030947 -0.085760653 -31.013769 -25.525225 -118.33725
154855000 -25.506643 -124.13731 -0.08960335 -31.226898 -0.086133465 -31.216599 -25.521425 -118.57079
155854000 -25.523546 -124.37028 -0.089707732 -31.426605 -0.086804196 -31.412447 -25.510391 -118.81271
156853000 -25.507711 -125.07102 -0.088061161 -31.613998 -0.086203702 -31.607609 -25.503578 -119.15831
157852000 -25.512117 -125.26185 -0.08876045 -31.815086 -0.0877138 -31.806524 -25.485649 -119.47663
158851000 -25.514444 -125.50403 -0.089344382 -32.015697 -0.088062748 -32.00668 -25.474987 -119.77299
159850000 -25.500078 -125.59451 -0.090483144 -32.215706 -0.088031836 -32.205635 -25.469454 -119.95159
160849000 -25.487007 -125.71687 -0.090375043 -32.415409 -0.088476442 -32.406898 -25.443266 -120.2211
161848000 -25.468269 -125.779 -0.090473369 -32.61628 -0.088573933 -32.608799 -25.403046 -120.36389
162847000 -25.4247 -125.94291 -0.090717591 -32.814075 -0.088959143 -32.807194 -25.376419 -120.61829
163846000 -25.389736 -126.14958 -0.090724729 -33.013687 -0.089230232 -33.007225 -25.30076 -120.58971
164845000 -25.336931 -126.11599 -0.091825783 -33.216438 -0.089935794 -33.207584 -25.236025 -120.66102
165844000 -25.28162 -126.17796 -0.090991445 -33.416168 -0.08978384 -33.406113 -25.155472 -120.82214
166843000 -25.217979 -126.22272 -0.091247067 -33.614086 -0.090179995 -33.608116 -25.091745 -120.97923
167842000 -25.15904 -126.30183 -0.091237813 -33.810127 -0.090018511 -33.803619 -25.017624 -120.91772
168841000 -25.086555 -126.482 -0.091432914 -34.008484 -0.090230741 -34.006107 -24.942589 -120.97662
169840000 -25.016888 -126.68877 -0.092016414 -34.206642 -0.090805881 -34.202126 -24.860569 -121.16331
170839000 -24.958717 -126.97483 -0.092766583 -34.403507 -0.091748051 -34.402706 -24.779255 -121.34375
171838000 -24.898687 -127.33015 -0.092973918 -34.608135 -0.092351951 -34.602268 -24.716497 -121.5397
172837000 -24.831337 -127.67066 -0.094426051 -34.802292 -0.092246711 -34.798901 -24.653593 -121.73822
173836000 -24.763828 -128.08813 -0.095417432 -35.004463 -0.094047233 -34.998524 -24.610182 -121.9724
174835000 -24.712763 -128.47975 -0.095687076 -35.200191 -0.095083244 -35.198044 -24.567474 -122.25798
175834000 -24.657501 -128.81657 -0.096765831 -35.400265 -0.095584407 -35.394154 -24.500845 -122.56765
176833000 -24.607187 -129.1321 -0.097431317 -35.596405 -0.096456684 -35.595154 -24.45783 -122.67282
177832000 -24.569323 -129.6077 -0.098987162 -35.79377 -0.097270362 -35.79483 -24.436546 -122.7746
178831000 -24.519506 -129.80759 -0.10021587 -35.991993 -0.099185258 -35.98806 -24.394182 -122.87338
179830000 -24.447823 -130.21098 -0.10076081 -36.177364 -0.099308416 -36.178673 -24.332811 -122.9285
180829000 -24.400484 -130.58801 -0.10059947 -36.370243 -0.098620132 -36.368786 -24.291052 -123.27512
181828000 -24.376141 -130.99614 -0.099864893 -36.568157 -0.098723404 -36.564793 -24.277328 -123.47641
182827000 -24.351433 -131.40714 -0.099327751 -36.766628 -0.099006236 -36.767418 -24.262884 -123.5829
183826000 -24.316576 -131.71246 -0.10070147 -36.965809 -0.098662235 -36.95998 -24.251091 -123.75939
184825000 -24.313643 -132.0551 -0.099780664 -37.163372 -0.098890767 -37.163479 -24.230148 -123.86846
185824000 -24.287342 -132.40506 -0.099555522 -37.357773 -0.099206448 -37.360615 -24.226664 -123.90942
186823000 -24.271332 -132.80444 -0.1008501 -37.562241 -0.099017359 -37.556454 -24.222261 -123.93769
187822000 -24.247477 -133.11726 -0.1011381 -37.752628 -0.099610083 -37.752144 -24.180443 -124.03344
188821000 -24.232719 -133.37927 -0.10075074 -37.949226 -0.099361911 -37.953823 -24.16057 -124.14202
189820000 -24.205599 -133.67308 -0.10172926 -38.148365 -0.099552877 -38.14677 -24.145369 -124.34652
190819000 -24.173254 -133.97916 -0.10178518 -38.349747 -0.10037535 -38.347702 -24.111439 -124.37106
191818000 -24.144865 -134.27277 -0.10183817 -38.545971 -0.10039733 -38.543491 -24.079697 -124.44006
192817000 -24.096573 -134.55855 -0.10237908 -38.74033 -0.10101092 -38.741879 -24.035536 -124.50219
193816000 -24.068016 -134.8179 -0.10233746 -38.935547 -0.10074015 -38.938091 -23.987274 -124.64802
194815000 -24.006145 -135.19243 -0.10267354 -39.132183 -0.10202315 -39.136223 -23.92053 -124.70332
195814000 -23.954 -135.38809 -0.10346135 -39.333183 -0.10210107 -39.329006 -23.864408 -124.77697
196813000 -23.9028 -135.70578 -0.10282356 -39.523037 -0.10126369 -39.525917 -23.786692 -124.92356
197812000 -23.841089 -135.92239 -0.10332986 -39.721138 -0.10151541 -39.721874 -23.7188 -125.00053
198811000 -23.789072 -136.0652 -0.10347937 -39.918873 -0.10233694 -39.917614 -23.652678 -125.18212
199810000 -23.721643 -136.42659 -0.10355281 -40.114841 -0.10120381 -40.110073 -23.574173 -125.29555
200809000 -23.664488 -136.6684 -0.1040804 -40.310852 -0.10251557 -40.315472 -23.498062 -125.45483
201808000 -23.606014 -136.85414 -0.10478918 -40.510563 -0.10350933 -40.512253 -23.434278 -125.50947
202807000 -23.548805 -137.22588 -0.10511006 -40.713848 -0.10416498 -40.71434 -23.380831 -125.72526
