!Keysight Technologies,E5080B,MY59205177,A.15.75.32
!Date: Friday, February 23, 2024 03:05:34
!Correction: S11(Cdelta 2-Port  ) 
!S21(Cdelta 2-Port  ) 
!S12(Cdelta 2-Port  ) 
!S22(Cdelta 2-Port  ) 
!S2P File: Measurements: S11, S21, S12, S22:
# Hz S  dB   R 50
10000000 -44.234661 -3.5339482 -0.026571788 -2.0385463 -0.030303791 -2.0943801 -47.985809 -150.77234
10999000 -43.573578 -5.4137664 -0.027673364 -2.2574122 -0.02909809 -2.3100584 -47.761238 -143.16589
11998000 -42.82172 -7.8803096 -0.028135801 -2.4783819 -0.029486401 -2.52316 -47.743301 -137.68123
12997000 -42.20438 -12.791716 -0.027495956 -2.6569748 -0.029522888 -2.6933038 -47.1707 -131.34814
13996000 -41.955666 -15.939027 -0.026364997 -2.8412714 -0.028596984 -2.8601964 -46.74033 -125.88956
14995000 -41.613762 -20.135113 -0.028203022 -3.0447958 -0.028519597 -3.072022 -46.312977 -122.80908
15994000 -41.490536 -23.939501 -0.029993342 -3.2637079 -0.031871498 -3.2877433 -46.067616 -118.68056
16993000 -41.472385 -28.012255 -0.02922813 -3.45854 -0.031253263 -3.4701648 -45.153324 -119.37814
17992000 -41.520256 -32.732525 -0.029446525 -3.6576574 -0.031461071 -3.6605694 -44.536964 -120.52357
18991000 -41.820473 -37.315502 -0.030481573 -3.8672671 -0.032400362 -3.866127 -43.867542 -119.90681
19990000 -41.632751 -42.308815 -0.032614745 -4.0785918 -0.034376096 -4.0734034 -43.152374 -121.24364
20989000 -41.541904 -45.318577 -0.034653202 -4.2790699 -0.035911344 -4.272851 -42.541946 -120.87588
21988000 -41.436581 -50.062767 -0.034777146 -4.4741883 -0.036700182 -4.4652381 -42.288643 -120.83347
22987000 -41.206779 -54.386551 -0.036980566 -4.6701679 -0.038364738 -4.6666465 -42.015911 -120.04238
23986000 -41.239582 -58.284328 -0.036364999 -4.8669839 -0.037014246 -4.8698559 -41.876431 -120.21158
24985000 -40.900249 -60.827652 -0.03678529 -5.0746446 -0.037446868 -5.0713253 -41.618397 -117.66508
25984000 -40.629997 -62.762241 -0.037570111 -5.2827215 -0.037815299 -5.2830782 -41.283562 -116.46169
26983000 -40.32552 -64.650909 -0.038502891 -5.4803228 -0.038171224 -5.5013571 -41.13456 -115.19546
27982000 -40.204472 -65.36969 -0.039872132 -5.6806173 -0.040331431 -5.7152729 -40.826355 -113.89029
28981000 -40.163971 -67.023209 -0.038486175 -5.8718767 -0.039898258 -5.9029331 -40.597393 -113.19234
29980000 -39.763008 -68.596046 -0.038198907 -6.0700145 -0.040342141 -6.0758157 -40.293076 -112.52485
30979000 -39.441006 -67.832939 -0.035514887 -6.4199042 -0.035150047 -6.4155393 -39.799046 -113.14338
31978000 -39.241657 -68.745338 -0.034396451 -6.616601 -0.035791017 -6.6107483 -39.518589 -112.70989
32977000 -39.097397 -70.542671 -0.035079848 -6.8284063 -0.036742475 -6.8245802 -39.281925 -112.88727
33976000 -38.953239 -71.541588 -0.035909776 -7.0292859 -0.036955766 -7.023901 -38.971119 -112.46545
34975000 -38.664902 -72.495056 -0.035787366 -7.2292185 -0.037972238 -7.2273307 -38.726166 -112.27183
35974000 -38.458622 -73.147881 -0.034905791 -7.421876 -0.037637215 -7.4248462 -38.421516 -111.46142
36973000 -38.277885 -73.996559 -0.035424847 -7.6253362 -0.037963618 -7.6266313 -38.140423 -110.75685
37972000 -38.114773 -73.84771 -0.03496059 -7.831285 -0.038718358 -7.8410344 -37.901134 -109.967
38971000 -37.772781 -73.787033 -0.035535768 -8.0326853 -0.038434468 -8.0425158 -37.702839 -108.57374
39970000 -37.459187 -74.346893 -0.033760898 -8.2262239 -0.037322588 -8.2349958 -37.419079 -108.10812
40969000 -37.184998 -74.224213 -0.034111798 -8.4205561 -0.036343332 -8.4415388 -37.178013 -106.9404
41968000 -36.84668 -74.388191 -0.034885958 -8.6252108 -0.037193086 -8.6352406 -36.946529 -105.84685
42967000 -36.583572 -74.675285 -0.034532912 -8.8325758 -0.03774558 -8.8572645 -36.724293 -104.08269
43966000 -36.311783 -75.500603 -0.035696797 -9.0310583 -0.039251976 -9.0497065 -36.432732 -103.47668
44965000 -36.097385 -76.466499 -0.036012094 -9.2339983 -0.038707912 -9.2529097 -36.229897 -103.37354
45964000 -35.867222 -77.674118 -0.036836457 -9.4355659 -0.0406387 -9.4563818 -35.974369 -103.23012
46963000 -35.67281 -79.574585 -0.03737063 -9.6317844 -0.040801488 -9.6525908 -35.807644 -103.61898
47962000 -35.539543 -81.124222 -0.039064694 -9.8311834 -0.041933078 -9.8518486 -35.606625 -103.7658
48961000 -35.340069 -82.560936 -0.041237626 -10.02914 -0.043497667 -10.046785 -35.35215 -104.02551
49960000 -35.107479 -84.068459 -0.041857019 -10.226966 -0.044304363 -10.250486 -35.220387 -104.18233
50959000 -34.899929 -85.3936 -0.042690597 -10.440411 -0.04517163 -10.452268 -35.052662 -104.6909
51958000 -34.706848 -86.484802 -0.044522211 -10.637215 -0.046708863 -10.648412 -34.8717 -105.21355
52957000 -34.502254 -87.524261 -0.046044301 -10.840231 -0.048176233 -10.843822 -34.715122 -105.00883
53956000 -34.357193 -88.305573 -0.047590483 -11.039801 -0.048726983 -11.042347 -34.564518 -105.0145
54955000 -34.185513 -88.764908 -0.04855369 -11.243688 -0.049604822 -11.237838 -34.406563 -105.02393
55954000 -34.031864 -89.637894 -0.049293254 -11.4382 -0.049237486 -11.435333 -34.297985 -104.70061
56953000 -33.918625 -89.696121 -0.048985109 -11.639421 -0.048177805 -11.625843 -34.23621 -104.95135
57952000 -33.743965 -90.402824 -0.050141614 -11.83444 -0.050488599 -11.825103 -34.126236 -105.12351
58951000 -33.642403 -90.623772 -0.050311044 -12.039398 -0.05127826 -12.016529 -33.965672 -105.18675
59950000 -33.515434 -90.975761 -0.051788274 -12.240252 -0.051696066 -12.216465 -33.912125 -105.41904
60949000 -33.422363 -91.585831 -0.052164998 -12.438067 -0.052013833 -12.417101 -33.821369 -105.67119
61948000 -33.358448 -91.864677 -0.052542798 -12.637443 -0.052182551 -12.621951 -33.728893 -105.81953
62947000 -33.26997 -92.087791 -0.052822374 -12.851878 -0.052542798 -12.829554 -33.585384 -106.08544
63946000 -33.200253 -92.852341 -0.053108778 -13.048435 -0.053831819 -13.025492 -33.483498 -106.28659
64945000 -33.094913 -93.029442 -0.054294955 -13.249802 -0.054541614 -13.228168 -33.372444 -106.7216
65944000 -33.008797 -93.280159 -0.054816335 -13.447554 -0.054276083 -13.430601 -33.289959 -107.19821
66943000 -32.868637 -93.727417 -0.052911725 -13.647554 -0.052502714 -13.631605 -33.181351 -107.49677
67942000 -32.804596 -93.681488 -0.055081114 -13.843974 -0.054729041 -13.830023 -33.065071 -107.81676
68941000 -32.692245 -93.807243 -0.054286569 -14.037334 -0.053909663 -14.027131 -32.960171 -107.79015
69940000 -32.602673 -93.829941 -0.054932993 -14.232856 -0.05540752 -14.226107 -32.82095 -108.07557
70939000 -32.498558 -93.887619 -0.054079503 -14.430531 -0.054142144 -14.421697 -32.689579 -108.06271
71938000 -32.352409 -93.444489 -0.054607145 -14.62882 -0.053553231 -14.618248 -32.553925 -108.01756
72937000 -32.195984 -93.384857 -0.053535409 -14.822455 -0.053577602 -14.820735 -32.411716 -107.66483
73936000 -32.064045 -93.071182 -0.052809797 -15.022023 -0.053251859 -15.016753 -32.295437 -107.51816
74935000 -31.934395 -93.343597 -0.053310558 -15.217865 -0.05257136 -15.217479 -32.155666 -107.24422
75934000 -31.80999 -93.617958 -0.053508677 -15.427348 -0.052239925 -15.421951 -32.063755 -107.1806
76933000 -31.684114 -94.059479 -0.054507013 -15.621273 -0.053491905 -15.61071 -31.889374 -107.58747
77932000 -31.592411 -94.804665 -0.055271186 -15.81697 -0.055491157 -15.812605 -31.796234 -107.56613
78931000 -31.516863 -95.60083 -0.053912282 -16.017939 -0.054548692 -16.011614 -31.693375 -107.50996
79930000 -31.406393 -96.468735 -0.056396324 -16.211533 -0.057287518 -16.204662 -31.603416 -107.78317
80929000 -31.272118 -97.307404 -0.058259439 -16.403868 -0.058448862 -16.399025 -31.489481 -108.1318
81928000 -31.20273 -98.198822 -0.058242124 -16.596384 -0.058309812 -16.592951 -31.372627 -108.25361
82927000 -31.111952 -98.884216 -0.059967708 -16.79698 -0.059785303 -16.791122 -31.277441 -108.51014
83926000 -30.995457 -99.676445 -0.061013997 -16.993227 -0.060897175 -16.992577 -31.145626 -108.8409
84925000 -30.884409 -100.06395 -0.062501699 -17.191078 -0.061078314 -17.182768 -31.055622 -108.86792
85924000 -30.801285 -100.56754 -0.062553175 -17.393116 -0.063034311 -17.385157 -30.974939 -108.83563
86923000 -30.694328 -101.04705 -0.062377226 -17.584984 -0.063108638 -17.583351 -30.878782 -108.71405
87922000 -30.591709 -101.39793 -0.063199781 -17.79421 -0.06248647 -17.785679 -30.792042 -108.73553
88921000 -30.512383 -101.673 -0.06374298 -17.992249 -0.064008303 -17.988262 -30.695566 -108.78996
89920000 -30.425755 -102.2206 -0.064204283 -18.190142 -0.063561991 -18.178122 -30.643175 -108.91618
90919000 -30.321817 -102.56107 -0.065433174 -18.384172 -0.064615719 -18.380604 -30.562223 -109.1176
91918000 -30.228024 -102.92007 -0.066201381 -18.588482 -0.064744197 -18.57815 -30.491814 -109.1391
92917000 -30.141706 -103.26836 -0.067407697 -18.783697 -0.065743543 -18.78212 -30.427238 -109.20713
93916000 -30.059713 -103.57178 -0.066614576 -18.977806 -0.06572488 -18.974371 -30.349495 -109.92097
94915000 -29.987156 -104.27502 -0.068172306 -19.176523 -0.067154527 -19.171551 -30.277765 -109.75424
95914000 -29.915371 -104.49818 -0.069147192 -19.372643 -0.068083428 -19.369619 -30.189354 -110.03466
96913000 -29.846275 -104.67567 -0.069763735 -19.571323 -0.068469979 -19.566544 -30.136877 -110.41032
97912000 -29.770716 -105.17627 -0.071199186 -19.768225 -0.069231354 -19.768879 -30.055506 -110.57599
98911000 -29.668056 -105.37899 -0.071433648 -19.968542 -0.070973679 -19.963781 -30.012854 -110.85216
99910000 -29.607 -105.53352 -0.072173961 -20.166965 -0.070872642 -20.164625 -29.902334 -111.12981
100909000 -29.514103 -105.8577 -0.071563646 -20.377737 -0.069883168 -20.370886 -29.818378 -111.37346
101908000 -29.426821 -106.0839 -0.072937824 -20.575542 -0.071156032 -20.572495 -29.713018 -111.14851
102907000 -29.302889 -106.08372 -0.073611252 -20.774641 -0.071001574 -20.776213 -29.631622 -111.13473
103906000 -29.204424 -106.19105 -0.074052803 -20.978354 -0.070552699 -20.973747 -29.487299 -111.13897
104905000 -29.061596 -106.14482 -0.073956169 -21.178816 -0.07176102 -21.17415 -29.35318 -110.8225
105904000 -28.918468 -106.26163 -0.074020416 -21.38168 -0.071383648 -21.36894 -29.255598 -110.67813
106903000 -28.816351 -106.37355 -0.074212901 -21.586737 -0.071468383 -21.580355 -29.116978 -110.57712
107902000 -28.646488 -106.72511 -0.074883103 -21.78676 -0.072920188 -21.77236 -28.975536 -110.53156
108901000 -28.534094 -106.94817 -0.075539716 -21.987766 -0.074018836 -21.981325 -28.850758 -110.49764
109900000 -28.412235 -107.45798 -0.077392086 -22.185919 -0.074622914 -22.173525 -28.699894 -110.60274
110899000 -28.296867 -108.06739 -0.078812398 -22.382391 -0.074989505 -22.374388 -28.579416 -110.80791
111898000 -28.199894 -108.76966 -0.079338573 -22.582354 -0.076398492 -22.576828 -28.460146 -111.00327
112897000 -28.083683 -109.35976 -0.081225276 -22.781998 -0.077435307 -22.770336 -28.328653 -111.16891
113896000 -27.975372 -109.96258 -0.081974909 -22.983946 -0.07842993 -22.967127 -28.218142 -111.33492
114895000 -27.877544 -110.4972 -0.082716227 -23.178976 -0.080050707 -23.163877 -28.107241 -111.4181
115894000 -27.745117 -110.88621 -0.084273405 -23.380857 -0.081406996 -23.362368 -28.041161 -111.56871
116893000 -27.667643 -111.42162 -0.084666684 -23.572962 -0.081320219 -23.558455 -27.906103 -111.69564
117892000 -27.589577 -111.90305 -0.084667213 -23.773039 -0.08183483 -23.758543 -27.843208 -111.90136
118891000 -27.533054 -112.33319 -0.084921405 -23.970348 -0.082127646 -23.957876 -27.745277 -112.03973
119890000 -27.439318 -112.69102 -0.086094655 -24.175653 -0.083491713 -24.158344 -27.730465 -112.15534
120889000 -27.387798 -113.19 -0.086588971 -24.373032 -0.083180077 -24.356785 -27.660988 -112.16046
121888000 -27.354589 -113.52944 -0.086874969 -24.566324 -0.084560312 -24.55691 -27.599241 -112.44893
122887000 -27.304628 -113.70634 -0.087650672 -24.772251 -0.084027432 -24.754766 -27.555265 -112.4542
123886000 -27.25569 -114.12752 -0.08882571 -24.974731 -0.085272506 -24.955248 -27.542925 -112.6228
124885000 -27.218098 -114.63013 -0.088265359 -25.169674 -0.085536771 -25.154167 -27.513195 -112.70135
125884000 -27.165159 -114.80363 -0.089160211 -25.367994 -0.085881844 -25.357206 -27.48089 -112.85806
126883000 -27.14753 -115.22354 -0.089606516 -25.57198 -0.08665552 -25.55703 -27.440926 -112.8933
127882000 -27.094879 -115.51245 -0.089822419 -25.772669 -0.086653404 -25.753057 -27.396133 -113.12223
128881000 -27.071093 -115.83478 -0.089762963 -25.972401 -0.087127186 -25.956043 -27.358168 -113.23264
129880000 -27.011417 -116.14162 -0.090904742 -26.174894 -0.086919867 -26.15304 -27.320398 -113.20173
130879000 -26.948809 -116.33054 -0.09031637 -26.376505 -0.088012822 -26.357494 -27.240026 -113.25465
131878000 -26.885672 -116.53721 -0.090768084 -26.575752 -0.087907687 -26.556427 -27.179846 -113.16886
132877000 -26.820303 -116.66917 -0.090210125 -26.774529 -0.088233396 -26.755526 -27.092157 -113.2034
133876000 -26.73634 -116.8208 -0.090845264 -26.975203 -0.087876253 -26.958027 -27.006929 -113.11658
134875000 -26.64299 -116.94038 -0.091861211 -27.177603 -0.089129299 -27.15996 -26.906012 -112.96799
135874000 -26.553667 -116.95121 -0.091533899 -27.37154 -0.088007271 -27.357094 -26.803082 -112.97456
136873000 -26.445534 -116.89977 -0.092122175 -27.578398 -0.088730335 -27.561331 -26.71937 -112.97295
137872000 -26.368103 -117.02869 -0.091197632 -27.781622 -0.088582911 -27.763432 -26.613607 -112.88558
138871000 -26.292507 -117.21928 -0.091971196 -27.978724 -0.088985823 -27.963787 -26.517559 -113.07068
139870000 -26.1987 -117.49377 -0.09287025 -28.18104 -0.08998812 -28.160559 -26.438726 -113.25429
140869000 -26.112247 -117.92747 -0.09478797 -28.373922 -0.091411762 -28.355234 -26.333714 -113.38019
141868000 -26.012299 -118.44592 -0.094614416 -28.567274 -0.092127465 -28.552475 -26.261002 -113.69774
142867000 -25.933674 -118.70765 -0.092918381 -28.765875 -0.091077089 -28.747004 -26.177477 -113.88023
143866000 -25.868412 -119.18012 -0.094669446 -28.96069 -0.092452958 -28.944611 -26.111361 -114.38255
144865000 -25.811609 -119.73959 -0.095943771 -29.160933 -0.093815513 -29.1427 -26.052687 -114.7149
145864000 -25.751808 -120.00056 -0.095891379 -29.359015 -0.095435694 -29.344471 -26.020628 -114.94923
146863000 -25.705278 -120.38228 -0.097227216 -29.55986 -0.094699077 -29.547764 -25.968933 -115.27921
147862000 -25.663244 -120.73887 -0.0982849 -29.755884 -0.095691845 -29.742466 -25.93428 -115.58189
148861000 -25.63673 -121.22922 -0.098298669 -29.9519 -0.096632957 -29.939598 -25.912861 -115.8434
149860000 -25.621777 -121.46811 -0.099872842 -30.154398 -0.096322231 -30.141283 -25.878969 -115.99532
150859000 -25.602037 -121.78949 -0.0991842 -30.350584 -0.097117357 -30.332602 -25.870262 -116.22368
151858000 -25.586329 -122.10535 -0.099065557 -30.55426 -0.09672083 -30.534761 -25.861874 -116.48609
152857000 -25.563427 -122.41863 -0.099787548 -30.748627 -0.097409606 -30.736504 -25.841221 -116.64611
153856000 -25.564058 -122.64522 -0.099338606 -30.946522 -0.096455887 -30.933439 -25.863184 -116.92777
154855000 -25.557655 -122.79829 -0.10016793 -31.146524 -0.096965939 -31.132662 -25.848333 -117.16077
155854000 -25.570068 -123.05873 -0.10047681 -31.344179 -0.097520269 -31.32803 -25.840664 -117.43393
156853000 -25.55501 -123.73032 -0.098086841 -31.534639 -0.096011259 -31.521347 -25.837166 -117.72736
157852000 -25.564323 -124.00346 -0.099540159 -31.733988 -0.097943604 -31.721308 -25.825911 -118.03366
158851000 -25.557821 -124.24273 -0.099681601 -31.928324 -0.097996823 -31.922483 -25.807722 -118.32997
159850000 -25.541443 -124.3588 -0.10013243 -32.130844 -0.098181635 -32.123112 -25.815407 -118.48179
160849000 -25.524015 -124.47808 -0.10078306 -32.326637 -0.099568233 -32.320301 -25.782398 -118.75893
161848000 -25.506758 -124.58192 -0.10076558 -32.526581 -0.099209629 -32.519703 -25.744225 -118.88655
162847000 -25.464031 -124.80836 -0.10139246 -32.722298 -0.099791788 -32.718868 -25.711723 -119.15511
163846000 -25.427963 -125.03907 -0.10131536 -32.926071 -0.099825688 -32.917847 -25.63357 -119.16844
164845000 -25.363409 -125.03165 -0.10172635 -33.123436 -0.099558704 -33.11422 -25.571501 -119.29024
165844000 -25.305176 -125.12713 -0.10179047 -33.319431 -0.10013243 -33.313835 -25.486893 -119.40619
166843000 -25.250877 -125.20771 -0.10165851 -33.52203 -0.10023575 -33.514187 -25.419331 -119.57555
167842000 -25.189507 -125.35468 -0.10242572 -33.721798 -0.10059497 -33.712173 -25.341772 -119.52184
168841000 -25.114412 -125.53598 -0.10213657 -33.918121 -0.1011222 -33.91378 -25.261778 -119.60349
169840000 -25.048857 -125.8236 -0.10177696 -34.111694 -0.10112273 -34.111485 -25.178928 -119.81042
170839000 -24.986868 -126.08983 -0.10310745 -34.310112 -0.10110895 -34.308929 -25.091185 -119.98182
171838000 -24.927841 -126.5012 -0.10316233 -34.514523 -0.10273132 -34.502014 -25.026426 -120.20779
172837000 -24.854652 -126.88183 -0.1042021 -34.708477 -0.10368669 -34.700092 -24.956905 -120.43491
173836000 -24.790342 -127.26525 -0.10604632 -34.906975 -0.10496976 -34.902569 -24.917196 -120.61533
174835000 -24.734819 -127.69409 -0.10622431 -35.099899 -0.10479925 -35.102486 -24.870348 -120.98727
175834000 -24.685219 -128.08421 -0.10702735 -35.297081 -0.10607497 -35.294823 -24.806007 -121.26276
176833000 -24.632185 -128.46515 -0.10773342 -35.496231 -0.10632113 -35.491211 -24.756481 -121.44809
177832000 -24.58853 -128.9436 -0.10840643 -35.690765 -0.10686763 -35.692982 -24.733822 -121.60588
178831000 -24.547651 -129.27153 -0.10883189 -35.889179 -0.10750734 -35.885601 -24.694597 -121.85275
179830000 -24.511618 -129.72752 -0.10942649 -36.086864 -0.10745055 -36.08606 -24.664444 -121.9483
180829000 -24.472178 -129.92195 -0.10986613 -36.284294 -0.10838812 -36.282574 -24.639402 -122.11118
181828000 -24.444204 -130.24858 -0.10945516 -36.484058 -0.10899805 -36.482143 -24.617651 -122.24111
182827000 -24.418749 -130.61906 -0.10969488 -36.6777 -0.10905167 -36.675911 -24.602774 -122.32394
183826000 -24.379246 -130.91074 -0.11070197 -36.872425 -0.10876102 -36.870007 -24.594006 -122.43659
184825000 -24.382542 -131.24628 -0.11051981 -37.071178 -0.10937499 -37.070526 -24.575848 -122.52198
185824000 -24.355253 -131.58743 -0.11007959 -37.263119 -0.10962666 -37.267021 -24.573824 -122.57492
186823000 -24.342438 -131.92691 -0.10980639 -37.465717 -0.10979949 -37.465187 -24.571854 -122.54669
187822000 -24.322767 -132.23395 -0.11112262 -37.66148 -0.11023889 -37.657578 -24.534666 -122.60638
188821000 -24.30257 -132.46896 -0.11093486 -37.855759 -0.11057132 -37.859795 -24.521847 -122.71988
189820000 -24.291346 -132.74495 -0.11118609 -38.056274 -0.11036926 -38.054623 -24.511015 -122.86247
190819000 -24.26148 -133.00232 -0.11293204 -38.25362 -0.11171965 -38.253078 -24.482456 -122.86431
191818000 -24.227161 -133.19089 -0.1134714 -38.448742 -0.11321659 -38.448193 -24.446033 -122.73476
192817000 -24.152285 -133.47716 -0.11401801 -38.634514 -0.11359151 -38.636108 -24.379057 -122.84627
193816000 -24.122189 -133.834 -0.11320411 -38.829895 -0.11194914 -38.827499 -24.323051 -123.08817
194815000 -24.063471 -134.28123 -0.11272163 -39.020573 -0.11269984 -39.025379 -24.255964 -123.2179
195814000 -24.010965 -134.51804 -0.11338558 -39.221027 -0.11269879 -39.224346 -24.20826 -123.33988
196813000 -23.962984 -134.87981 -0.11304443 -39.416786 -0.11207611 -39.417076 -24.133711 -123.50043
197812000 -23.902781 -135.11211 -0.11347512 -39.614075 -0.11249688 -39.611511 -24.061201 -123.61558
198811000 -23.850029 -135.29306 -0.11299261 -39.80901 -0.11260633 -39.815742 -23.99486 -123.77855
199810000 -23.77936 -135.6571 -0.11364253 -40.004238 -0.11176161 -40.00222 -23.915113 -123.89089
200809000 -23.722046 -135.93697 -0.11449213 -40.200165 -0.11370072 -40.203377 -23.839415 -124.10447
201808000 -23.663776 -136.16209 -0.11463273 -40.402813 -0.11381631 -40.405731 -23.770905 -124.17449
202807000 -23.60671 -136.55962 -0.11522546 -40.604301 -0.11424311 -40.603405 -23.717493 -124.37974
