!Keysight Technologies,E5080B,MY59205177,A.15.75.32
!Date: Friday, February 23, 2024 03:27:03
!Correction: S11(Cdelta 2-Port  ) 
!S21(Cdelta 2-Port  ) 
!S12(Cdelta 2-Port  ) 
!S22(Cdelta 2-Port  ) 
!S2P File: Measurements: S11, S21, S12, S22:
# Hz S  dB   R 50
10000000 -45.965527 -1.2403903 -0.015670352 -2.056416 -0.019875616 -2.1099067 -46.189251 -159.20007
10999000 -45.203278 -2.9084902 -0.017458111 -2.2758307 -0.01983583 -2.3309104 -46.104912 -153.10025
11998000 -44.197964 -5.719326 -0.017698267 -2.502336 -0.019806184 -2.5445149 -46.311073 -148.66652
12997000 -43.475311 -11.474896 -0.017640827 -2.6827285 -0.019150406 -2.7136919 -46.024284 -142.65627
13996000 -43.230961 -14.955918 -0.016629362 -2.8640764 -0.01929757 -2.885478 -45.874683 -137.31433
14995000 -42.853928 -19.405571 -0.019322792 -3.0734637 -0.019664204 -3.0983162 -45.52005 -133.43103
15994000 -42.696438 -23.753826 -0.019365175 -3.2926869 -0.021686181 -3.3147056 -45.394871 -130.4579
16993000 -42.673855 -28.331545 -0.019004026 -3.492275 -0.020888098 -3.4987135 -44.603291 -129.83057
17992000 -42.721214 -33.342476 -0.019433299 -3.691112 -0.021702832 -3.6952498 -44.02158 -129.92354
18991000 -43.013828 -38.531158 -0.02066623 -3.9025977 -0.022631949 -3.898978 -43.355938 -128.42377
19990000 -42.836342 -44.274742 -0.023315061 -4.1135416 -0.024566798 -4.1080203 -42.704952 -129.13037
20989000 -42.669312 -47.680801 -0.025232768 -4.315928 -0.026398333 -4.3084183 -42.157864 -128.57275
21988000 -42.546768 -52.958069 -0.025789991 -4.5144582 -0.02700259 -4.5027514 -41.920647 -127.80391
22987000 -42.250957 -58.153885 -0.027575672 -4.7131619 -0.028493801 -4.7057457 -41.646694 -127.31705
23986000 -42.217556 -62.092041 -0.026526209 -4.9072447 -0.027745005 -4.9114804 -41.518005 -127.31998
24985000 -41.822308 -64.842514 -0.027889075 -5.1246662 -0.027912522 -5.1181602 -41.344509 -124.57407
25984000 -41.469746 -66.948906 -0.029332897 -5.3278461 -0.028783817 -5.3301926 -41.003586 -122.96405
26983000 -41.219624 -68.938889 -0.029371727 -5.5276599 -0.029853374 -5.5442142 -40.928589 -122.35534
27982000 -41.015289 -69.649376 -0.031511392 -5.7244215 -0.031011313 -5.7598667 -40.622093 -120.88315
28981000 -41.004547 -71.521996 -0.02959821 -5.9260492 -0.031400319 -5.9476414 -40.40205 -119.97499
29980000 -40.586143 -72.617134 -0.029822879 -6.1215215 -0.031563543 -6.128551 -40.138866 -119.19885
30979000 -40.216354 -71.645653 -0.02694216 -6.4721136 -0.026611635 -6.4708972 -39.603958 -119.45589
31978000 -39.983971 -72.829704 -0.026431147 -6.6734109 -0.027045829 -6.6583958 -39.381699 -118.77292
32977000 -39.815479 -74.396286 -0.026609812 -6.8810301 -0.027927632 -6.8819289 -39.116154 -118.83647
33976000 -39.622356 -75.381584 -0.027118502 -7.0833364 -0.02795551 -7.0812874 -38.852551 -118.20792
34975000 -39.327545 -76.290916 -0.026847349 -7.284729 -0.029447829 -7.2882919 -38.603863 -117.64795
35974000 -39.129372 -76.909554 -0.026352756 -7.4824152 -0.02897561 -7.4839282 -38.309669 -116.96437
36973000 -38.90453 -77.506142 -0.026981231 -7.680635 -0.030090045 -7.6857252 -38.06353 -115.95876
37972000 -38.733135 -77.230865 -0.027019 -7.8903823 -0.030043649 -7.9031496 -37.827007 -114.96422
38971000 -38.388172 -76.81189 -0.028199634 -8.0958624 -0.030473493 -8.1070747 -37.651867 -113.39476
39970000 -38.049618 -77.264374 -0.02662544 -8.2907515 -0.029329509 -8.3042269 -37.385044 -112.76749
40969000 -37.781002 -76.899727 -0.026754105 -8.4870882 -0.029240118 -8.5049658 -37.134922 -111.31917
41968000 -37.404549 -76.777756 -0.026819741 -8.6919565 -0.030345239 -8.7051802 -36.954784 -109.97147
42967000 -37.153442 -77.01992 -0.026041808 -8.9053116 -0.030007418 -8.9268007 -36.759609 -108.17834
43966000 -36.84626 -77.722435 -0.027592344 -9.102746 -0.031142455 -9.1231794 -36.460125 -107.24806
44965000 -36.602886 -78.414406 -0.028796585 -9.3044157 -0.030926842 -9.3280754 -36.236309 -107.11151
45964000 -36.364334 -79.533112 -0.029766059 -9.5098629 -0.032592576 -9.5307512 -36.019073 -106.76155
46963000 -36.171619 -81.538002 -0.029916972 -9.7010517 -0.033286646 -9.7262907 -35.8293 -106.89949
47962000 -36.02063 -82.990059 -0.031402405 -9.9067898 -0.03468373 -9.9250479 -35.622677 -107.02878
48961000 -35.801853 -84.321968 -0.033559244 -10.103944 -0.0358641 -10.1267 -35.379971 -107.13134
49960000 -35.559696 -85.780785 -0.034950413 -10.301433 -0.037263319 -10.32746 -35.252041 -107.21094
50959000 -35.336395 -87.16423 -0.03577327 -10.517573 -0.038162608 -10.528862 -35.056126 -107.49358
51958000 -35.145439 -88.144508 -0.037397522 -10.719762 -0.039460428 -10.730973 -34.898041 -107.87781
52957000 -34.913261 -89.29464 -0.039365344 -10.918768 -0.040517721 -10.92582 -34.733093 -107.67992
53956000 -34.756275 -89.929176 -0.040466249 -11.122293 -0.041230831 -11.124211 -34.598297 -107.49928
54955000 -34.599079 -90.381485 -0.041933078 -11.323433 -0.042727981 -11.318701 -34.441067 -107.45507
55954000 -34.427364 -91.226929 -0.041925237 -11.52412 -0.043195948 -11.523361 -34.331348 -107.18204
56953000 -34.300694 -91.144272 -0.042479377 -11.720471 -0.041518565 -11.714538 -34.267391 -107.38147
57952000 -34.129612 -91.811378 -0.043509696 -11.922418 -0.042705499 -11.911861 -34.165791 -107.43427
58951000 -34.009624 -92.115913 -0.044456568 -12.123961 -0.044193484 -12.103664 -34.020596 -107.44463
59950000 -33.88731 -92.480507 -0.044469118 -12.32422 -0.045232575 -12.304273 -33.951591 -107.79772
60949000 -33.769733 -93.092911 -0.045062296 -12.528363 -0.045256115 -12.50753 -33.85527 -107.95671
61948000 -33.716866 -93.412888 -0.046347268 -12.72748 -0.045567919 -12.710526 -33.766323 -108.14229
62947000 -33.629631 -93.5728 -0.045853846 -12.938174 -0.046592951 -12.918533 -33.627617 -108.34179
63946000 -33.551205 -94.292465 -0.047375623 -13.139389 -0.046560246 -13.122319 -33.525204 -108.452
64945000 -33.439796 -94.51783 -0.047851939 -13.345634 -0.047567714 -13.325759 -33.414326 -108.98125
65944000 -33.342091 -94.781311 -0.048746355 -13.544445 -0.048258685 -13.528182 -33.315361 -109.40632
66943000 -33.198006 -95.234589 -0.046789717 -13.746015 -0.046823211 -13.730922 -33.217903 -109.70355
67942000 -33.139977 -95.084534 -0.04930608 -13.941885 -0.048872799 -13.932186 -33.095757 -109.98648
68941000 -33.028053 -95.155518 -0.048495837 -14.133338 -0.047854297 -14.12508 -32.982773 -109.98965
69940000 -32.920177 -95.178253 -0.048800807 -14.336164 -0.048707873 -14.327097 -32.838177 -110.27048
70939000 -32.810856 -95.096024 -0.048556305 -14.530128 -0.048267059 -14.526433 -32.695072 -110.15227
71938000 -32.66684 -94.673141 -0.048190106 -14.726912 -0.048578557 -14.725432 -32.563797 -109.98254
72937000 -32.505234 -94.53904 -0.048137758 -14.928245 -0.048040912 -14.921009 -32.414188 -109.70039
73936000 -32.366734 -94.200233 -0.048441913 -15.128596 -0.047636807 -15.121276 -32.308205 -109.42568
74935000 -32.226261 -94.387184 -0.047651984 -15.321564 -0.046998531 -15.318883 -32.139339 -109.14445
75934000 -32.109287 -94.597809 -0.048402388 -15.53371 -0.046864815 -15.528101 -32.05986 -109.04707
76933000 -31.975893 -94.894386 -0.049226489 -15.73122 -0.048865467 -15.719772 -31.879032 -109.41821
77932000 -31.87451 -95.743958 -0.050319426 -15.924932 -0.05028512 -15.91849 -31.768362 -109.37178
78931000 -31.794991 -96.518791 -0.048904475 -16.12747 -0.048899237 -16.122597 -31.66955 -109.2128
79930000 -31.686184 -97.367027 -0.051732738 -16.319818 -0.051709685 -16.318602 -31.573336 -109.48675
80929000 -31.565233 -98.190956 -0.053641286 -16.519827 -0.05361639 -16.515165 -31.472933 -109.69638
81928000 -31.46314 -98.942513 -0.053718861 -16.707441 -0.054212652 -16.705534 -31.342287 -109.69823
82927000 -31.357674 -99.661148 -0.055058569 -16.908127 -0.055253357 -16.906134 -31.228193 -110.03048
83926000 -31.246534 -100.38824 -0.056978546 -17.107445 -0.056340992 -17.107096 -31.117199 -110.17631
84925000 -31.136372 -100.75144 -0.057577103 -17.307367 -0.05639318 -17.304626 -31.019579 -110.28024
85924000 -31.044147 -101.19756 -0.05873144 -17.505775 -0.058245007 -17.504465 -30.927141 -110.21872
86923000 -30.934155 -101.75918 -0.059193525 -17.705156 -0.058529411 -17.701782 -30.81872 -110.01867
87922000 -30.827734 -102.05917 -0.058635935 -17.91284 -0.058078416 -17.90538 -30.731073 -110.10814
88921000 -30.75536 -102.32738 -0.059489012 -18.109816 -0.059167285 -18.105463 -30.644075 -110.05635
89920000 -30.652849 -102.82387 -0.060322829 -18.309069 -0.059613667 -18.304724 -30.580988 -110.16537
90919000 -30.553427 -103.09969 -0.061264448 -18.508272 -0.060623642 -18.506622 -30.498653 -110.36989
91918000 -30.453365 -103.49952 -0.062199183 -18.705881 -0.061066501 -18.70307 -30.422436 -110.36412
92917000 -30.354574 -103.77198 -0.063272007 -18.911167 -0.06267897 -18.905441 -30.355574 -110.43203
93916000 -30.276966 -104.1719 -0.063529946 -19.100067 -0.062497761 -19.097073 -30.269711 -111.08089
94915000 -30.189693 -104.79878 -0.064767323 -19.303381 -0.063210808 -19.300196 -30.213449 -110.94878
95914000 -30.122919 -105.01622 -0.065529883 -19.498598 -0.064743407 -19.497019 -30.121181 -111.18618
96913000 -30.046076 -105.24453 -0.067310952 -19.697815 -0.065863386 -19.697542 -30.052984 -111.57368
97912000 -29.965599 -105.66621 -0.068209119 -19.896339 -0.065746434 -19.899071 -29.970911 -111.74691
98911000 -29.85568 -105.83701 -0.068765044 -20.098858 -0.067262053 -20.096998 -29.931913 -111.97886
99910000 -29.79376 -105.94643 -0.069241084 -20.297932 -0.06743373 -20.296682 -29.827993 -112.26971
100909000 -29.695475 -106.19265 -0.06809815 -20.506401 -0.066840641 -20.501717 -29.744514 -112.46967
101908000 -29.607906 -106.49346 -0.070046268 -20.703848 -0.068304308 -20.707716 -29.623165 -112.27292
102907000 -29.472141 -106.46275 -0.070251986 -20.909538 -0.067892008 -20.905146 -29.551254 -112.26686
103906000 -29.37554 -106.51477 -0.070036009 -21.114725 -0.067852035 -21.110144 -29.404282 -112.20976
104905000 -29.228289 -106.40298 -0.071354963 -21.311535 -0.069019102 -21.313232 -29.278526 -111.85165
105904000 -29.081936 -106.4805 -0.071638383 -21.514383 -0.069409952 -21.509953 -29.155174 -111.74434
106903000 -28.968832 -106.60453 -0.071870506 -21.720039 -0.069348924 -21.713272 -29.034412 -111.60186
107902000 -28.798973 -106.8908 -0.072967045 -21.921434 -0.069976024 -21.915905 -28.891397 -111.57925
108901000 -28.690994 -107.1592 -0.073303483 -22.124222 -0.071356282 -22.115709 -28.764153 -111.55069
109900000 -28.556139 -107.64763 -0.074338771 -22.326117 -0.07308761 -22.318014 -28.610132 -111.63376
110899000 -28.44417 -108.26633 -0.076027304 -22.520969 -0.072807521 -22.512445 -28.485487 -111.90148
111898000 -28.348682 -108.93105 -0.077939704 -22.725855 -0.074717715 -22.720081 -28.367964 -112.05959
112897000 -28.222105 -109.48822 -0.078671373 -22.924704 -0.075435147 -22.912424 -28.230232 -112.20428
113896000 -28.114281 -110.04312 -0.079770423 -23.125273 -0.077338599 -23.112164 -28.121294 -112.34995
114895000 -28.014372 -110.67107 -0.080468126 -23.323101 -0.077993736 -23.309805 -28.007292 -112.39388
115894000 -27.893867 -111.04937 -0.0816916 -23.524437 -0.079335675 -23.514963 -27.940651 -112.63528
116893000 -27.821774 -111.54792 -0.08257059 -23.722265 -0.080579668 -23.706594 -27.818398 -112.66107
117892000 -27.727856 -112.06102 -0.08283627 -23.920542 -0.081086278 -23.908819 -27.734024 -112.89212
118891000 -27.673788 -112.47819 -0.083732381 -24.123075 -0.081447087 -24.106455 -27.638704 -113.01339
119890000 -27.585163 -112.82658 -0.084056728 -24.320417 -0.08202529 -24.307854 -27.626722 -113.11256
120889000 -27.533058 -113.3245 -0.085577428 -24.525537 -0.082281709 -24.507744 -27.542747 -113.08492
121888000 -27.496756 -113.66821 -0.085697025 -24.716831 -0.082374834 -24.709963 -27.488749 -113.33486
122887000 -27.455288 -113.85984 -0.086011484 -24.92539 -0.083579853 -24.909422 -27.444334 -113.31829
123886000 -27.397497 -114.29194 -0.086987473 -25.123472 -0.083137594 -25.11133 -27.426893 -113.52723
124885000 -27.366598 -114.78304 -0.087395519 -25.326021 -0.084160976 -25.310898 -27.395935 -113.51344
125884000 -27.314861 -114.95553 -0.088433117 -25.52545 -0.084085494 -25.507744 -27.367235 -113.71081
126883000 -27.292627 -115.38356 -0.088908412 -25.727041 -0.085439086 -25.716835 -27.322952 -113.72324
127882000 -27.239391 -115.65132 -0.089201696 -25.928587 -0.086531669 -25.909746 -27.28516 -113.85017
128881000 -27.213806 -115.98327 -0.08950346 -26.127529 -0.086308002 -26.11488 -27.245756 -113.93494
129880000 -27.156427 -116.32467 -0.090348087 -26.332638 -0.086521633 -26.31249 -27.203196 -113.88375
130879000 -27.095951 -116.46323 -0.090044416 -26.531092 -0.087247089 -26.513033 -27.130157 -113.89416
131878000 -27.030306 -116.66619 -0.090188451 -26.734217 -0.087574072 -26.714453 -27.061798 -113.78678
132877000 -26.960596 -116.74878 -0.090022482 -26.936071 -0.087431975 -26.91819 -26.980301 -113.78075
133876000 -26.87365 -116.94325 -0.090862714 -27.138838 -0.087599695 -27.117939 -26.890211 -113.67318
134875000 -26.774632 -117.11653 -0.090067938 -27.337675 -0.088275932 -27.318254 -26.788765 -113.5096
135874000 -26.687605 -117.12502 -0.090908706 -27.541199 -0.087502494 -27.523788 -26.690987 -113.49359
136873000 -26.580389 -117.05529 -0.091326639 -27.743151 -0.088205658 -27.725519 -26.605663 -113.44268
137872000 -26.491791 -117.15028 -0.091219306 -27.944948 -0.088581063 -27.926033 -26.505581 -113.36461
138871000 -26.413921 -117.38037 -0.092065588 -28.144268 -0.089015156 -28.129467 -26.402988 -113.50806
139870000 -26.315323 -117.69947 -0.092243008 -28.342216 -0.089588024 -28.329327 -26.317881 -113.69416
140869000 -26.235218 -118.2618 -0.093630359 -28.539063 -0.090074807 -28.522747 -26.215694 -113.95638
141868000 -26.152176 -118.64649 -0.094836392 -28.740128 -0.091705747 -28.723856 -26.161869 -114.15598
142867000 -26.068142 -118.83634 -0.093152434 -28.938549 -0.091048278 -28.91897 -26.086119 -114.28787
143866000 -26.000517 -119.33062 -0.095501848 -29.136116 -0.092562966 -29.117968 -26.008419 -114.74341
144865000 -25.940741 -119.87115 -0.096675836 -29.33387 -0.094288491 -29.31703 -25.957483 -115.01648
145864000 -25.884544 -120.17767 -0.097553626 -29.536348 -0.095365308 -29.521168 -25.922203 -115.27341
146863000 -25.838299 -120.55991 -0.098192491 -29.735065 -0.095873378 -29.720745 -25.869936 -115.58533
147862000 -25.8048 -120.92088 -0.099756293 -29.932611 -0.09646409 -29.92045 -25.83996 -115.87464
148861000 -25.767921 -121.33461 -0.099781983 -30.134676 -0.098025948 -30.118965 -25.819574 -116.04068
149860000 -25.739244 -121.47367 -0.10177934 -30.327156 -0.098864287 -30.313187 -25.766722 -116.13529
150859000 -25.717102 -121.92014 -0.10132251 -30.5215 -0.098248892 -30.505404 -25.749195 -116.47049
151858000 -25.707066 -122.29337 -0.10076134 -30.724541 -0.098133713 -30.710371 -25.737856 -116.80962
152857000 -25.69525 -122.61299 -0.10116963 -30.921854 -0.098199107 -30.909441 -25.723701 -116.96705
153856000 -25.690563 -122.85183 -0.10039733 -31.119087 -0.097595453 -31.108637 -25.745262 -117.27909
154855000 -25.689337 -123.03081 -0.10152972 -31.323187 -0.097688645 -31.306255 -25.73596 -117.49947
155854000 -25.707581 -123.25111 -0.10167599 -31.523447 -0.098101936 -31.50725 -25.729403 -117.78728
156853000 -25.699902 -123.93076 -0.099886611 -31.710287 -0.097543299 -31.701824 -25.720598 -118.07813
157852000 -25.708883 -124.15736 -0.10105278 -31.909698 -0.099485338 -31.90214 -25.719904 -118.43646
158851000 -25.706827 -124.39866 -0.10188614 -32.111973 -0.099944361 -32.100624 -25.703114 -118.69909
159850000 -25.696695 -124.48997 -0.10192563 -32.310402 -0.10007469 -32.305111 -25.703787 -118.85595
160849000 -25.680447 -124.59462 -0.10211935 -32.507774 -0.10081645 -32.505394 -25.678284 -119.15871
161848000 -25.667627 -124.66364 -0.10221237 -32.710613 -0.1008803 -32.705566 -25.637325 -119.30413
162847000 -25.627268 -124.84612 -0.10303429 -32.912155 -0.10159756 -32.904644 -25.609949 -119.51501
163846000 -25.581163 -125.03943 -0.10289937 -33.112316 -0.10130078 -33.101543 -25.537691 -119.53181
164845000 -25.523491 -125.01954 -0.10343219 -33.308624 -0.1019781 -33.302174 -25.470421 -119.63526
165844000 -25.473753 -125.0554 -0.10353769 -33.512016 -0.10296033 -33.505562 -25.392992 -119.7849
166843000 -25.4133 -125.15578 -0.10329168 -33.70821 -0.10197385 -33.706074 -25.322678 -119.96481
167842000 -25.351601 -125.22997 -0.10435165 -33.909927 -0.10280554 -33.900356 -25.248297 -119.89031
168841000 -25.279339 -125.39539 -0.10411699 -34.1092 -0.10216467 -34.104355 -25.17025 -119.98397
169840000 -25.209993 -125.64891 -0.10423922 -34.304745 -0.10338023 -34.301693 -25.085445 -120.15195
170839000 -25.146332 -125.90969 -0.10566436 -34.501045 -0.10409392 -34.498371 -25.003548 -120.34068
171838000 -25.090391 -126.29274 -0.10514931 -34.7048 -0.10453991 -34.698261 -24.943638 -120.57985
172837000 -25.017483 -126.63742 -0.10678273 -34.900707 -0.1066469 -34.898151 -24.871496 -120.79569
173836000 -24.955189 -127.02982 -0.1087098 -35.104233 -0.10689098 -35.100403 -24.827942 -121.0015
174835000 -24.896496 -127.45966 -0.10893089 -35.30051 -0.10753361 -35.298424 -24.783131 -121.32367
175834000 -24.842516 -127.80901 -0.10996914 -35.496101 -0.10877138 -35.495003 -24.722757 -121.58357
176833000 -24.79352 -128.14275 -0.11108862 -35.697952 -0.10960224 -35.696259 -24.673107 -121.7395
177832000 -24.747389 -128.582 -0.11091892 -35.892796 -0.11034563 -35.898026 -24.655169 -121.86848
178831000 -24.709507 -128.87057 -0.11318684 -36.093563 -0.11183811 -36.091892 -24.612152 -121.99725
179830000 -24.643095 -129.19443 -0.11513615 -36.278084 -0.11306541 -36.284451 -24.556917 -121.98684
180829000 -24.583044 -129.56012 -0.1144597 -36.472065 -0.1125107 -36.472912 -24.501991 -122.28381
181828000 -24.553219 -129.98955 -0.11387105 -36.67168 -0.11149044 -36.66832 -24.478292 -122.47523
182827000 -24.532036 -130.41777 -0.11283295 -36.867901 -0.11190133 -36.868126 -24.468088 -122.63117
183826000 -24.497145 -130.69855 -0.11415354 -37.068531 -0.11248785 -37.064819 -24.462191 -122.77507
184825000 -24.497129 -131.04193 -0.11391995 -37.264107 -0.11231013 -37.262745 -24.440134 -122.90447
185824000 -24.465029 -131.40561 -0.11378708 -37.4599 -0.11299448 -37.457676 -24.434856 -122.98997
186823000 -24.447035 -131.78375 -0.11395396 -37.662598 -0.11330932 -37.658958 -24.426586 -122.99111
187822000 -24.425051 -132.11803 -0.1147409 -37.856819 -0.11358672 -37.853291 -24.389404 -123.0824
188821000 -24.401443 -132.3786 -0.11417773 -38.051575 -0.11372437 -38.056126 -24.366354 -123.21409
189820000 -24.379606 -132.65553 -0.11462315 -38.254032 -0.11395981 -38.253334 -24.350105 -123.40958
190819000 -24.345943 -132.97491 -0.11524034 -38.449818 -0.11412138 -38.448402 -24.306725 -123.43607
191818000 -24.312244 -133.27248 -0.11601794 -38.649891 -0.11444827 -38.650677 -24.279139 -123.49354
192817000 -24.266209 -133.53535 -0.11628462 -38.846672 -0.11535465 -38.843132 -24.233007 -123.58054
193816000 -24.232698 -133.80496 -0.11652711 -39.041103 -0.11493679 -39.042988 -24.181818 -123.72501
194815000 -24.16736 -134.20439 -0.11652445 -39.236729 -0.11567153 -39.241425 -24.113903 -123.81494
195814000 -24.114464 -134.40465 -0.11740334 -39.434624 -0.1161219 -39.434948 -24.054914 -123.91756
196813000 -24.060724 -134.72943 -0.11707357 -39.628323 -0.11657337 -39.630894 -23.97958 -124.06166
197812000 -24.001276 -134.95619 -0.11737807 -39.831459 -0.11659145 -39.824505 -23.907505 -124.14865
198811000 -23.949221 -135.07893 -0.11754057 -40.02417 -0.1162777 -40.025673 -23.834421 -124.31409
199810000 -23.874178 -135.44788 -0.11785893 -40.220264 -0.11671484 -40.21748 -23.755844 -124.43475
200809000 -23.813717 -135.72644 -0.11843722 -40.41951 -0.11713127 -40.414661 -23.677727 -124.60896
201808000 -23.754715 -135.90573 -0.11959082 -40.618832 -0.11777515 -40.620243 -23.606638 -124.72475
202807000 -23.697197 -136.27034 -0.11982072 -40.819973 -0.11878891 -40.82394 -23.555374 -124.90949
