!Keysight Technologies,E5080B,MY59205177,A.15.75.32
!Date: Friday, February 23, 2024 02:47:46
!Correction: S11(Cdelta 2-Port  ) 
!S21(Cdelta 2-Port  ) 
!S12(Cdelta 2-Port  ) 
!S22(Cdelta 2-Port  ) 
!S2P File: Measurements: S11, S21, S12, S22:
# Hz S  dB   R 50
10000000 -40.656773 -3.556231 -0.05536557 -2.0524545 -0.058407672 -2.1053491 -54.560982 -101.03527
10999000 -40.228741 -4.5992951 -0.056719422 -2.2688665 -0.058188342 -2.3211913 -52.677769 -92.593735
11998000 -39.645645 -6.4336905 -0.057337355 -2.4965334 -0.057589959 -2.5380321 -51.886517 -85.8321
12997000 -39.233456 -9.990551 -0.056382164 -2.6732435 -0.057535134 -2.705575 -50.168762 -83.943161
13996000 -39.082333 -12.304479 -0.055169202 -2.8532944 -0.057538543 -2.8707504 -48.94825 -80.797653
14995000 -38.859234 -15.243382 -0.057866447 -3.0639474 -0.057440966 -3.0888069 -48.157219 -79.968651
15994000 -38.811279 -17.98698 -0.0581907 -3.2809334 -0.060235951 -3.3041344 -47.564323 -77.403412
16993000 -38.842476 -20.847288 -0.058388781 -3.4783607 -0.058850039 -3.492661 -46.973061 -82.874084
17992000 -38.92112 -24.399252 -0.058559056 -3.6794217 -0.059739638 -3.6824586 -46.433331 -85.703156
18991000 -39.21851 -27.34432 -0.059219502 -3.8872664 -0.060749643 -3.8882141 -45.700947 -88.720314
19990000 -39.202145 -31.074469 -0.061474223 -4.0967245 -0.062615678 -4.0962586 -45.193886 -92.942886
20989000 -39.185707 -33.705978 -0.062840745 -4.3021345 -0.065005638 -4.2901182 -44.531105 -95.009354
21988000 -39.22958 -37.277527 -0.06483984 -4.501864 -0.065445267 -4.4885826 -44.153908 -95.196648
22987000 -39.16761 -40.938747 -0.066238701 -4.6970086 -0.067110889 -4.6945477 -43.872719 -95.56353
23986000 -39.273159 -43.730389 -0.065723047 -4.8938866 -0.065515958 -4.8933067 -43.764889 -95.927628
24985000 -39.089615 -46.336098 -0.066760994 -5.1023979 -0.06580504 -5.099606 -43.305317 -94.220161
25984000 -38.962215 -48.262157 -0.068234891 -5.3083129 -0.066356979 -5.3113165 -42.87793 -93.92556
26983000 -38.772308 -50.236408 -0.068118922 -5.5033603 -0.067149006 -5.5258884 -42.652283 -93.269119
27982000 -38.71294 -51.399982 -0.069878958 -5.7062383 -0.06905093 -5.7407832 -42.256771 -92.674232
28981000 -38.726818 -52.475468 -0.068262763 -5.9062495 -0.069506742 -5.9333797 -41.923645 -92.900444
29980000 -38.442478 -54.600727 -0.068336129 -6.0966387 -0.069911048 -6.1052861 -41.567574 -92.626686
30979000 -38.114475 -54.405067 -0.065570354 -6.4548564 -0.063594304 -6.4407673 -41.074921 -94.764946
31978000 -37.993683 -55.381096 -0.064841941 -6.65063 -0.065307826 -6.6419349 -40.755032 -94.705124
32977000 -37.882343 -57.089081 -0.065209553 -6.8588986 -0.06591358 -6.8571782 -40.501957 -95.50692
33976000 -37.77063 -58.35564 -0.065830268 -7.0611148 -0.06631624 -7.0569057 -40.139339 -95.594818
34975000 -37.552612 -59.687069 -0.06551832 -7.2598715 -0.067132704 -7.2603273 -39.886253 -95.837585
35974000 -37.383274 -60.407616 -0.064995654 -7.458096 -0.06700179 -7.4606166 -39.514748 -95.457947
36973000 -37.218414 -61.381935 -0.065756157 -7.6587844 -0.067777894 -7.6594663 -39.16666 -95.144905
37972000 -37.047779 -61.592098 -0.065080792 -7.8652735 -0.067468166 -7.8757811 -38.89291 -94.909973
38971000 -36.754955 -61.850327 -0.065607674 -8.0688581 -0.068571225 -8.0825129 -38.592216 -93.565796
39970000 -36.475105 -62.603901 -0.064907365 -8.2632122 -0.06736853 -8.280323 -38.30555 -93.468132
40969000 -36.216984 -62.905483 -0.065407947 -8.4570665 -0.067030177 -8.4807596 -37.958733 -92.621773
41968000 -35.901886 -63.434193 -0.065447368 -8.6607046 -0.066912673 -8.6777287 -37.732414 -91.791054
42967000 -35.684277 -63.932068 -0.065215856 -8.8747749 -0.067258634 -8.8972101 -37.4259 -90.076141
43966000 -35.44231 -64.934738 -0.066293374 -9.0762243 -0.06870877 -9.0922451 -37.116787 -89.974831
44965000 -35.252316 -66.007965 -0.06711562 -9.2786741 -0.068693779 -9.2965021 -36.898869 -90.039368
45964000 -35.101185 -67.228951 -0.068640918 -9.4813547 -0.070081517 -9.4950981 -36.637852 -90.140434
46963000 -34.951221 -69.385674 -0.068235412 -9.6722431 -0.070981309 -9.691452 -36.462437 -90.875877
47962000 -34.857971 -70.740837 -0.070243575 -9.877759 -0.072161853 -9.8963795 -36.270638 -91.392174
48961000 -34.712399 -72.37558 -0.07204473 -10.070381 -0.073592298 -10.0946 -36.042789 -91.953087
49960000 -34.532696 -73.875694 -0.073778711 -10.27193 -0.075222857 -10.293348 -35.9062 -92.260681
50959000 -34.384304 -75.319534 -0.073907726 -10.486261 -0.075700924 -10.495315 -35.747475 -92.958008
51958000 -34.221214 -76.594101 -0.075894795 -10.683677 -0.077272721 -10.692883 -35.59034 -93.753998
52957000 -34.062153 -77.852341 -0.077825062 -10.885552 -0.079451673 -10.888484 -35.427464 -93.74791
53956000 -33.926067 -78.717613 -0.079160891 -11.086923 -0.07970161 -11.087129 -35.281109 -93.918098
54955000 -33.777267 -79.395134 -0.079301931 -11.288109 -0.080864742 -11.289024 -35.132027 -94.125107
55954000 -33.654625 -80.440956 -0.080813058 -11.489887 -0.080504514 -11.481687 -34.996407 -93.991203
56953000 -33.53299 -80.540985 -0.080526926 -11.689638 -0.080053076 -11.676339 -34.93705 -94.392159
57952000 -33.412201 -81.338432 -0.081505641 -11.88475 -0.081836946 -11.876912 -34.847874 -94.646111
58951000 -33.297905 -81.759109 -0.082678497 -12.087803 -0.081864111 -12.070832 -34.687874 -94.851746
59950000 -33.181198 -82.285881 -0.083103821 -12.290864 -0.082942605 -12.267677 -34.621048 -95.348648
60949000 -33.095135 -82.965012 -0.083518624 -12.491989 -0.08406385 -12.469862 -34.547443 -95.695335
61948000 -33.039688 -83.294319 -0.084675394 -12.688825 -0.083935589 -12.672241 -34.447697 -95.97155
62947000 -32.947823 -83.582001 -0.084009483 -12.901401 -0.084165722 -12.884473 -34.317978 -96.303925
63946000 -32.883381 -84.341827 -0.085469186 -13.101299 -0.084950708 -13.082232 -34.222195 -96.621681
64945000 -32.786236 -84.599777 -0.086099669 -13.30227 -0.085748509 -13.281786 -34.115551 -97.21965
65944000 -32.687569 -84.975754 -0.087095492 -13.501577 -0.086393036 -13.484316 -34.030457 -97.813896
66943000 -32.572227 -85.473755 -0.085097745 -13.703089 -0.085362524 -13.687343 -33.935108 -98.189171
67942000 -32.497688 -85.560699 -0.086848035 -13.90121 -0.086297445 -13.888092 -33.818016 -98.628311
68941000 -32.391094 -85.743698 -0.086403064 -14.094069 -0.085529901 -14.086309 -33.698898 -98.661842
69940000 -32.279552 -85.81945 -0.086829551 -14.29053 -0.086198159 -14.284494 -33.55909 -99.110794
70939000 -32.179363 -85.842079 -0.087382056 -14.483711 -0.086516611 -14.480879 -33.42017 -99.106857
71938000 -32.027771 -85.652107 -0.086785443 -14.685622 -0.086561769 -14.678917 -33.281418 -99.056961
72937000 -31.874763 -85.592949 -0.085806064 -14.884133 -0.086282395 -14.877201 -33.125801 -98.859047
73936000 -31.732376 -85.430099 -0.086020194 -15.081368 -0.08556211 -15.07815 -33.006134 -98.789238
74935000 -31.611612 -85.809212 -0.085288607 -15.276859 -0.084306136 -15.275954 -32.837925 -98.589447
75934000 -31.489183 -86.179031 -0.085699931 -15.487861 -0.084136695 -15.484478 -32.746094 -98.554092
76933000 -31.370213 -86.58754 -0.087118201 -15.682933 -0.086681925 -15.676952 -32.574036 -99.123268
77932000 -31.284487 -87.426865 -0.088528492 -15.8779 -0.087998554 -15.873487 -32.477871 -99.215515
78931000 -31.234213 -88.255714 -0.086786762 -16.080626 -0.087361448 -16.073732 -32.377964 -99.14698
79930000 -31.136608 -89.096878 -0.089369752 -16.269588 -0.090096742 -16.271605 -32.291813 -99.588615
80929000 -31.016838 -90.14286 -0.091213755 -16.464594 -0.090978488 -16.462965 -32.194065 -100.05225
81928000 -30.95138 -91.049149 -0.091541044 -16.658365 -0.091748051 -16.654243 -32.065662 -100.24741
82927000 -30.878073 -91.775208 -0.093802817 -16.860842 -0.093396284 -16.856283 -31.971685 -100.7225
83926000 -30.774832 -92.567017 -0.095034562 -17.056208 -0.094529226 -17.057774 -31.850225 -101.06578
84925000 -30.685596 -93.161674 -0.095778376 -17.255856 -0.094974764 -17.253069 -31.760019 -101.24454
85924000 -30.598867 -93.654694 -0.096283324 -17.456083 -0.096324876 -17.450678 -31.6682 -101.19973
86923000 -30.500671 -94.342583 -0.096585579 -17.654572 -0.096476533 -17.647284 -31.570696 -101.24089
87922000 -30.408669 -94.749115 -0.097195186 -17.859642 -0.095761701 -17.8515 -31.47422 -101.41602
88921000 -30.335068 -95.112938 -0.098122321 -18.056839 -0.0971568 -18.055046 -31.378773 -101.52012
89920000 -30.248837 -95.758957 -0.098670706 -18.258492 -0.097881652 -18.247004 -31.335928 -101.77357
90919000 -30.156612 -96.138893 -0.10007283 -18.451359 -0.099232137 -18.44569 -31.246748 -102.01111
91918000 -30.057224 -96.624016 -0.10082122 -18.649307 -0.099187911 -18.650156 -31.167803 -102.0982
92917000 -29.98255 -96.984459 -0.10181432 -18.852987 -0.10057059 -18.847202 -31.11064 -102.27747
93916000 -29.906948 -97.425606 -0.10139114 -19.046766 -0.10032872 -19.040428 -31.024149 -102.93279
94915000 -29.836578 -98.116142 -0.1032726 -19.244535 -0.10114154 -19.238346 -30.968967 -102.89443
95914000 -29.770405 -98.338272 -0.10405017 -19.439373 -0.10247555 -19.438423 -30.87145 -103.2135
96913000 -29.685804 -98.584908 -0.10438824 -19.642794 -0.10301017 -19.639532 -30.810984 -103.53386
97912000 -29.620047 -99.084702 -0.10545801 -19.835972 -0.10327233 -19.838516 -30.730034 -103.86105
98911000 -29.518333 -99.357414 -0.10608955 -20.038408 -0.10460514 -20.038147 -30.697443 -104.05666
99910000 -29.450163 -99.570953 -0.10652805 -20.239424 -0.10517476 -20.234989 -30.583565 -104.44711
100909000 -29.3666 -99.903015 -0.10678353 -20.445185 -0.10449961 -20.440937 -30.506138 -104.73167
101908000 -29.274265 -100.19429 -0.1075628 -20.649416 -0.1060174 -20.642237 -30.375328 -104.50504
102907000 -29.144409 -100.29422 -0.10822967 -20.84519 -0.10564977 -20.844128 -30.29929 -104.54462
103906000 -29.049667 -100.39205 -0.10856514 -21.053143 -0.10526679 -21.04759 -30.146563 -104.62891
104905000 -28.892456 -100.43783 -0.10920139 -21.251312 -0.10626145 -21.248886 -29.995214 -104.30291
105904000 -28.757708 -100.60872 -0.10965745 -21.452215 -0.10583597 -21.4429 -29.879251 -104.25938
106903000 -28.650774 -100.79215 -0.10910024 -21.661415 -0.10656837 -21.652262 -29.744301 -104.21873
107902000 -28.491074 -101.20403 -0.11049273 -21.857359 -0.1072948 -21.848 -29.590616 -104.20297
108901000 -28.376881 -101.55404 -0.11061063 -22.058292 -0.1090323 -22.051472 -29.446331 -104.27623
109900000 -28.259272 -102.17835 -0.11219537 -22.259565 -0.10952763 -22.250338 -29.306124 -104.4865
110899000 -28.145538 -102.807 -0.11324184 -22.456488 -0.11008197 -22.448927 -29.170904 -104.8297
111898000 -28.061069 -103.55378 -0.11425639 -22.658283 -0.11180677 -22.65188 -29.055943 -105.05942
112897000 -27.951981 -104.1514 -0.11591771 -22.858871 -0.11292779 -22.845724 -28.918726 -105.33496
113896000 -27.846638 -104.81187 -0.11734589 -23.058584 -0.11443525 -23.044819 -28.807446 -105.59423
114895000 -27.753178 -105.52299 -0.1185125 -23.256031 -0.11570396 -23.241076 -28.688555 -105.77443
115894000 -27.62719 -105.87048 -0.11935427 -23.456139 -0.11688821 -23.442991 -28.616789 -105.93768
116893000 -27.5499 -106.56426 -0.12010173 -23.653009 -0.11755573 -23.634722 -28.487574 -106.28714
117892000 -27.473267 -107.06892 -0.12011717 -23.847616 -0.11839572 -23.838449 -28.409178 -106.48051
118891000 -27.411057 -107.52844 -0.12110325 -24.053284 -0.11821297 -24.036564 -28.305689 -106.69452
119890000 -27.331875 -107.96266 -0.12208556 -24.250406 -0.11962727 -24.235285 -28.301554 -106.89489
120889000 -27.280279 -108.50182 -0.12293629 -24.452717 -0.11899429 -24.438854 -28.215702 -106.89334
121888000 -27.235537 -108.84807 -0.12352642 -24.64645 -0.12043306 -24.636423 -28.166424 -107.26292
122887000 -27.194763 -109.03957 -0.12445841 -24.852358 -0.1210242 -24.834293 -28.114231 -107.3141
123886000 -27.137955 -109.5293 -0.12515347 -25.053629 -0.12179936 -25.033525 -28.101551 -107.52362
124885000 -27.105364 -110.03331 -0.12576309 -25.25382 -0.12185954 -25.236383 -28.068413 -107.60487
125884000 -27.049324 -110.25394 -0.12631258 -25.452583 -0.12180815 -25.434885 -28.037024 -107.79176
126883000 -27.02972 -110.65888 -0.12622863 -25.650269 -0.12324866 -25.638903 -27.994873 -107.86083
127882000 -26.980322 -110.97422 -0.12662333 -25.852852 -0.12372485 -25.833443 -27.949251 -108.0706
128881000 -26.945793 -111.30929 -0.12691411 -26.055754 -0.12318794 -26.037888 -27.909185 -108.19746
129880000 -26.890331 -111.64231 -0.12738511 -26.254906 -0.1233384 -26.235601 -27.858803 -108.18981
130879000 -26.829033 -111.83215 -0.1272241 -26.455734 -0.12408815 -26.436308 -27.784988 -108.28715
131878000 -26.758835 -112.08723 -0.12835445 -26.659216 -0.12473147 -26.637915 -27.711519 -108.198
132877000 -26.68755 -112.18324 -0.12753865 -26.861023 -0.1250682 -26.840294 -27.618296 -108.21364
133876000 -26.606686 -112.43184 -0.12807237 -27.064449 -0.12547879 -27.043322 -27.523787 -108.18112
134875000 -26.503647 -112.53674 -0.12832804 -27.257053 -0.12597947 -27.238529 -27.41276 -108.11665
135874000 -26.42137 -112.65694 -0.12849416 -27.457766 -0.12583292 -27.442831 -27.307198 -108.06803
136873000 -26.306 -112.62592 -0.12889412 -27.660223 -0.12589286 -27.641365 -27.213768 -108.10976
137872000 -26.228727 -112.77125 -0.12892346 -27.862444 -0.12595735 -27.844093 -27.100138 -108.11391
138871000 -26.152184 -112.99799 -0.12918505 -28.060492 -0.12574124 -28.046516 -27.001806 -108.31166
139870000 -26.051231 -113.31897 -0.13061814 -28.263163 -0.12766314 -28.247702 -26.922104 -108.5359
140869000 -25.966003 -113.77715 -0.13256274 -28.455105 -0.12853682 -28.43858 -26.809288 -108.68252
141868000 -25.876825 -114.35392 -0.1324261 -28.651943 -0.13022494 -28.636808 -26.747091 -109.10326
142867000 -25.802654 -114.62428 -0.13127683 -28.84853 -0.12814488 -28.830902 -26.666796 -109.33447
143866000 -25.736759 -115.16463 -0.13283578 -29.046934 -0.12967657 -29.028212 -26.596012 -109.87959
144865000 -25.68829 -115.69952 -0.13428822 -29.244001 -0.13136087 -29.227125 -26.544127 -110.20978
145864000 -25.631624 -116.06818 -0.13448019 -29.44705 -0.13249309 -29.431606 -26.512987 -110.50711
146863000 -25.58325 -116.45226 -0.13518113 -29.644272 -0.13254513 -29.632196 -26.464287 -110.87736
147862000 -25.546247 -116.83689 -0.13676231 -29.842695 -0.13270847 -29.831276 -26.435181 -111.23694
148861000 -25.519608 -117.37582 -0.13673453 -30.041334 -0.13397479 -30.025091 -26.412914 -111.49022
149860000 -25.506256 -117.57683 -0.13720338 -30.235792 -0.1349277 -30.225039 -26.386463 -111.69099
150859000 -25.488554 -117.97549 -0.13743182 -30.437929 -0.13520516 -30.422125 -26.386087 -111.96845
151858000 -25.471718 -118.28017 -0.13778932 -30.638386 -0.13572219 -30.62492 -26.37471 -112.25278
152857000 -25.460548 -118.65031 -0.13925813 -30.835493 -0.13584398 -30.823072 -26.361231 -112.38923
153856000 -25.449158 -118.89373 -0.13804851 -31.034195 -0.1345627 -31.025015 -26.384911 -112.68981
154855000 -25.443434 -119.06374 -0.13854371 -31.231409 -0.13568053 -31.218866 -26.375008 -112.91087
155854000 -25.45779 -119.30556 -0.1397834 -31.431961 -0.13657959 -31.418724 -26.369938 -113.19655
156853000 -25.445681 -120.00115 -0.13695145 -31.616547 -0.13539582 -31.610088 -26.368023 -113.49642
157852000 -25.450588 -120.22235 -0.13850603 -31.819468 -0.13749701 -31.81439 -26.363935 -113.83342
158851000 -25.447325 -120.45871 -0.1390149 -32.018543 -0.13801324 -32.008949 -26.355618 -114.10433
159850000 -25.429804 -120.57597 -0.139596 -32.219486 -0.13818668 -32.207993 -26.351789 -114.27592
160849000 -25.410486 -120.70618 -0.13982001 -32.41618 -0.13873801 -32.413048 -26.323479 -114.59029
161848000 -25.383678 -120.84359 -0.14037877 -32.617672 -0.13881925 -32.609726 -26.283691 -114.66103
162847000 -25.343124 -121.03082 -0.14077342 -32.815582 -0.13942653 -32.810581 -26.256386 -114.98074
163846000 -25.305355 -121.30048 -0.14117505 -33.014015 -0.13935488 -33.007839 -26.17136 -114.98099
164845000 -25.240732 -121.34666 -0.14126971 -33.213158 -0.14014243 -33.206879 -26.10306 -115.11794
165844000 -25.187544 -121.44616 -0.14074747 -33.414776 -0.13989487 -33.408047 -26.026144 -115.28321
166843000 -25.121992 -121.54578 -0.14108092 -33.612106 -0.13994673 -33.609016 -25.951529 -115.48982
167842000 -25.060892 -121.72101 -0.14100739 -33.808762 -0.14044347 -33.805508 -25.861071 -115.43932
168841000 -24.989588 -121.94471 -0.1416163 -34.008907 -0.14135262 -34.00552 -25.779305 -115.55063
169840000 -24.919634 -122.2347 -0.14169975 -34.200901 -0.14130127 -34.199024 -25.691364 -115.78226
170839000 -24.864161 -122.5133 -0.14318806 -34.403683 -0.14231251 -34.400841 -25.605255 -116.01899
171838000 -24.79689 -122.9498 -0.14288361 -34.602848 -0.1427076 -34.596409 -25.539625 -116.31221
172837000 -24.735405 -123.34483 -0.14447939 -34.797821 -0.14370792 -34.793827 -25.47257 -116.55406
173836000 -24.670187 -123.78046 -0.14589959 -34.997299 -0.14434692 -34.993679 -25.42914 -116.82304
174835000 -24.623734 -124.24445 -0.14628349 -35.191502 -0.14503554 -35.191601 -25.383606 -117.2024
175834000 -24.567001 -124.67842 -0.14729884 -35.388626 -0.14654106 -35.387939 -25.316469 -117.53034
176833000 -24.519106 -125.0596 -0.14792605 -35.587234 -0.14666209 -35.587444 -25.268208 -117.73899
177832000 -24.475714 -125.56643 -0.14882925 -35.782558 -0.14737488 -35.787071 -25.247164 -117.92729
178831000 -24.438028 -125.96703 -0.14930397 -35.983067 -0.14775786 -35.980522 -25.210846 -118.20828
179830000 -24.401691 -126.40413 -0.15034254 -36.180534 -0.14801657 -36.179924 -25.178986 -118.29823
180829000 -24.363056 -126.64777 -0.14988807 -36.374908 -0.1485887 -36.374847 -25.150661 -118.52988
181828000 -24.337317 -127.03066 -0.15082411 -36.573292 -0.14890856 -36.568081 -25.134518 -118.68449
182827000 -24.315714 -127.39043 -0.15055987 -36.77042 -0.14957753 -36.766655 -25.12184 -118.75491
183826000 -24.274336 -127.74879 -0.15194641 -36.968914 -0.14955957 -36.964363 -25.110043 -118.85486
184825000 -24.273178 -128.03842 -0.1512886 -37.164066 -0.15012977 -37.164497 -25.089685 -119.00381
185824000 -24.249506 -128.40036 -0.15142772 -37.358631 -0.15022087 -37.354923 -25.09214 -119.04525
186823000 -24.230129 -128.76733 -0.15174107 -37.556622 -0.15053333 -37.555737 -25.090672 -119.06483
187822000 -24.210077 -129.10143 -0.1528164 -37.754299 -0.15133578 -37.75206 -25.047682 -119.14571
188821000 -24.192427 -129.36014 -0.15229009 -37.945782 -0.15124491 -37.953583 -25.029503 -119.21925
189820000 -24.173052 -129.64931 -0.1523145 -38.150398 -0.15110928 -38.147316 -25.021301 -119.38709
190819000 -24.144888 -129.87698 -0.15369515 -38.350037 -0.15246087 -38.348358 -24.986181 -119.3635
191818000 -24.109692 -130.05122 -0.15508485 -38.546387 -0.1535482 -38.544312 -24.950037 -119.25445
192817000 -24.039169 -130.34441 -0.1555471 -38.730961 -0.15412159 -38.732243 -24.876459 -119.35186
193816000 -23.999857 -130.73883 -0.15450461 -38.921631 -0.15302475 -38.921555 -24.814318 -119.65852
194815000 -23.947186 -131.21092 -0.15481095 -39.118504 -0.15376221 -39.122318 -24.749548 -119.79974
195814000 -23.890903 -131.4203 -0.15518169 -39.318279 -0.15345648 -39.321327 -24.690487 -119.91075
196813000 -23.838934 -131.79321 -0.15491557 -39.513344 -0.15313737 -39.5121 -24.613871 -120.10371
197812000 -23.780449 -132.04298 -0.1559018 -39.713287 -0.15392742 -39.708035 -24.544516 -120.23424
198811000 -23.723085 -132.21872 -0.15479164 -39.90591 -0.15363348 -39.910915 -24.469275 -120.43758
199810000 -23.652529 -132.60211 -0.1560322 -40.099506 -0.15380993 -40.100124 -24.390299 -120.56609
200809000 -23.595661 -132.92896 -0.15618999 -40.296711 -0.15408458 -40.301445 -24.30508 -120.80224
201808000 -23.538088 -133.17801 -0.15712176 -40.49855 -0.15493917 -40.504456 -24.237236 -120.89524
202807000 -23.483665 -133.58075 -0.15679701 -40.702435 -0.15584062 -40.702946 -24.178661 -121.13156
203806000 -23.431185 -134.0553 -0.1583724 -40.90136 -0.15671919 -40.900784 -24.116318 -121.33501
204805000 -23.382755 -134.4138 -0.16002867 -41.099537 -0.15784542 -41.100658 -24.05266 -121.54711
