!Keysight Technologies,E5080B,MY59205177,A.15.75.32
!Date: Friday, February 23, 2024 02:47:53
!Correction: S11(Cdelta 2-Port  ) 
!S21(Cdelta 2-Port  ) 
!S12(Cdelta 2-Port  ) 
!S22(Cdelta 2-Port  ) 
!S2P File: Measurements: S11, S21, S12, S22:
# Hz S  dB   R 50
10000000 -40.898262 -3.1759267 -0.053239278 -2.0483999 -0.056880716 -2.1053436 -54.415539 -106.01664
10999000 -40.420097 -4.5333958 -0.05439692 -2.2702045 -0.055846699 -2.3265164 -52.619133 -98.066856
11998000 -39.856785 -6.3898478 -0.054610554 -2.4929714 -0.055976231 -2.539789 -51.892494 -90.628761
12997000 -39.42886 -9.8250847 -0.053482734 -2.6743114 -0.056133829 -2.705792 -50.211163 -87.848366
13996000 -39.248051 -12.637277 -0.053198662 -2.8520498 -0.055710614 -2.8742514 -49.026684 -84.732803
14995000 -39.026554 -15.515958 -0.055125419 -3.0622623 -0.05590019 -3.0876338 -48.310234 -82.966263
15994000 -38.962383 -18.300404 -0.056679819 -3.279386 -0.058328439 -3.3027072 -47.672726 -81.223022
16993000 -39.002224 -21.448421 -0.054958422 -3.4804506 -0.057375651 -3.4894979 -47.005692 -85.766464
17992000 -39.146442 -24.78512 -0.05633942 -3.6789401 -0.058042474 -3.6808548 -46.433182 -89.321785
18991000 -39.375671 -27.876768 -0.057289094 -3.8908823 -0.058969691 -3.8854399 -45.680008 -90.838402
19990000 -39.365311 -31.77236 -0.059239708 -4.0982666 -0.060912665 -4.0960331 -45.059856 -95.682014
20989000 -39.342159 -34.345932 -0.061595257 -4.3015933 -0.062179752 -4.2925587 -44.41898 -96.744713
21988000 -39.400528 -37.709663 -0.062303696 -4.4996099 -0.063916884 -4.4870028 -44.125664 -97.526924
22987000 -39.334248 -41.501076 -0.063942626 -4.6988239 -0.064433113 -4.6902237 -43.773464 -97.561218
23986000 -39.438683 -44.566883 -0.063237078 -4.8928742 -0.064016186 -4.8920026 -43.647099 -98.29509
24985000 -39.214394 -46.91993 -0.064444937 -5.1024885 -0.063705415 -5.1005983 -43.220154 -96.232582
25984000 -39.104073 -49.037319 -0.065417409 -5.3102794 -0.064508259 -5.3077693 -42.7911 -95.721733
26983000 -38.927719 -51.132931 -0.066053145 -5.5085158 -0.065432124 -5.5260863 -42.595787 -95.582352
27982000 -38.832783 -52.090698 -0.06809736 -5.7063317 -0.06706094 -5.7410145 -42.227455 -94.111481
28981000 -38.839306 -53.251518 -0.064995132 -5.9047441 -0.067797348 -5.933012 -41.913506 -94.281197
29980000 -38.564766 -55.372028 -0.065717265 -6.095634 -0.067992449 -6.1078682 -41.50351 -94.569939
30979000 -38.208317 -54.999733 -0.063350022 -6.453547 -0.061830778 -6.4424863 -41.031609 -96.18541
31978000 -38.076626 -56.252853 -0.062560789 -6.6545358 -0.06305217 -6.6414199 -40.703972 -96.159416
32977000 -37.96756 -57.857414 -0.062217303 -6.8599796 -0.064207174 -6.8551764 -40.478329 -96.635399
33976000 -37.866447 -59.062981 -0.063084215 -7.0623169 -0.064238697 -7.0564156 -40.119598 -96.826782
34975000 -37.660992 -60.191998 -0.063124925 -7.2596879 -0.065598473 -7.2624583 -39.830006 -96.991356
35974000 -37.509121 -61.150208 -0.062703125 -7.453927 -0.064973846 -7.4580426 -39.494152 -96.686119
36973000 -37.330479 -62.057842 -0.062895633 -7.6542549 -0.066143289 -7.6604524 -39.129463 -96.451859
37972000 -37.164738 -62.206558 -0.063094459 -7.8669472 -0.066014506 -7.8752508 -38.869457 -96.053902
38971000 -36.844311 -62.439991 -0.064256042 -8.0665636 -0.0662366 -8.0783453 -38.602341 -94.745399
39970000 -36.572239 -63.317448 -0.062453382 -8.2661333 -0.064658806 -8.27985 -38.302498 -94.636887
40969000 -36.303535 -63.523834 -0.062600181 -8.4562302 -0.064368226 -8.4754848 -37.97789 -93.626793
41968000 -35.987278 -64.057037 -0.06263537 -8.6635771 -0.065210603 -8.6797171 -37.715363 -92.762482
42967000 -35.765747 -64.636826 -0.062900364 -8.8745823 -0.065580867 -8.8935804 -37.402496 -91.187439
43966000 -35.54892 -65.628792 -0.063392572 -9.0741282 -0.066302836 -9.0921459 -37.100643 -90.899757
44965000 -35.337639 -66.690552 -0.063918464 -9.275651 -0.066910833 -9.29459 -36.860695 -91.090385
45964000 -35.154308 -67.919205 -0.065545388 -9.476615 -0.068173617 -9.4950418 -36.637222 -91.262772
46963000 -35.042831 -69.825752 -0.065942757 -9.6724091 -0.068787403 -9.6946793 -36.470982 -91.717316
47962000 -34.921776 -71.368835 -0.066952892 -9.8735418 -0.069985762 -9.892333 -36.25301 -92.244675
48961000 -34.789993 -72.910576 -0.069270805 -10.0724 -0.071503907 -10.094457 -36.030529 -92.859688
49960000 -34.606804 -74.380112 -0.071141295 -10.274769 -0.072463222 -10.294452 -35.896267 -93.19474
50959000 -34.444126 -75.853477 -0.0716497 -10.48491 -0.074327447 -10.493446 -35.721615 -93.800529
51958000 -34.27737 -77.201004 -0.073775023 -10.684545 -0.075124092 -10.694861 -35.574886 -94.653854
52957000 -34.106186 -78.368851 -0.0752405 -10.884162 -0.076198004 -10.88835 -35.381924 -94.508949
53956000 -33.980335 -79.207474 -0.076414563 -11.088202 -0.077344656 -11.085702 -35.244434 -94.791756
54955000 -33.834511 -80.003418 -0.077441633 -11.286971 -0.078361928 -11.284403 -35.093872 -94.912231
55954000 -33.688831 -80.950706 -0.078734376 -11.490376 -0.07925237 -11.484867 -34.987095 -94.77459
56953000 -33.590317 -81.092438 -0.078212224 -11.686923 -0.078522444 -11.675314 -34.914585 -95.096947
57952000 -33.454643 -81.823715 -0.079069152 -11.882896 -0.079539992 -11.874862 -34.82069 -95.289902
58951000 -33.347061 -82.29454 -0.07976041 -12.086395 -0.08067856 -12.067029 -34.667725 -95.561745
59950000 -33.230423 -82.899185 -0.081378512 -12.291092 -0.080832042 -12.264915 -34.597683 -96.105042
60949000 -33.13781 -83.470711 -0.08187414 -12.489284 -0.081258766 -12.469964 -34.513252 -96.416267
61948000 -33.080952 -83.876114 -0.082239762 -12.689105 -0.081032217 -12.670623 -34.427135 -96.632652
62947000 -32.987732 -84.134331 -0.08253365 -12.899272 -0.082645513 -12.879684 -34.288425 -97.134727
63946000 -32.939247 -84.837761 -0.08316081 -13.101627 -0.082694329 -13.080822 -34.188698 -97.314949
64945000 -32.835274 -85.124245 -0.083695434 -13.299372 -0.083672211 -13.284601 -34.0821 -97.858337
65944000 -32.737209 -85.501747 -0.084432036 -13.499716 -0.084576942 -13.48131 -33.989029 -98.478149
66943000 -32.61087 -86.005348 -0.082705408 -13.701345 -0.082986139 -13.681859 -33.910736 -98.856621
67942000 -32.549046 -86.018715 -0.084828757 -13.899709 -0.084397987 -13.885958 -33.783901 -99.207695
68941000 -32.436649 -86.272438 -0.084162027 -14.091371 -0.083779618 -14.085321 -33.671326 -99.299164
69940000 -32.346317 -86.311577 -0.084565587 -14.292068 -0.084202148 -14.286153 -33.540226 -99.748978
70939000 -32.227715 -86.409714 -0.084876269 -14.490748 -0.084009483 -14.484439 -33.397282 -99.808289
71938000 -32.072479 -86.14138 -0.085080586 -14.68246 -0.084722646 -14.67383 -33.2565 -99.699333
72937000 -31.917677 -86.022652 -0.083330482 -14.884453 -0.084075987 -14.874644 -33.103401 -99.494125
73936000 -31.772322 -85.859161 -0.084032178 -15.084384 -0.083706252 -15.073514 -32.988457 -99.379227
74935000 -31.656036 -86.191765 -0.083736338 -15.277987 -0.08263839 -15.271195 -32.805077 -99.18959
75934000 -31.529259 -86.598946 -0.083370857 -15.48811 -0.082657918 -15.484172 -32.725307 -99.218216
76933000 -31.407717 -87.01815 -0.084198982 -15.681602 -0.084333844 -15.673059 -32.556305 -99.732101
77932000 -31.320328 -87.899635 -0.086466178 -15.879024 -0.085693061 -15.871943 -32.453644 -99.749603
78931000 -31.262512 -88.743172 -0.084757484 -16.076258 -0.085740589 -16.07292 -32.345467 -99.750008
79930000 -31.171175 -89.61216 -0.08716125 -16.267735 -0.087634556 -16.267323 -32.268963 -100.17314
80929000 -31.057882 -90.543793 -0.088806957 -16.460726 -0.089013308 -16.460819 -32.166721 -100.58762
81928000 -30.994759 -91.453224 -0.088584229 -16.661163 -0.089606255 -16.654072 -32.032761 -100.79454
82927000 -30.909189 -92.214012 -0.090269059 -16.856371 -0.090456448 -16.850601 -31.941607 -101.2104
83926000 -30.813152 -93.063789 -0.092101552 -17.052006 -0.091776341 -17.054773 -31.822775 -101.53217
84925000 -30.717779 -93.554054 -0.093030512 -17.251787 -0.092516422 -17.248314 -31.734047 -101.70575
85924000 -30.627188 -94.102028 -0.093682207 -17.451694 -0.094139025 -17.451874 -31.638262 -101.74604
86923000 -30.53249 -94.683289 -0.094324999 -17.651197 -0.094166271 -17.646368 -31.544638 -101.77235
87922000 -30.436462 -95.179428 -0.094052523 -17.858509 -0.093552597 -17.85216 -31.446802 -101.8857
88921000 -30.373594 -95.471161 -0.095334083 -18.054085 -0.094045117 -18.053839 -31.34441 -101.98891
89920000 -30.28554 -96.100533 -0.096032433 -18.25614 -0.095186435 -18.246155 -31.297667 -102.19574
90919000 -30.182621 -96.517929 -0.097643904 -18.451992 -0.095830776 -18.443823 -31.216349 -102.4532
91918000 -30.096724 -96.929665 -0.097761184 -18.655203 -0.096342877 -18.646236 -31.153168 -102.54909
92917000 -30.006989 -97.356987 -0.098537512 -18.851097 -0.09793143 -18.845596 -31.082895 -102.69947
93916000 -29.932081 -97.754738 -0.098517388 -19.040915 -0.0974795 -19.038408 -31.013287 -103.42426
94915000 -29.862213 -98.472069 -0.1001666 -19.244223 -0.099006765 -19.239124 -30.931526 -103.3334
95914000 -29.802584 -98.680679 -0.1006816 -19.439318 -0.10023336 -19.437294 -30.845478 -103.66022
96913000 -29.719246 -98.986435 -0.10190999 -19.64205 -0.10072452 -19.636312 -30.785242 -104.06373
97912000 -29.650524 -99.509987 -0.10350482 -19.835823 -0.10144202 -19.835602 -30.708391 -104.38103
98911000 -29.549376 -99.756195 -0.10327975 -20.040346 -0.10250629 -20.03697 -30.66423 -104.61521
99910000 -29.477797 -99.975151 -0.10374501 -20.23749 -0.10268892 -20.234783 -30.554686 -104.95833
100909000 -29.39924 -100.22669 -0.10327578 -20.444948 -0.10300142 -20.437664 -30.473751 -105.24135
101908000 -29.312399 -100.53001 -0.10449271 -20.64156 -0.10396241 -20.642885 -30.34605 -105.02648
102907000 -29.174265 -100.63349 -0.10607257 -20.84573 -0.10393988 -20.845379 -30.269247 -105.06826
103906000 -29.079655 -100.7935 -0.1057938 -21.050941 -0.10305788 -21.04483 -30.116047 -105.07944
104905000 -28.928875 -100.79984 -0.10615958 -21.249695 -0.10320818 -21.245943 -29.970932 -104.76466
105904000 -28.781754 -100.95656 -0.1066867 -21.448715 -0.10470378 -21.443773 -29.853472 -104.63978
106903000 -28.672754 -101.0911 -0.10640629 -21.654587 -0.10494775 -21.648705 -29.714245 -104.63883
107902000 -28.516741 -101.56654 -0.10744817 -21.858862 -0.10489074 -21.84914 -29.563393 -104.69444
108901000 -28.415773 -101.91063 -0.10818748 -22.059052 -0.10631821 -22.048935 -29.421406 -104.65471
109900000 -28.284578 -102.40368 -0.10979338 -22.258957 -0.10728976 -22.245562 -29.271116 -104.93249
110899000 -28.173317 -103.07989 -0.11093035 -22.451956 -0.10853727 -22.446409 -29.144684 -105.27631
111898000 -28.09343 -103.806 -0.11216164 -22.657398 -0.1097602 -22.652248 -29.021351 -105.48978
112897000 -27.976692 -104.47276 -0.11394892 -22.858337 -0.11070224 -22.845684 -28.887796 -105.77399
113896000 -27.86854 -105.10324 -0.11445571 -23.055269 -0.11243977 -23.045658 -28.776424 -105.95402
114895000 -27.771669 -105.78833 -0.11548464 -23.256025 -0.11426808 -23.241108 -28.661232 -106.11947
115894000 -27.645523 -106.21409 -0.11745705 -23.455299 -0.11556439 -23.445663 -28.58868 -106.36901
116893000 -27.574814 -106.87704 -0.11773366 -23.650362 -0.11639336 -23.63526 -28.458372 -106.63014
117892000 -27.498461 -107.37783 -0.11782702 -23.849173 -0.11625563 -23.836353 -28.380491 -106.90199
118891000 -27.43911 -107.82861 -0.11889106 -24.04882 -0.11633912 -24.033133 -28.28241 -107.08183
119890000 -27.343578 -108.22202 -0.11924518 -24.247561 -0.11722435 -24.234299 -28.276138 -107.2758
120889000 -27.295334 -108.77836 -0.12062708 -24.448719 -0.11741211 -24.430464 -28.19639 -107.28857
121888000 -27.258125 -109.14724 -0.12037638 -24.64325 -0.11846355 -24.632143 -28.138437 -107.61075
122887000 -27.216156 -109.40486 -0.1214067 -24.846575 -0.11949316 -24.834253 -28.086596 -107.72248
123886000 -27.16526 -109.82467 -0.12197295 -25.051889 -0.11957858 -25.031118 -28.073233 -107.81861
124885000 -27.128262 -110.33717 -0.12304173 -25.252291 -0.11985904 -25.236191 -28.039818 -107.96393
125884000 -27.073233 -110.5701 -0.12334586 -25.44804 -0.12005144 -25.432941 -28.008593 -108.12723
126883000 -27.052664 -110.95454 -0.12340552 -25.647715 -0.12066594 -25.639261 -27.96829 -108.23988
127882000 -27.00095 -111.23447 -0.12411878 -25.848387 -0.1210037 -25.834488 -27.923956 -108.37511
128881000 -26.966265 -111.61958 -0.12480233 -26.053959 -0.1216431 -26.034494 -27.882162 -108.54436
129880000 -26.916059 -111.93242 -0.12502211 -26.253553 -0.12187763 -26.233244 -27.838171 -108.53859
130879000 -26.854942 -112.13143 -0.12534504 -26.452333 -0.1224426 -26.43755 -27.757261 -108.62167
131878000 -26.78194 -112.38408 -0.12557657 -26.653786 -0.12301084 -26.635113 -27.686636 -108.52169
132877000 -26.713846 -112.44219 -0.12523659 -26.853836 -0.12280181 -26.836164 -27.595087 -108.57883
133876000 -26.621466 -112.66961 -0.12569994 -27.056211 -0.12327635 -27.038439 -27.500719 -108.51707
134875000 -26.529226 -112.83741 -0.1260746 -27.258919 -0.12365853 -27.240278 -27.385057 -108.41114
135874000 -26.442688 -112.90213 -0.12576629 -27.458601 -0.1235211 -27.438112 -27.277197 -108.44481
136873000 -26.329544 -112.87159 -0.12646343 -27.660837 -0.12372804 -27.641323 -27.186785 -108.43501
137872000 -26.247622 -113.0218 -0.12629206 -27.860895 -0.1241859 -27.845875 -27.079033 -108.43667
138871000 -26.180138 -113.24679 -0.12684454 -28.063137 -0.12398107 -28.046877 -26.980305 -108.66201
139870000 -26.076025 -113.57422 -0.12823872 -28.261007 -0.12553447 -28.240288 -26.895609 -108.85955
140869000 -25.986458 -114.05862 -0.12944907 -28.457785 -0.12658522 -28.438066 -26.790564 -109.04623
141868000 -25.902729 -114.57166 -0.13082382 -28.648846 -0.12787321 -28.630102 -26.719931 -109.42262
142867000 -25.828163 -114.86691 -0.12877519 -28.845898 -0.12718251 -28.831408 -26.642803 -109.63339
143866000 -25.754414 -115.41755 -0.13042261 -29.044001 -0.12836485 -29.027197 -26.573833 -110.17516
144865000 -25.701881 -115.9208 -0.13195109 -29.241358 -0.12939493 -29.228777 -26.519304 -110.54297
145864000 -25.653486 -116.28265 -0.1322892 -29.440943 -0.13066055 -29.43092 -26.490898 -110.78922
146863000 -25.607758 -116.68877 -0.13304797 -29.642147 -0.13106473 -29.627583 -26.443478 -111.19089
147862000 -25.573658 -117.04527 -0.13414912 -29.836035 -0.13154151 -29.82744 -26.413393 -111.50718
148861000 -25.544764 -117.62154 -0.13476188 -30.036549 -0.13210267 -30.023655 -26.384939 -111.76848
149860000 -25.527241 -117.82204 -0.13471036 -30.235872 -0.13242076 -30.22373 -26.358685 -111.96907
150859000 -25.508114 -118.22504 -0.13525563 -30.439619 -0.13281095 -30.421154 -26.349739 -112.22274
151858000 -25.492897 -118.5366 -0.13512291 -30.634926 -0.13323562 -30.620958 -26.348944 -112.51695
152857000 -25.477905 -118.8717 -0.13555607 -30.832045 -0.13394383 -30.820057 -26.334795 -112.71565
153856000 -25.473873 -119.06683 -0.13518326 -31.030905 -0.13288836 -31.015343 -26.35692 -112.9856
154855000 -25.46052 -119.29177 -0.13574035 -31.231426 -0.13309708 -31.222799 -26.348169 -113.20298
155854000 -25.480595 -119.53692 -0.13681039 -31.428869 -0.13437526 -31.41507 -26.345184 -113.46524
156853000 -25.467522 -120.24854 -0.13426366 -31.615454 -0.13343582 -31.608395 -26.343891 -113.75993
157852000 -25.470736 -120.43922 -0.13585332 -31.816875 -0.13486014 -31.806829 -26.337698 -114.10022
158851000 -25.468531 -120.68086 -0.13655688 -32.016159 -0.13496189 -32.00864 -26.325537 -114.40439
159850000 -25.450533 -120.82851 -0.13683924 -32.215176 -0.13536112 -32.206253 -26.330841 -114.56408
160849000 -25.43516 -120.94667 -0.13698083 -32.411823 -0.13615754 -32.40799 -26.297888 -114.82339
161848000 -25.411983 -121.06304 -0.13709599 -32.616413 -0.13620991 -32.607033 -26.251625 -114.96391
162847000 -25.367575 -121.29253 -0.1373001 -32.810257 -0.137108 -32.808304 -26.226202 -115.24917
163846000 -25.327162 -121.51811 -0.13781391 -33.015583 -0.13666828 -33.005421 -26.145491 -115.26514
164845000 -25.265404 -121.568 -0.13823825 -33.211079 -0.13725628 -33.204987 -26.078083 -115.40192
165844000 -25.206314 -121.65246 -0.13832377 -33.410549 -0.13714033 -33.405022 -25.993948 -115.58775
166843000 -25.146051 -121.76516 -0.13836893 -33.612011 -0.13805386 -33.603397 -25.920525 -115.74535
167842000 -25.081837 -121.94213 -0.13909267 -33.8036 -0.13791598 -33.802341 -25.830917 -115.70695
168841000 -25.005375 -122.1309 -0.1396099 -34.008549 -0.138467 -34.001404 -25.754005 -115.77645
169840000 -24.940811 -122.44622 -0.13919665 -34.203388 -0.138552 -34.196732 -25.665789 -116.04123
170839000 -24.884663 -122.74191 -0.14011249 -34.396416 -0.1395583 -34.39875 -25.580183 -116.25949
171838000 -24.824783 -123.15995 -0.14068465 -34.601505 -0.14064828 -34.593876 -25.518024 -116.54124
172837000 -24.756878 -123.54744 -0.14244437 -34.796814 -0.14116783 -34.792728 -25.442627 -116.78531
173836000 -24.689804 -124.00588 -0.14324318 -34.996311 -0.1420913 -34.991997 -25.400406 -117.07398
174835000 -24.640526 -124.45187 -0.14365013 -35.188808 -0.14263216 -35.190674 -25.35515 -117.44613
175834000 -24.587099 -124.87803 -0.14421391 -35.389202 -0.14326939 -35.38834 -25.294167 -117.80666
176833000 -24.540808 -125.28409 -0.14503847 -35.586391 -0.14383234 -35.583565 -25.238863 -117.9617
177832000 -24.492022 -125.78407 -0.14576468 -35.783241 -0.14457038 -35.782776 -25.213552 -118.15865
178831000 -24.454947 -126.15611 -0.1462851 -35.982185 -0.14489929 -35.975719 -25.181868 -118.40137
179830000 -24.422569 -126.61682 -0.14712505 -36.176224 -0.14581019 -36.178932 -25.155821 -118.58746
180829000 -24.378521 -126.84412 -0.14751308 -36.372452 -0.14645538 -36.373398 -25.123735 -118.77976
181828000 -24.357565 -127.21664 -0.14766091 -36.571121 -0.14627814 -36.572678 -25.102245 -118.91052
182827000 -24.334604 -127.59231 -0.14782052 -36.765965 -0.14642593 -36.76461 -25.09099 -118.99323
183826000 -24.292105 -127.91965 -0.14851771 -36.964928 -0.14683238 -36.959454 -25.082466 -119.1144
184825000 -24.295115 -128.2282 -0.14875425 -37.158974 -0.14776857 -37.161552 -25.068516 -119.22683
185824000 -24.266148 -128.60466 -0.14867148 -37.356091 -0.14838834 -37.355072 -25.05945 -119.28532
186823000 -24.255686 -128.94133 -0.14869371 -37.556236 -0.1482804 -37.55608 -25.056366 -119.27705
187822000 -24.227606 -129.27814 -0.14928281 -37.751198 -0.14882524 -37.750614 -25.020195 -119.37694
188821000 -24.209814 -129.53667 -0.1493222 -37.944077 -0.14876604 -37.952324 -25.001663 -119.47277
189820000 -24.193863 -129.79262 -0.15003115 -38.148582 -0.14903098 -38.148529 -24.992577 -119.63533
190819000 -24.16519 -130.07416 -0.15183328 -38.347454 -0.15021177 -38.34586 -24.960045 -119.59846
191818000 -24.12904 -130.25757 -0.15255123 -38.544411 -0.15133899 -38.542957 -24.919725 -119.47386
192817000 -24.05345 -130.54076 -0.15332803 -38.730171 -0.15215659 -38.729816 -24.847099 -119.5649
193816000 -24.017847 -130.90897 -0.15261638 -38.921661 -0.15102594 -38.920723 -24.786211 -119.87407
194815000 -23.964146 -131.32997 -0.15263623 -39.117245 -0.15135346 -39.118042 -24.720903 -120.00156
195814000 -23.912355 -131.60394 -0.15357849 -39.317089 -0.15151885 -39.319412 -24.664791 -120.12479
196813000 -23.854919 -131.93985 -0.15348759 -39.509968 -0.15140145 -39.51421 -24.589172 -120.32623
197812000 -23.8008 -132.24036 -0.15250163 -39.710712 -0.15208313 -39.702274 -24.5131 -120.47226
198811000 -23.741873 -132.4068 -0.15252843 -39.902954 -0.15115565 -39.907516 -24.443565 -120.65368
199810000 -23.675428 -132.79909 -0.15360558 -40.100506 -0.15180862 -40.100552 -24.362911 -120.78387
200809000 -23.619373 -133.12447 -0.15387109 -40.297955 -0.15176573 -40.296673 -24.284595 -121.04082
201808000 -23.55695 -133.34113 -0.15447779 -40.494816 -0.15329397 -40.500568 -24.211567 -121.1037
202807000 -23.501318 -133.72118 -0.15507895 -40.699375 -0.1543072 -40.696201 -24.153511 -121.33615
203806000 -23.452618 -134.21288 -0.15667142 -40.898949 -0.1543823 -40.89827 -24.085415 -121.54494
204805000 -23.399214 -134.60904 -0.15726267 -41.098782 -0.15549827 -41.096031 -24.02371 -121.77247
