!Keysight Technologies,E5080B,MY59205177,A.15.75.32
!Date: Friday, February 23, 2024 03:27:09
!Correction: S11(Cdelta 2-Port  ) 
!S21(Cdelta 2-Port  ) 
!S12(Cdelta 2-Port  ) 
!S22(Cdelta 2-Port  ) 
!S2P File: Measurements: S11, S21, S12, S22:
# Hz S  dB   R 50
10000000 -45.967999 -1.1853187 -0.016401736 -2.0580392 -0.019003766 -2.111063 -46.093292 -159.42123
10999000 -45.163246 -3.0006711 -0.017258512 -2.2763743 -0.019474382 -2.3314781 -46.115948 -152.70915
11998000 -44.21207 -5.7742457 -0.018439354 -2.4993792 -0.018827233 -2.542783 -46.336094 -148.70007
12997000 -43.501553 -11.357996 -0.017207053 -2.6814013 -0.018494206 -2.7127092 -46.007427 -142.92201
13996000 -43.207722 -15.0502 -0.016750716 -2.8640702 -0.018995967 -2.8809106 -45.834484 -137.39211
14995000 -42.85223 -19.824501 -0.019108545 -3.072207 -0.018460931 -3.0976708 -45.480354 -133.7791
15994000 -42.656734 -23.746317 -0.020096142 -3.2897601 -0.02141979 -3.3149979 -45.416424 -129.92224
16993000 -42.685585 -28.321716 -0.01929393 -3.4922469 -0.020225134 -3.4992006 -44.606449 -129.6402
17992000 -42.76244 -33.644016 -0.019563571 -3.6942098 -0.021397159 -3.6913459 -43.999256 -129.66449
18991000 -42.986786 -38.674107 -0.020626176 -3.9026928 -0.022380592 -3.8983417 -43.392109 -128.68748
19990000 -42.827354 -44.359814 -0.023165157 -4.1145158 -0.02402639 -4.1076393 -42.688671 -129.30386
20989000 -42.685181 -47.790257 -0.025016408 -4.3171067 -0.0265796 -4.3062172 -42.150368 -128.81604
21988000 -42.524807 -53.010311 -0.025963422 -4.5156069 -0.027505334 -4.5071292 -41.887043 -128.10141
22987000 -42.232925 -58.036106 -0.027051819 -4.7161546 -0.027944827 -4.7062654 -41.628792 -127.28824
23986000 -42.218346 -62.085403 -0.0264387 -4.9077473 -0.026974719 -4.907373 -41.500893 -127.11422
24985000 -41.839191 -64.971649 -0.02787761 -5.1198964 -0.027767669 -5.1125793 -41.339317 -124.80878
25984000 -41.500214 -67.061195 -0.029468417 -5.3242173 -0.028822904 -5.3277955 -40.963928 -123.01493
26983000 -41.17017 -68.844627 -0.02998448 -5.5248799 -0.028426316 -5.5411048 -40.902233 -122.37639
27982000 -41.025612 -69.738373 -0.031306453 -5.7260914 -0.030280853 -5.7609549 -40.600403 -120.71137
28981000 -41.032539 -71.654984 -0.029396227 -5.9261775 -0.030391639 -5.9450722 -40.38065 -119.88673
29980000 -40.598022 -72.933258 -0.029083496 -6.1173873 -0.031087182 -6.1249404 -40.128922 -119.05034
30979000 -40.199116 -71.811462 -0.027432654 -6.4744287 -0.025564229 -6.4657459 -39.621273 -119.35535
31978000 -39.991249 -72.919197 -0.026042327 -6.670217 -0.027177112 -6.6596727 -39.342045 -118.6683
32977000 -39.786018 -74.558365 -0.026280355 -6.8827438 -0.027911739 -6.8822055 -39.127403 -118.83993
33976000 -39.625954 -75.471458 -0.027074482 -7.0838027 -0.028146744 -7.0796371 -38.838398 -118.14077
34975000 -39.307423 -76.383682 -0.027450107 -7.2841477 -0.029077763 -7.2846351 -38.593491 -117.84449
35974000 -39.126606 -77.043686 -0.026293376 -7.4767051 -0.028261645 -7.4822536 -38.310356 -116.84258
36973000 -38.921749 -77.601883 -0.02765174 -7.6809859 -0.029974835 -7.6838775 -38.049244 -115.7927
37972000 -38.714161 -77.283936 -0.027037233 -7.892036 -0.029055351 -7.8985162 -37.836971 -114.96979
38971000 -38.36713 -76.922508 -0.028138926 -8.0924902 -0.03017815 -8.1042709 -37.659023 -113.4587
39970000 -38.04459 -77.220665 -0.025736609 -8.2916355 -0.028583435 -8.300498 -37.39291 -112.89479
40969000 -37.737732 -76.972275 -0.026356142 -8.4847126 -0.028451329 -8.5066786 -37.148384 -111.20197
41968000 -37.387772 -76.848022 -0.026472818 -8.6883163 -0.029575795 -8.7080307 -36.95071 -109.98001
42967000 -37.120441 -76.965164 -0.026453285 -8.9047384 -0.029363388 -8.9230375 -36.74192 -108.02855
43966000 -36.818295 -77.572174 -0.027309179 -9.105031 -0.03110048 -9.1168642 -36.464012 -107.27821
44965000 -36.597485 -78.558273 -0.027657472 -9.308507 -0.031384673 -9.3271313 -36.240406 -107.09143
45964000 -36.365112 -79.495224 -0.029403262 -9.5076103 -0.03188245 -9.5294199 -36.022167 -106.79832
46963000 -36.153976 -81.495468 -0.029547127 -9.7029896 -0.03233334 -9.7260847 -35.826252 -106.96743
47962000 -36.003216 -82.977974 -0.030519634 -9.9080811 -0.033962041 -9.9231806 -35.615482 -107.02402
48961000 -35.801762 -84.375725 -0.033428289 -10.101876 -0.036069255 -10.123454 -35.384834 -107.17094
49960000 -35.571487 -85.687569 -0.034847859 -10.30262 -0.03641564 -10.328054 -35.250816 -107.27574
50959000 -35.339043 -87.072823 -0.035565257 -10.516577 -0.03800305 -10.528496 -35.057178 -107.49066
51958000 -35.126717 -88.106499 -0.036892846 -10.71948 -0.039105702 -10.729571 -34.887569 -107.95416
52957000 -34.923077 -89.175125 -0.038882643 -10.918767 -0.040526085 -10.925129 -34.728085 -107.71221
53956000 -34.746315 -89.8423 -0.039543759 -11.119791 -0.042133033 -11.122391 -34.593239 -107.62329
54955000 -34.58662 -90.365105 -0.040979441 -11.325445 -0.042184263 -11.320191 -34.441147 -107.54246
55954000 -34.414997 -91.305252 -0.041882634 -11.522083 -0.042949148 -11.522547 -34.333828 -107.22424
56953000 -34.303635 -91.242638 -0.041962873 -11.720508 -0.041960001 -11.712825 -34.263851 -107.33819
57952000 -34.117886 -91.824844 -0.043415308 -11.91928 -0.042546559 -11.911042 -34.165436 -107.40913
58951000 -34.013889 -92.146965 -0.04391028 -12.127382 -0.044283442 -12.107178 -34.011581 -107.45078
59950000 -33.885426 -92.563942 -0.044505995 -12.326869 -0.044619761 -12.302847 -33.941444 -107.7567
60949000 -33.772594 -93.138542 -0.044081297 -12.528 -0.045599833 -12.50924 -33.83847 -107.99854
61948000 -33.711842 -93.42498 -0.046122003 -12.728541 -0.045368854 -12.708313 -33.762623 -108.12508
62947000 -33.613422 -93.643494 -0.04563332 -12.937513 -0.046100289 -12.917882 -33.627819 -108.34664
63946000 -33.539791 -94.356491 -0.047368031 -13.139173 -0.046650775 -13.120759 -33.520191 -108.5123
64945000 -33.436832 -94.504654 -0.047883872 -13.340245 -0.047637589 -13.322649 -33.404236 -109.05933
65944000 -33.329021 -94.824554 -0.04840108 -13.542354 -0.048060019 -13.523193 -33.322289 -109.49523
66943000 -33.185982 -95.213593 -0.046357993 -13.745954 -0.046139531 -13.727754 -33.204304 -109.69024
67942000 -33.129787 -95.123901 -0.048150059 -13.942326 -0.048036985 -13.931212 -33.09359 -110.01424
68941000 -33.020519 -95.255295 -0.048370454 -14.138684 -0.047269896 -14.123381 -32.972992 -109.96938
69940000 -32.916561 -95.249245 -0.04871887 -14.336108 -0.047857177 -14.326829 -32.83902 -110.32466
70939000 -32.808628 -95.167427 -0.048424378 -14.530128 -0.048824105 -14.525928 -32.70277 -110.14976
71938000 -32.661411 -94.690567 -0.04852568 -14.728222 -0.04800741 -14.725038 -32.568909 -110.00365
72937000 -32.495743 -94.458176 -0.048145086 -14.927662 -0.048263397 -14.92591 -32.415695 -109.74519
73936000 -32.357994 -94.174049 -0.048210785 -15.126007 -0.047208399 -15.115911 -32.298874 -109.50939
74935000 -32.227314 -94.370789 -0.047624767 -15.322926 -0.046829227 -15.319299 -32.146614 -109.24725
75934000 -32.102398 -94.652176 -0.047016848 -15.535001 -0.046574898 -15.52599 -32.055534 -109.14744
76933000 -31.972618 -95.032585 -0.048197173 -15.726449 -0.048046671 -15.721928 -31.880877 -109.48242
77932000 -31.867674 -95.775909 -0.049615297 -15.9238 -0.049972191 -15.918873 -31.762314 -109.38393
78931000 -31.785128 -96.50724 -0.048383541 -16.126472 -0.049530461 -16.119635 -31.668144 -109.22845
79930000 -31.681757 -97.404266 -0.05124316 -16.318779 -0.05105824 -16.316158 -31.564722 -109.52777
80929000 -31.569624 -98.177231 -0.053206 -16.516556 -0.052621141 -16.51473 -31.460175 -109.78813
81928000 -31.4711 -98.884193 -0.053822648 -16.708353 -0.053284355 -16.703854 -31.337057 -109.74345
82927000 -31.366924 -99.70192 -0.055023175 -16.906471 -0.05482525 -16.904577 -31.219969 -110.06757
83926000 -31.242369 -100.39898 -0.056586981 -17.103376 -0.056274645 -17.10578 -31.097212 -110.24493
84925000 -31.143629 -100.85929 -0.057251848 -17.304893 -0.056011107 -17.303339 -31.004446 -110.29076
85924000 -31.048422 -101.22102 -0.057582088 -17.505684 -0.058000501 -17.504452 -30.916277 -110.2257
86923000 -30.943283 -101.77728 -0.058241073 -17.707403 -0.058194637 -17.7008 -30.815414 -110.10707
87922000 -30.829048 -102.0528 -0.058349952 -17.912647 -0.057919174 -17.905422 -30.725706 -110.06031
88921000 -30.749334 -102.37871 -0.059334442 -18.10976 -0.058615468 -18.107702 -30.626793 -110.05715
89920000 -30.650949 -102.88123 -0.059911806 -18.310778 -0.059244957 -18.302526 -30.570578 -110.19975
90919000 -30.54574 -103.17965 -0.061531194 -18.506742 -0.05984934 -18.502695 -30.488308 -110.36987
91918000 -30.444693 -103.51025 -0.062007755 -18.707829 -0.06106545 -18.702181 -30.417351 -110.36295
92917000 -30.357464 -103.85286 -0.062536627 -18.90807 -0.061569527 -18.905092 -30.351614 -110.48789
93916000 -30.271908 -104.224 -0.062379062 -19.099989 -0.062049504 -19.097475 -30.268169 -111.08824
94915000 -30.194153 -104.8219 -0.064185105 -19.301535 -0.063082896 -19.298473 -30.211996 -110.96507
95914000 -30.116611 -105.0305 -0.064792283 -19.49836 -0.063627928 -19.493095 -30.115742 -111.1899
96913000 -30.034094 -105.252 -0.066339895 -19.697872 -0.065005377 -19.695242 -30.048203 -111.56491
97912000 -29.953341 -105.76444 -0.067356169 -19.893518 -0.065167241 -19.897577 -29.977749 -111.77623
98911000 -29.850958 -105.85806 -0.067973517 -20.099066 -0.066623248 -20.09473 -29.930254 -112.03688
99910000 -29.779776 -105.96916 -0.068507589 -20.298311 -0.066769138 -20.294756 -29.81452 -112.32206
100909000 -29.694208 -106.28899 -0.067541257 -20.50561 -0.066311769 -20.500927 -29.727739 -112.55314
101908000 -29.593105 -106.50958 -0.068383202 -20.704138 -0.068399765 -20.703247 -29.620354 -112.25462
102907000 -29.460342 -106.51821 -0.069954984 -20.904829 -0.067534424 -20.900595 -29.544168 -112.27484
103906000 -29.363728 -106.57026 -0.069402061 -21.115286 -0.067499459 -21.10923 -29.404259 -112.23033
104905000 -29.220913 -106.41273 -0.070715301 -21.312017 -0.068638816 -21.311737 -29.278069 -111.95423
105904000 -29.077919 -106.50152 -0.071171291 -21.513371 -0.06773214 -21.508497 -29.155001 -111.84014
106903000 -28.966497 -106.62518 -0.070871592 -21.723976 -0.069302373 -21.716234 -29.033638 -111.66401
107902000 -28.796576 -106.89998 -0.071853131 -21.918652 -0.069244243 -21.910572 -28.890301 -111.6734
108901000 -28.689507 -107.15718 -0.072637476 -22.124872 -0.070690304 -22.111797 -28.755976 -111.6272
109900000 -28.561096 -107.66753 -0.073793188 -22.324144 -0.071933664 -22.314192 -28.601704 -111.65794
110899000 -28.432997 -108.34067 -0.074884951 -22.522684 -0.072788306 -22.509764 -28.476582 -111.94778
111898000 -28.349045 -108.967 -0.076516785 -22.725067 -0.073810041 -22.717192 -28.363482 -112.10031
112897000 -28.218872 -109.51893 -0.078376427 -22.922451 -0.074901804 -22.912121 -28.223248 -112.23524
113896000 -28.113308 -110.08462 -0.079210453 -23.125847 -0.076837957 -23.112343 -28.119352 -112.35055
114895000 -28.013969 -110.7393 -0.080015637 -23.323563 -0.077879883 -23.309391 -27.997484 -112.42294
115894000 -27.891293 -111.08274 -0.081385367 -23.525072 -0.078665577 -23.510283 -27.931519 -112.61915
116893000 -27.816174 -111.60314 -0.082535498 -23.724155 -0.07983502 -23.706621 -27.81072 -112.73388
117892000 -27.726576 -112.11568 -0.082710154 -23.920902 -0.080861054 -23.906254 -27.727354 -112.90298
118891000 -27.668961 -112.49677 -0.083267152 -24.121073 -0.080757678 -24.105553 -27.632952 -113.03534
119890000 -27.584652 -112.85848 -0.083676435 -24.320702 -0.081544943 -24.301861 -27.618816 -113.15753
120889000 -27.529379 -113.32824 -0.084999807 -24.51965 -0.082236856 -24.510477 -27.545042 -113.09489
121888000 -27.496874 -113.68809 -0.085150279 -24.717781 -0.081984669 -24.70529 -27.490328 -113.34816
122887000 -27.453627 -113.91406 -0.086518727 -24.922209 -0.082432605 -24.906008 -27.434217 -113.32359
123886000 -27.394398 -114.33764 -0.087159403 -25.125637 -0.083545543 -25.103834 -27.418289 -113.50368
124885000 -27.368427 -114.81245 -0.087216191 -25.323997 -0.083542638 -25.309402 -27.393955 -113.50614
125884000 -27.312866 -114.99562 -0.087648824 -25.520994 -0.084315635 -25.506439 -27.367655 -113.69412
126883000 -27.293032 -115.38152 -0.088214114 -25.727755 -0.085320286 -25.71184 -27.322927 -113.70856
127882000 -27.236 -115.68179 -0.088821217 -25.925226 -0.085880786 -25.912531 -27.278957 -113.83035
128881000 -27.203585 -115.99369 -0.088682249 -26.129707 -0.085681975 -26.109882 -27.240641 -113.96944
129880000 -27.154442 -116.32558 -0.089597009 -26.33042 -0.085934646 -26.314665 -27.200434 -113.9222
130879000 -27.092232 -116.50341 -0.089492887 -26.530361 -0.086571276 -26.510229 -27.126511 -113.89899
131878000 -27.022058 -116.71825 -0.089890338 -26.733801 -0.086848296 -26.714123 -27.06525 -113.79488
132877000 -26.954466 -116.7892 -0.089555785 -26.931662 -0.087324739 -26.914211 -26.977179 -113.80351
133876000 -26.866951 -116.97572 -0.091232531 -27.139097 -0.087058254 -27.12265 -26.890381 -113.66889
134875000 -26.769663 -117.12282 -0.090535745 -27.332548 -0.087924592 -27.316227 -26.786407 -113.52199
135874000 -26.687645 -117.13213 -0.091093481 -27.538473 -0.087135367 -27.517036 -26.69305 -113.4883
136873000 -26.571884 -117.10418 -0.091261871 -27.737226 -0.088085197 -27.72522 -26.603409 -113.41772
137872000 -26.496502 -117.21009 -0.09097109 -27.943132 -0.08770059 -27.931679 -26.501102 -113.39668
138871000 -26.412397 -117.41534 -0.091669001 -28.140993 -0.087501176 -28.126492 -26.402229 -113.51589
139870000 -26.316441 -117.67822 -0.092002399 -28.342375 -0.089210682 -28.329105 -26.319376 -113.69224
140869000 -26.237923 -118.27312 -0.092644677 -28.541803 -0.090010852 -28.52013 -26.215763 -113.93369
141868000 -26.157606 -118.65121 -0.093972638 -28.736614 -0.091422603 -28.725641 -26.165812 -114.18489
142867000 -26.074915 -118.87949 -0.092523299 -28.937992 -0.0905516 -28.918909 -26.083302 -114.23885
143866000 -25.995718 -119.36237 -0.094657272 -29.13199 -0.092129841 -29.11713 -26.008387 -114.74873
144865000 -25.947754 -119.8852 -0.096566521 -29.33124 -0.093548894 -29.318048 -25.948856 -115.06812
145864000 -25.88471 -120.18942 -0.097335219 -29.533075 -0.094936132 -29.522339 -25.916618 -115.28886
146863000 -25.846224 -120.55882 -0.098009266 -29.731503 -0.094313882 -29.723064 -25.868467 -115.58037
147862000 -25.804873 -120.91982 -0.098915659 -29.933191 -0.096290208 -29.91757 -25.837048 -115.89349
148861000 -25.773159 -121.35046 -0.099853769 -30.131359 -0.097396374 -30.117081 -25.814743 -116.04471
149860000 -25.744516 -121.51265 -0.10094601 -30.323275 -0.097692885 -30.310621 -25.765659 -116.12563
150859000 -25.716967 -121.99887 -0.10104695 -30.519123 -0.097588308 -30.507977 -25.745819 -116.46844
151858000 -25.710157 -122.33576 -0.10019839 -30.719313 -0.097345017 -30.703928 -25.736849 -116.79845
152857000 -25.696077 -122.68215 -0.099743843 -30.916752 -0.097905211 -30.905609 -25.723679 -116.98393
153856000 -25.694227 -122.8871 -0.10002594 -31.122129 -0.097131647 -31.108435 -25.739737 -117.26209
154855000 -25.688267 -123.0413 -0.10033853 -31.321844 -0.097207092 -31.30859 -25.730339 -117.53279
155854000 -25.707287 -123.28275 -0.10043231 -31.518854 -0.098089494 -31.505936 -25.722742 -117.76546
156853000 -25.693083 -123.9509 -0.098506793 -31.707245 -0.097271949 -31.701828 -25.72184 -118.11182
157852000 -25.70319 -124.16528 -0.10027865 -31.91313 -0.098944791 -31.903736 -25.712557 -118.45548
158851000 -25.702164 -124.38921 -0.10083765 -32.107819 -0.099085949 -32.100796 -25.700859 -118.70848
159850000 -25.693905 -124.52707 -0.10140412 -32.306599 -0.099460706 -32.299747 -25.705763 -118.89483
160849000 -25.681133 -124.6132 -0.101707 -32.507 -0.10005508 -32.501728 -25.675352 -119.18172
161848000 -25.661104 -124.68614 -0.10184268 -32.709682 -0.09935423 -32.702366 -25.634548 -119.29133
162847000 -25.619556 -124.87474 -0.10242864 -32.908562 -0.10045562 -32.900661 -25.606894 -119.53011
163846000 -25.579683 -125.08687 -0.10235072 -33.110413 -0.10092243 -33.101547 -25.535276 -119.58627
164845000 -25.521957 -125.07284 -0.10256487 -33.311016 -0.10061298 -33.3018 -25.46839 -119.70216
165844000 -25.468828 -125.07135 -0.10348733 -33.510628 -0.1017343 -33.502426 -25.391907 -119.82487
166843000 -25.406855 -125.12299 -0.10284264 -33.711975 -0.10183208 -33.698845 -25.321779 -119.97704
167842000 -25.351883 -125.25559 -0.10308943 -33.906643 -0.10154774 -33.906239 -25.246719 -119.9247
168841000 -25.27426 -125.4367 -0.10400537 -34.111202 -0.10227439 -34.105499 -25.169205 -120.01781
169840000 -25.209064 -125.65865 -0.10425089 -34.303623 -0.10229427 -34.298351 -25.08507 -120.18023
170839000 -25.142584 -125.91667 -0.10524452 -34.498425 -0.10324291 -34.498295 -24.998808 -120.3428
171838000 -25.08946 -126.29165 -0.1046351 -34.705078 -0.1043543 -34.695244 -24.933332 -120.58049
172837000 -25.017847 -126.68575 -0.10612536 -34.899384 -0.10552379 -34.894779 -24.869541 -120.80262
173836000 -24.95088 -127.06416 -0.10738502 -35.099392 -0.10605904 -35.098324 -24.827492 -121.0442
174835000 -24.898928 -127.4481 -0.10843164 -35.296783 -0.10732877 -35.296612 -24.78162 -121.33871
175834000 -24.843151 -127.82463 -0.10899433 -35.498951 -0.10827771 -35.491989 -24.723316 -121.61604
176833000 -24.790699 -128.18329 -0.10984302 -35.696346 -0.10872784 -35.694824 -24.668886 -121.74221
177832000 -24.749775 -128.62183 -0.11095743 -35.897057 -0.10977426 -35.893726 -24.649426 -121.89063
178831000 -24.706554 -128.90781 -0.11249263 -36.094368 -0.1108913 -36.091492 -24.611542 -121.99932
179830000 -24.64382 -129.18874 -0.11406133 -36.282234 -0.11216801 -36.282356 -24.556612 -121.98636
180829000 -24.578159 -129.56535 -0.11287306 -36.475651 -0.11224983 -36.469711 -24.498787 -122.2872
181828000 -24.558647 -129.99182 -0.11262812 -36.676197 -0.11143334 -36.669907 -24.478268 -122.53246
182827000 -24.534903 -130.40173 -0.11273225 -36.865025 -0.11133189 -36.870022 -24.465204 -122.65523
183826000 -24.491865 -130.73343 -0.11303619 -37.064323 -0.11161102 -37.065693 -24.457932 -122.80119
184825000 -24.494261 -131.06973 -0.11324635 -37.266068 -0.11134941 -37.263706 -24.434101 -122.90647
185824000 -24.465702 -131.43483 -0.11311882 -37.45792 -0.11227825 -37.46096 -24.430641 -122.97186
186823000 -24.446461 -131.78078 -0.11305638 -37.659321 -0.11176533 -37.658653 -24.424479 -122.98902
187822000 -24.423998 -132.1223 -0.11373394 -37.85376 -0.11285287 -37.851547 -24.385881 -123.08911
188821000 -24.39749 -132.37816 -0.11336459 -38.049976 -0.11305744 -38.052139 -24.367138 -123.20734
189820000 -24.376694 -132.67409 -0.1140608 -38.252277 -0.11270436 -38.252377 -24.342743 -123.41137
190819000 -24.341251 -132.96405 -0.11464814 -38.447868 -0.11365768 -38.446095 -24.306452 -123.46532
191818000 -24.311769 -133.28764 -0.11526427 -38.646111 -0.11411448 -38.64822 -24.27849 -123.49123
192817000 -24.265162 -133.57115 -0.11501972 -38.845116 -0.11453013 -38.846451 -24.233177 -123.58889
193816000 -24.229641 -133.81465 -0.11569386 -39.038208 -0.1134924 -39.038212 -24.17959 -123.76867
194815000 -24.167822 -134.19429 -0.11581402 -39.234848 -0.11558034 -39.239651 -24.113621 -123.80415
195814000 -24.110178 -134.39972 -0.11679833 -39.435013 -0.11607404 -39.433296 -24.056839 -123.94968
196813000 -24.055759 -134.73401 -0.1164242 -39.631355 -0.11582306 -39.628799 -23.977272 -124.0723
197812000 -23.998652 -134.98544 -0.1161219 -39.826988 -0.11570556 -39.827202 -23.905342 -124.18985
198811000 -23.941246 -135.13412 -0.11714909 -40.021904 -0.11607138 -40.024956 -23.833549 -124.35069
199810000 -23.875368 -135.45963 -0.11699033 -40.218475 -0.11582679 -40.215263 -23.753777 -124.44594
200809000 -23.812029 -135.71919 -0.11753073 -40.413147 -0.11650637 -40.415829 -23.675243 -124.64159
201808000 -23.75634 -135.93292 -0.11792862 -40.614635 -0.11735732 -40.618385 -23.606827 -124.71196
202807000 -23.698832 -136.28294 -0.11866706 -40.816822 -0.11829357 -40.820267 -23.55134 -124.91471
203806000 -23.64542 -136.71468 -0.12052648 -41.017429 -0.11852474 -41.017563 -23.486704 -125.08441
