!Keysight Technologies,E5080B,MY59205177,A.15.75.32
!Date: Friday, February 23, 2024 03:25:27
!Correction: S11(Cdelta 2-Port  ) 
!S21(Cdelta 2-Port  ) 
!S12(Cdelta 2-Port  ) 
!S22(Cdelta 2-Port  ) 
!S2P File: Measurements: S11, S21, S12, S22:
# Hz S  dB   R 50
10000000 -45.857094 -0.15009093 -0.01676137 -2.0607967 -0.019033926 -2.1126697 -46.271473 -159.71773
10999000 -45.07019 -2.0071101 -0.01804943 -2.2802362 -0.019007146 -2.3350124 -46.296967 -153.62297
11998000 -44.137905 -4.8449407 -0.018029675 -2.5060968 -0.018864151 -2.549577 -46.511162 -148.91797
12997000 -43.4314 -10.869432 -0.017512431 -2.6850617 -0.018682685 -2.7189353 -46.15152 -143.09462
13996000 -43.177578 -14.499419 -0.017301394 -2.8666656 -0.018801235 -2.8928676 -45.979671 -137.55974
14995000 -42.800198 -18.794941 -0.019141825 -3.0771203 -0.018432595 -3.1013691 -45.698952 -133.77521
15994000 -42.663845 -23.238993 -0.02021005 -3.2986839 -0.021338627 -3.3192949 -45.621346 -129.8024
16993000 -42.622131 -27.300234 -0.019430438 -3.4949057 -0.020626437 -3.5031092 -44.740837 -129.83115
17992000 -42.743183 -32.452408 -0.019941408 -3.6985795 -0.021686442 -3.7014747 -44.17807 -130.21361
18991000 -43.028137 -37.545685 -0.021133127 -3.9111016 -0.022878377 -3.9027352 -43.515411 -128.47493
19990000 -42.834908 -43.127125 -0.023227876 -4.1195531 -0.02480969 -4.1143603 -42.873878 -129.59143
20989000 -42.705963 -46.620064 -0.026119933 -4.3202891 -0.026740301 -4.3167834 -42.305843 -128.65672
21988000 -42.574848 -51.846577 -0.026511364 -4.5199089 -0.027635068 -4.5133071 -42.089767 -128.14149
22987000 -42.295559 -56.753986 -0.027930759 -4.7189927 -0.029017044 -4.7123356 -41.814106 -127.31689
23986000 -42.276237 -60.955826 -0.027080733 -4.9187284 -0.027116159 -4.9163828 -41.683834 -127.07806
24985000 -41.909592 -63.861744 -0.02794561 -5.1272168 -0.027890638 -5.1224561 -41.475933 -124.4542
25984000 -41.562965 -65.855217 -0.029931046 -5.3326955 -0.0284469 -5.3360572 -41.161514 -122.80695
26983000 -41.267719 -68.050781 -0.030447945 -5.5337629 -0.029351922 -5.5521922 -41.058304 -122.19293
27982000 -41.13007 -68.784424 -0.031606045 -5.7317891 -0.030904682 -5.7706585 -40.802357 -120.67336
28981000 -41.085918 -70.633949 -0.029823661 -5.9315138 -0.030777719 -5.9576874 -40.565384 -119.9472
29980000 -40.68668 -71.750214 -0.030334029 -6.126132 -0.031292897 -6.1353555 -40.29195 -118.92117
30979000 -40.250351 -70.976036 -0.028017776 -6.4826493 -0.025969673 -6.4776545 -39.763763 -119.33688
31978000 -40.053394 -72.078957 -0.026710087 -6.6792431 -0.027427183 -6.6697283 -39.514011 -118.42348
32977000 -39.880157 -73.588135 -0.027754122 -6.8921599 -0.028141532 -6.8851924 -39.290268 -118.70411
33976000 -39.705395 -74.616508 -0.027584789 -7.0951676 -0.028768964 -7.0870428 -38.966423 -117.93509
34975000 -39.403049 -75.569077 -0.027925808 -7.2944288 -0.029776745 -7.2954941 -38.725693 -117.61208
35974000 -39.210079 -76.128212 -0.027504552 -7.4885826 -0.029766841 -7.4935389 -38.465443 -116.65
36973000 -38.975716 -76.722466 -0.028247314 -7.6901479 -0.030084312 -7.6955452 -38.183842 -115.69254
37972000 -38.77832 -76.669197 -0.027849995 -7.9013081 -0.030604878 -7.9120202 -37.946362 -114.85219
38971000 -38.461086 -76.177811 -0.028481554 -8.1064968 -0.03034159 -8.115653 -37.781624 -113.16333
39970000 -38.117222 -76.534828 -0.027325589 -8.3000574 -0.029526537 -8.3152456 -37.509853 -112.57979
40969000 -37.81596 -76.243919 -0.027890638 -8.4986248 -0.029595083 -8.5170107 -37.261497 -111.07907
41968000 -37.452473 -76.18399 -0.028103754 -8.703125 -0.029565891 -8.7189312 -37.054111 -109.8365
42967000 -37.160339 -76.327164 -0.027127098 -8.9129667 -0.029979527 -8.9348993 -36.869289 -107.83212
43966000 -36.887138 -77.164169 -0.028733004 -9.1182375 -0.031841248 -9.1326246 -36.594223 -107.09743
44965000 -36.64904 -77.87426 -0.028753068 -9.3209114 -0.031696785 -9.335391 -36.331348 -106.75153
45964000 -36.414734 -78.93837 -0.030319953 -9.515027 -0.032998152 -9.5371132 -36.111332 -106.53812
46963000 -36.216095 -80.917488 -0.030814217 -9.7158823 -0.033471592 -9.7387686 -35.934139 -106.63235
47962000 -36.069691 -82.40136 -0.032902949 -9.9170885 -0.035436593 -9.9382782 -35.718479 -106.71152
48961000 -35.845726 -83.785324 -0.034860909 -10.111594 -0.037151311 -10.137731 -35.488758 -106.85664
49960000 -35.616531 -85.185844 -0.035561081 -10.312858 -0.038093664 -10.342067 -35.356968 -106.90596
50959000 -35.399139 -86.519119 -0.036453232 -10.531434 -0.03968456 -10.540127 -35.166431 -107.09566
51958000 -35.194153 -87.598915 -0.038287435 -10.731972 -0.040397532 -10.741827 -34.995495 -107.62219
52957000 -34.982212 -88.717491 -0.040217776 -10.929979 -0.041894134 -10.937484 -34.822796 -107.33685
53956000 -34.811768 -89.332474 -0.040961146 -11.131545 -0.042462651 -11.135717 -34.700802 -107.28464
54955000 -34.645096 -89.859367 -0.041818339 -11.336508 -0.043340269 -11.331269 -34.543819 -107.15096
55954000 -34.469196 -90.726814 -0.043310985 -11.537073 -0.044145104 -11.535755 -34.423279 -106.92181
56953000 -34.346542 -90.731522 -0.043113329 -11.736761 -0.043060258 -11.724065 -34.353016 -107.10081
57952000 -34.187916 -91.369606 -0.044320576 -11.933351 -0.044550192 -11.922548 -34.266506 -107.09824
58951000 -34.061756 -91.73761 -0.045118533 -12.141563 -0.04556321 -12.119203 -34.103268 -107.22874
59950000 -33.938995 -92.033852 -0.045985699 -12.339501 -0.045472439 -12.321563 -34.038681 -107.36858
60949000 -33.817928 -92.564133 -0.046516288 -12.544467 -0.046102904 -12.522998 -33.943848 -107.72803
61948000 -33.754902 -92.922897 -0.047440261 -12.743945 -0.046809342 -12.728388 -33.850918 -107.752
62947000 -33.682308 -93.119278 -0.047287691 -12.954117 -0.047176212 -12.936728 -33.708523 -108.07254
63946000 -33.599949 -93.874138 -0.048437987 -13.156447 -0.048073106 -13.133203 -33.603474 -108.16402
64945000 -33.500919 -94.022751 -0.049212612 -13.356612 -0.049422592 -13.335194 -33.490612 -108.68137
65944000 -33.394501 -94.363678 -0.050054152 -13.558009 -0.049276497 -13.539258 -33.395756 -109.1359
66943000 -33.250523 -94.745644 -0.048106086 -13.760729 -0.048152152 -13.74176 -33.294319 -109.3856
67942000 -33.186546 -94.657173 -0.050014086 -13.957786 -0.050086621 -13.946276 -33.17292 -109.71715
68941000 -33.063736 -94.769081 -0.04999052 -14.151782 -0.048720703 -14.14303 -33.058113 -109.7282
69940000 -32.960861 -94.757462 -0.049954124 -14.348022 -0.050032679 -14.340111 -32.91396 -109.98592
70939000 -32.857086 -94.619858 -0.049922176 -14.547135 -0.049793869 -14.537781 -32.774857 -109.87392
71938000 -32.719151 -94.247215 -0.050279096 -14.743651 -0.049307913 -14.73924 -32.64542 -109.72208
72937000 -32.547459 -94.036316 -0.049409762 -14.945275 -0.050170943 -14.937747 -32.49892 -109.40076
73936000 -32.408321 -93.664993 -0.049356874 -15.142916 -0.048916254 -15.131193 -32.381767 -109.19289
74935000 -32.27911 -93.898567 -0.049292203 -15.33871 -0.048652377 -15.337833 -32.217842 -108.80175
75934000 -32.141697 -94.170799 -0.04944982 -15.550979 -0.048384849 -15.543065 -32.126328 -108.82104
76933000 -32.010986 -94.462723 -0.050833255 -15.745063 -0.050358184 -15.738327 -31.951567 -109.13932
77932000 -31.909658 -95.312424 -0.0518797 -15.94074 -0.051809493 -15.937359 -31.844177 -109.03844
78931000 -31.831703 -96.056252 -0.05048991 -16.141546 -0.051287688 -16.135992 -31.740232 -108.9453
79930000 -31.716667 -96.903122 -0.05360014 -16.335157 -0.053491905 -16.337429 -31.641317 -109.18746
80929000 -31.607084 -97.789162 -0.054875843 -16.533173 -0.055189911 -16.531887 -31.542692 -109.45016
81928000 -31.502323 -98.471901 -0.054980442 -16.725052 -0.055539139 -16.722437 -31.407883 -109.46025
82927000 -31.402777 -99.256691 -0.057065621 -16.923203 -0.057109684 -16.92432 -31.288929 -109.82664
83926000 -31.287209 -99.942383 -0.057913929 -17.124929 -0.058433644 -17.12394 -31.163004 -109.93901
84925000 -31.179338 -100.3783 -0.059058908 -17.326694 -0.057688326 -17.320448 -31.071123 -109.93027
85924000 -31.080549 -100.76795 -0.059991855 -17.523241 -0.059441771 -17.521832 -30.980967 -109.95065
86923000 -30.978388 -101.26909 -0.060605004 -17.718594 -0.059799213 -17.717625 -30.873055 -109.85404
87922000 -30.855022 -101.67066 -0.060249861 -17.932125 -0.060050122 -17.921663 -30.789314 -109.79613
88921000 -30.790009 -101.93446 -0.061639104 -18.12676 -0.060546469 -18.124983 -30.697823 -109.76305
89920000 -30.685673 -102.4745 -0.062874362 -18.328806 -0.061475534 -18.321671 -30.635454 -109.88554
90919000 -30.582695 -102.73912 -0.062971011 -18.526615 -0.062227018 -18.51964 -30.543877 -110.14556
91918000 -30.488155 -103.15681 -0.064118907 -18.725452 -0.06217555 -18.718449 -30.481569 -110.0377
92917000 -30.396523 -103.42183 -0.064774938 -18.924826 -0.064004891 -18.923429 -30.40797 -110.14517
93916000 -30.293249 -103.80956 -0.065316238 -19.122543 -0.064620443 -19.115635 -30.320686 -110.7953
94915000 -30.226795 -104.41582 -0.066215836 -19.322834 -0.065125458 -19.31716 -30.264862 -110.64658
95914000 -30.163111 -104.62444 -0.067651689 -19.515821 -0.066407971 -19.514349 -30.168919 -110.90924
96913000 -30.074797 -104.87029 -0.069021471 -19.718351 -0.067094848 -19.716578 -30.104538 -111.26611
97912000 -29.994926 -105.35794 -0.069990493 -19.913572 -0.067944065 -19.914896 -30.032154 -111.50056
98911000 -29.872873 -105.5066 -0.070151493 -20.115698 -0.068800814 -20.114599 -29.982431 -111.65712
99910000 -29.818264 -105.63935 -0.071498118 -20.315441 -0.069536202 -20.313515 -29.879421 -112.04523
100909000 -29.72517 -105.88147 -0.070872381 -20.52437 -0.068761624 -20.51523 -29.787264 -112.22344
101908000 -29.63327 -106.10475 -0.072159484 -20.726492 -0.070295133 -20.721273 -29.677559 -111.94466
102907000 -29.49299 -106.10858 -0.072489545 -20.92514 -0.070355117 -20.922522 -29.608341 -111.91953
103906000 -29.40045 -106.17699 -0.072946511 -21.133707 -0.070060737 -21.124271 -29.454332 -111.89468
104905000 -29.251987 -106.0582 -0.074118637 -21.329432 -0.070127554 -21.328814 -29.325294 -111.59248
105904000 -29.108395 -106.11069 -0.073886134 -21.533842 -0.071332335 -21.526066 -29.21492 -111.45479
106903000 -29.000109 -106.22154 -0.073877446 -21.743526 -0.070745029 -21.73781 -29.087179 -111.38402
107902000 -28.830896 -106.58348 -0.074751429 -21.936674 -0.071775757 -21.934254 -28.951065 -111.32503
108901000 -28.726866 -106.81523 -0.075518116 -22.145311 -0.072990209 -22.135971 -28.817375 -111.28059
109900000 -28.597454 -107.27955 -0.076206177 -22.343748 -0.074395128 -22.335283 -28.662386 -111.30445
110899000 -28.4774 -107.9025 -0.078141585 -22.543028 -0.075453058 -22.538374 -28.543325 -111.59962
111898000 -28.393999 -108.5799 -0.079081804 -22.74217 -0.076149799 -22.736677 -28.422813 -111.76498
112897000 -28.265484 -109.12741 -0.080918811 -22.943352 -0.077243999 -22.928013 -28.282646 -111.8624
113896000 -28.16021 -109.70106 -0.081912123 -23.14381 -0.078726463 -23.131762 -28.171518 -112.07139
114895000 -28.061888 -110.38161 -0.083231263 -23.34417 -0.080707572 -23.326979 -28.063185 -112.13467
115894000 -27.936138 -110.78168 -0.084200032 -23.543442 -0.080816485 -23.533974 -27.99052 -112.34997
116893000 -27.871586 -111.23178 -0.084668264 -23.743513 -0.082389079 -23.726944 -27.877098 -112.36773
117892000 -27.778244 -111.68441 -0.084765933 -23.939383 -0.083700977 -23.926796 -27.794899 -112.57989
118891000 -27.725838 -112.18599 -0.085477628 -24.137884 -0.083250001 -24.126842 -27.698792 -112.71246
119890000 -27.630432 -112.52974 -0.085941248 -24.341848 -0.08419212 -24.329227 -27.67873 -112.81664
120889000 -27.58309 -113.01546 -0.087877043 -24.542994 -0.084621549 -24.530172 -27.609909 -112.76015
121888000 -27.545687 -113.3591 -0.088930078 -24.740726 -0.085132323 -24.729902 -27.550053 -113.03944
122887000 -27.503857 -113.54309 -0.089312412 -24.940105 -0.08562284 -24.929678 -27.503336 -113.0407
123886000 -27.45089 -113.93956 -0.089788862 -25.147058 -0.086441882 -25.124395 -27.492361 -113.21229
124885000 -27.412849 -114.48311 -0.089763753 -25.348083 -0.086865202 -25.331076 -27.462126 -113.22261
125884000 -27.366673 -114.67817 -0.09059336 -25.544258 -0.087275878 -25.530788 -27.42865 -113.39689
126883000 -27.34601 -115.04058 -0.09094809 -25.74649 -0.087759234 -25.735506 -27.387375 -113.42884
127882000 -27.290159 -115.36854 -0.09122248 -25.949778 -0.08849784 -25.934145 -27.350855 -113.53415
128881000 -27.262583 -115.68152 -0.092079602 -26.151592 -0.088761508 -26.136086 -27.308052 -113.6527
129880000 -27.207897 -116.04828 -0.092542872 -26.352844 -0.089346498 -26.334675 -27.262024 -113.56958
130879000 -27.13887 -116.16194 -0.092309907 -26.55447 -0.089990504 -26.534954 -27.191647 -113.64034
131878000 -27.071665 -116.41694 -0.093131274 -26.755867 -0.090451166 -26.73723 -27.126532 -113.49307
132877000 -26.997772 -116.47769 -0.09279488 -26.958275 -0.090487905 -26.938231 -27.038513 -113.51167
133876000 -26.914268 -116.6456 -0.093147673 -27.161913 -0.090027496 -27.140594 -26.949133 -113.38219
134875000 -26.820904 -116.76267 -0.093064368 -27.360312 -0.091530465 -27.339056 -26.842867 -113.22142
135874000 -26.728691 -116.80987 -0.092889294 -27.560856 -0.090703323 -27.54336 -26.748081 -113.19122
136873000 -26.616177 -116.73869 -0.094411239 -27.763994 -0.09071257 -27.748184 -26.660763 -113.14301
137872000 -26.533373 -116.8947 -0.094254628 -27.968962 -0.091500327 -27.953209 -26.555965 -113.09206
138871000 -26.454859 -117.06934 -0.094620764 -28.164822 -0.091684334 -28.148672 -26.454081 -113.23735
139870000 -26.355461 -117.40437 -0.095120817 -28.366806 -0.09278404 -28.34783 -26.370935 -113.42023
140869000 -26.276752 -117.981 -0.096009403 -28.565807 -0.093439393 -28.542505 -26.268419 -113.62157
141868000 -26.193581 -118.34912 -0.09712556 -28.763226 -0.094679765 -28.746256 -26.21405 -113.88487
142867000 -26.11191 -118.56556 -0.095374301 -28.9603 -0.094605424 -28.943262 -26.135759 -113.99215
143866000 -26.039289 -119.04483 -0.097838499 -29.156384 -0.09552566 -29.140999 -26.061382 -114.48981
144865000 -25.979525 -119.54594 -0.099727951 -29.355804 -0.096906915 -29.342209 -25.998556 -114.77484
145864000 -25.926908 -119.90135 -0.099603727 -29.557354 -0.097971939 -29.543741 -25.97028 -115.00868
146863000 -25.873898 -120.24934 -0.10113201 -29.75992 -0.098838598 -29.745853 -25.917198 -115.33419
147862000 -25.840942 -120.61151 -0.10222721 -29.955387 -0.09893579 -29.944807 -25.880171 -115.62955
148861000 -25.808428 -121.0516 -0.10269845 -30.157059 -0.10099979 -30.140505 -25.860188 -115.78396
149860000 -25.780249 -121.1991 -0.10371877 -30.348597 -0.10143512 -30.33881 -25.81439 -115.85515
150859000 -25.753778 -121.68754 -0.10399503 -30.543568 -0.1013983 -30.529091 -25.792517 -116.18454
151858000 -25.743652 -122.04036 -0.1033007 -30.743631 -0.10145818 -30.732386 -25.783493 -116.50799
152857000 -25.727161 -122.37234 -0.10331183 -30.941423 -0.10182016 -30.932726 -25.76766 -116.71292
153856000 -25.725706 -122.56651 -0.10374952 -31.143894 -0.10089222 -31.132095 -25.782387 -117.01603
154855000 -25.725828 -122.73823 -0.10407457 -31.343189 -0.10097038 -31.333624 -25.777449 -117.23067
155854000 -25.742922 -123.00369 -0.10450968 -31.545609 -0.10136199 -31.533932 -25.776178 -117.51682
156853000 -25.727333 -123.69328 -0.10131854 -31.733046 -0.10102258 -31.727154 -25.766325 -117.8107
157852000 -25.741795 -123.89634 -0.10385107 -31.934977 -0.10267115 -31.926176 -25.756281 -118.19159
158851000 -25.737129 -124.09787 -0.10422093 -32.1343 -0.10269342 -32.122925 -25.743399 -118.431
159850000 -25.728405 -124.21922 -0.10473667 -32.336193 -0.10311991 -32.324265 -25.75164 -118.59731
160849000 -25.713598 -124.31946 -0.10459559 -32.53569 -0.10419017 -32.5294 -25.720772 -118.8885
161848000 -25.700003 -124.38486 -0.10566755 -32.735394 -0.10415809 -32.725922 -25.68362 -118.99757
162847000 -25.658453 -124.60675 -0.10516416 -32.935219 -0.10457067 -32.927982 -25.656096 -119.25362
163846000 -25.615587 -124.7924 -0.10575109 -33.132095 -0.10454681 -33.123604 -25.582571 -119.25281
164845000 -25.558439 -124.75177 -0.10606541 -33.333641 -0.10521959 -33.3284 -25.518837 -119.3849
165844000 -25.508121 -124.8331 -0.10599008 -33.53326 -0.10598557 -33.527462 -25.438145 -119.49569
166843000 -25.442026 -124.86377 -0.10572271 -33.732769 -0.105632 -33.726601 -25.369644 -119.71256
167842000 -25.38336 -124.99094 -0.10637259 -33.932491 -0.1060044 -33.925892 -25.293797 -119.59545
168841000 -25.307966 -125.13617 -0.10761905 -34.132755 -0.10643626 -34.125526 -25.219934 -119.70145
169840000 -25.241791 -125.39619 -0.10694033 -34.327919 -0.1069191 -34.325863 -25.130512 -119.9041
170839000 -25.182224 -125.63505 -0.10821243 -34.530247 -0.10704274 -34.522575 -25.050898 -120.04344
171838000 -25.122936 -126.05152 -0.10816837 -34.730621 -0.10846508 -34.718758 -24.984385 -120.30183
172837000 -25.055861 -126.41125 -0.1095879 -34.927528 -0.10917165 -34.921677 -24.916599 -120.51131
173836000 -24.983326 -126.81559 -0.11098133 -35.128223 -0.1098263 -35.123512 -24.872673 -120.73614
174835000 -24.928993 -127.24011 -0.11098053 -35.3218 -0.11087883 -35.320839 -24.82881 -121.07957
175834000 -24.881769 -127.58776 -0.11231199 -35.523582 -0.1120846 -35.519577 -24.762993 -121.31937
176833000 -24.823761 -127.97465 -0.11308614 -35.721256 -0.11295968 -35.716618 -24.71217 -121.48285
177832000 -24.783337 -128.36804 -0.114511 -35.920624 -0.11310606 -35.922276 -24.689156 -121.62842
178831000 -24.743647 -128.63783 -0.11525789 -36.120834 -0.1147797 -36.118225 -24.656517 -121.7775
179830000 -24.686708 -128.97375 -0.11724031 -36.314404 -0.11616231 -36.310146 -24.613571 -121.74442
180829000 -24.616579 -129.25047 -0.11772781 -36.49741 -0.11708181 -36.499397 -24.54369 -121.9698
181828000 -24.585232 -129.77777 -0.11657231 -36.69841 -0.1153908 -36.692417 -24.518103 -122.22088
182827000 -24.562248 -130.1433 -0.1160416 -36.893738 -0.1161538 -36.894306 -24.507553 -122.4011
183826000 -24.52046 -130.46556 -0.11701798 -37.093269 -0.11620352 -37.090878 -24.495085 -122.56174
184825000 -24.528831 -130.80257 -0.11735972 -37.288544 -0.11608521 -37.291203 -24.479328 -122.66285
185824000 -24.50112 -131.17848 -0.11736211 -37.483021 -0.11727169 -37.492317 -24.47191 -122.74555
186823000 -24.478109 -131.52527 -0.11720334 -37.684048 -0.11649334 -37.68219 -24.46533 -122.73932
187822000 -24.456041 -131.86488 -0.11736903 -37.881275 -0.11727329 -37.882553 -24.422876 -122.82372
188821000 -24.426514 -132.13733 -0.1171951 -38.078609 -0.1174302 -38.084671 -24.398817 -122.94881
189820000 -24.403454 -132.43117 -0.11810417 -38.279709 -0.11769722 -38.279064 -24.383408 -123.19526
190819000 -24.37191 -132.69443 -0.11863513 -38.47673 -0.11787862 -38.474171 -24.34071 -123.19012
191818000 -24.336996 -133.03697 -0.11895811 -38.672291 -0.11843083 -38.676895 -24.310375 -123.24865
192817000 -24.292507 -133.2861 -0.11951391 -38.869862 -0.11862662 -38.871452 -24.271727 -123.33936
193816000 -24.258471 -133.55801 -0.11999927 -39.06686 -0.11841966 -39.069267 -24.211628 -123.49284
194815000 -24.194798 -133.95366 -0.11983615 -39.262341 -0.12000008 -39.265678 -24.14221 -123.57441
195814000 -24.136835 -134.14922 -0.12132738 -39.456902 -0.12019701 -39.463802 -24.0879 -123.66223
196813000 -24.078228 -134.47812 -0.12055336 -39.653507 -0.1202324 -39.660534 -24.00704 -123.82654
197812000 -24.019691 -134.70432 -0.1204642 -39.855289 -0.12047325 -39.853176 -23.937616 -123.95834
198811000 -23.965761 -134.84792 -0.12063613 -40.052521 -0.12034125 -40.050911 -23.865896 -124.11997
199810000 -23.89267 -135.20566 -0.12128186 -40.248047 -0.12074579 -40.244312 -23.783382 -124.19834
200809000 -23.83943 -135.47281 -0.12162898 -40.445194 -0.12068404 -40.441589 -23.706049 -124.42603
201808000 -23.778999 -135.69431 -0.12197241 -40.645565 -0.12220751 -40.645874 -23.637543 -124.48729
202807000 -23.718542 -136.04372 -0.12239308 -40.845303 -0.12281752 -40.848389 -23.57538 -124.67738
203806000 -23.666367 -136.44183 -0.12506342 -41.046272 -0.1232135 -41.044006 -23.512827 -124.82224
