!Keysight Technologies,E5080B,MY59205177,A.15.75.32
!Date: Friday, February 23, 2024 02:46:01
!Correction: S11(Cdelta 2-Port  ) 
!S21(Cdelta 2-Port  ) 
!S12(Cdelta 2-Port  ) 
!S22(Cdelta 2-Port  ) 
!S2P File: Measurements: S11, S21, S12, S22:
# Hz S  dB   R 50
10000000 -38.864456 -3.3980181 -0.074239232 -2.0592389 -0.077950776 -2.1115799 -51.828506 -43.357777
10999000 -38.493969 -4.3143415 -0.075627171 -2.2756391 -0.077385761 -2.3292923 -50.354141 -46.554913
11998000 -38.070492 -5.8511796 -0.075516798 -2.4979279 -0.077422656 -2.543097 -49.222599 -46.579163
12997000 -37.675171 -8.9264851 -0.074537329 -2.6770053 -0.077389456 -2.7075725 -48.159775 -49.972324
13996000 -37.577599 -11.128905 -0.074155502 -2.8595383 -0.077566542 -2.8777609 -47.179443 -51.406174
14995000 -37.386795 -13.578313 -0.076448545 -3.0693028 -0.077482738 -3.0920432 -46.536671 -52.180393
15994000 -37.35717 -16.084223 -0.077119626 -3.2884855 -0.079842143 -3.3087983 -45.996372 -51.773823
16993000 -37.376762 -18.468 -0.076351859 -3.4861462 -0.078108639 -3.4954386 -45.693996 -57.430977
17992000 -37.50663 -21.44968 -0.076287054 -3.6837852 -0.079322226 -3.6881485 -45.592621 -61.482933
18991000 -37.754879 -24.027067 -0.077882782 -3.895762 -0.080642171 -3.892199 -45.038021 -64.981178
19990000 -37.773247 -27.293724 -0.080462053 -4.1035872 -0.082391717 -4.1015625 -44.915306 -70.485565
20989000 -37.770615 -29.265701 -0.082642354 -4.3134875 -0.084546588 -4.2988114 -44.379963 -73.697411
21988000 -37.81488 -32.477711 -0.083480097 -4.5059438 -0.085524097 -4.4943337 -44.105923 -74.573563
22987000 -37.823776 -35.636375 -0.084822156 -4.708003 -0.086608775 -4.6992755 -43.908157 -75.736252
23986000 -37.922207 -38.07999 -0.08450567 -4.9010644 -0.085364901 -4.8987069 -43.742512 -76.298996
24985000 -37.819519 -40.329567 -0.086082242 -5.1105604 -0.086384848 -5.1081018 -43.236687 -75.422867
25984000 -37.713478 -42.147362 -0.086549096 -5.3142323 -0.086399108 -5.3214445 -42.794552 -75.933243
26983000 -37.55373 -44.049217 -0.087456271 -5.5171905 -0.087355644 -5.5346541 -42.600838 -75.745308
27982000 -37.501678 -44.898609 -0.088604309 -5.7164912 -0.089069583 -5.753767 -42.159512 -76.000351
28981000 -37.515278 -46.282421 -0.087056406 -5.9191823 -0.088808008 -5.9440985 -41.907688 -76.797089
29980000 -37.347748 -48.026165 -0.087183967 -6.1105251 -0.089789391 -6.1174831 -41.591587 -77.054626
30979000 -37.039272 -48.113548 -0.084567703 -6.4666672 -0.084654808 -6.455555 -41.149281 -80.194366
31978000 -36.910141 -49.202492 -0.083856151 -6.6622591 -0.08538074 -6.6526122 -40.850582 -80.703819
32977000 -36.851875 -50.727074 -0.084504619 -6.8749671 -0.086140066 -6.8698521 -40.619789 -81.64299
33976000 -36.784805 -51.988182 -0.085139193 -7.0737514 -0.086660795 -7.0680528 -40.286983 -82.279396
34975000 -36.589451 -53.209965 -0.085006937 -7.2739391 -0.087242074 -7.2753015 -40.059811 -82.968819
35974000 -36.461601 -54.128349 -0.084732674 -7.4687734 -0.087418236 -7.4733124 -39.65995 -83.160858
36973000 -36.300514 -55.139149 -0.084991097 -7.6704597 -0.087827913 -7.6745229 -39.284805 -83.314369
37972000 -36.154484 -55.538948 -0.08457879 -7.8829212 -0.087626368 -7.8851686 -39.035389 -83.514
38971000 -35.889748 -55.957436 -0.085066333 -8.0824699 -0.088033162 -8.0921926 -38.725285 -82.574348
39970000 -35.641575 -56.887173 -0.083700709 -8.2814837 -0.087092057 -8.2927618 -38.407372 -82.839424
40969000 -35.414288 -57.346611 -0.083579056 -8.4746695 -0.086672679 -8.4901056 -38.075779 -82.127243
41968000 -35.13633 -58.012512 -0.084408276 -8.6816559 -0.087081492 -8.6898346 -37.794651 -81.692924
42967000 -34.923508 -58.736225 -0.084211119 -8.8868618 -0.088127993 -8.9116201 -37.448109 -80.421692
43966000 -34.722706 -59.895844 -0.084742703 -9.0873928 -0.089168139 -9.1091156 -37.138771 -80.607147
44965000 -34.565567 -60.96883 -0.086063765 -9.2904387 -0.089329585 -9.314456 -36.914619 -80.990944
45964000 -34.411015 -62.190548 -0.087307043 -9.493681 -0.090690635 -9.5136271 -36.695206 -81.288383
46963000 -34.31509 -64.161392 -0.08730863 -9.688324 -0.091449305 -9.7099485 -36.527031 -82.161972
47962000 -34.225075 -65.573151 -0.089029953 -9.8895302 -0.092729032 -9.9073687 -36.324078 -82.800545
48961000 -34.106525 -67.177956 -0.091134451 -10.088141 -0.093950152 -10.109763 -36.124317 -83.55381
49960000 -33.961819 -68.672836 -0.092877656 -10.286987 -0.095268197 -10.308001 -36.009239 -84.007225
50959000 -33.807625 -70.149094 -0.093428813 -10.50076 -0.096591406 -10.510545 -35.863731 -84.786148
51958000 -33.692261 -71.430779 -0.095687874 -10.703566 -0.09844669 -10.709168 -35.708885 -85.804581
52957000 -33.547985 -72.742233 -0.097677 -10.90243 -0.10029084 -10.908944 -35.540203 -85.887756
53956000 -33.42762 -73.648628 -0.098183222 -11.107657 -0.10059629 -11.105187 -35.405476 -86.226059
54955000 -33.29398 -74.323006 -0.099596046 -11.303945 -0.10113996 -11.305367 -35.27533 -86.63533
55954000 -33.180607 -75.364578 -0.10059337 -11.505604 -0.10114525 -11.503016 -35.148071 -86.473984
56953000 -33.067318 -75.617004 -0.10030992 -11.702682 -0.10100111 -11.694445 -35.093502 -86.980736
57952000 -32.947483 -76.382065 -0.10160286 -11.901516 -0.10133258 -11.893419 -34.997551 -87.287209
58951000 -32.855576 -76.956406 -0.10202553 -12.105946 -0.10276949 -12.085971 -34.835995 -87.712341
59950000 -32.752399 -77.477882 -0.10368006 -12.304724 -0.10377285 -12.284097 -34.798439 -88.184631
60949000 -32.65403 -78.09761 -0.1039998 -12.510283 -0.10408173 -12.487041 -34.725597 -88.564896
61948000 -32.601917 -78.501839 -0.1045232 -12.706238 -0.10466109 -12.691213 -34.632393 -88.847534
62947000 -32.52869 -78.851799 -0.10407297 -12.920818 -0.10497321 -12.90104 -34.509544 -89.348068
63946000 -32.479637 -79.626419 -0.10568452 -13.119626 -0.10625163 -13.099951 -34.41061 -89.777031
64945000 -32.366562 -79.969063 -0.10624792 -13.320329 -0.10666839 -13.302369 -34.329517 -90.440933
65944000 -32.295547 -80.405762 -0.10712632 -13.519691 -0.10726747 -13.504201 -34.25729 -91.030022
66943000 -32.181034 -81.007179 -0.10526016 -13.720982 -0.10544237 -13.70349 -34.167313 -91.498146
67942000 -32.115551 -80.996902 -0.10684694 -13.919776 -0.10744339 -13.907747 -34.042072 -92.084503
68941000 -32.008892 -81.288811 -0.10698809 -14.111906 -0.10664823 -14.105063 -33.930004 -92.197456
69940000 -31.900866 -81.447365 -0.10702523 -14.312178 -0.10724466 -14.301927 -33.800709 -92.709557
70939000 -31.803576 -81.523735 -0.10756864 -14.513133 -0.10709209 -14.501862 -33.666054 -92.740112
71938000 -31.659632 -81.436462 -0.10702231 -14.706326 -0.1075352 -14.698829 -33.523228 -92.862877
72937000 -31.494244 -81.477814 -0.10714303 -14.904188 -0.10752512 -14.896137 -33.360538 -92.725655
73936000 -31.346151 -81.403618 -0.10622908 -15.102898 -0.10657819 -15.089715 -33.227222 -92.732376
74935000 -31.230907 -81.813667 -0.1057747 -15.297544 -0.10595056 -15.295095 -33.065468 -92.744568
75934000 -31.119312 -82.227692 -0.10566568 -15.507788 -0.10566224 -15.499569 -32.967964 -92.691246
76933000 -31.007627 -82.729851 -0.10747603 -15.701796 -0.10751371 -15.694035 -32.816578 -93.358803
77932000 -30.9268 -83.611633 -0.10837538 -15.896758 -0.10952737 -15.891321 -32.698959 -93.522957
78931000 -30.884556 -84.384567 -0.10795792 -16.099487 -0.10824984 -16.095087 -32.60191 -93.50663
79930000 -30.789928 -85.316154 -0.11071949 -16.289837 -0.11079385 -16.287371 -32.513042 -93.986603
80929000 -30.692186 -86.284271 -0.11245916 -16.484615 -0.11242834 -16.48447 -32.42292 -94.557266
81928000 -30.633566 -87.184204 -0.11212578 -16.679092 -0.11269586 -16.675592 -32.296055 -94.81559
82927000 -30.558687 -87.987823 -0.1144318 -16.881901 -0.11432762 -16.875826 -32.208607 -95.305275
83926000 -30.471714 -88.766121 -0.11512578 -17.074247 -0.11566462 -17.078978 -32.095798 -95.761459
84925000 -30.387024 -89.428772 -0.1165396 -17.278955 -0.1153076 -17.272459 -31.995525 -95.909874
85924000 -30.295755 -89.933563 -0.11732036 -17.477474 -0.11746317 -17.473934 -31.919075 -96.022675
86923000 -30.210388 -90.594955 -0.11771983 -17.673792 -0.11831113 -17.669661 -31.821505 -96.142731
87922000 -30.114588 -91.058395 -0.11747062 -17.88147 -0.11791985 -17.874729 -31.737396 -96.392036
88921000 -30.048634 -91.491623 -0.11891101 -18.079468 -0.11884318 -18.075209 -31.629671 -96.48114
89920000 -29.970007 -92.126663 -0.11982817 -18.278034 -0.11934203 -18.269253 -31.585728 -96.713921
90919000 -29.880648 -92.546944 -0.12011211 -18.472437 -0.1197188 -18.473228 -31.495842 -97.013115
91918000 -29.794765 -93.020775 -0.12148364 -18.673952 -0.12055522 -18.672726 -31.438673 -97.218353
92917000 -29.716496 -93.462021 -0.12302469 -18.871218 -0.12149322 -18.873875 -31.375559 -97.389862
93916000 -29.643852 -93.911499 -0.12190852 -19.065369 -0.12171365 -19.062962 -31.294529 -98.045181
94915000 -29.583252 -94.622772 -0.12374376 -19.269241 -0.1227126 -19.261295 -31.230619 -98.088959
95914000 -29.526211 -94.91803 -0.12424371 -19.463844 -0.12406604 -19.459887 -31.147707 -98.448082
96913000 -29.438061 -95.188652 -0.12536182 -19.666712 -0.12454072 -19.663015 -31.081739 -98.885826
97912000 -29.372267 -95.726685 -0.12657748 -19.860548 -0.12537886 -19.862951 -31.00972 -99.269409
98911000 -29.282307 -96.063751 -0.12706284 -20.061996 -0.12647276 -20.05825 -30.969656 -99.520096
99910000 -29.215012 -96.259216 -0.12742083 -20.261251 -0.12668756 -20.261818 -30.860628 -99.980858
100909000 -29.118134 -96.685272 -0.12787747 -20.468872 -0.12652019 -20.464272 -30.773973 -100.22428
101908000 -29.030949 -97.024796 -0.12901679 -20.668041 -0.12750132 -20.666428 -30.642256 -100.1332
102907000 -28.902491 -97.151199 -0.12917759 -20.870541 -0.12757038 -20.86767 -30.56728 -100.1243
103906000 -28.807795 -97.32476 -0.12930746 -21.072975 -0.12732033 -21.071365 -30.408651 -100.29404
104905000 -28.656809 -97.401245 -0.13010038 -21.274923 -0.12756424 -21.273691 -30.252655 -100.14787
105904000 -28.517839 -97.66143 -0.13015907 -21.475864 -0.12813474 -21.471148 -30.124416 -100.08591
106903000 -28.40736 -97.889244 -0.13035512 -21.682674 -0.12767993 -21.677782 -29.991367 -100.13967
107902000 -28.251709 -98.384232 -0.13111648 -21.882545 -0.12887706 -21.874159 -29.837389 -100.22234
108901000 -28.147017 -98.706322 -0.13250163 -22.082815 -0.1303986 -22.076162 -29.699133 -100.28558
109900000 -28.029423 -99.28006 -0.13379112 -22.28595 -0.13216458 -22.275 -29.538462 -100.55038
110899000 -27.922235 -99.99086 -0.13476563 -22.481676 -0.13268177 -22.473249 -29.412531 -100.97315
111898000 -27.841036 -100.77373 -0.13566718 -22.682871 -0.13338536 -22.677366 -29.283125 -101.31574
112897000 -27.726961 -101.45597 -0.13707007 -22.884363 -0.13477577 -22.872635 -29.147598 -101.61559
113896000 -27.630451 -102.08243 -0.13775298 -23.084105 -0.13669366 -23.074612 -29.043854 -101.94044
114895000 -27.537939 -102.82836 -0.13933137 -23.282082 -0.13727285 -23.270935 -28.926495 -102.14294
115894000 -27.41419 -103.27152 -0.14064988 -23.482304 -0.13927524 -23.470409 -28.848518 -102.44048
116893000 -27.339241 -103.91095 -0.141059 -23.680466 -0.13969384 -23.658524 -28.71414 -102.72868
117892000 -27.267986 -104.47251 -0.14141761 -23.874533 -0.14031674 -23.864666 -28.640837 -103.05753
118891000 -27.209677 -104.9378 -0.14211912 -24.077965 -0.14010847 -24.060694 -28.537315 -103.28915
119890000 -27.122791 -105.39425 -0.14342484 -24.276163 -0.14192735 -24.263863 -28.537437 -103.52425
120889000 -27.075756 -105.92763 -0.14361294 -24.480192 -0.14204797 -24.46583 -28.451853 -103.50454
121888000 -27.033764 -106.30194 -0.14424497 -24.679951 -0.14271241 -24.661158 -28.395361 -103.88139
122887000 -26.989969 -106.53802 -0.14551947 -24.878338 -0.14311877 -24.863329 -28.342962 -104.00009
123886000 -26.940609 -107.01691 -0.14631857 -25.080914 -0.14379756 -25.059048 -28.332764 -104.17438
124885000 -26.906723 -107.48708 -0.14660692 -25.276186 -0.14454255 -25.26511 -28.294676 -104.26067
125884000 -26.850616 -107.75895 -0.14782213 -25.476969 -0.14396131 -25.461586 -28.269316 -104.51583
126883000 -26.832722 -108.14618 -0.14808728 -25.677261 -0.14517792 -25.667032 -28.221891 -104.55306
127882000 -26.779982 -108.49738 -0.14821772 -25.877094 -0.14525287 -25.861616 -28.176563 -104.79686
128881000 -26.751638 -108.85796 -0.14834388 -26.082211 -0.14571783 -26.063234 -28.134411 -104.959
129880000 -26.690529 -109.18554 -0.1494323 -26.28299 -0.14612928 -26.261757 -28.08732 -104.97865
130879000 -26.623266 -109.38905 -0.14903179 -26.482962 -0.14745469 -26.466892 -28.00532 -105.09817
131878000 -26.562296 -109.69361 -0.14963646 -26.683819 -0.14691806 -26.665699 -27.933807 -104.9882
132877000 -26.490973 -109.79988 -0.14974713 -26.888252 -0.14742096 -26.865807 -27.841936 -105.11031
133876000 -26.402166 -110.06055 -0.14991647 -27.089264 -0.14704365 -27.067818 -27.736383 -105.07288
134875000 -26.305645 -110.25439 -0.1498117 -27.288418 -0.14810121 -27.264673 -27.626598 -105.02289
135874000 -26.229326 -110.34542 -0.15051726 -27.483412 -0.14779401 -27.470434 -27.515905 -105.06261
136873000 -26.106882 -110.38622 -0.15051243 -27.688749 -0.1480163 -27.669374 -27.428553 -105.12954
137872000 -26.028044 -110.56068 -0.15079758 -27.895245 -0.1483653 -27.875143 -27.317665 -105.11804
138871000 -25.958721 -110.83243 -0.1512433 -28.089689 -0.14857237 -28.071821 -27.216396 -105.40338
139870000 -25.860083 -111.15411 -0.15259548 -28.294445 -0.14949098 -28.27578 -27.128757 -105.63328
140869000 -25.779877 -111.63648 -0.15378688 -28.484589 -0.15151671 -28.469421 -27.02438 -105.8375
141868000 -25.694061 -112.22527 -0.15435548 -28.680418 -0.15248528 -28.662575 -26.954279 -106.26687
142867000 -25.619211 -112.50788 -0.15349133 -28.87792 -0.1511519 -28.861942 -26.88217 -106.51064
143866000 -25.563435 -113.06347 -0.15579849 -29.074692 -0.15267323 -29.060604 -26.815737 -107.11298
144865000 -25.506527 -113.65791 -0.15638427 -29.275578 -0.15392607 -29.2563 -26.764553 -107.44897
145864000 -25.453871 -113.97041 -0.15682735 -29.474176 -0.15504433 -29.463951 -26.733492 -107.74538
146863000 -25.413977 -114.40068 -0.15775844 -29.674513 -0.15557662 -29.662508 -26.689863 -108.13257
147862000 -25.37306 -114.78697 -0.15932317 -29.870975 -0.15599625 -29.85478 -26.66996 -108.4628
148861000 -25.355803 -115.34386 -0.1590278 -30.068607 -0.15734453 -30.053583 -26.645884 -108.74834
149860000 -25.336311 -115.5671 -0.1600026 -30.267969 -0.15736198 -30.255819 -26.615349 -108.96498
150859000 -25.318659 -115.92844 -0.15977648 -30.470236 -0.15785992 -30.45302 -26.615429 -109.24714
151858000 -25.302111 -116.24497 -0.15973431 -30.668589 -0.1576959 -30.651472 -26.613855 -109.55013
152857000 -25.287607 -116.62988 -0.1604909 -30.861202 -0.15818393 -30.84955 -26.600876 -109.71632
153856000 -25.282698 -116.82346 -0.16023412 -31.066505 -0.15769187 -31.047213 -26.624557 -109.95924
154855000 -25.27643 -117.02522 -0.16082184 -31.262217 -0.15829857 -31.248465 -26.61809 -110.1882
155854000 -25.290184 -117.27831 -0.1613054 -31.460009 -0.15868035 -31.448763 -26.61759 -110.47529
156853000 -25.280468 -117.96231 -0.15942575 -31.649921 -0.15813158 -31.641989 -26.615238 -110.81413
157852000 -25.284616 -118.20628 -0.16047156 -31.848969 -0.1600488 -31.839928 -26.620054 -111.16453
158851000 -25.283373 -118.45705 -0.161235 -32.045605 -0.16038911 -32.04081 -26.605997 -111.40653
159850000 -25.263735 -118.59583 -0.16185455 -32.24728 -0.16066335 -32.241085 -26.60692 -111.59274
160849000 -25.243015 -118.71983 -0.16235031 -32.447018 -0.16137229 -32.442596 -26.58144 -111.91737
161848000 -25.219055 -118.88058 -0.16235864 -32.644943 -0.1617135 -32.641094 -26.539612 -112.04118
162847000 -25.1819 -119.0836 -0.16274562 -32.845631 -0.16173634 -32.838974 -26.519627 -112.3084
163846000 -25.138544 -119.32352 -0.16342506 -33.044464 -0.16201793 -33.035385 -26.430992 -112.35275
164845000 -25.076574 -119.41554 -0.16332023 -33.243797 -0.16170087 -33.237667 -26.364958 -112.52174
165844000 -25.020245 -119.53893 -0.16282463 -33.445614 -0.16309553 -33.435417 -26.272535 -112.71825
166843000 -24.954746 -119.67841 -0.16334657 -33.643036 -0.1631579 -33.637897 -26.210587 -112.9162
167842000 -24.902943 -119.85967 -0.16342506 -33.844559 -0.16304286 -33.838055 -26.119093 -112.93266
168841000 -24.823299 -120.0816 -0.16439494 -34.039291 -0.16343151 -34.036884 -26.039921 -113.03247
169840000 -24.756876 -120.40929 -0.1648235 -34.234013 -0.16366698 -34.232391 -25.950891 -113.31851
170839000 -24.697355 -120.70315 -0.16619121 -34.43692 -0.16453367 -34.427341 -25.862022 -113.56394
171838000 -24.647297 -121.16615 -0.1653067 -34.632767 -0.16524728 -34.628201 -25.802032 -113.85641
172837000 -24.576309 -121.591 -0.16701107 -34.830399 -0.16655378 -34.823154 -25.732615 -114.14253
173836000 -24.513786 -122.04317 -0.16857429 -35.030582 -0.1681093 -35.026718 -25.691248 -114.42509
174835000 -24.467575 -122.49097 -0.16876912 -35.225132 -0.16869001 -35.226891 -25.647804 -114.83974
175834000 -24.414196 -122.91734 -0.16996416 -35.422771 -0.16966753 -35.418777 -25.583511 -115.19347
176833000 -24.365889 -123.34663 -0.17068297 -35.621586 -0.17033783 -35.619095 -25.533632 -115.42155
177832000 -24.320486 -123.84637 -0.17140889 -35.81805 -0.17023768 -35.816498 -25.504192 -115.6312
178831000 -24.285275 -124.22182 -0.17194964 -36.015221 -0.17143716 -36.010944 -25.474258 -115.92341
179830000 -24.25024 -124.70484 -0.17212363 -36.213913 -0.17171292 -36.212936 -25.442497 -116.04195
180829000 -24.212753 -124.93324 -0.1733328 -36.408314 -0.17192002 -36.410885 -25.415806 -116.2795
181828000 -24.184265 -125.31314 -0.1729807 -36.609673 -0.17170565 -36.603474 -25.398405 -116.43201
182827000 -24.165567 -125.68828 -0.17336781 -36.799034 -0.17235632 -36.797546 -25.386227 -116.51388
183826000 -24.123829 -126.03365 -0.17448246 -36.997932 -0.17345618 -36.997208 -25.371853 -116.71886
184825000 -24.127604 -126.34212 -0.1741602 -37.198177 -0.17402062 -37.196854 -25.356703 -116.82198
185824000 -24.099979 -126.72371 -0.17436552 -37.389389 -0.17392686 -37.39259 -25.353487 -116.85184
186823000 -24.088394 -127.06943 -0.1745237 -37.592133 -0.17344783 -37.590725 -25.348339 -116.85725
187822000 -24.060301 -127.41283 -0.17560712 -37.785992 -0.17432995 -37.787033 -25.310062 -116.93555
188821000 -24.042128 -127.64351 -0.17529123 -37.982052 -0.17491122 -37.988125 -25.291925 -117.03683
189820000 -24.020388 -127.95395 -0.17568691 -38.184067 -0.17539069 -38.184822 -25.280956 -117.26359
190819000 -23.99049 -128.23105 -0.17680162 -38.38139 -0.17638104 -38.382507 -25.238848 -117.20471
191818000 -23.959415 -128.42401 -0.17795734 -38.578846 -0.17773081 -38.57914 -25.204546 -117.15071
192817000 -23.886875 -128.72353 -0.17869744 -38.76543 -0.17819953 -38.763916 -25.125893 -117.24021
193816000 -23.842016 -129.09412 -0.17829069 -38.959019 -0.17745954 -38.956608 -25.065865 -117.52099
194815000 -23.790712 -129.57323 -0.17802639 -39.154377 -0.17786701 -39.156864 -24.996037 -117.67979
195814000 -23.734268 -129.80705 -0.1781642 -39.352741 -0.17781387 -39.354172 -24.938278 -117.84348
196813000 -23.682505 -130.20284 -0.1782818 -39.550728 -0.17780687 -39.550526 -24.857191 -118.05473
197812000 -23.62392 -130.44861 -0.17863055 -39.753067 -0.17836486 -39.741947 -24.782955 -118.20232
198811000 -23.569302 -130.68744 -0.17894344 -39.940567 -0.17848219 -39.945713 -24.708305 -118.42212
199810000 -23.498419 -131.07074 -0.17856041 -40.138714 -0.17822434 -40.132622 -24.62653 -118.60397
200809000 -23.438852 -131.39883 -0.17907454 -40.33564 -0.17890406 -40.335579 -24.54138 -118.86546
201808000 -23.382545 -131.66713 -0.18012024 -40.535213 -0.18007463 -40.534344 -24.468769 -118.965
202807000 -23.32358 -132.04784 -0.18103988 -40.735256 -0.18007922 -40.73859 -24.405231 -119.2291
203806000 -23.272247 -132.52658 -0.18254472 -40.937141 -0.18085529 -40.940094 -24.34403 -119.44882
204805000 -23.218908 -132.92635 -0.18361421 -41.134743 -0.18169925 -41.132668 -24.284752 -119.7206
205804000 -23.190168 -133.33527 -0.18453595 -41.337379 -0.18321215 -41.336399 -24.225401 -119.93946
