!Keysight Technologies,E5080B,MY59205177,A.15.75.32
!Date: Friday, February 23, 2024 02:48:00
!Correction: S11(Cdelta 2-Port  ) 
!S21(Cdelta 2-Port  ) 
!S12(Cdelta 2-Port  ) 
!S22(Cdelta 2-Port  ) 
!S2P File: Measurements: S11, S21, S12, S22:
# Hz S  dB   R 50
10000000 -41.08704 -3.201134 -0.051714662 -2.0528221 -0.054751325 -2.1077402 -54.115788 -112.26795
10999000 -40.590832 -4.6380353 -0.052915659 -2.2699859 -0.054524314 -2.3227603 -52.553886 -102.97861
11998000 -40.028656 -6.4894776 -0.053135507 -2.4921801 -0.054464024 -2.5359504 -51.690815 -95.126694
12997000 -39.565815 -10.079305 -0.052557733 -2.6721439 -0.053794343 -2.7052186 -50.154297 -90.965736
13996000 -39.389889 -12.88181 -0.051865555 -2.8521516 -0.053532001 -2.872632 -49.088001 -87.892288
14995000 -39.179478 -15.678266 -0.054078192 -3.0615089 -0.053683743 -3.0874939 -48.354374 -85.886818
15994000 -39.107098 -18.513157 -0.055112835 -3.2808609 -0.055961285 -3.3072648 -47.689823 -83.515419
16993000 -39.144779 -21.523605 -0.054323789 -3.4790745 -0.055286132 -3.4863865 -46.928562 -87.952919
17992000 -39.247608 -25.160076 -0.054510683 -3.6761432 -0.055917498 -3.6803749 -46.398865 -91.068123
18991000 -39.508224 -28.24563 -0.055537041 -3.8885496 -0.057405293 -3.888154 -45.624767 -93.109848
19990000 -39.50219 -32.150158 -0.057583924 -4.096581 -0.058816981 -4.0900521 -44.992878 -97.32634
20989000 -39.479336 -34.627968 -0.059230261 -4.2995186 -0.060697932 -4.2894411 -44.367744 -99.274094
21988000 -39.527138 -38.135563 -0.061009008 -4.4985275 -0.061860185 -4.4858332 -44.058914 -98.906425
22987000 -39.45446 -41.973999 -0.061847057 -4.6967926 -0.062822886 -4.6920838 -43.759777 -99.57946
23986000 -39.530865 -45.242409 -0.061803211 -4.8906755 -0.062227804 -4.8884897 -43.601429 -99.784454
24985000 -39.336624 -47.58622 -0.061858349 -5.1017613 -0.063004367 -5.0970674 -43.188477 -97.587059
25984000 -39.210571 -49.501328 -0.063537039 -5.3102646 -0.062859394 -5.3082414 -42.757755 -97.430809
26983000 -39.029518 -51.6479 -0.064167507 -5.5072298 -0.063441955 -5.5280824 -42.561489 -96.644806
27982000 -38.937473 -52.805859 -0.065729879 -5.7059383 -0.064890817 -5.7423477 -42.168777 -95.764526
28981000 -38.966583 -54.174465 -0.063540459 -5.9023871 -0.065744594 -5.9281883 -41.90057 -95.656258
29980000 -38.650673 -55.800179 -0.063628189 -6.0959125 -0.065330431 -6.1078587 -41.493752 -95.499039
30979000 -38.316101 -55.701405 -0.061322469 -6.4539952 -0.060909249 -6.4420772 -41.002403 -97.432503
31978000 -38.203815 -56.911419 -0.060089491 -6.6482015 -0.061969683 -6.6376295 -40.693359 -97.234833
32977000 -38.086643 -58.427944 -0.060738094 -6.8585405 -0.06207813 -6.8517413 -40.444115 -97.929153
33976000 -37.961044 -59.618496 -0.061001919 -7.0614781 -0.0626745 -7.0544701 -40.075077 -97.899078
34975000 -37.735191 -60.860497 -0.061531194 -7.2618027 -0.06379237 -7.2633486 -39.810295 -98.287766
35974000 -37.576279 -61.738827 -0.060968578 -7.4564209 -0.063129917 -7.4598832 -39.458378 -97.681824
36973000 -37.374996 -62.741776 -0.062068414 -7.6527114 -0.063872755 -7.6601453 -39.118935 -97.360283
37972000 -37.227516 -62.879684 -0.061183851 -7.8652329 -0.06351734 -7.8758321 -38.84771 -97.102951
38971000 -36.916924 -63.163097 -0.062368296 -8.0670099 -0.063998058 -8.080183 -38.589108 -95.585106
39970000 -36.620705 -63.886299 -0.060102616 -8.2614527 -0.063378125 -8.2755203 -38.281506 -95.63205
40969000 -36.364529 -64.1241 -0.059855115 -8.4574976 -0.062926099 -8.4756966 -37.958244 -94.574333
41968000 -36.057301 -64.561638 -0.060693204 -8.6633596 -0.06342987 -8.6781979 -37.707474 -93.528801
42967000 -35.840405 -65.02964 -0.060940228 -8.8748779 -0.062728867 -8.8919144 -37.410839 -92.005508
43966000 -35.591972 -66.054108 -0.06219288 -9.0725975 -0.064684555 -9.0934725 -37.081451 -91.730873
44965000 -35.398643 -67.13308 -0.062640622 -9.2730961 -0.064631745 -9.2971745 -36.878075 -91.965439
45964000 -35.218616 -68.341545 -0.063189797 -9.4801435 -0.066375643 -9.4955664 -36.626747 -91.967224
46963000 -35.097271 -70.304398 -0.064238437 -9.6689806 -0.06689059 -9.694335 -36.442722 -92.578041
47962000 -34.999836 -71.881966 -0.065936707 -9.8787289 -0.0681113 -9.8884544 -36.252342 -93.037918
48961000 -34.840916 -73.424698 -0.067962475 -10.071238 -0.069919996 -10.091391 -36.00713 -93.602524
49960000 -34.649841 -74.857002 -0.069317363 -10.269413 -0.070943162 -10.291558 -35.882195 -93.914436
50959000 -34.485119 -76.34053 -0.069918677 -10.484576 -0.072513498 -10.491745 -35.70929 -94.372757
51958000 -34.335323 -77.634903 -0.072033942 -10.683513 -0.073560968 -10.692736 -35.55302 -95.26107
52957000 -34.164879 -78.878326 -0.07355123 -10.885135 -0.07477276 -10.888059 -35.382732 -95.236763
53956000 -34.037464 -79.724419 -0.074647933 -11.089289 -0.075816564 -11.085769 -35.247044 -95.389359
54955000 -33.881374 -80.443657 -0.075195201 -11.286652 -0.076130301 -11.283762 -35.077393 -95.554474
55954000 -33.754738 -81.36393 -0.076421939 -11.484933 -0.076555774 -11.482039 -34.962078 -95.510201
56953000 -33.618439 -81.627151 -0.076086044 -11.687303 -0.076180093 -11.678885 -34.907253 -95.843773
57952000 -33.487587 -82.329514 -0.077416331 -11.883145 -0.077412382 -11.870207 -34.79369 -95.877426
58951000 -33.380161 -82.834381 -0.07804697 -12.087098 -0.078418069 -12.068129 -34.652977 -96.288849
59950000 -33.275993 -83.281548 -0.079358876 -12.289268 -0.078758359 -12.265964 -34.582088 -96.577438
60949000 -33.168297 -83.903664 -0.07916142 -12.492903 -0.078945778 -12.469402 -34.483738 -97.032364
61948000 -33.115276 -84.296875 -0.079914123 -12.689517 -0.07930351 -12.670023 -34.403084 -97.190971
62947000 -33.026726 -84.576019 -0.080412216 -12.900567 -0.079978988 -12.88202 -34.263817 -97.63221
63946000 -32.962818 -85.292671 -0.081133492 -13.098522 -0.08126615 -13.079599 -34.168755 -97.839119
64945000 -32.866974 -85.537865 -0.082239762 -13.299191 -0.081721939 -13.277675 -34.074249 -98.466949
65944000 -32.774181 -85.95401 -0.082579821 -13.500479 -0.082500145 -13.482838 -33.976707 -99.021294
66943000 -32.637321 -86.455544 -0.080951251 -13.703264 -0.081098676 -13.68125 -33.877556 -99.362389
67942000 -32.582073 -86.403442 -0.082542621 -13.895788 -0.082437888 -13.884238 -33.754921 -99.782585
68941000 -32.475372 -86.616135 -0.082796171 -14.092064 -0.081886798 -14.083891 -33.652119 -99.868103
69940000 -32.362843 -86.74646 -0.082933895 -14.291716 -0.082126588 -14.281363 -33.512039 -100.31601
70939000 -32.259087 -86.71701 -0.082903817 -14.484428 -0.083047092 -14.4817 -33.379444 -100.25473
71938000 -32.114029 -86.534416 -0.082884289 -14.682677 -0.082508065 -14.675495 -33.231232 -100.32258
72937000 -31.942999 -86.510674 -0.082218654 -14.885552 -0.081426255 -14.872544 -33.08654 -100.06878
73936000 -31.809935 -86.295822 -0.081951424 -15.079728 -0.081627503 -15.073184 -32.958282 -99.952957
74935000 -31.686867 -86.501869 -0.081659421 -15.276404 -0.08149536 -15.270092 -32.799191 -99.637589
75934000 -31.559771 -86.907028 -0.081966728 -15.486455 -0.081088655 -15.481353 -32.695927 -99.688187
76933000 -31.443213 -87.472885 -0.082567953 -15.677855 -0.08206407 -15.670201 -32.535534 -100.31147
77932000 -31.362303 -88.301239 -0.084442593 -15.874058 -0.083599113 -15.868338 -32.423641 -100.2313
78931000 -31.308184 -89.055847 -0.082973734 -16.077412 -0.083272696 -16.068512 -32.325684 -100.19895
79930000 -31.20093 -89.958321 -0.085656367 -16.266726 -0.085942835 -16.264795 -32.229435 -100.5975
80929000 -31.09145 -90.910553 -0.087313384 -16.461224 -0.087165482 -16.461304 -32.135967 -101.04486
81928000 -31.027348 -91.738197 -0.087294102 -16.653858 -0.087862782 -16.651754 -32.017349 -101.24659
82927000 -30.945152 -92.60804 -0.089637704 -16.859753 -0.088951744 -16.853739 -31.91715 -101.66537
83926000 -30.846495 -93.36895 -0.090932228 -17.053442 -0.090238929 -17.051287 -31.794823 -102.05882
84925000 -30.742073 -93.879982 -0.091483675 -17.254753 -0.090465702 -17.24674 -31.709915 -102.10504
85924000 -30.659286 -94.439186 -0.092289284 -17.452196 -0.091688827 -17.448532 -31.621111 -102.1851
86923000 -30.567394 -94.98745 -0.093479335 -17.650307 -0.09192308 -17.644512 -31.517853 -102.20676
87922000 -30.460087 -95.460892 -0.092900932 -17.855738 -0.091952428 -17.848635 -31.418943 -102.39465
88921000 -30.391846 -95.833084 -0.094517849 -18.055695 -0.09297286 -18.052462 -31.321676 -102.36934
89920000 -30.301418 -96.425644 -0.094467856 -18.252928 -0.093992211 -18.248465 -31.277443 -102.63052
90919000 -30.209288 -96.845329 -0.095715657 -18.450319 -0.093956769 -18.445549 -31.200401 -102.93008
91918000 -30.11648 -97.249985 -0.09595304 -18.649008 -0.095039584 -18.643848 -31.122334 -102.97011
92917000 -30.037689 -97.676384 -0.097199947 -18.848707 -0.096146762 -18.844786 -31.06184 -103.13856
93916000 -29.961376 -98.0867 -0.096969649 -19.042164 -0.09611474 -19.034731 -30.987431 -103.82025
94915000 -29.887787 -98.738968 -0.098268747 -19.242373 -0.096778005 -19.237654 -30.913948 -103.6413
95914000 -29.831379 -98.979614 -0.099689014 -19.437645 -0.097862586 -19.434639 -30.81452 -104.01013
96913000 -29.739759 -99.281349 -0.1002776 -19.638939 -0.099227637 -19.634165 -30.760885 -104.44858
97912000 -29.677229 -99.837166 -0.10082148 -19.834064 -0.09935344 -19.835234 -30.676117 -104.74998
98911000 -29.570137 -100.07269 -0.10165162 -20.036001 -0.1006347 -20.036209 -30.639366 -105.02214
99910000 -29.497881 -100.24156 -0.10267115 -20.234819 -0.10079499 -20.233049 -30.545723 -105.34062
100909000 -29.41724 -100.54852 -0.10221502 -20.445271 -0.099972963 -20.434744 -30.44243 -105.56351
101908000 -29.3242 -100.84172 -0.10376675 -20.642849 -0.1013196 -20.642088 -30.327015 -105.34635
102907000 -29.194271 -100.92507 -0.10423127 -20.840593 -0.10122792 -20.843 -30.239994 -105.358
103906000 -29.096493 -101.06453 -0.10439911 -21.048576 -0.1009831 -21.042675 -30.088984 -105.38905
104905000 -28.948235 -101.03449 -0.10457253 -21.24931 -0.10169667 -21.245876 -29.944925 -105.13975
105904000 -28.80979 -101.2422 -0.10480455 -21.446812 -0.10208146 -21.44084 -29.822599 -105.05035
106903000 -28.700207 -101.37759 -0.104476 -21.656675 -0.10325722 -21.649199 -29.697891 -104.98394
107902000 -28.535011 -101.80048 -0.10563121 -21.853312 -0.10334948 -21.846968 -29.545397 -105.02761
108901000 -28.429241 -102.11632 -0.10663045 -22.057325 -0.1046831 -22.047514 -29.411861 -105.04549
109900000 -28.307714 -102.70104 -0.10726667 -22.257528 -0.10622033 -22.249601 -29.25099 -105.23043
110899000 -28.189125 -103.36522 -0.10882366 -22.454359 -0.1065445 -22.446674 -29.123047 -105.60638
111898000 -28.110716 -104.06367 -0.11013481 -22.654657 -0.10754953 -22.647305 -29.007441 -105.82555
112897000 -27.99066 -104.70644 -0.11158287 -22.853199 -0.10863575 -22.843023 -28.860428 -106.09377
113896000 -27.895271 -105.35043 -0.11279442 -23.055099 -0.11028004 -23.045116 -28.758991 -106.33704
114895000 -27.798758 -106.02998 -0.11368318 -23.253233 -0.11222991 -23.239311 -28.638096 -106.4826
115894000 -27.661892 -106.46625 -0.11527942 -23.456285 -0.11233111 -23.439159 -28.570772 -106.69931
116893000 -27.595848 -107.05151 -0.11552026 -23.647669 -0.1128279 -23.633467 -28.436392 -106.93037
117892000 -27.520702 -107.60191 -0.11607032 -23.848982 -0.11436269 -23.831562 -28.363171 -107.20469
118891000 -27.455862 -108.05708 -0.11660316 -24.047369 -0.11422715 -24.029152 -28.268692 -107.34694
119890000 -27.370037 -108.47215 -0.1175528 -24.248699 -0.11521377 -24.229406 -28.260572 -107.56758
120889000 -27.314726 -109.03072 -0.1190914 -24.449472 -0.11497878 -24.432325 -28.171427 -107.54609
121888000 -27.272747 -109.36848 -0.11902568 -24.645199 -0.11631545 -24.631603 -28.113918 -107.90705
122887000 -27.238073 -109.60278 -0.12002562 -24.845608 -0.11661911 -24.835127 -28.069723 -107.96406
123886000 -27.182737 -110.0606 -0.12039766 -25.048563 -0.11697597 -25.028076 -28.05477 -108.17054
124885000 -27.142643 -110.56171 -0.12003068 -25.245268 -0.11724004 -25.232924 -28.025772 -108.20937
125884000 -27.092487 -110.80906 -0.12157814 -25.444906 -0.11793847 -25.430649 -27.99275 -108.42382
126883000 -27.071236 -111.18878 -0.12143572 -25.646366 -0.11838401 -25.6322 -27.940699 -108.50138
127882000 -27.019117 -111.48773 -0.12223946 -25.847742 -0.11898631 -25.831907 -27.899496 -108.6882
128881000 -26.989958 -111.81239 -0.12277385 -26.049952 -0.11938114 -26.03396 -27.85997 -108.8288
129880000 -26.924294 -112.13454 -0.12340445 -26.252533 -0.11919916 -26.233179 -27.813036 -108.8231
130879000 -26.862797 -112.34248 -0.12308807 -26.450287 -0.12048469 -26.433376 -27.735462 -108.85252
131878000 -26.798134 -112.59065 -0.12366812 -26.655319 -0.12078331 -26.630634 -27.66256 -108.80124
132877000 -26.726587 -112.6777 -0.12278823 -26.855814 -0.12037078 -26.836636 -27.579178 -108.87167
133876000 -26.639427 -112.8709 -0.12384763 -27.054514 -0.12086157 -27.034054 -27.477308 -108.75645
134875000 -26.546331 -113.04665 -0.12432682 -27.256687 -0.12130475 -27.236872 -27.369434 -108.66267
135874000 -26.457129 -113.10542 -0.12432761 -27.454008 -0.1209361 -27.436527 -27.258842 -108.68622
136873000 -26.347244 -113.07765 -0.12498216 -27.660328 -0.12090495 -27.639658 -27.172607 -108.72196
137872000 -26.269468 -113.22387 -0.12466487 -27.86063 -0.12197561 -27.84528 -27.065552 -108.66921
138871000 -26.194679 -113.44053 -0.12554885 -28.059511 -0.12168223 -28.045002 -26.9667 -108.87572
139870000 -26.092009 -113.75397 -0.12679604 -28.261768 -0.12303135 -28.242403 -26.8866 -109.09052
140869000 -26.016129 -114.21517 -0.12848216 -28.454988 -0.12407137 -28.436695 -26.773396 -109.27372
141868000 -25.920435 -114.77238 -0.12800385 -28.648682 -0.12492967 -28.633276 -26.703634 -109.61636
142867000 -25.844954 -115.04913 -0.1273126 -28.846443 -0.12408655 -28.830864 -26.624846 -109.85414
143866000 -25.777058 -115.57852 -0.1283579 -29.04221 -0.12551716 -29.027622 -26.557545 -110.45102
144865000 -25.730469 -116.12771 -0.13057145 -29.242939 -0.12717719 -29.224775 -26.495935 -110.76196
145864000 -25.671921 -116.46995 -0.13051331 -29.442129 -0.12855628 -29.427248 -26.468353 -111.03441
146863000 -25.628546 -116.88013 -0.13174403 -29.640411 -0.12859094 -29.627895 -26.416574 -111.42422
147862000 -25.58946 -117.26211 -0.13253953 -29.836132 -0.12869467 -29.82604 -26.381969 -111.7674
148861000 -25.565462 -117.80485 -0.13277759 -30.034132 -0.12951894 -30.01762 -26.363255 -112.01089
149860000 -25.549368 -117.99718 -0.1335263 -30.232716 -0.12988034 -30.221979 -26.340582 -112.18199
150859000 -25.529654 -118.41536 -0.13395236 -30.434563 -0.13027082 -30.420813 -26.33287 -112.47244
151858000 -25.512396 -118.70422 -0.1339059 -30.635069 -0.13117091 -30.616949 -26.327427 -112.77863
152857000 -25.494562 -119.08525 -0.13480781 -30.829391 -0.13151562 -30.819128 -26.313442 -112.92561
153856000 -25.489855 -119.27572 -0.13411228 -31.02813 -0.13024576 -31.016081 -26.336031 -113.20601
154855000 -25.483334 -119.49028 -0.1346444 -31.231564 -0.13111249 -31.21446 -26.325788 -113.43572
155854000 -25.494841 -119.69556 -0.13476616 -31.429552 -0.13185823 -31.411671 -26.324972 -113.70025
156853000 -25.482231 -120.38819 -0.13247094 -31.616697 -0.1312819 -31.608814 -26.317324 -113.98036
157852000 -25.484138 -120.6356 -0.13433735 -31.817005 -0.13235085 -31.804678 -26.311844 -114.3315
158851000 -25.478655 -120.89442 -0.13466416 -32.014717 -0.13261986 -32.005608 -26.301777 -114.632
159850000 -25.467566 -121.00372 -0.13546954 -32.21307 -0.13285206 -32.205128 -26.301588 -114.77602
160849000 -25.444836 -121.13491 -0.13578095 -32.411263 -0.13382101 -32.406162 -26.270782 -115.05836
161848000 -25.42721 -121.25581 -0.13645031 -32.609547 -0.13353485 -32.605186 -26.234453 -115.21156
162847000 -25.382818 -121.467 -0.1364284 -32.811726 -0.13478057 -32.803448 -26.202269 -115.45097
163846000 -25.338326 -121.71921 -0.13683872 -33.014038 -0.13458779 -33.004162 -26.120104 -115.47278
164845000 -25.27614 -121.7236 -0.13700435 -33.212948 -0.13497336 -33.204666 -26.051073 -115.63271
165844000 -25.225807 -121.8029 -0.13759908 -33.412205 -0.13526097 -33.401505 -25.972374 -115.74601
166843000 -25.154497 -121.92707 -0.13703828 -33.604328 -0.13503319 -33.601871 -25.902517 -115.97745
167842000 -25.097931 -122.07599 -0.1378572 -33.806164 -0.13588324 -33.800747 -25.814432 -115.91346
168841000 -25.016914 -122.31815 -0.13816743 -34.003746 -0.13601759 -33.999187 -25.736675 -116.02357
169840000 -24.951971 -122.58441 -0.13827887 -34.199947 -0.13669793 -34.195435 -25.644386 -116.2428
170839000 -24.89172 -122.89875 -0.13877542 -34.395672 -0.13730918 -34.395397 -25.555193 -116.48765
171838000 -24.838104 -123.30393 -0.1386025 -34.597099 -0.13860919 -34.594334 -25.497412 -116.74944
172837000 -24.770517 -123.69899 -0.14013334 -34.794788 -0.13895182 -34.789043 -25.425755 -117.00023
173836000 -24.705582 -124.18856 -0.14097129 -34.993896 -0.13995475 -34.991276 -25.381784 -117.23824
174835000 -24.651295 -124.59802 -0.14179496 -35.187618 -0.14038679 -35.188915 -25.338993 -117.65996
175834000 -24.603785 -125.02581 -0.14273381 -35.386517 -0.14147724 -35.385948 -25.267096 -117.96555
176833000 -24.555237 -125.38555 -0.14370926 -35.583946 -0.14239891 -35.581814 -25.215221 -118.14255
177832000 -24.512682 -125.93715 -0.14416575 -35.780548 -0.14273435 -35.782841 -25.196465 -118.36196
178831000 -24.471163 -126.32211 -0.14471382 -35.978901 -0.14330792 -35.97345 -25.161125 -118.58266
179830000 -24.436321 -126.7617 -0.14579545 -36.17551 -0.14393 -36.176304 -25.133263 -118.76639
180829000 -24.393217 -126.99357 -0.14546487 -36.375828 -0.14398807 -36.372456 -25.103649 -118.93922
181828000 -24.368425 -127.35157 -0.14538884 -36.566296 -0.1442546 -36.563499 -25.082752 -119.04581
182827000 -24.347872 -127.71539 -0.14597054 -36.764565 -0.14488752 -36.765709 -25.06875 -119.17409
183826000 -24.304583 -128.06854 -0.14705302 -36.962292 -0.14525475 -36.959953 -25.057703 -119.28197
184825000 -24.308805 -128.39294 -0.14622031 -37.154842 -0.14552107 -37.157413 -25.044764 -119.42879
185824000 -24.28215 -128.74886 -0.14682969 -37.353256 -0.14579359 -37.354771 -25.037222 -119.4874
186823000 -24.267168 -129.10342 -0.14739685 -37.555828 -0.14570658 -37.552227 -25.038908 -119.47566
187822000 -24.246708 -129.44083 -0.14713013 -37.748116 -0.14673866 -37.749954 -24.998802 -119.54639
188821000 -24.227623 -129.64445 -0.14731732 -37.944386 -0.14652044 -37.948555 -24.984777 -119.63096
189820000 -24.212299 -129.94519 -0.14786874 -38.146034 -0.14698392 -38.143436 -24.975002 -119.79909
190819000 -24.179419 -130.21333 -0.14906554 -38.345222 -0.14821236 -38.345757 -24.932415 -119.79958
191818000 -24.143183 -130.38353 -0.15042454 -38.543758 -0.14913733 -38.54129 -24.901337 -119.7075
192817000 -24.069876 -130.68384 -0.15067215 -38.726086 -0.15049769 -38.727547 -24.826164 -119.76036
193816000 -24.033073 -131.05681 -0.15049581 -38.918087 -0.14894365 -38.917545 -24.768015 -120.02966
194815000 -23.979361 -131.53809 -0.15008099 -39.115059 -0.14883783 -39.119205 -24.703972 -120.16492
195814000 -23.925989 -131.75896 -0.15094714 -39.31451 -0.14892623 -39.317284 -24.649239 -120.33072
196813000 -23.872889 -132.09993 -0.15049554 -39.509209 -0.14906098 -39.508556 -24.567448 -120.48708
197812000 -23.815445 -132.34398 -0.15034093 -39.706604 -0.14995077 -39.703327 -24.492958 -120.61256
198811000 -23.760714 -132.54301 -0.15006411 -39.903046 -0.14920217 -39.905254 -24.417992 -120.81485
199810000 -23.691544 -132.96019 -0.15104604 -40.099552 -0.14901088 -40.094074 -24.346432 -120.94949
200809000 -23.635241 -133.23511 -0.15121193 -40.295719 -0.150316 -40.295929 -24.260412 -121.14735
201808000 -23.575165 -133.5013 -0.1516467 -40.495773 -0.15130146 -40.499641 -24.193792 -121.24499
202807000 -23.516218 -133.86514 -0.15277109 -40.695827 -0.15170756 -40.699158 -24.13538 -121.50576
203806000 -23.466928 -134.34123 -0.15449817 -40.900028 -0.15232173 -40.896252 -24.067471 -121.68346
204805000 -23.415503 -134.707 -0.15549237 -41.096191 -0.15322746 -41.096027 -24.008598 -121.91103
