!Keysight Technologies,E5080B,MY59205177,A.15.75.32
!Date: Friday, February 23, 2024 03:27:15
!Correction: S11(Cdelta 2-Port  ) 
!S21(Cdelta 2-Port  ) 
!S12(Cdelta 2-Port  ) 
!S22(Cdelta 2-Port  ) 
!S2P File: Measurements: S11, S21, S12, S22:
# Hz S  dB   R 50
10000000 -45.9249 -1.102132 -0.01586806 -2.0580428 -0.01955785 -2.1081545 -46.192032 -159.18344
10999000 -45.226311 -3.0900681 -0.016983297 -2.2739599 -0.018778097 -2.3307927 -46.140217 -153.01492
11998000 -44.220543 -5.982655 -0.017518928 -2.5015967 -0.018829312 -2.5446723 -46.32412 -148.18373
12997000 -43.504978 -11.319933 -0.017181844 -2.6811247 -0.0187326 -2.7191443 -46.014175 -142.62852
13996000 -43.238312 -15.225535 -0.016334958 -2.8623178 -0.01873468 -2.8815281 -45.826622 -137.15373
14995000 -42.813671 -19.460356 -0.018377224 -3.073595 -0.018854011 -3.0980563 -45.519306 -133.55939
15994000 -42.754086 -23.99371 -0.019754956 -3.2923901 -0.020892 -3.3176503 -45.423752 -130.4588
16993000 -42.671795 -28.418453 -0.01873468 -3.4919031 -0.020565316 -3.5007246 -44.539398 -129.86687
17992000 -42.751484 -33.674007 -0.020005642 -3.6924033 -0.021221569 -3.6905813 -44.013531 -129.98476
18991000 -43.004124 -38.747696 -0.020615513 -3.9002042 -0.022380332 -3.9029934 -43.375729 -128.60838
19990000 -42.814922 -44.66671 -0.022955405 -4.1114759 -0.024478808 -4.1050191 -42.692402 -129.45161
20989000 -42.70882 -47.739704 -0.025031509 -4.3175154 -0.026478808 -4.3085852 -42.133156 -128.97263
21988000 -42.596504 -53.102375 -0.026055088 -4.5164957 -0.026842922 -4.5027819 -41.878105 -128.08263
22987000 -42.255905 -58.288029 -0.027496478 -4.7118711 -0.027890116 -4.7063627 -41.633541 -127.6226
23986000 -42.222057 -62.216228 -0.027075524 -4.9087677 -0.026746552 -4.9102559 -41.51479 -127.23141
24985000 -41.81488 -64.843163 -0.027846087 -5.1182227 -0.026498081 -5.114779 -41.319241 -124.54019
25984000 -41.492481 -67.181572 -0.028840624 -5.3245854 -0.027424838 -5.3292031 -40.977707 -122.8181
26983000 -41.165565 -69.046349 -0.030188315 -5.5271239 -0.028794501 -5.540813 -40.898495 -122.24702
27982000 -41.055717 -70.014641 -0.030950569 -5.7230363 -0.030841332 -5.7570906 -40.615658 -120.61379
28981000 -41.015759 -71.481453 -0.029008966 -5.9228339 -0.030600708 -5.9455643 -40.390099 -119.99834
29980000 -40.580791 -73.053238 -0.029442877 -6.1185384 -0.030655975 -6.1282969 -40.12022 -119.05582
30979000 -40.176952 -71.867134 -0.027096102 -6.4751849 -0.025621254 -6.4674697 -39.593948 -119.43019
31978000 -39.968475 -72.870712 -0.026054308 -6.6714525 -0.026652267 -6.6600256 -39.341774 -118.8006
32977000 -39.798866 -74.473228 -0.026328014 -6.8771038 -0.027470948 -6.8755322 -39.109329 -118.68411
33976000 -39.623398 -75.496658 -0.027008841 -7.0823464 -0.027884906 -7.077599 -38.818649 -118.03455
34975000 -39.329124 -76.591835 -0.027706709 -7.2830667 -0.029071769 -7.2859054 -38.592991 -117.73808
35974000 -39.122086 -77.073952 -0.026513968 -7.4804354 -0.028358048 -7.4838367 -38.314716 -116.85329
36973000 -38.886711 -77.696182 -0.028011784 -7.6804156 -0.029165324 -7.6851087 -38.053661 -115.76459
37972000 -38.70784 -77.357628 -0.026313951 -7.8916168 -0.029266961 -7.8986855 -37.821999 -114.97029
38971000 -38.372643 -76.847244 -0.028110007 -8.095746 -0.029507771 -8.1026316 -37.647369 -113.5447
39970000 -38.055649 -77.334106 -0.025616828 -8.28827 -0.027509503 -8.3009586 -37.368294 -112.78716
40969000 -37.736301 -76.995705 -0.026613459 -8.4824581 -0.0288474 -8.5030632 -37.134846 -111.33982
41968000 -37.377045 -76.943481 -0.026899705 -8.6901207 -0.029079065 -8.7043819 -36.955803 -110.06644
42967000 -37.112087 -76.992592 -0.02663664 -8.8993244 -0.029622449 -8.9209795 -36.736511 -108.172
43966000 -36.835388 -77.68026 -0.027250569 -9.1030712 -0.029895859 -9.121479 -36.46339 -107.36505
44965000 -36.586487 -78.514458 -0.027907312 -9.3033495 -0.030344717 -9.3273687 -36.244339 -107.07954
45964000 -36.343651 -79.475662 -0.030090827 -9.5043755 -0.032653607 -9.5259809 -36 -106.77216
46963000 -36.172688 -81.559341 -0.029666495 -9.7048883 -0.03174242 -9.7232838 -35.826214 -107.04393
47962000 -36.003494 -83.014343 -0.031099958 -9.9031286 -0.033839423 -9.9231796 -35.614258 -107.03814
48961000 -35.798046 -84.451141 -0.033299167 -10.104642 -0.03526435 -10.122891 -35.385361 -107.22497
49960000 -35.569141 -85.696396 -0.03501226 -10.30113 -0.036537807 -10.326984 -35.234852 -107.22788
50959000 -35.330563 -87.059448 -0.035387527 -10.516774 -0.037259143 -10.527453 -35.058315 -107.44312
51958000 -35.13805 -88.134964 -0.037266191 -10.717477 -0.039124507 -10.725183 -34.884396 -107.90908
52957000 -34.925709 -89.25045 -0.038898837 -10.917381 -0.039586861 -10.927255 -34.731571 -107.72725
53956000 -34.749302 -89.940979 -0.039807346 -11.11834 -0.040131558 -11.122386 -34.586815 -107.6111
54955000 -34.583176 -90.365891 -0.04125043 -11.319171 -0.041795861 -11.31623 -34.431175 -107.55424
55954000 -34.406063 -91.199745 -0.042538978 -11.519417 -0.042483822 -11.523409 -34.326462 -107.18347
56953000 -34.288284 -91.314919 -0.042640928 -11.721027 -0.041260622 -11.708513 -34.255875 -107.41453
57952000 -34.120987 -91.913643 -0.043529827 -11.917562 -0.042617664 -11.909908 -34.171047 -107.53056
58951000 -33.994183 -92.243774 -0.043984544 -12.124547 -0.043130323 -12.106213 -34.009178 -107.56562
59950000 -33.89397 -92.522614 -0.044368174 -12.324388 -0.044344638 -12.30232 -33.934525 -107.77095
60949000 -33.761944 -93.166733 -0.045518741 -12.5299 -0.044782437 -12.509944 -33.840889 -108.09666
61948000 -33.70076 -93.456039 -0.046293892 -12.731673 -0.045171108 -12.71076 -33.751724 -108.13921
62947000 -33.618042 -93.63105 -0.046280552 -12.938754 -0.045226559 -12.916304 -33.612881 -108.424
63946000 -33.542755 -94.472176 -0.04704066 -13.138722 -0.046360347 -13.119415 -33.520161 -108.48052
64945000 -33.432739 -94.557785 -0.04777604 -13.341823 -0.047021035 -13.322991 -33.400154 -108.99545
65944000 -33.327579 -94.823288 -0.048311297 -13.541935 -0.047260474 -13.52199 -33.307583 -109.48751
66943000 -33.184906 -95.253822 -0.046746019 -13.743471 -0.04611494 -13.726515 -33.204998 -109.74684
67942000 -33.130951 -95.169327 -0.048567563 -13.939099 -0.048138279 -13.930005 -33.08342 -109.99006
68941000 -33.012566 -95.274887 -0.048194032 -14.135448 -0.046464745 -14.123136 -32.971291 -110.05788
69940000 -32.911461 -95.243347 -0.048579082 -14.331218 -0.048275959 -14.325786 -32.823532 -110.37843
70939000 -32.817417 -95.156219 -0.048886936 -14.52812 -0.047295544 -14.524307 -32.684376 -110.17094
71938000 -32.664112 -94.803551 -0.048740596 -14.728094 -0.048199266 -14.717006 -32.552982 -110.00645
72937000 -32.497658 -94.600624 -0.048246644 -14.931386 -0.046722207 -14.920422 -32.408756 -109.77684
73936000 -32.355141 -94.246948 -0.048013166 -15.126796 -0.04716339 -15.119606 -32.292206 -109.53826
74935000 -32.224857 -94.407616 -0.047739398 -15.323258 -0.046439886 -15.323989 -32.139507 -109.21791
75934000 -32.10128 -94.695274 -0.047701713 -15.531769 -0.046463434 -15.524354 -32.043293 -109.05902
76933000 -31.95833 -95.03183 -0.048990604 -15.725131 -0.04764989 -15.719068 -31.866779 -109.46053
77932000 -31.860891 -95.816345 -0.050735302 -15.922631 -0.049866401 -15.919122 -31.764402 -109.37875
78931000 -31.795954 -96.562943 -0.04894793 -16.120541 -0.048433539 -16.117897 -31.654066 -109.25962
79930000 -31.680109 -97.489227 -0.051282711 -16.315598 -0.050951377 -16.31485 -31.560368 -109.57053
80929000 -31.563065 -98.227859 -0.052915659 -16.513878 -0.053007107 -16.511827 -31.459885 -109.82541
81928000 -31.466719 -98.990829 -0.053487714 -16.706654 -0.053498194 -16.706209 -31.331951 -109.74899
82927000 -31.361937 -99.738739 -0.05511808 -16.907639 -0.055021077 -16.904781 -31.207325 -110.03685
83926000 -31.239349 -100.42837 -0.056719422 -17.104053 -0.055696454 -17.106735 -31.091053 -110.2227
84925000 -31.131428 -100.79593 -0.057378799 -17.302366 -0.055762794 -17.30092 -30.994385 -110.31179
85924000 -31.049488 -101.22536 -0.058071595 -17.505013 -0.05798791 -17.503454 -30.9182 -110.22028
86923000 -30.942625 -101.71793 -0.05883377 -17.704983 -0.058002599 -17.701254 -30.810951 -110.18045
87922000 -30.823622 -102.11207 -0.058445454 -17.911438 -0.057531986 -17.90328 -30.708712 -110.12743
88921000 -30.753637 -102.4198 -0.059416316 -18.109339 -0.05783103 -18.102497 -30.627308 -110.08474
89920000 -30.646208 -102.93768 -0.06073967 -18.306284 -0.059549108 -18.302023 -30.568542 -110.2572
90919000 -30.54146 -103.16192 -0.0610728 -18.502796 -0.059252303 -18.504311 -30.481554 -110.38721
91918000 -30.444759 -103.54143 -0.062189467 -18.707176 -0.060939703 -18.70434 -30.413618 -110.40608
92917000 -30.351097 -103.89623 -0.063373663 -18.907478 -0.061209843 -18.901489 -30.351448 -110.46465
93916000 -30.266277 -104.23045 -0.062473077 -19.097836 -0.061451644 -19.095917 -30.257168 -111.07936
94915000 -30.176792 -104.84003 -0.064228982 -19.30304 -0.062464148 -19.293528 -30.208462 -110.95805
95914000 -30.114368 -105.06853 -0.06470295 -19.495268 -0.06383729 -19.49597 -30.105112 -111.22091
96913000 -30.030056 -105.233 -0.066208474 -19.697393 -0.064279422 -19.695841 -30.040394 -111.58952
97912000 -29.950714 -105.7514 -0.067163467 -19.890921 -0.065049261 -19.895126 -29.960726 -111.80728
98911000 -29.845678 -105.91515 -0.067904361 -20.095627 -0.065809511 -20.094545 -29.919638 -112.04834
99910000 -29.770035 -106.02383 -0.068132862 -20.296247 -0.066229239 -20.293266 -29.818375 -112.35136
100909000 -29.687111 -106.2902 -0.067909881 -20.503117 -0.065798469 -20.499105 -29.726877 -112.54358
101908000 -29.588976 -106.5564 -0.069159023 -20.703772 -0.066974446 -20.701555 -29.619181 -112.3028
102907000 -29.458845 -106.52773 -0.070280664 -20.906006 -0.066994429 -20.904888 -29.540073 -112.28539
103906000 -29.351856 -106.55334 -0.070018642 -21.109966 -0.067359589 -21.106302 -29.393644 -112.25702
104905000 -29.209991 -106.46729 -0.070900798 -21.310488 -0.067591213 -21.309858 -29.265829 -111.94523
105904000 -29.071848 -106.56137 -0.071137346 -21.513794 -0.067519173 -21.508198 -29.153862 -111.81505
106903000 -28.95615 -106.62376 -0.071299441 -21.720808 -0.067789458 -21.710646 -29.025253 -111.75678
107902000 -28.792883 -106.94569 -0.071868658 -21.91835 -0.069275804 -21.913418 -28.882792 -111.63389
108901000 -28.678741 -107.19737 -0.073237672 -22.120407 -0.070126235 -22.115696 -28.757936 -111.64478
109900000 -28.553984 -107.65845 -0.07436537 -22.322104 -0.071456276 -22.314121 -28.60178 -111.69942
110899000 -28.43358 -108.30072 -0.0759978 -22.51766 -0.071731545 -22.513056 -28.47187 -111.95694
111898000 -28.349455 -108.96551 -0.0771963 -22.722374 -0.073033124 -22.716164 -28.350271 -112.13329
112897000 -28.217712 -109.51442 -0.078527719 -22.922617 -0.074563131 -22.910357 -28.21656 -112.26329
113896000 -28.118059 -110.09194 -0.079053335 -23.123922 -0.075974613 -23.109642 -28.113865 -112.38449
114895000 -28.010386 -110.76994 -0.080500297 -23.323454 -0.077673532 -23.30818 -27.997585 -112.53837
115894000 -27.888712 -111.11705 -0.081244789 -23.522261 -0.078670844 -23.510109 -27.929384 -112.66516
116893000 -27.812029 -111.5796 -0.081694767 -23.719421 -0.079983734 -23.70923 -27.804869 -112.71621
117892000 -27.731291 -112.10368 -0.082882181 -23.914951 -0.080093421 -23.906975 -27.723223 -112.92734
118891000 -27.671707 -112.52372 -0.082863182 -24.115883 -0.080560945 -24.104343 -27.623987 -113.05509
119890000 -27.582106 -112.89188 -0.083505437 -24.320618 -0.080731563 -24.304905 -27.617037 -113.13838
120889000 -27.526056 -113.35751 -0.085348271 -24.520372 -0.081507489 -24.503914 -27.543961 -113.12744
121888000 -27.486673 -113.70753 -0.084471621 -24.715174 -0.082426801 -24.704426 -27.479519 -113.39196
122887000 -27.449417 -113.92822 -0.085781515 -24.92594 -0.082384855 -24.905289 -27.435026 -113.3587
123886000 -27.392679 -114.32657 -0.086615905 -25.126154 -0.083800465 -25.105108 -27.42057 -113.52361
124885000 -27.359386 -114.84599 -0.086869426 -25.325502 -0.084025584 -25.310709 -27.390509 -113.61388
125884000 -27.309788 -114.9976 -0.087655425 -25.519501 -0.08383055 -25.509077 -27.36113 -113.70964
126883000 -27.289328 -115.43507 -0.088517919 -25.723515 -0.085005619 -25.710201 -27.31711 -113.72262
127882000 -27.237206 -115.7083 -0.08834514 -25.927046 -0.085603565 -25.906563 -27.278788 -113.87579
128881000 -27.203417 -116.02554 -0.088740639 -26.126757 -0.085577957 -26.111578 -27.240114 -113.96121
129880000 -27.150595 -116.36903 -0.089256659 -26.330488 -0.085455984 -26.310982 -27.195915 -113.91262
130879000 -27.084299 -116.52538 -0.089240544 -26.528431 -0.087210111 -26.513258 -27.126125 -113.94623
131878000 -27.020716 -116.7476 -0.089472279 -26.732634 -0.087429859 -26.713339 -27.060686 -113.86815
132877000 -26.950079 -116.81741 -0.089407541 -26.935616 -0.087384164 -26.91692 -26.975292 -113.8009
133876000 -26.867025 -116.9802 -0.089542307 -27.140907 -0.087748401 -27.114744 -26.895609 -113.68588
134875000 -26.770369 -117.13423 -0.089815818 -27.334984 -0.088283591 -27.317535 -26.785774 -113.52597
135874000 -26.687328 -117.17706 -0.090027235 -27.535641 -0.088646315 -27.521141 -26.690138 -113.49912
136873000 -26.568222 -117.09 -0.090862446 -27.738676 -0.087936476 -27.722334 -26.603426 -113.46501
137872000 -26.491005 -117.20263 -0.090815395 -27.939095 -0.088164449 -27.925974 -26.496763 -113.4013
138871000 -26.41287 -117.42046 -0.091500327 -28.139978 -0.087975837 -28.126905 -26.39456 -113.55028
139870000 -26.315954 -117.68514 -0.092015356 -28.337955 -0.089899063 -28.324673 -26.317537 -113.71265
140869000 -26.232677 -118.29885 -0.092904367 -28.53661 -0.090306059 -28.51689 -26.210329 -113.92041
141868000 -26.149061 -118.67146 -0.094189025 -28.735905 -0.092245124 -28.721676 -26.164877 -114.17594
142867000 -26.07303 -118.86481 -0.092359886 -28.934366 -0.090944387 -28.917652 -26.082397 -114.33949
143866000 -26.000048 -119.36585 -0.094886661 -29.131706 -0.092443973 -29.116745 -26.007368 -114.78604
144865000 -25.943457 -119.92992 -0.096124262 -29.33194 -0.093989834 -29.313833 -25.950611 -115.07313
145864000 -25.885305 -120.21777 -0.096270621 -29.532314 -0.09527164 -29.518654 -25.920525 -115.28862
146863000 -25.844095 -120.56924 -0.097675405 -29.73447 -0.095521428 -29.72242 -25.86281 -115.61156
147862000 -25.805847 -120.90939 -0.098759949 -29.931036 -0.096226953 -29.918791 -25.834543 -115.92223
148861000 -25.771736 -121.36018 -0.099760264 -30.133699 -0.097832672 -30.114065 -25.814745 -116.10569
149860000 -25.741833 -121.52667 -0.10113253 -30.319397 -0.098508917 -30.311502 -25.764721 -116.14445
150859000 -25.719328 -121.97134 -0.10031044 -30.515219 -0.097661115 -30.508522 -25.743204 -116.48087
151858000 -25.704645 -122.33128 -0.10036078 -30.722147 -0.097894624 -30.703474 -25.737816 -116.83121
152857000 -25.687668 -122.66382 -0.099752054 -30.92149 -0.097731799 -30.905756 -25.719824 -117.00267
153856000 -25.692255 -122.90147 -0.099791259 -31.119486 -0.097319603 -31.103794 -25.73571 -117.31738
154855000 -25.692604 -123.08357 -0.10042144 -31.319174 -0.097518682 -31.308853 -25.72785 -117.54997
155854000 -25.703203 -123.29184 -0.1008281 -31.519796 -0.098288074 -31.505556 -25.725374 -117.8096
156853000 -25.69606 -123.98646 -0.098436356 -31.709625 -0.097699761 -31.698895 -25.72073 -118.11111
157852000 -25.700653 -124.19657 -0.099883966 -31.909622 -0.099004641 -31.899179 -25.712492 -118.47302
158851000 -25.700127 -124.41779 -0.10013667 -32.109966 -0.099262066 -32.097752 -25.696199 -118.72111
159850000 -25.689865 -124.52797 -0.10072531 -32.3078 -0.099661998 -32.299232 -25.69668 -118.92677
160849000 -25.676281 -124.63261 -0.10119162 -32.509472 -0.10026647 -32.502449 -25.669996 -119.22356
161848000 -25.659002 -124.73494 -0.10121812 -32.709702 -0.1002927 -32.701195 -25.629021 -119.3271
162847000 -25.620369 -124.87937 -0.10172529 -32.904106 -0.10077009 -32.904259 -25.603989 -119.55924
163846000 -25.57592 -125.09747 -0.10182598 -33.106945 -0.10060848 -33.098133 -25.525846 -119.57611
164845000 -25.517349 -125.07093 -0.10269527 -33.308331 -0.10100509 -33.301636 -25.463259 -119.68678
165844000 -25.470304 -125.105 -0.10268732 -33.509426 -0.10168023 -33.499386 -25.384745 -119.83553
166843000 -25.400927 -125.15508 -0.10228605 -33.706928 -0.10136332 -33.704708 -25.319817 -120.02365
167842000 -25.34446 -125.30087 -0.10337917 -33.910549 -0.10173642 -33.900787 -25.245403 -119.95139
168841000 -25.26705 -125.43552 -0.1032339 -34.106289 -0.10247873 -34.105118 -25.164791 -120.02622
169840000 -25.204937 -125.68858 -0.10362174 -34.301891 -0.10271038 -34.298737 -25.07798 -120.21924
170839000 -25.14138 -125.92283 -0.10485202 -34.501778 -0.10366707 -34.498219 -24.996752 -120.3758
171838000 -25.082779 -126.32968 -0.10453036 -34.704361 -0.10482842 -34.694206 -24.932808 -120.5844
172837000 -25.013718 -126.64295 -0.10628241 -34.898575 -0.10522038 -34.893997 -24.862701 -120.82299
173836000 -24.943806 -127.05645 -0.10769892 -35.096748 -0.10671031 -35.09462 -24.820814 -121.05315
174835000 -24.892532 -127.48526 -0.1078117 -35.294903 -0.1069 -35.295898 -24.782431 -121.35948
175834000 -24.844168 -127.88081 -0.10879844 -35.498695 -0.10786319 -35.492493 -24.712931 -121.65265
176833000 -24.784479 -128.20667 -0.10997604 -35.694668 -0.10879473 -35.691044 -24.664398 -121.77163
177832000 -24.745905 -128.62169 -0.11102435 -35.892906 -0.10976736 -35.893116 -24.645594 -121.88784
178831000 -24.699497 -128.90137 -0.11220521 -36.092552 -0.11065736 -36.089088 -24.605061 -122.00427
179830000 -24.637968 -129.22983 -0.11399063 -36.283482 -0.112694 -36.279297 -24.550564 -122.0134
180829000 -24.576227 -129.57341 -0.11342942 -36.468529 -0.1116899 -36.468796 -24.492456 -122.32036
181828000 -24.551823 -130.03619 -0.11250644 -36.66666 -0.11040644 -36.663639 -24.474928 -122.54607
182827000 -24.529211 -130.40965 -0.1117834 -36.864086 -0.11117599 -36.86441 -24.465246 -122.67782
183826000 -24.493015 -130.74483 -0.11279708 -37.066116 -0.11144396 -37.058346 -24.455212 -122.82961
184825000 -24.490778 -131.09001 -0.11270941 -37.261425 -0.11195923 -37.259098 -24.436472 -122.91688
185824000 -24.4615 -131.44403 -0.11244588 -37.453526 -0.11281833 -37.461971 -24.425564 -123.0061
186823000 -24.44717 -131.81752 -0.11317541 -37.657269 -0.11171965 -37.656422 -24.420559 -122.9986
187822000 -24.419107 -132.12514 -0.11333165 -37.851753 -0.1126762 -37.853279 -24.383657 -123.10676
188821000 -24.394667 -132.42134 -0.11369142 -38.045193 -0.11307445 -38.053013 -24.362492 -123.22892
189820000 -24.373987 -132.69998 -0.11353491 -38.249317 -0.11311191 -38.246765 -24.346193 -123.46638
190819000 -24.338583 -132.99612 -0.11430954 -38.447456 -0.11418995 -38.446266 -24.306763 -123.45525
191818000 -24.311192 -133.30879 -0.11449824 -38.647171 -0.11408471 -38.645527 -24.275761 -123.5384
192817000 -24.261524 -133.57962 -0.11517549 -38.842098 -0.11412404 -38.845638 -24.227976 -123.61565
193816000 -24.229898 -133.83383 -0.11560453 -39.038986 -0.11383279 -39.038795 -24.178356 -123.7673
194815000 -24.171389 -134.2166 -0.11538708 -39.233734 -0.11521589 -39.235943 -24.110106 -123.84752
195814000 -24.108482 -134.44518 -0.11701692 -39.430698 -0.11526613 -39.433212 -24.054153 -123.91293
196813000 -24.06148 -134.75157 -0.11663187 -39.625572 -0.1151824 -39.629517 -23.973946 -124.09615
197812000 -23.997423 -134.97635 -0.11713234 -39.826427 -0.11594057 -39.821651 -23.903877 -124.19965
198811000 -23.9431 -135.12997 -0.11623516 -40.019375 -0.11527862 -40.024006 -23.833549 -124.35653
199810000 -23.871265 -135.50391 -0.11702703 -40.217487 -0.11586773 -40.21463 -23.754618 -124.44678
200809000 -23.811924 -135.75946 -0.11777701 -40.415249 -0.11662682 -40.412834 -23.675982 -124.65194
201808000 -23.755741 -135.96288 -0.11882509 -40.613461 -0.11713659 -40.620358 -23.605547 -124.7301
202807000 -23.693653 -136.30946 -0.11940189 -40.815922 -0.11826856 -40.820583 -23.55031 -124.91916
203806000 -23.640116 -136.73663 -0.12042481 -41.01627 -0.11822601 -41.018963 -23.487837 -125.10564
