!Keysight Technologies,E5080B,MY59205177,A.15.75.32
!Date: Friday, February 23, 2024 03:27:21
!Correction: S11(Cdelta 2-Port  ) 
!S21(Cdelta 2-Port  ) 
!S12(Cdelta 2-Port  ) 
!S22(Cdelta 2-Port  ) 
!S2P File: Measurements: S11, S21, S12, S22:
# Hz S  dB   R 50
10000000 -45.936169 -0.57299376 -0.015719712 -2.0577097 -0.01955525 -2.1114659 -46.179523 -159.18056
10999000 -45.168255 -2.6594098 -0.017437579 -2.2756267 -0.019497003 -2.3281577 -46.095882 -152.75543
11998000 -44.234257 -6.2683945 -0.017628871 -2.5021653 -0.019124145 -2.5424323 -46.362961 -148.51001
12997000 -43.486599 -11.45966 -0.016773583 -2.6839461 -0.018425057 -2.7127166 -45.976669 -142.60971
13996000 -43.252384 -15.41663 -0.016699523 -2.8629038 -0.018815273 -2.878978 -45.774792 -137.17215
14995000 -42.85218 -19.320415 -0.018211633 -3.073101 -0.018996226 -3.0986536 -45.493114 -133.73015
15994000 -42.692261 -24.078817 -0.019573713 -3.2930937 -0.021624785 -3.3141308 -45.435444 -130.28047
16993000 -42.666573 -28.344961 -0.019172246 -3.488307 -0.021402361 -3.4988339 -44.609764 -129.52534
17992000 -42.770531 -34.032101 -0.019852992 -3.6888242 -0.021440601 -3.6921668 -43.971588 -129.64642
18991000 -43.019714 -38.47699 -0.02134617 -3.9009786 -0.021743417 -3.9012017 -43.351406 -128.30496
19990000 -42.81353 -44.453514 -0.023489174 -4.1100621 -0.024453036 -4.1059937 -42.644672 -129.42908
20989000 -42.658882 -47.766357 -0.024871392 -4.3122082 -0.02619181 -4.3079782 -42.101677 -128.92909
21988000 -42.529713 -53.161411 -0.025343165 -4.5093641 -0.026549909 -4.4982104 -41.911888 -127.96556
22987000 -42.242676 -57.886639 -0.027162524 -4.7124953 -0.027564989 -4.707283 -41.623459 -127.48399
23986000 -42.17075 -62.086742 -0.026232176 -4.9105368 -0.027398007 -4.9080977 -41.500713 -127.40729
24985000 -41.80418 -64.899986 -0.027373001 -5.1186514 -0.026971333 -5.114224 -41.300926 -124.80331
25984000 -41.489273 -67.184784 -0.029314654 -5.3265548 -0.028418759 -5.3250246 -40.996727 -122.74492
26983000 -41.193676 -69.031601 -0.029685521 -5.5258789 -0.028956065 -5.5427656 -40.846008 -122.34493
27982000 -41.009708 -69.989449 -0.030383037 -5.730082 -0.03062834 -5.755537 -40.60511 -120.70589
28981000 -40.999191 -71.630562 -0.028314536 -5.9255514 -0.029904982 -5.9491415 -40.37661 -120.06274
29980000 -40.601185 -72.892883 -0.029520022 -6.1191483 -0.030078577 -6.1221118 -40.109325 -119.12657
30979000 -40.188858 -71.836861 -0.026633514 -6.4689088 -0.025518922 -6.4663105 -39.586426 -119.43819
31978000 -39.95607 -72.915276 -0.025510069 -6.6702518 -0.026328536 -6.6613917 -39.313797 -118.79941
32977000 -39.773636 -74.511299 -0.026010036 -6.8822074 -0.026946589 -6.8764 -39.085976 -118.8949
33976000 -39.604042 -75.75145 -0.026641848 -7.0825253 -0.027834103 -7.0788808 -38.805565 -118.08455
34975000 -39.315651 -76.439682 -0.027250828 -7.2825994 -0.028763752 -7.2844052 -38.570919 -117.76273
35974000 -39.119629 -77.013054 -0.026354058 -7.478725 -0.028080566 -7.4804549 -38.294529 -116.91119
36973000 -38.885494 -77.641266 -0.026844746 -7.6824365 -0.02998448 -7.6833029 -38.046181 -115.92569
37972000 -38.720501 -77.424812 -0.02594962 -7.8911147 -0.029412385 -7.9008751 -37.788742 -115.06004
38971000 -38.384163 -77.088531 -0.026647318 -8.0920601 -0.029238034 -8.1035395 -37.621727 -113.36849
39970000 -38.051308 -77.399033 -0.025225477 -8.2862253 -0.02788673 -8.3027077 -37.365467 -112.86871
40969000 -37.748306 -76.954521 -0.025891811 -8.4842148 -0.028614443 -8.5038662 -37.119488 -111.33984
41968000 -37.387936 -76.961845 -0.026113423 -8.6869106 -0.028525328 -8.7078724 -36.920094 -110.0544
42967000 -37.106995 -77.037346 -0.025464242 -8.8968029 -0.029074375 -8.9215746 -36.722073 -108.2212
43966000 -36.807472 -77.783592 -0.027587654 -9.0999136 -0.030828556 -9.1214952 -36.458866 -107.26385
44965000 -36.587872 -78.565987 -0.028267376 -9.3035412 -0.030475577 -9.3265419 -36.228176 -107.15263
45964000 -36.363106 -79.610138 -0.029527839 -9.5053644 -0.032110367 -9.5239248 -36.014198 -106.79845
46963000 -36.166523 -81.622772 -0.029422028 -9.6965103 -0.031630296 -9.7226696 -35.816505 -106.92993
47962000 -35.98357 -83.080765 -0.030432826 -9.9025192 -0.033603851 -9.9210443 -35.621937 -107.0552
48961000 -35.789303 -84.444595 -0.032697946 -10.098289 -0.035312891 -10.122619 -35.383244 -107.13779
49960000 -35.556919 -85.767052 -0.034566309 -10.301134 -0.036366567 -10.32557 -35.241554 -107.28011
50959000 -35.333111 -87.132263 -0.035207197 -10.514886 -0.037964404 -10.527313 -35.05743 -107.50439
51958000 -35.130157 -88.207336 -0.03700041 -10.714116 -0.039202869 -10.725455 -34.897804 -107.87173
52957000 -34.915348 -89.381973 -0.037858907 -10.916398 -0.040451881 -10.925837 -34.737446 -107.71941
53956000 -34.747135 -89.90567 -0.039525993 -11.117481 -0.041586775 -11.122333 -34.589993 -107.60802
54955000 -34.570652 -90.502983 -0.04056998 -11.319147 -0.041912954 -11.315921 -34.434486 -107.46496
55954000 -34.40971 -91.296776 -0.041670147 -11.521511 -0.042515714 -11.5195 -34.331188 -107.30331
56953000 -34.286522 -91.301201 -0.041403312 -11.713933 -0.041371953 -11.71046 -34.259148 -107.41555
57952000 -34.11813 -91.878242 -0.042449579 -11.915376 -0.042555708 -11.91023 -34.152283 -107.47379
58951000 -33.999126 -92.231422 -0.043777704 -12.128269 -0.043065485 -12.102688 -33.99511 -107.58273
59950000 -33.877502 -92.5578 -0.043937214 -12.322881 -0.044160269 -12.301876 -33.929714 -107.84544
60949000 -33.757267 -93.179657 -0.045003444 -12.525343 -0.044877637 -12.505887 -33.831417 -108.08172
61948000 -33.705372 -93.49202 -0.044937532 -12.725861 -0.044589944 -12.707929 -33.755402 -108.13639
62947000 -33.61969 -93.636345 -0.045174245 -12.938399 -0.045668896 -12.917862 -33.612991 -108.41425
63946000 -33.542767 -94.440277 -0.04647024 -13.1359 -0.046639003 -13.117489 -33.5051 -108.64832
64945000 -33.422325 -94.564499 -0.047190342 -13.340821 -0.047559861 -13.321942 -33.38784 -109.11028
65944000 -33.321316 -94.881752 -0.048590336 -13.542683 -0.047578182 -13.525045 -33.294254 -109.46135
66943000 -33.182693 -95.276321 -0.045665234 -13.743873 -0.046319012 -13.724007 -33.190281 -109.79425
67942000 -33.130341 -95.273972 -0.047547825 -13.939682 -0.048942436 -13.927436 -33.068893 -110.06036
68941000 -33.010639 -95.250511 -0.047478471 -14.135601 -0.047972862 -14.122391 -32.9557 -110.05098
69940000 -32.911552 -95.251007 -0.048198745 -14.332976 -0.048414167 -14.328453 -32.817699 -110.26411
70939000 -32.803787 -95.233498 -0.048564944 -14.52772 -0.048064992 -14.525729 -32.682583 -110.17825
71938000 -32.655537 -94.777641 -0.048592694 -14.730391 -0.04838904 -14.718605 -32.547504 -110.09681
72937000 -32.486874 -94.547531 -0.047671612 -14.927953 -0.04767397 -14.91715 -32.403728 -109.78011
73936000 -32.353466 -94.202118 -0.04779698 -15.127221 -0.048086192 -15.117535 -32.286697 -109.522
74935000 -32.221428 -94.467186 -0.046715405 -15.319152 -0.046770617 -15.318347 -32.132309 -109.19849
75934000 -32.100086 -94.678429 -0.046478871 -15.533949 -0.046776373 -15.525578 -32.042377 -109.07793
76933000 -31.967741 -95.06356 -0.048093785 -15.724762 -0.04824036 -15.71859 -31.859716 -109.44709
77932000 -31.85611 -95.798904 -0.049540412 -15.920787 -0.050390653 -15.913417 -31.759823 -109.34881
78931000 -31.783209 -96.590988 -0.048188534 -16.125589 -0.048956834 -16.11561 -31.659929 -109.27214
79930000 -31.676622 -97.434525 -0.050300833 -16.316124 -0.051387489 -16.313387 -31.560238 -109.52173
80929000 -31.552492 -98.281487 -0.052277654 -16.514368 -0.053430319 -16.513571 -31.458664 -109.80736
81928000 -31.451273 -99.053635 -0.052566119 -16.704187 -0.053726465 -16.701897 -31.31698 -109.79343
82927000 -31.348669 -99.726494 -0.054349475 -16.907221 -0.055020031 -16.90205 -31.219252 -110.10056
83926000 -31.237228 -100.47929 -0.055671021 -17.103025 -0.055908579 -17.103802 -31.100792 -110.29152
84925000 -31.141443 -100.91433 -0.057102866 -17.303473 -0.056058571 -17.298498 -30.99592 -110.34728
85924000 -31.046762 -101.315 -0.057456441 -17.503622 -0.057815816 -17.500368 -30.906538 -110.26183
86923000 -30.930113 -101.81218 -0.058101501 -17.704735 -0.057693575 -17.697632 -30.80706 -110.09946
87922000 -30.81813 -102.15608 -0.057935439 -17.910801 -0.057961412 -17.903082 -30.716124 -110.11694
88921000 -30.749151 -102.41117 -0.058962345 -18.106243 -0.058830362 -18.10387 -30.622028 -110.08157
89920000 -30.642406 -102.95737 -0.059009053 -18.308262 -0.058978613 -18.298183 -30.565729 -110.25246
90919000 -30.536051 -103.25646 -0.060916603 -18.504425 -0.059960362 -18.502108 -30.478903 -110.4344
91918000 -30.434143 -103.57084 -0.06102686 -18.709467 -0.060263772 -18.69857 -30.412075 -110.44346
92917000 -30.356888 -103.85217 -0.062424757 -18.904659 -0.061551675 -18.900909 -30.341059 -110.50046
93916000 -30.256721 -104.20964 -0.06196548 -19.099119 -0.061800845 -19.09367 -30.259357 -111.11582
94915000 -30.173664 -104.86734 -0.063714348 -19.303082 -0.062404536 -19.29484 -30.195021 -110.9755
95914000 -30.117437 -105.02959 -0.064448088 -19.49288 -0.0639048 -19.492664 -30.105278 -111.26875
96913000 -30.021095 -105.24811 -0.066019498 -19.696064 -0.064871632 -19.694061 -30.034081 -111.62914
97912000 -29.942535 -105.76554 -0.066965774 -19.892469 -0.064737633 -19.894207 -29.956585 -111.87265
98911000 -29.838213 -105.98245 -0.066946581 -20.094305 -0.066248693 -20.093342 -29.912628 -112.06308
99910000 -29.776955 -106.05023 -0.068430275 -20.293318 -0.066914774 -20.293985 -29.807907 -112.38467
100909000 -29.685581 -106.3328 -0.067331985 -20.505611 -0.066372484 -20.495378 -29.718081 -112.55657
101908000 -29.59124 -106.55577 -0.069007002 -20.705072 -0.067592531 -20.698975 -29.610577 -112.35075
102907000 -29.45471 -106.50759 -0.069170073 -20.898808 -0.067700066 -20.904415 -29.531954 -112.29508
103906000 -29.354326 -106.60226 -0.069990233 -21.108807 -0.067131124 -21.105997 -29.388363 -112.27705
104905000 -29.21055 -106.45767 -0.070359856 -21.310993 -0.067363791 -21.311874 -29.260336 -111.94995
105904000 -29.060102 -106.55388 -0.07072898 -21.509455 -0.067745022 -21.505766 -29.143787 -111.84653
106903000 -28.958828 -106.68335 -0.070706092 -21.720388 -0.067471057 -21.714769 -29.017523 -111.73482
107902000 -28.788836 -106.99031 -0.071607068 -21.916836 -0.068525471 -21.904795 -28.879534 -111.67665
108901000 -28.681515 -107.25105 -0.072243705 -22.122019 -0.06960775 -22.115963 -28.748358 -111.61888
109900000 -28.547468 -107.67981 -0.073508315 -22.319231 -0.071530491 -22.31369 -28.596268 -111.67821
110899000 -28.431335 -108.28788 -0.07513357 -22.518047 -0.071968935 -22.508272 -28.465397 -111.98862
111898000 -28.3398 -108.96485 -0.076199591 -22.717594 -0.072890967 -22.715326 -28.353588 -112.15836
112897000 -28.2174 -109.5515 -0.077669576 -22.921352 -0.074566819 -22.908094 -28.2202 -112.24699
113896000 -28.107796 -110.14848 -0.078092299 -23.1215 -0.07596118 -23.109383 -28.102545 -112.40235
114895000 -28.010397 -110.78181 -0.079765417 -23.319139 -0.077359416 -23.307293 -27.991558 -112.51671
115894000 -27.886621 -111.11475 -0.081265099 -23.518068 -0.07823199 -23.507669 -27.919479 -112.66948
116893000 -27.815144 -111.63016 -0.081886008 -23.721809 -0.079050697 -23.702286 -27.804699 -112.7073
117892000 -27.726542 -112.10268 -0.081380092 -23.916937 -0.079778075 -23.905313 -27.72234 -112.95132
118891000 -27.664713 -112.52766 -0.082457937 -24.118898 -0.080367386 -24.105749 -27.626694 -113.07234
119890000 -27.578712 -112.89227 -0.083124928 -24.314875 -0.080915116 -24.299736 -27.616718 -113.24283
120889000 -27.531956 -113.39555 -0.084773585 -24.516291 -0.081272744 -24.504236 -27.541794 -113.1082
121888000 -27.482325 -113.70303 -0.084041677 -24.716122 -0.082245298 -24.704576 -27.484781 -113.42817
122887000 -27.44734 -113.93259 -0.085361473 -24.922173 -0.082749732 -24.905609 -27.435614 -113.42984
123886000 -27.389759 -114.3476 -0.086008579 -25.120188 -0.082793526 -25.101776 -27.415564 -113.56269
124885000 -27.35791 -114.82153 -0.086305104 -25.321249 -0.083426006 -25.307869 -27.386726 -113.6081
125884000 -27.307865 -115.04942 -0.087164424 -25.517452 -0.083469808 -25.504814 -27.355782 -113.72731
126883000 -27.283234 -115.40782 -0.088079914 -25.724203 -0.084907949 -25.710924 -27.315153 -113.7884
127882000 -27.233232 -115.70506 -0.087750778 -25.924934 -0.08503861 -25.906933 -27.272118 -113.91126
128881000 -27.204693 -116.03896 -0.08838477 -26.123697 -0.085236602 -26.109089 -27.235184 -114.00256
129880000 -27.149487 -116.37945 -0.089614443 -26.328741 -0.085297585 -26.310282 -27.189358 -113.95846
130879000 -27.08709 -116.56102 -0.088446327 -26.528601 -0.085955508 -26.509895 -27.120419 -113.94737
131878000 -27.018559 -116.74658 -0.089233935 -26.73266 -0.086281866 -26.710812 -27.054756 -113.8691
132877000 -26.945076 -116.83781 -0.089065358 -26.93047 -0.086498924 -26.913414 -26.969904 -113.82795
133876000 -26.860235 -116.99754 -0.089264587 -27.131561 -0.085769102 -27.116179 -26.888159 -113.72997
134875000 -26.762083 -117.14269 -0.089161009 -27.331915 -0.086859919 -27.315662 -26.782686 -113.56576
135874000 -26.685114 -117.21158 -0.089150965 -27.532158 -0.08683826 -27.515871 -26.682646 -113.52282
136873000 -26.567392 -117.13895 -0.089845411 -27.739632 -0.086875238 -27.718822 -26.596859 -113.47177
137872000 -26.483068 -117.25849 -0.090137973 -27.939131 -0.087131672 -27.924231 -26.493929 -113.43008
138871000 -26.409386 -117.47369 -0.09083046 -28.140089 -0.087674446 -28.124897 -26.395596 -113.5625
139870000 -26.310419 -117.7585 -0.092043646 -28.340597 -0.087854855 -28.323563 -26.31127 -113.77867
140869000 -26.232937 -118.33713 -0.092486545 -28.53644 -0.089322455 -28.517658 -26.214945 -113.94387
141868000 -26.151268 -118.70096 -0.093293399 -28.736338 -0.090802178 -28.719994 -26.162937 -114.21031
142867000 -26.070028 -118.91529 -0.092612684 -28.933729 -0.089979663 -28.915606 -26.076612 -114.31048
143866000 -25.998215 -119.39971 -0.093638822 -29.12911 -0.091370523 -29.114023 -26.007242 -114.78947
144865000 -25.93969 -119.94114 -0.095435694 -29.32752 -0.092846982 -29.314075 -25.945704 -115.09958
145864000 -25.886421 -120.19975 -0.096116059 -29.532448 -0.094339281 -29.520943 -25.912588 -115.35225
146863000 -25.832733 -120.61929 -0.097046413 -29.731342 -0.095143832 -29.716805 -25.870909 -115.63341
147862000 -25.797739 -120.93129 -0.098448008 -29.929182 -0.095140658 -29.918272 -25.828901 -115.90667
148861000 -25.76829 -121.36546 -0.09931954 -30.130703 -0.097365402 -30.112259 -25.817245 -116.07832
149860000 -25.738062 -121.54211 -0.10091739 -30.322123 -0.097642578 -30.312401 -25.761999 -116.16622
150859000 -25.713177 -122.01994 -0.10044847 -30.516817 -0.097017556 -30.500486 -25.7435 -116.53345
151858000 -25.703306 -122.3625 -0.099386014 -30.718664 -0.097090885 -30.70433 -25.728458 -116.877
152857000 -25.68951 -122.68219 -0.10002223 -30.919529 -0.096624486 -30.901838 -25.719879 -117.01188
153856000 -25.688995 -122.904 -0.09926524 -31.11964 -0.096579224 -31.1038 -25.734953 -117.32307
154855000 -25.687763 -123.08598 -0.099499904 -31.314054 -0.097168975 -31.30493 -25.727898 -117.56828
155854000 -25.705799 -123.30428 -0.10041694 -31.519913 -0.097944133 -31.504805 -25.720022 -117.844
156853000 -25.69165 -124.01141 -0.09817528 -31.707644 -0.096947946 -31.694042 -25.719421 -118.18171
157852000 -25.695755 -124.19942 -0.099517912 -31.907936 -0.099009939 -31.897524 -25.704687 -118.47897
158851000 -25.700474 -124.41827 -0.10001959 -32.104275 -0.098810002 -32.098526 -25.696354 -118.80199
159850000 -25.687302 -124.53204 -0.10074227 -32.305378 -0.099112168 -32.297428 -25.694731 -118.96696
160849000 -25.675495 -124.61679 -0.10066252 -32.507553 -0.1005192 -32.501888 -25.664093 -119.26189
161848000 -25.653706 -124.71807 -0.10141207 -32.706661 -0.10003442 -32.698895 -25.627634 -119.37868
162847000 -25.616207 -124.90122 -0.1003719 -32.906815 -0.10094362 -32.902481 -25.601749 -119.59499
163846000 -25.579813 -125.09425 -0.10166752 -33.103916 -0.10074439 -33.101448 -25.518347 -119.59929
164845000 -25.516533 -125.09181 -0.10232793 -33.309467 -0.1011948 -33.299946 -25.46233 -119.72445
165844000 -25.462893 -125.12912 -0.10266453 -33.505653 -0.10158749 -33.500576 -25.38228 -119.85892
166843000 -25.399265 -125.1881 -0.10211299 -33.701363 -0.10118526 -33.698162 -25.310722 -120.0171
167842000 -25.341961 -125.29346 -0.1033463 -33.907101 -0.10182758 -33.899082 -25.241295 -119.93716
168841000 -25.268049 -125.46271 -0.10252114 -34.105824 -0.10174781 -34.099201 -25.165697 -120.01762
169840000 -25.195652 -125.69514 -0.10370604 -34.301834 -0.1028506 -34.296059 -25.075153 -120.21505
170839000 -25.142298 -125.9422 -0.10406264 -34.500092 -0.1036053 -34.495186 -24.993448 -120.39262
171838000 -25.082558 -126.36062 -0.10346612 -34.699951 -0.10402552 -34.694241 -24.93014 -120.61688
172837000 -25.009201 -126.701 -0.10510714 -34.897293 -0.10525592 -34.889225 -24.862286 -120.85715
173836000 -24.938583 -127.08583 -0.10670155 -35.097469 -0.10648985 -35.095074 -24.818821 -121.06194
174835000 -24.886972 -127.47411 -0.10723484 -35.291943 -0.10693131 -35.293163 -24.771477 -121.38498
175834000 -24.834551 -127.82393 -0.10813918 -35.493717 -0.10793245 -35.489513 -24.712179 -121.64275
176833000 -24.784035 -128.19846 -0.10948171 -35.693729 -0.10874218 -35.690155 -24.663689 -121.76689
177832000 -24.739389 -128.63847 -0.110429 -35.891117 -0.1093657 -35.892445 -24.640913 -121.90683
178831000 -24.697134 -128.9111 -0.11194675 -36.090717 -0.11080553 -36.088638 -24.604589 -122.05061
179830000 -24.637695 -129.24626 -0.1133412 -36.280369 -0.11242994 -36.279751 -24.546236 -122.03296
180829000 -24.573061 -129.5789 -0.11257472 -36.468327 -0.11196348 -36.468513 -24.497595 -122.36686
181828000 -24.546167 -130.04185 -0.112414 -36.670414 -0.11066905 -36.666203 -24.473696 -122.56978
182827000 -24.52644 -130.39494 -0.11116829 -36.860458 -0.11114917 -36.86869 -24.460264 -122.67807
183826000 -24.48506 -130.77519 -0.11278167 -37.063339 -0.11082651 -37.059574 -24.4492 -122.82439
184825000 -24.489422 -131.11298 -0.11228357 -37.261147 -0.11164794 -37.258602 -24.428719 -122.96025
185824000 -24.456591 -131.45476 -0.1124905 -37.457306 -0.11170212 -37.454304 -24.425585 -123.016
186823000 -24.440006 -131.83392 -0.11264485 -37.658569 -0.11202458 -37.65527 -24.417835 -123.04982
187822000 -24.418072 -132.15651 -0.11315788 -37.850376 -0.11204928 -37.851536 -24.378393 -123.11663
188821000 -24.393444 -132.41457 -0.11349107 -38.049591 -0.11333536 -38.051849 -24.361475 -123.25156
189820000 -24.373407 -132.72368 -0.11360054 -38.247719 -0.11260527 -38.248859 -24.339104 -123.46278
190819000 -24.335941 -133.01523 -0.11410916 -38.446777 -0.11333217 -38.442741 -24.302921 -123.50757
191818000 -24.308868 -133.34393 -0.11452747 -38.642815 -0.11348894 -38.644447 -24.273943 -123.53966
192817000 -24.260406 -133.57706 -0.11437226 -38.84066 -0.11388275 -38.841457 -24.22802 -123.65849
193816000 -24.228905 -133.85013 -0.11556413 -39.035557 -0.1139444 -39.034115 -24.179335 -123.77113
194815000 -24.164652 -134.25887 -0.11476561 -39.237007 -0.11485572 -39.234566 -24.1084 -123.87737
195814000 -24.11154 -134.45459 -0.11566302 -39.427433 -0.11477572 -39.43327 -24.053671 -123.9538
196813000 -24.056341 -134.78069 -0.11609425 -39.62421 -0.1148419 -39.623665 -23.969736 -124.11475
197812000 -23.99548 -134.9525 -0.11663081 -39.825775 -0.11597327 -39.818813 -23.900631 -124.18887
198811000 -23.941435 -135.17223 -0.11628674 -40.019569 -0.11604373 -40.025177 -23.832705 -124.37015
199810000 -23.87409 -135.52232 -0.11681269 -40.214363 -0.11529936 -40.213593 -23.753145 -124.47006
200809000 -23.809538 -135.74728 -0.11698501 -40.410263 -0.11570396 -40.411041 -23.668337 -124.65813
201808000 -23.750563 -135.97903 -0.11800417 -40.613564 -0.11666112 -40.614605 -23.601479 -124.71169
202807000 -23.695654 -136.31512 -0.11886819 -40.812565 -0.11728498 -40.814953 -23.546059 -124.94289
203806000 -23.644836 -136.73512 -0.12025023 -41.01244 -0.11816908 -41.017918 -23.486746 -125.08078
