!Keysight Technologies,E5080B,MY59205177,A.15.75.32
!Date: Friday, February 23, 2024 02:48:06
!Correction: S11(Cdelta 2-Port  ) 
!S21(Cdelta 2-Port  ) 
!S12(Cdelta 2-Port  ) 
!S22(Cdelta 2-Port  ) 
!S2P File: Measurements: S11, S21, S12, S22:
# Hz S  dB   R 50
10000000 -41.109982 -3.3828731 -0.050585497 -2.0528922 -0.05473743 -2.1100631 -53.87402 -112.41669
10999000 -40.636593 -4.6681447 -0.052443236 -2.2664564 -0.054668486 -2.3219941 -52.445198 -103.07703
11998000 -40.065598 -6.5224357 -0.052407604 -2.492388 -0.054129303 -2.5341852 -51.684822 -96.190582
12997000 -39.610348 -10.128027 -0.051502481 -2.6746416 -0.053486139 -2.7055929 -50.179211 -91.877708
13996000 -39.405674 -12.580865 -0.051384866 -2.8538702 -0.053908877 -2.8739352 -49.039501 -88.034416
14995000 -39.206303 -15.664156 -0.052974354 -3.0618424 -0.053775735 -3.0859745 -48.235901 -86.709686
15994000 -39.143131 -18.469574 -0.054231524 -3.2838528 -0.055660535 -3.3032608 -47.656158 -84.039009
16993000 -39.160812 -21.659822 -0.053665921 -3.4770076 -0.055278789 -3.4866686 -46.929897 -88.613487
17992000 -39.29702 -25.068941 -0.053711262 -3.6760454 -0.056016613 -3.6809802 -46.337738 -91.934494
18991000 -39.538677 -28.283527 -0.055796355 -3.8849778 -0.05706431 -3.8827653 -45.59399 -93.287308
19990000 -39.554634 -32.166553 -0.056913238 -4.09797 -0.059105355 -4.0943055 -45.080372 -97.83252
20989000 -39.496346 -34.645721 -0.059538871 -4.302197 -0.060858585 -4.2929544 -44.336426 -99.256149
21988000 -39.541386 -38.481602 -0.060092118 -4.4951715 -0.06150284 -4.4856205 -44.051918 -99.407799
22987000 -39.486847 -42.277039 -0.061434578 -4.6987519 -0.063159853 -4.69242 -43.735764 -99.727364
23986000 -39.559933 -45.400856 -0.060974881 -4.8945885 -0.061568476 -4.8898802 -43.621162 -99.698662
24985000 -39.396389 -47.823074 -0.061854411 -5.1022458 -0.062748827 -5.0961814 -43.207626 -97.984581
25984000 -39.221733 -50.00988 -0.063535728 -5.3104315 -0.062629335 -5.3148384 -42.720833 -97.382065
26983000 -39.022976 -51.832443 -0.063932911 -5.5040665 -0.064117067 -5.5283389 -42.543449 -96.884666
27982000 -38.920868 -52.941975 -0.06492576 -5.7067261 -0.065498613 -5.7426004 -42.161747 -95.737778
28981000 -38.982788 -54.189457 -0.062648766 -5.9075289 -0.064879514 -5.9299793 -41.831013 -95.427528
29980000 -38.666134 -55.929096 -0.062995963 -6.0959969 -0.066508904 -6.108758 -41.479507 -95.755562
30979000 -38.328983 -55.78582 -0.060214691 -6.4520454 -0.060499482 -6.4413877 -41.001835 -97.496544
31978000 -38.186024 -57.127438 -0.060468245 -6.6478834 -0.061458204 -6.6376214 -40.690674 -97.514053
32977000 -38.081264 -58.699837 -0.060223352 -6.8590107 -0.061922941 -6.8534646 -40.396839 -98.083115
33976000 -37.979958 -59.830975 -0.060870137 -7.0598874 -0.062133797 -7.0536547 -40.0569 -98.279144
34975000 -37.741669 -61.056374 -0.061367888 -7.2568693 -0.062953681 -7.2616506 -39.790428 -98.304222
35974000 -37.571461 -61.977684 -0.060664594 -7.454268 -0.063526534 -7.4600353 -39.443668 -97.897026
36973000 -37.39962 -63.002594 -0.061079625 -7.6527753 -0.064158835 -7.660975 -39.118092 -97.514069
37972000 -37.229874 -63.087276 -0.060508147 -7.8654318 -0.063670218 -7.8741469 -38.793743 -97.316933
38971000 -36.936466 -63.194004 -0.061992001 -8.0621214 -0.063984402 -8.0742712 -38.571243 -95.849854
39970000 -36.658531 -64.050781 -0.060016263 -8.2633657 -0.063053481 -8.2781267 -38.256603 -95.737778
40969000 -36.378742 -64.17878 -0.060146708 -8.457099 -0.062963136 -8.4712801 -37.934776 -94.689278
41968000 -36.068146 -64.621216 -0.060703181 -8.6611814 -0.062925316 -8.679635 -37.687645 -93.716621
42967000 -35.841194 -65.07756 -0.060631517 -8.8669863 -0.06332428 -8.8898401 -37.388527 -92.231438
43966000 -35.591476 -66.198814 -0.062134322 -9.0737467 -0.064900272 -9.0872431 -37.081169 -91.824272
44965000 -35.412266 -67.223946 -0.062027186 -9.2779436 -0.065366164 -9.2920914 -36.851391 -92.018013
45964000 -35.228878 -68.458183 -0.063683875 -9.4732714 -0.065739341 -9.4944763 -36.608738 -92.107437
46963000 -35.104771 -70.407082 -0.063572764 -9.6692543 -0.066609845 -9.6916656 -36.428738 -92.64843
47962000 -34.997177 -71.955025 -0.065458402 -9.8715553 -0.068461567 -9.8866644 -36.234398 -93.142761
48961000 -34.844055 -73.520958 -0.067343287 -10.068254 -0.069422834 -10.089891 -35.98222 -93.713455
49960000 -34.67281 -75.003029 -0.069173232 -10.270728 -0.071267866 -10.291189 -35.878326 -93.964378
50959000 -34.505775 -76.475273 -0.069020942 -10.485264 -0.07242348 -10.492374 -35.710342 -94.57798
51958000 -34.32682 -77.774513 -0.071399964 -10.684003 -0.073946953 -10.693023 -35.553211 -95.41835
52957000 -34.162506 -78.986382 -0.073029175 -10.881752 -0.074644245 -10.88767 -35.38763 -95.359924
53956000 -34.040741 -79.806587 -0.073801085 -11.083148 -0.075457796 -11.082464 -35.245705 -95.581459
54955000 -33.872662 -80.447769 -0.074493088 -11.287228 -0.076461457 -11.282383 -35.074894 -95.559784
55954000 -33.744846 -81.510437 -0.075994901 -11.488079 -0.077182338 -11.482341 -34.962967 -95.480385
56953000 -33.639385 -81.714752 -0.075694866 -11.685688 -0.07605496 -11.671631 -34.890949 -95.854103
57952000 -33.497135 -82.363503 -0.076650627 -11.878231 -0.076930702 -11.872885 -34.801876 -96.0924
58951000 -33.384083 -82.890343 -0.078466564 -12.088705 -0.077755228 -12.066081 -34.640659 -96.372116
59950000 -33.261482 -83.348038 -0.078685343 -12.284548 -0.078789726 -12.266425 -34.580898 -96.797722
60949000 -33.161697 -84.053833 -0.079173282 -12.489311 -0.079536304 -12.467542 -34.482861 -97.188416
61948000 -33.108879 -84.358597 -0.080130331 -12.687607 -0.079069413 -12.669159 -34.39159 -97.292137
62947000 -33.029167 -84.617546 -0.079313532 -12.899124 -0.080302261 -12.8745 -34.26543 -97.726212
63946000 -32.975456 -85.378357 -0.080275096 -13.099222 -0.081378512 -13.076274 -34.154057 -97.942497
64945000 -32.877117 -85.653923 -0.081568949 -13.2979 -0.082016587 -13.281733 -34.06192 -98.616425
65944000 -32.78754 -86.002907 -0.081974111 -13.497881 -0.082328402 -13.479649 -33.96059 -99.131516
66943000 -32.648338 -86.550125 -0.079756714 -13.700197 -0.080556728 -13.68117 -33.875195 -99.463844
67942000 -32.574341 -86.535652 -0.08182323 -13.897415 -0.082785875 -13.885656 -33.74379 -99.925896
68941000 -32.468449 -86.709343 -0.081661269 -14.09075 -0.081966728 -14.079464 -33.642773 -99.932594
69940000 -32.374668 -86.78289 -0.082097568 -14.289805 -0.082347393 -14.280402 -33.50502 -100.35608
70939000 -32.259884 -86.853027 -0.081982553 -14.485991 -0.082475081 -14.478572 -33.36198 -100.38797
71938000 -32.121445 -86.573296 -0.081660479 -14.683004 -0.083001181 -14.674277 -33.221237 -100.34763
72937000 -31.959148 -86.560974 -0.081809774 -14.882362 -0.081913441 -14.872931 -33.072914 -100.12404
73936000 -31.818233 -86.326103 -0.081674717 -15.080643 -0.081290416 -15.068088 -32.942719 -99.995415
74935000 -31.681177 -86.68647 -0.081073619 -15.27564 -0.080890067 -15.269943 -32.783779 -99.770241
75934000 -31.568466 -87.003311 -0.081628032 -15.484628 -0.081334464 -15.478353 -32.685024 -99.749588
76933000 -31.449566 -87.524086 -0.082475349 -15.676071 -0.082195178 -15.673182 -32.51759 -100.28921
77932000 -31.359201 -88.338943 -0.083854042 -15.879302 -0.083780147 -15.863844 -32.42028 -100.32909
78931000 -31.299807 -89.107452 -0.082749203 -16.073565 -0.082918592 -16.069546 -32.317795 -100.35494
79930000 -31.200264 -90.023193 -0.085126251 -16.266359 -0.08560884 -16.264627 -32.222164 -100.71392
80929000 -31.091984 -90.946045 -0.086538531 -16.462208 -0.087424047 -16.457119 -32.131477 -101.13575
81928000 -31.028711 -91.841316 -0.086953931 -16.656811 -0.087814972 -16.650417 -32.007832 -101.39825
82927000 -30.938057 -92.635696 -0.089045539 -16.851229 -0.089206986 -16.852087 -31.905043 -101.77538
83926000 -30.840891 -93.464943 -0.090357333 -17.052032 -0.089669414 -17.052685 -31.788902 -102.03227
84925000 -30.749557 -93.979675 -0.091656573 -17.247915 -0.090385355 -17.247667 -31.700895 -102.2393
85924000 -30.656126 -94.506538 -0.091769993 -17.452364 -0.092048138 -17.449198 -31.607353 -102.31593
86923000 -30.56708 -95.148132 -0.092406422 -17.649487 -0.092516162 -17.640203 -31.508665 -102.2894
87922000 -30.461945 -95.514885 -0.0927293 -17.851717 -0.091724783 -17.848913 -31.413157 -102.46685
88921000 -30.398645 -95.934914 -0.093693845 -18.052216 -0.093586721 -18.050602 -31.321804 -102.50638
89920000 -30.309172 -96.520386 -0.094383724 -18.248301 -0.094367325 -18.24247 -31.270369 -102.78355
90919000 -30.213297 -96.899818 -0.095356308 -18.444256 -0.094435312 -18.443857 -31.182304 -102.95644
91918000 -30.122736 -97.304024 -0.095662996 -18.649372 -0.094675533 -18.645491 -31.111023 -103.02188
92917000 -30.032862 -97.78405 -0.097025238 -18.849497 -0.096321702 -18.839703 -31.061737 -103.26292
93916000 -29.962944 -98.127701 -0.096528672 -19.039701 -0.096136965 -19.03657 -30.977987 -103.93306
94915000 -29.892004 -98.829681 -0.097677529 -19.244091 -0.097127676 -19.237934 -30.904308 -103.793
95914000 -29.8332 -99.066284 -0.098944791 -19.436995 -0.098239355 -19.434664 -30.809813 -104.13638
96913000 -29.749935 -99.40892 -0.10003681 -19.636751 -0.099641606 -19.637007 -30.749746 -104.50356
97912000 -29.672131 -99.905197 -0.10142479 -19.829935 -0.099565059 -19.832487 -30.679672 -104.87423
98911000 -29.573481 -100.0753 -0.10165082 -20.034046 -0.10076585 -20.030775 -30.635977 -105.04867
99910000 -29.506739 -100.27099 -0.10244428 -20.234047 -0.1016601 -20.228369 -30.523039 -105.44533
100909000 -29.416378 -100.62912 -0.10222086 -20.44179 -0.10072558 -20.435215 -30.445166 -105.68485
101908000 -29.331417 -100.91015 -0.10299904 -20.638878 -0.10102629 -20.639376 -30.31399 -105.49317
102907000 -29.199055 -100.99291 -0.10363844 -20.839735 -0.10222615 -20.84226 -30.242912 -105.40346
103906000 -29.107677 -101.08904 -0.10371744 -21.046757 -0.10136597 -21.04118 -30.077293 -105.49232
104905000 -28.955753 -101.09988 -0.10536201 -21.242552 -0.10154774 -21.24155 -29.937243 -105.22536
105904000 -28.806139 -101.25536 -0.10484751 -21.443867 -0.10262716 -21.44376 -29.815903 -105.07143
106903000 -28.695206 -101.44632 -0.10460726 -21.652367 -0.10332429 -21.649508 -29.682667 -105.04359
107902000 -28.541248 -101.87959 -0.10557577 -21.851494 -0.10333145 -21.841103 -29.532539 -105.07816
108901000 -28.432703 -102.16003 -0.10602563 -22.053284 -0.10468098 -22.049683 -29.40143 -105.10157
109900000 -28.312101 -102.70935 -0.10699843 -22.255129 -0.1058869 -22.243748 -29.243214 -105.26144
110899000 -28.19796 -103.4106 -0.10893833 -22.451097 -0.10656413 -22.440666 -29.114727 -105.64747
111898000 -28.106348 -104.12318 -0.10981913 -22.652443 -0.1083154 -22.647091 -28.997355 -105.84077
112897000 -27.993435 -104.7345 -0.11164767 -22.852354 -0.10940366 -22.84202 -28.85693 -106.16993
113896000 -27.893944 -105.4035 -0.11240815 -23.05456 -0.11112155 -23.037943 -28.751009 -106.36482
114895000 -27.795469 -106.11169 -0.11405761 -23.251207 -0.11224718 -23.235924 -28.63258 -106.50845
115894000 -27.667852 -106.50459 -0.11534349 -23.454412 -0.11330481 -23.437349 -28.563377 -106.72945
116893000 -27.586885 -107.14612 -0.11546125 -23.64678 -0.11391676 -23.6285 -28.433378 -106.95969
117892000 -27.51074 -107.66333 -0.11595998 -23.844372 -0.1140895 -23.83032 -28.361521 -107.24561
118891000 -27.451479 -108.11964 -0.11643511 -24.04641 -0.11439804 -24.026234 -28.2609 -107.46458
119890000 -27.370239 -108.52816 -0.11743658 -24.242647 -0.11542696 -24.22554 -28.248423 -107.63323
120889000 -27.318701 -109.06138 -0.11857342 -24.443472 -0.11561676 -24.432768 -28.167444 -107.63853
121888000 -27.281706 -109.42809 -0.11863035 -24.639444 -0.1157784 -24.627892 -28.109455 -107.97539
122887000 -27.2355 -109.68799 -0.11983509 -24.840853 -0.11647791 -24.832788 -28.062164 -108.02349
123886000 -27.181517 -110.08669 -0.11997772 -25.048201 -0.11770866 -25.027372 -28.049681 -108.19676
124885000 -27.14736 -110.6367 -0.1203817 -25.242426 -0.1173536 -25.230888 -28.015396 -108.29284
125884000 -27.095551 -110.85482 -0.12182253 -25.444693 -0.11779536 -25.427088 -27.984034 -108.51978
126883000 -27.074707 -111.22173 -0.12178046 -25.64801 -0.11930186 -25.630882 -27.941086 -108.53773
127882000 -27.021544 -111.54568 -0.12197401 -25.847351 -0.11955569 -25.827276 -27.895256 -108.7707
128881000 -26.990145 -111.85674 -0.12140457 -26.049994 -0.1197212 -26.030607 -27.850039 -108.90604
129880000 -26.930813 -112.19747 -0.12295732 -26.248142 -0.11981913 -26.230488 -27.809465 -108.83604
130879000 -26.872126 -112.40098 -0.12271607 -26.447983 -0.12059487 -26.431664 -27.729036 -108.95255
131878000 -26.800001 -112.61671 -0.12285054 -26.650244 -0.12111097 -26.631348 -27.658108 -108.84589
132877000 -26.731009 -112.71733 -0.12271687 -26.851143 -0.12187551 -26.832214 -27.56337 -108.89928
133876000 -26.644335 -112.90482 -0.12383245 -27.055788 -0.12113386 -27.030741 -27.471195 -108.84151
134875000 -26.549517 -113.0755 -0.12345079 -27.256809 -0.12235527 -27.23472 -27.364326 -108.70404
135874000 -26.462437 -113.15411 -0.12403035 -27.450615 -0.12153528 -27.438639 -27.252277 -108.72874
136873000 -26.343197 -113.12389 -0.12463982 -27.65612 -0.12125418 -27.636787 -27.16362 -108.73914
137872000 -26.270739 -113.24812 -0.12399732 -27.85705 -0.12194313 -27.84075 -27.054224 -108.73598
138871000 -26.198772 -113.4685 -0.12491742 -28.057692 -0.12237072 -28.042099 -26.95541 -108.96781
139870000 -26.094307 -113.77412 -0.12600985 -28.258669 -0.12324946 -28.239357 -26.876207 -109.11597
140869000 -26.013475 -114.27289 -0.12747841 -28.454466 -0.12465927 -28.4352 -26.762289 -109.34616
141868000 -25.918957 -114.80961 -0.1282182 -28.648077 -0.12553766 -28.628614 -26.695019 -109.69464
142867000 -25.848913 -115.07249 -0.12586541 -28.843674 -0.12465953 -28.825298 -26.617954 -109.95066
143866000 -25.775482 -115.61695 -0.12817368 -29.040913 -0.1260317 -29.026203 -26.546482 -110.47253
144865000 -25.726053 -116.17659 -0.12971017 -29.239651 -0.12745415 -29.221609 -26.49177 -110.78626
145864000 -25.672457 -116.48634 -0.1304917 -29.439209 -0.12863734 -29.427286 -26.463194 -111.06838
146863000 -25.628639 -116.90762 -0.13052851 -29.639011 -0.12862134 -29.624662 -26.410353 -111.42263
147862000 -25.585922 -117.28525 -0.13197644 -29.834663 -0.12891972 -29.821768 -26.380844 -111.77977
148861000 -25.562658 -117.84032 -0.13144359 -30.03409 -0.13006678 -30.017656 -26.362429 -112.10673
149860000 -25.545628 -118.05844 -0.13312964 -30.230066 -0.13077873 -30.221119 -26.332973 -112.25245
150859000 -25.524811 -118.43062 -0.13296869 -30.437269 -0.1314081 -30.415543 -26.331694 -112.51303
151858000 -25.511568 -118.76761 -0.13289182 -30.632452 -0.13125975 -30.615675 -26.324007 -112.83265
152857000 -25.49361 -119.08405 -0.13324416 -30.827349 -0.13118212 -30.815434 -26.308947 -112.96027
153856000 -25.485565 -119.34149 -0.13306318 -31.028238 -0.13095054 -31.012966 -26.329527 -113.25051
154855000 -25.484041 -119.5015 -0.13319771 -31.227995 -0.1312184 -31.216228 -26.320639 -113.4774
155854000 -25.489996 -119.75739 -0.13379645 -31.425858 -0.1312843 -31.413628 -26.313951 -113.76965
156853000 -25.484116 -120.45648 -0.13221048 -31.615372 -0.13097028 -31.605246 -26.313087 -114.07063
157852000 -25.489847 -120.70959 -0.13322787 -31.815241 -0.13269779 -31.80549 -26.309494 -114.41925
158851000 -25.481155 -120.91463 -0.13450529 -32.013569 -0.13270313 -32.003574 -26.296213 -114.64137
159850000 -25.466808 -121.07185 -0.13464093 -32.211517 -0.13326336 -32.204632 -26.297781 -114.79765
160849000 -25.445164 -121.18194 -0.1349691 -32.408852 -0.13423616 -32.403408 -26.269823 -115.13252
161848000 -25.426487 -121.27955 -0.13557209 -32.613441 -0.13409813 -32.604309 -26.228273 -115.24751
162847000 -25.386894 -121.4929 -0.13495147 -32.810699 -0.13440517 -32.805168 -26.196585 -115.50435
163846000 -25.34325 -121.76685 -0.13516964 -33.010376 -0.13476242 -33.000484 -26.111031 -115.54627
164845000 -25.276766 -121.78147 -0.13604696 -33.207745 -0.13568586 -33.202011 -26.046959 -115.63931
165844000 -25.228148 -121.83861 -0.13623928 -33.408699 -0.13569601 -33.399399 -25.962065 -115.80621
166843000 -25.160381 -121.97469 -0.1361271 -33.605827 -0.13571498 -33.60228 -25.891634 -115.99319
167842000 -25.096483 -122.13164 -0.13635147 -33.800411 -0.13583383 -33.79863 -25.805559 -115.93242
168841000 -25.020496 -122.31768 -0.13739361 -34.000557 -0.13667361 -34.002075 -25.725941 -116.05815
169840000 -24.957626 -122.61315 -0.1366827 -34.196995 -0.1364949 -34.197205 -25.639723 -116.28292
170839000 -24.89805 -122.92436 -0.13834007 -34.393139 -0.13735032 -34.394188 -25.552135 -116.5089
171838000 -24.838293 -123.36681 -0.13778771 -34.598183 -0.13823771 -34.592442 -25.485518 -116.77613
172837000 -24.770304 -123.7543 -0.13990074 -34.790577 -0.13900207 -34.784096 -25.417238 -117.03899
173836000 -24.702932 -124.20721 -0.14090256 -34.990662 -0.13975799 -34.988277 -25.374432 -117.32775
174835000 -24.652792 -124.67021 -0.14123976 -35.186802 -0.14140022 -35.185444 -25.332197 -117.67691
175834000 -24.604895 -125.07481 -0.14238875 -35.385143 -0.1416492 -35.383068 -25.261488 -118.01492
176833000 -24.554235 -125.46898 -0.14340959 -35.581951 -0.14253587 -35.582195 -25.218462 -118.22675
177832000 -24.511122 -125.97701 -0.14398915 -35.778183 -0.14304574 -35.777569 -25.190664 -118.38821
178831000 -24.469456 -126.3699 -0.14436512 -35.97393 -0.1435637 -35.971046 -25.156574 -118.6663
179830000 -24.437273 -126.82497 -0.14457412 -36.174068 -0.14384919 -36.172836 -25.130428 -118.78833
180829000 -24.395281 -127.02 -0.14533798 -36.368992 -0.144352 -36.370934 -25.0979 -118.97545
181828000 -24.372299 -127.42845 -0.14500341 -36.565594 -0.14421847 -36.564053 -25.07918 -119.13538
182827000 -24.345871 -127.80328 -0.14581124 -36.76099 -0.14510725 -36.765865 -25.059538 -119.21043
183826000 -24.308453 -128.09161 -0.14693974 -36.960457 -0.14440981 -36.956203 -25.05587 -119.36156
184825000 -24.311394 -128.44469 -0.14588727 -37.156971 -0.14564154 -37.154663 -25.038353 -119.48136
185824000 -24.283615 -128.79337 -0.14644307 -37.350201 -0.14632902 -37.355465 -25.031725 -119.51266
186823000 -24.272259 -129.13448 -0.14699893 -37.553562 -0.14609903 -37.552368 -25.03171 -119.50699
187822000 -24.247957 -129.47464 -0.14681068 -37.748573 -0.14687575 -37.74749 -24.993616 -119.58622
188821000 -24.228149 -129.71399 -0.14683397 -37.942753 -0.14740273 -37.946686 -24.976095 -119.71801
189820000 -24.207527 -129.98 -0.14736685 -38.142498 -0.14714512 -38.144985 -24.965796 -119.82976
190819000 -24.177164 -130.23453 -0.14856406 -38.342625 -0.1484596 -38.343941 -24.926235 -119.82022
191818000 -24.144354 -130.43965 -0.14970693 -38.539005 -0.1495869 -38.539833 -24.892134 -119.71916
192817000 -24.071804 -130.72247 -0.15083912 -38.725258 -0.15013833 -38.724617 -24.824797 -119.79261
193816000 -24.032742 -131.10205 -0.14969943 -38.918495 -0.14882497 -38.913792 -24.762394 -120.0748
194815000 -23.978502 -131.5462 -0.15006518 -39.110676 -0.1495534 -39.11684 -24.696213 -120.20453
195814000 -23.925926 -131.78174 -0.15022892 -39.311142 -0.14943337 -39.313107 -24.639601 -120.33243
196813000 -23.871218 -132.11403 -0.14901571 -39.505848 -0.14962494 -39.507599 -24.560781 -120.52939
197812000 -23.813206 -132.40152 -0.15017746 -39.705444 -0.14983554 -39.704388 -24.489655 -120.65163
198811000 -23.760069 -132.56487 -0.1504792 -39.90316 -0.14924289 -39.906334 -24.417538 -120.84814
199810000 -23.684521 -132.9774 -0.15022919 -40.099163 -0.14962494 -40.093323 -24.334116 -120.97847
200809000 -23.6346 -133.27953 -0.15087852 -40.29546 -0.15011664 -40.291691 -24.253344 -121.19325
201808000 -23.572771 -133.50954 -0.15124464 -40.493591 -0.15060891 -40.49691 -24.182371 -121.31871
202807000 -23.51951 -133.90039 -0.15236785 -40.693966 -0.1509659 -40.696209 -24.13257 -121.52629
203806000 -23.465971 -134.39281 -0.15360638 -40.893322 -0.15156764 -40.894333 -24.059557 -121.7483
204805000 -23.414402 -134.75136 -0.15468648 -41.093781 -0.15302046 -41.093227 -24.000366 -121.9585
