!Keysight Technologies,E5080B,MY59205177,A.15.75.32
!Date: Friday, February 23, 2024 02:48:43
!Correction: S11(Cdelta 2-Port  ) 
!S21(Cdelta 2-Port  ) 
!S12(Cdelta 2-Port  ) 
!S22(Cdelta 2-Port  ) 
!S2P File: Measurements: S11, S21, S12, S22:
# Hz S  dB   R 50
10000000 -41.479881 -3.4165301 -0.048077293 -2.0532217 -0.050996166 -2.1115158 -53.350082 -121.42204
10999000 -40.996849 -4.6556072 -0.048991129 -2.2687228 -0.050806802 -2.3232064 -52.062534 -111.21169
11998000 -40.375935 -6.5190554 -0.050235361 -2.4906676 -0.049893633 -2.5354612 -51.552303 -103.19698
12997000 -39.899063 -10.316257 -0.048899237 -2.6714139 -0.050590999 -2.7034526 -49.98394 -99.202477
13996000 -39.738827 -12.940392 -0.048456836 -2.852397 -0.050325185 -2.8691239 -48.986649 -93.896317
14995000 -39.492722 -16.070454 -0.049903583 -3.0610874 -0.049890492 -3.0824194 -48.210762 -92.445236
15994000 -39.408161 -19.060602 -0.051724356 -3.2803471 -0.051911924 -3.3008077 -47.748909 -89.428658
16993000 -39.427044 -22.137669 -0.050858662 -3.4764521 -0.051347673 -3.486836 -46.895893 -93.180893
17992000 -39.534256 -25.907108 -0.051256258 -3.6779037 -0.052251715 -3.6767864 -46.306644 -95.783928
18991000 -39.814178 -29.257347 -0.052560356 -3.8876593 -0.052996103 -3.8860209 -45.5387 -97.433975
19990000 -39.818359 -33.457054 -0.054582246 -4.0975213 -0.055612814 -4.0919733 -44.911499 -101.41163
20989000 -39.741886 -35.807194 -0.056914549 -4.2979293 -0.057493951 -4.2876716 -44.220177 -102.35935
21988000 -39.782204 -39.588688 -0.057021033 -4.4957047 -0.058656663 -4.4872241 -43.893803 -102.58611
22987000 -39.65649 -43.299103 -0.058751907 -4.6968832 -0.058739837 -4.6891184 -43.58654 -102.86381
23986000 -39.775215 -46.532207 -0.058100976 -4.8883481 -0.057935704 -4.8902082 -43.452789 -103.24951
24985000 -39.58992 -49.246738 -0.058706254 -5.0987229 -0.058827735 -5.0953078 -43.078754 -100.79934
25984000 -39.437847 -51.165058 -0.060238313 -5.3066883 -0.058498189 -5.3083797 -42.654987 -100.23032
26983000 -39.240658 -53.065346 -0.061102465 -5.5072522 -0.059573777 -5.5266323 -42.441486 -99.606194
27982000 -39.152058 -54.137417 -0.061926093 -5.705328 -0.061774589 -5.7392368 -42.103271 -98.497879
28981000 -39.132484 -55.439415 -0.06035459 -5.9026651 -0.06144429 -5.9251356 -41.769955 -98.335068
29980000 -38.857376 -57.380146 -0.060343303 -6.0957432 -0.062104125 -6.100419 -41.426895 -98.089325
30979000 -38.517952 -56.871376 -0.057917602 -6.4529271 -0.057082146 -6.4391251 -40.903141 -99.773743
31978000 -38.369835 -58.134636 -0.057205159 -6.6477304 -0.057441492 -6.6385517 -40.604439 -99.462135
32977000 -38.251583 -59.63921 -0.057601761 -6.8595171 -0.058577687 -6.8485885 -40.357071 -100.23573
33976000 -38.138996 -60.91444 -0.058004174 -7.0583019 -0.059040539 -7.0532789 -40.009617 -100.28963
34975000 -37.898937 -62.136574 -0.058018602 -7.2599525 -0.059744887 -7.2580872 -39.72728 -100.33064
35974000 -37.737167 -62.964119 -0.057521231 -7.4503756 -0.059561703 -7.4579716 -39.379215 -99.782722
36973000 -37.558743 -63.840988 -0.058346014 -7.6519489 -0.060359053 -7.6558514 -39.057339 -99.388443
37972000 -37.379276 -63.987038 -0.057497099 -7.8625741 -0.059907082 -7.8718629 -38.771919 -98.928795
38971000 -37.090015 -64.219376 -0.05854148 -8.0690393 -0.060486883 -8.0767431 -38.498825 -97.452881
39970000 -36.808907 -64.985954 -0.057006344 -8.2562914 -0.05954412 -8.2747698 -38.208981 -97.497833
40969000 -36.517521 -65.09623 -0.057307716 -8.4559145 -0.059086986 -8.4731874 -37.906548 -96.273331
41968000 -36.220787 -65.650391 -0.05763429 -8.6582508 -0.059381939 -8.6765537 -37.66489 -95.54567
42967000 -35.97963 -66.101013 -0.056895141 -8.8733015 -0.059944876 -8.8902578 -37.363609 -93.731987
43966000 -35.721619 -67.225609 -0.057706691 -9.0718718 -0.060634404 -9.0880556 -37.057285 -93.366737
44965000 -35.538704 -68.049721 -0.059003804 -9.2742653 -0.061179124 -9.2962179 -36.843712 -93.467667
45964000 -35.33968 -69.398285 -0.060141198 -9.4758396 -0.062955253 -9.4909878 -36.590977 -93.598083
46963000 -35.210609 -71.400002 -0.060477957 -9.6666927 -0.063139103 -9.6932859 -36.412205 -94.01326
47962000 -35.105305 -72.953201 -0.06238379 -9.8734846 -0.064478308 -9.8885412 -36.209129 -94.581627
48961000 -34.943535 -74.495819 -0.064526126 -10.068154 -0.065981388 -10.089896 -35.981655 -95.00148
49960000 -34.74625 -75.927292 -0.065617137 -10.264483 -0.067710847 -10.290665 -35.850887 -95.35186
50959000 -34.585987 -77.390129 -0.066141188 -10.479805 -0.068522573 -10.488051 -35.671238 -95.858025
51958000 -34.408474 -78.636894 -0.068531521 -10.67705 -0.069973655 -10.689315 -35.501026 -96.644775
52957000 -34.240479 -79.903831 -0.069357343 -10.882763 -0.071385227 -10.885789 -35.335033 -96.581161
53956000 -34.089851 -80.721085 -0.070989206 -11.082644 -0.071390487 -11.085536 -35.199463 -96.690277
54955000 -33.953278 -81.441521 -0.072271079 -11.281105 -0.072643004 -11.28043 -35.039085 -96.890144
55954000 -33.811192 -82.335495 -0.073217928 -11.481176 -0.073514104 -11.481218 -34.922749 -96.651428
56953000 -33.697445 -82.502892 -0.072617203 -11.678083 -0.072458483 -11.672694 -34.861042 -97.012886
57952000 -33.553883 -83.211929 -0.073917992 -11.880988 -0.073373519 -11.869266 -34.743744 -97.195236
58951000 -33.433022 -83.663292 -0.074902065 -12.08407 -0.073929049 -12.064444 -34.606819 -97.52784
59950000 -33.334129 -84.208458 -0.075254202 -12.284848 -0.074804626 -12.265602 -34.526573 -97.775116
60949000 -33.229683 -84.814217 -0.076371357 -12.485313 -0.075281061 -12.466565 -34.447788 -98.253578
61948000 -33.168449 -85.130219 -0.077127263 -12.686842 -0.075046919 -12.667158 -34.374928 -98.375008
62947000 -33.09647 -85.388786 -0.076517314 -12.89723 -0.076157965 -12.877377 -34.231586 -98.845581
63946000 -33.044827 -86.183197 -0.078198254 -13.095768 -0.077121206 -13.074753 -34.112686 -99.02478
64945000 -32.933929 -86.403496 -0.078459717 -13.29482 -0.078564882 -13.278885 -34.020805 -99.590668
65944000 -32.843742 -86.814034 -0.079385236 -13.49759 -0.07831607 -13.479017 -33.937355 -100.17301
66943000 -32.71529 -87.304901 -0.077288263 -13.696739 -0.076889336 -13.680047 -33.830185 -100.53622
67942000 -32.651741 -87.236679 -0.079481997 -13.895825 -0.078760467 -13.880989 -33.698185 -101.00117
68941000 -32.530964 -87.503067 -0.078962125 -14.085885 -0.078027204 -14.077923 -33.600529 -100.97726
69940000 -32.431721 -87.493797 -0.078968719 -14.282707 -0.078696676 -14.276025 -33.456699 -101.3487
70939000 -32.332596 -87.564476 -0.079094984 -14.482846 -0.077801868 -14.475902 -33.323475 -101.34396
71938000 -32.176476 -87.309349 -0.078865647 -14.675994 -0.078597829 -14.671391 -33.17831 -101.30323
72937000 -32.014214 -87.295616 -0.078556977 -14.875314 -0.078307107 -14.874262 -33.032131 -100.99578
73936000 -31.878181 -86.970253 -0.079231806 -15.075648 -0.077286422 -15.069019 -32.910522 -100.87482
74935000 -31.7526 -87.363472 -0.07781373 -15.275192 -0.076801591 -15.266167 -32.732376 -100.71682
75934000 -31.640217 -87.722519 -0.077796072 -15.483988 -0.076778673 -15.480197 -32.659229 -100.66652
76933000 -31.502312 -88.18383 -0.079703458 -15.674299 -0.078312375 -15.663812 -32.477798 -101.18848
77932000 -31.430719 -88.992691 -0.080295667 -15.874603 -0.080113724 -15.864641 -32.379318 -101.28381
78931000 -31.363977 -89.771606 -0.079695545 -16.070236 -0.079231016 -16.069843 -32.283745 -101.14867
79930000 -31.264997 -90.726151 -0.082123421 -16.267431 -0.081679732 -16.259682 -32.183414 -101.61512
80929000 -31.145905 -91.65197 -0.083413601 -16.45866 -0.083356343 -16.454584 -32.084106 -101.93317
81928000 -31.076004 -92.544083 -0.083930306 -16.653955 -0.083599374 -16.648315 -31.9599 -102.14191
82927000 -30.988504 -93.216034 -0.085454397 -16.849916 -0.084862545 -16.846638 -31.858009 -102.57764
83926000 -30.881287 -94.11174 -0.087037392 -17.049217 -0.085996695 -17.048269 -31.750109 -102.85566
84925000 -30.791254 -94.611504 -0.087861195 -17.249159 -0.08647912 -17.24139 -31.652695 -102.99101
85924000 -30.702311 -95.080917 -0.088657945 -17.446026 -0.088297062 -17.446018 -31.561163 -103.07869
86923000 -30.614141 -95.683121 -0.088449493 -17.648994 -0.088532187 -17.642817 -31.460131 -103.07133
87922000 -30.502031 -96.159225 -0.089081474 -17.853189 -0.088448174 -17.844002 -31.36861 -103.21581
88921000 -30.448814 -96.458138 -0.090006359 -18.048328 -0.088771552 -18.043554 -31.275797 -103.22511
89920000 -30.343851 -97.186951 -0.091118857 -18.253033 -0.089730725 -18.243353 -31.22191 -103.47652
90919000 -30.248131 -97.448975 -0.092152581 -18.447336 -0.090500325 -18.442711 -31.13442 -103.7521
91918000 -30.156006 -97.898506 -0.092434719 -18.646057 -0.091174632 -18.639196 -31.068161 -103.76577
92917000 -30.084148 -98.283859 -0.093109593 -18.845079 -0.091904305 -18.840633 -31.000132 -103.93103
93916000 -29.991526 -98.667587 -0.092801496 -19.037971 -0.092261516 -19.031469 -30.913219 -104.6351
94915000 -29.923792 -99.378128 -0.094716541 -19.243845 -0.092826881 -19.231836 -30.852236 -104.58067
95914000 -29.863647 -99.642761 -0.095816217 -19.436544 -0.094478436 -19.429384 -30.765123 -104.85438
96913000 -29.786148 -99.945892 -0.096941851 -19.632721 -0.095199138 -19.630177 -30.703167 -105.32091
97912000 -29.709858 -100.42306 -0.097674087 -19.828619 -0.095056258 -19.833025 -30.624125 -105.49182
98911000 -29.606066 -100.67647 -0.098641314 -20.032732 -0.096276708 -20.029207 -30.586346 -105.80392
99910000 -29.544235 -100.85346 -0.098929964 -20.22958 -0.097046413 -20.227886 -30.467913 -106.10186
100909000 -29.451794 -101.16708 -0.098998815 -20.439949 -0.096330434 -20.43152 -30.390444 -106.37586
101908000 -29.366627 -101.46012 -0.10040237 -20.639381 -0.098104052 -20.63612 -30.266222 -106.13789
102907000 -29.237741 -101.53429 -0.10046727 -20.840816 -0.098006621 -20.838978 -30.190018 -106.13158
103906000 -29.137737 -101.64068 -0.10061404 -21.043776 -0.097325429 -21.038385 -30.029638 -106.16557
104905000 -28.985464 -101.56094 -0.10147329 -21.243166 -0.097785547 -21.238674 -29.893021 -105.90536
105904000 -28.844391 -101.76953 -0.1016601 -21.444731 -0.098251007 -21.437826 -29.767057 -105.75873
106903000 -28.736057 -101.95787 -0.10136067 -21.652489 -0.098471843 -21.648523 -29.643738 -105.72061
107902000 -28.577652 -102.36515 -0.10188375 -21.850567 -0.099347875 -21.840494 -29.490049 -105.72314
108901000 -28.46386 -102.67182 -0.10396984 -22.050186 -0.10029534 -22.043081 -29.353765 -105.74522
109900000 -28.342588 -103.20334 -0.10431797 -22.250862 -0.10156973 -22.239191 -29.191412 -105.93818
110899000 -28.224756 -103.88181 -0.10507346 -22.444841 -0.1022137 -22.441029 -29.076197 -106.29978
111898000 -28.142658 -104.60258 -0.10666574 -22.650993 -0.10311222 -22.644598 -28.945232 -106.47646
112897000 -28.019741 -105.21921 -0.10801259 -22.850296 -0.1042668 -22.839279 -28.814526 -106.77381
113896000 -27.922773 -105.86752 -0.10958286 -23.049282 -0.10601953 -23.039402 -28.700945 -106.91196
114895000 -27.829582 -106.539 -0.11000896 -23.248003 -0.10739537 -23.23654 -28.593809 -107.03168
115894000 -27.703449 -106.94068 -0.11203839 -23.45034 -0.10867821 -23.434059 -28.522514 -107.33038
116893000 -27.622702 -107.58944 -0.11225514 -23.646612 -0.10905883 -23.628603 -28.387947 -107.54037
117892000 -27.544317 -108.08931 -0.11185246 -23.840296 -0.10980931 -23.827864 -28.318832 -107.76503
118891000 -27.490658 -108.53159 -0.11295781 -24.041677 -0.11046352 -24.029783 -28.217043 -108.0078
119890000 -27.398365 -108.93983 -0.113887 -24.245914 -0.11113031 -24.227533 -28.21133 -108.12578
120889000 -27.349361 -109.4817 -0.11444588 -24.440884 -0.11085307 -24.427305 -28.130362 -108.12384
121888000 -27.313509 -109.84106 -0.11465637 -24.636688 -0.11243445 -24.630474 -28.074852 -108.45478
122887000 -27.26911 -110.01638 -0.11620697 -24.842335 -0.11298332 -24.827856 -28.025032 -108.52565
123886000 -27.214106 -110.472 -0.115931 -25.046471 -0.11280718 -25.029028 -28.01186 -108.76194
124885000 -27.181023 -110.97436 -0.11658321 -25.242828 -0.11309517 -25.225225 -27.973766 -108.76417
125884000 -27.130257 -111.21795 -0.11796427 -25.441418 -0.11354952 -25.425379 -27.94702 -108.96847
126883000 -27.103983 -111.62514 -0.11794511 -25.642744 -0.11480442 -25.629068 -27.902514 -109.01782
127882000 -27.058977 -111.94795 -0.11822255 -25.843929 -0.11556173 -25.826437 -27.866648 -109.24458
128881000 -27.023108 -112.26366 -0.11866333 -26.044281 -0.11541207 -26.027132 -27.822706 -109.38804
129880000 -26.973602 -112.60225 -0.11959241 -26.247097 -0.11567711 -26.225027 -27.770493 -109.35934
130879000 -26.907652 -112.80999 -0.11918133 -26.447857 -0.1165202 -26.428549 -27.696508 -109.43082
131878000 -26.838625 -113.02444 -0.11978187 -26.650602 -0.11662257 -26.628948 -27.632738 -109.35062
132877000 -26.770697 -113.13947 -0.11922629 -26.850058 -0.11693901 -26.830231 -27.531986 -109.36565
133876000 -26.685957 -113.33549 -0.12030159 -27.050158 -0.11636385 -27.028334 -27.440811 -109.28636
134875000 -26.589018 -113.47357 -0.12060765 -27.249138 -0.11716584 -27.229389 -27.328098 -109.18429
135874000 -26.500967 -113.50672 -0.12022601 -27.450191 -0.11766583 -27.428322 -27.222172 -109.1977
136873000 -26.389273 -113.4883 -0.12112268 -27.655727 -0.11744136 -27.633934 -27.139162 -109.18836
137872000 -26.306704 -113.65704 -0.12084826 -27.854904 -0.11719031 -27.834335 -27.026506 -109.18281
138871000 -26.234421 -113.83789 -0.12153848 -28.05106 -0.11729855 -28.038858 -26.921701 -109.4073
139870000 -26.12957 -114.12866 -0.1224639 -28.251759 -0.11963339 -28.236217 -26.843931 -109.59429
140869000 -26.046005 -114.64787 -0.12442564 -28.449043 -0.12046234 -28.426104 -26.737446 -109.79981
141868000 -25.958199 -115.19426 -0.12444375 -28.642031 -0.12168143 -28.623964 -26.663151 -110.15493
142867000 -25.880348 -115.48296 -0.12288515 -28.839836 -0.1202646 -28.820189 -26.584402 -110.341
143866000 -25.808834 -116.00408 -0.12412118 -29.035944 -0.12191171 -29.021782 -26.5198 -110.86997
144865000 -25.759302 -116.51187 -0.1259339 -29.236181 -0.12305824 -29.220909 -26.459345 -111.23359
145864000 -25.698282 -116.86304 -0.12639253 -29.435175 -0.12401916 -29.423773 -26.428177 -111.5321
146863000 -25.654579 -117.25794 -0.12739018 -29.63559 -0.12404899 -29.622248 -26.381876 -111.87235
147862000 -25.617432 -117.6208 -0.12801717 -29.832607 -0.12567063 -29.816132 -26.354916 -112.23137
148861000 -25.59132 -118.14838 -0.1286736 -30.028269 -0.1260221 -30.015162 -26.323181 -112.49597
149860000 -25.57585 -118.35628 -0.12937146 -30.228102 -0.126618 -30.214895 -26.296907 -112.6477
150859000 -25.55916 -118.76527 -0.13021134 -30.429264 -0.12644263 -30.410807 -26.290972 -112.9418
151858000 -25.541882 -119.12006 -0.1294264 -30.629509 -0.12727314 -30.612484 -26.285955 -113.2164
152857000 -25.520767 -119.41791 -0.12950854 -30.826021 -0.12738457 -30.812035 -26.270666 -113.38354
153856000 -25.518024 -119.64005 -0.12999929 -31.022562 -0.12662652 -31.010832 -26.287287 -113.65868
154855000 -25.512833 -119.83884 -0.13079794 -31.220942 -0.1273198 -31.211954 -26.282227 -113.87755
155854000 -25.523033 -120.07523 -0.13043995 -31.425831 -0.12798625 -31.411821 -26.270655 -114.14037
156853000 -25.511276 -120.77877 -0.12846456 -31.610809 -0.12683628 -31.600544 -26.269358 -114.47795
157852000 -25.517939 -121.00301 -0.13017106 -31.811852 -0.1287944 -31.799131 -26.268452 -114.81237
158851000 -25.508057 -121.24422 -0.13032284 -32.010483 -0.128692 -32.000408 -26.255398 -115.07961
159850000 -25.498634 -121.35037 -0.13071284 -32.205402 -0.12956882 -32.198696 -26.257437 -115.22411
160849000 -25.472233 -121.50319 -0.13103858 -32.407703 -0.12952055 -32.402088 -26.222513 -115.54049
161848000 -25.456987 -121.5895 -0.13230361 -32.606544 -0.12947094 -32.597378 -26.188309 -115.62508
162847000 -25.412668 -121.81759 -0.13202901 -32.804829 -0.13027456 -32.802029 -26.153673 -115.89799
163846000 -25.372784 -122.03853 -0.13156871 -33.004318 -0.130393 -32.99651 -26.070425 -115.96089
164845000 -25.311722 -122.08858 -0.13244745 -33.208504 -0.13074885 -33.194225 -26.004374 -116.05675
165844000 -25.250864 -122.19576 -0.13220194 -33.40052 -0.13167012 -33.396008 -25.919392 -116.21031
166843000 -25.18878 -122.28947 -0.13251445 -33.601551 -0.13185343 -33.597805 -25.849201 -116.38953
167842000 -25.126358 -122.43668 -0.13303062 -33.802948 -0.13188384 -33.798611 -25.766933 -116.34249
168841000 -25.050123 -122.67275 -0.1324165 -34.002815 -0.13237379 -33.993797 -25.685986 -116.46375
169840000 -24.984919 -122.95953 -0.13323775 -34.194904 -0.13221315 -34.190437 -25.598932 -116.6842
170839000 -24.924305 -123.22694 -0.13465294 -34.393326 -0.13273568 -34.394321 -25.512543 -116.91917
171838000 -24.864208 -123.67567 -0.13397318 -34.59433 -0.13371958 -34.587082 -25.445576 -117.17561
172837000 -24.795399 -124.06847 -0.1361319 -34.790333 -0.13466549 -34.785233 -25.374235 -117.42971
173836000 -24.73061 -124.50355 -0.13707595 -34.986217 -0.13526364 -34.982861 -25.331234 -117.69138
174835000 -24.676867 -124.96256 -0.13741472 -35.182125 -0.13596043 -35.183918 -25.285471 -118.02924
175834000 -24.630817 -125.37788 -0.13837774 -35.384766 -0.13756941 -35.375664 -25.221979 -118.32999
176833000 -24.579655 -125.74795 -0.13943186 -35.57756 -0.1381661 -35.578373 -25.172478 -118.56997
177832000 -24.533924 -126.25709 -0.14002666 -35.775627 -0.13870326 -35.773697 -25.150745 -118.75294
178831000 -24.498468 -126.64346 -0.14054641 -35.970257 -0.13891867 -35.967857 -25.111076 -118.98459
179830000 -24.461552 -127.07148 -0.14099374 -36.169922 -0.13905017 -36.170208 -25.081974 -119.13979
180829000 -24.420172 -127.32214 -0.14182492 -36.366116 -0.14015418 -36.366096 -25.057859 -119.32406
181828000 -24.400387 -127.67417 -0.14153126 -36.565147 -0.13981627 -36.560116 -25.034582 -119.47913
182827000 -24.371943 -128.04018 -0.14155667 -36.757874 -0.1410376 -36.757198 -25.023661 -119.56625
183826000 -24.334274 -128.38167 -0.14344731 -36.956696 -0.14102156 -36.951912 -25.014868 -119.70347
184825000 -24.336346 -128.71053 -0.14269663 -37.152668 -0.14099482 -37.15435 -24.993145 -119.76204
185824000 -24.306808 -129.04651 -0.14244357 -37.348629 -0.14169948 -37.348984 -24.994743 -119.86552
186823000 -24.291988 -129.40022 -0.14236921 -37.55085 -0.14214052 -37.546379 -24.990339 -119.83223
187822000 -24.274292 -129.71852 -0.14365253 -37.745876 -0.14174628 -37.743523 -24.953104 -119.94061
188821000 -24.252926 -129.97896 -0.14287025 -37.937508 -0.14273863 -37.944214 -24.937759 -120.03044
189820000 -24.241848 -130.24345 -0.14326939 -38.139755 -0.14293231 -38.141293 -24.926399 -120.16419
190819000 -24.2076 -130.52016 -0.14514259 -38.337875 -0.14367822 -38.337856 -24.891674 -120.13423
191818000 -24.171391 -130.66212 -0.14614241 -38.535244 -0.14525741 -38.536587 -24.857918 -120.07262
192817000 -24.102161 -130.96931 -0.14679381 -38.719189 -0.14555106 -38.721462 -24.781403 -120.10494
193816000 -24.063192 -131.33859 -0.14572772 -38.913536 -0.14449759 -38.911518 -24.725721 -120.39619
194815000 -24.005476 -131.79994 -0.14631349 -39.109245 -0.14514206 -39.109371 -24.655611 -120.54564
195814000 -23.955719 -132.0545 -0.14625993 -39.309589 -0.14533691 -39.306965 -24.599834 -120.64854
196813000 -23.895063 -132.39902 -0.14615391 -39.498077 -0.14496541 -39.503689 -24.518625 -120.84689
197812000 -23.840857 -132.64447 -0.14628296 -39.700394 -0.14483319 -39.703419 -24.448788 -120.96973
198811000 -23.790138 -132.82979 -0.14628188 -39.900776 -0.14485888 -39.898342 -24.378283 -121.16918
199810000 -23.717611 -133.25305 -0.14611751 -40.088348 -0.14487468 -40.089111 -24.298031 -121.30788
200809000 -23.65789 -133.51428 -0.14647894 -40.288204 -0.14548735 -40.286922 -24.216351 -121.4884
201808000 -23.600262 -133.78632 -0.14764215 -40.490253 -0.14706212 -40.488853 -24.146616 -121.60378
202807000 -23.545002 -134.13483 -0.14870872 -40.690575 -0.14702249 -40.690075 -24.09325 -121.83356
203806000 -23.493782 -134.61368 -0.15005152 -40.888729 -0.14778464 -40.892593 -24.024424 -122.04418
