!Keysight Technologies,E5080B,MY59205177,A.15.75.32
!Date: Friday, February 23, 2024 03:27:27
!Correction: S11(Cdelta 2-Port  ) 
!S21(Cdelta 2-Port  ) 
!S12(Cdelta 2-Port  ) 
!S22(Cdelta 2-Port  ) 
!S2P File: Measurements: S11, S21, S12, S22:
# Hz S  dB   R 50
10000000 -45.950607 -0.90574872 -0.016681073 -2.0581963 -0.0194437 -2.1103823 -46.133213 -159.16684
10999000 -45.160316 -2.9768083 -0.017638747 -2.2770255 -0.019513646 -2.3280902 -46.101242 -153.06744
11998000 -44.256001 -6.123982 -0.017641606 -2.497401 -0.018841272 -2.541558 -46.389168 -148.47427
12997000 -43.493504 -11.726642 -0.017726598 -2.6843555 -0.01963898 -2.7158194 -46.009987 -142.39757
13996000 -43.20541 -15.555534 -0.016295724 -2.8617651 -0.018938767 -2.879905 -45.812263 -136.83197
14995000 -42.827843 -19.58279 -0.019124664 -3.0734844 -0.019091904 -3.098273 -45.535961 -133.35695
15994000 -42.675339 -24.031969 -0.019605435 -3.2949338 -0.021379208 -3.3155098 -45.362869 -129.92773
16993000 -42.669872 -28.618937 -0.019214107 -3.4892423 -0.020420969 -3.5021093 -44.562138 -129.54778
17992000 -42.729828 -33.700336 -0.019377396 -3.6891744 -0.021153156 -3.6947033 -44.002502 -129.80989
18991000 -43.03817 -38.847237 -0.021217147 -3.9000661 -0.022198457 -3.9001558 -43.360893 -128.48811
19990000 -42.807121 -44.531471 -0.023377262 -4.1135354 -0.024095889 -4.1095653 -42.670464 -129.16641
20989000 -42.715797 -48.004322 -0.025386129 -4.3163238 -0.026159257 -4.3068728 -42.136749 -128.66692
21988000 -42.500702 -53.115303 -0.025975401 -4.5139446 -0.026964821 -4.501936 -41.877407 -127.84164
22987000 -42.284748 -58.102303 -0.027667891 -4.715209 -0.027889594 -4.7086968 -41.611149 -127.56787
23986000 -42.189594 -62.05352 -0.027050778 -4.9032297 -0.026564235 -4.9063516 -41.474689 -127.20812
24985000 -41.850502 -64.845848 -0.028669164 -5.117867 -0.027434478 -5.1150494 -41.307144 -124.61746
25984000 -41.42635 -67.204018 -0.029191386 -5.3249869 -0.028257737 -5.3241496 -40.994755 -122.76649
26983000 -41.17841 -69.064255 -0.028957628 -5.5252576 -0.029155422 -5.5431957 -40.841297 -122.67841
27982000 -41.007011 -69.903046 -0.030756604 -5.7229137 -0.030243577 -5.7602153 -40.603359 -120.71326
28981000 -40.984688 -71.673309 -0.029533053 -5.9243846 -0.031047814 -5.9504952 -40.348209 -119.88285
29980000 -40.535423 -72.830414 -0.029027728 -6.1177897 -0.031445947 -6.1258821 -40.090031 -119.43818
30979000 -40.159737 -71.885406 -0.02632541 -6.4737582 -0.026139725 -6.4645357 -39.575695 -119.44312
31978000 -39.980312 -72.858475 -0.026069932 -6.6695681 -0.026681697 -6.6594186 -39.333107 -118.72275
32977000 -39.788776 -74.359985 -0.026066286 -6.8832617 -0.027284171 -6.8754401 -39.092381 -118.6691
33976000 -39.60593 -75.640472 -0.026960393 -7.0830016 -0.027684305 -7.0762959 -38.80291 -118.23362
34975000 -39.339081 -76.413002 -0.026919499 -7.2828355 -0.029199464 -7.279213 -38.561176 -117.881
35974000 -39.125717 -76.966011 -0.026188685 -7.4780841 -0.028524807 -7.4794006 -38.287373 -116.89285
36973000 -38.873478 -77.773285 -0.02621004 -7.6763182 -0.029220834 -7.6829238 -38.01783 -115.96442
37972000 -38.707306 -77.494926 -0.026138162 -7.890377 -0.029822096 -7.8979945 -37.810741 -115.00789
38971000 -38.358204 -76.961975 -0.027394881 -8.0918875 -0.029575795 -8.1025925 -37.626808 -113.39992
39970000 -38.033138 -77.383575 -0.026005089 -8.2883434 -0.028559985 -8.3034248 -37.376068 -112.89942
40969000 -37.731968 -77.169121 -0.025778534 -8.4834156 -0.028593337 -8.5033512 -37.114594 -111.40746
41968000 -37.389797 -77.022797 -0.026847091 -8.6885338 -0.029142912 -8.70434 -36.907326 -109.95548
42967000 -37.117641 -77.172768 -0.026106913 -8.9019289 -0.02921927 -8.9184456 -36.734192 -108.15304
43966000 -36.819195 -77.853127 -0.027709315 -9.1039562 -0.030545702 -9.119092 -36.442909 -107.26357
44965000 -36.590561 -78.550957 -0.028169671 -9.3030643 -0.030968295 -9.3244467 -36.22121 -107.06657
45964000 -36.350292 -79.728691 -0.02857249 -9.5045385 -0.03198728 -9.5248508 -35.997337 -106.8392
46963000 -36.152252 -81.722748 -0.029240118 -9.7032442 -0.032726113 -9.7257767 -35.818104 -107.05597
47962000 -36.006832 -83.059883 -0.031001667 -9.9065876 -0.034293909 -9.9213686 -35.60577 -107.01486
48961000 -35.763103 -84.568718 -0.032905299 -10.099291 -0.036098491 -10.121284 -35.361931 -107.12215
49960000 -35.545906 -85.838951 -0.034425151 -10.299925 -0.036909293 -10.324588 -35.242348 -107.22005
50959000 -35.320778 -87.221901 -0.03496033 -10.516844 -0.037792057 -10.525151 -35.05286 -107.53007
51958000 -35.121338 -88.279633 -0.036529195 -10.714943 -0.038753878 -10.723324 -34.874496 -107.98042
52957000 -34.900021 -89.280449 -0.038547289 -10.916072 -0.039905049 -10.920252 -34.698776 -107.6606
53956000 -34.734173 -90.014091 -0.039128426 -11.117842 -0.041292768 -11.119072 -34.573944 -107.64454
54955000 -34.563778 -90.530067 -0.040966634 -11.319792 -0.042448271 -11.317197 -34.432934 -107.49026
55954000 -34.400494 -91.363846 -0.042088337 -11.524234 -0.042826276 -11.514202 -34.320156 -107.31032
56953000 -34.282551 -91.275887 -0.041742805 -11.716182 -0.041598275 -11.708813 -34.242638 -107.49714
57952000 -34.114925 -91.985497 -0.043106794 -11.914742 -0.043188624 -11.906511 -34.148586 -107.54642
58951000 -34.007679 -92.304581 -0.043643307 -12.124793 -0.043738224 -12.102021 -33.984505 -107.58218
59950000 -33.87532 -92.629326 -0.044384647 -12.324095 -0.044790544 -12.303526 -33.921242 -107.77592
60949000 -33.764626 -93.232567 -0.045174506 -12.528762 -0.045327004 -12.504274 -33.838055 -108.09106
61948000 -33.695194 -93.55262 -0.045484472 -12.726903 -0.044990368 -12.708914 -33.74501 -108.18588
62947000 -33.608822 -93.693375 -0.045473225 -12.937442 -0.045806497 -12.915211 -33.614902 -108.41941
63946000 -33.545166 -94.423714 -0.046338633 -13.135933 -0.046660196 -13.119048 -33.507816 -108.50211
64945000 -33.420532 -94.666718 -0.04738478 -13.338627 -0.047391325 -13.320392 -33.396446 -109.02148
65944000 -33.32143 -94.936554 -0.047868166 -13.540035 -0.04780012 -13.521189 -33.291237 -109.50505
66943000 -33.175598 -95.330544 -0.046411891 -13.741823 -0.046817977 -13.724861 -33.188644 -109.78167
67942000 -33.121078 -95.271095 -0.048169687 -13.938425 -0.048525419 -13.926727 -33.063641 -110.07157
68941000 -33.008995 -95.34481 -0.048291665 -14.131907 -0.047751963 -14.124332 -32.958736 -110.07811
69940000 -32.917702 -95.367393 -0.047874972 -14.331007 -0.048876986 -14.325502 -32.806908 -110.32549
70939000 -32.791969 -95.162285 -0.048649237 -14.526711 -0.048157647 -14.522301 -32.690491 -110.24891
71938000 -32.643383 -94.849823 -0.047875758 -14.726588 -0.0488584 -14.717734 -32.538979 -110.0307
72937000 -32.492966 -94.640694 -0.047381904 -14.92192 -0.048308678 -14.919561 -32.396008 -109.78457
73936000 -32.358204 -94.288811 -0.047573995 -15.126521 -0.046930756 -15.115398 -32.281673 -109.55452
74935000 -32.227428 -94.469292 -0.047651201 -15.325172 -0.046147119 -15.318535 -32.129032 -109.19205
75934000 -32.097107 -94.725708 -0.046776894 -15.533124 -0.046504512 -15.529866 -32.030453 -109.17633
76933000 -31.956587 -95.09893 -0.048016831 -15.722348 -0.048254497 -15.716558 -31.85911 -109.46042
77932000 -31.861477 -95.865631 -0.049739145 -15.921763 -0.050110977 -15.916441 -31.75667 -109.36195
78931000 -31.775013 -96.64415 -0.048506569 -16.121904 -0.049041394 -16.116148 -31.653381 -109.30048
79930000 -31.672955 -97.515083 -0.050724827 -16.316715 -0.05157635 -16.314476 -31.555721 -109.55447
80929000 -31.548712 -98.279236 -0.052829973 -16.512688 -0.052763157 -16.510284 -31.450773 -109.82969
81928000 -31.456976 -99.068489 -0.053049821 -16.706402 -0.053600926 -16.702488 -31.320965 -109.79271
82927000 -31.359718 -99.784096 -0.054593779 -16.905075 -0.054536108 -16.900234 -31.211763 -110.12264
83926000 -31.235027 -100.52953 -0.055850632 -17.09886 -0.055933755 -17.104353 -31.088137 -110.3298
84925000 -31.125483 -100.96964 -0.056781054 -17.30402 -0.056268353 -17.298077 -30.999683 -110.29644
85924000 -31.037231 -101.29622 -0.057170536 -17.50296 -0.057867233 -17.503708 -30.891191 -110.31776
86923000 -30.926271 -101.8209 -0.058597889 -17.699179 -0.058011256 -17.693182 -30.793415 -110.11463
87922000 -30.814808 -102.15122 -0.057772271 -17.907351 -0.057570547 -17.898071 -30.709366 -110.0973
88921000 -30.742596 -102.40459 -0.059474841 -18.104259 -0.058991209 -18.097507 -30.61866 -110.1651
89920000 -30.638588 -102.96828 -0.059496883 -18.30505 -0.060236737 -18.294886 -30.565237 -110.31735
90919000 -30.531406 -103.28463 -0.061053637 -18.50193 -0.06019789 -18.495413 -30.477713 -110.50758
91918000 -30.436907 -103.63923 -0.061173875 -18.709246 -0.060487669 -18.699097 -30.403612 -110.46571
92917000 -30.339727 -103.88152 -0.062399544 -18.901947 -0.061746232 -18.901148 -30.342667 -110.5306
93916000 -30.256435 -104.27248 -0.062133271 -19.097187 -0.062110953 -19.090605 -30.253576 -111.19787
94915000 -30.177677 -104.89648 -0.064190358 -19.300718 -0.06265901 -19.293739 -30.189838 -111.00627
95914000 -30.100803 -105.14977 -0.064592861 -19.493362 -0.063919514 -19.489195 -30.092274 -111.26048
96913000 -30.021458 -105.25855 -0.065941967 -19.694735 -0.064788863 -19.6943 -30.024998 -111.63826
97912000 -29.947943 -105.71062 -0.066977605 -19.893461 -0.064857446 -19.895126 -29.953138 -111.81409
98911000 -29.839922 -105.91801 -0.067604363 -20.094213 -0.06649366 -20.089403 -29.912336 -112.11766
99910000 -29.771301 -106.0736 -0.067940384 -20.292377 -0.066620357 -20.293024 -29.803419 -112.31675
100909000 -29.678387 -106.35683 -0.068064757 -20.505684 -0.065867849 -20.495365 -29.715065 -112.59105
101908000 -29.588314 -106.53959 -0.069156133 -20.702215 -0.067488149 -20.699883 -29.603596 -112.33167
102907000 -29.448061 -106.57492 -0.069456771 -20.902319 -0.067926183 -20.904345 -29.537153 -112.33929
103906000 -29.347727 -106.622 -0.069876589 -21.112183 -0.067096688 -21.103182 -29.382565 -112.31799
104905000 -29.201994 -106.47596 -0.069968134 -21.308767 -0.06800928 -21.307959 -29.255424 -111.98225
105904000 -29.060709 -106.58434 -0.070993677 -21.506693 -0.068608306 -21.500046 -29.132591 -111.88523
106903000 -28.952604 -106.72299 -0.070866853 -21.718254 -0.068843685 -21.712198 -29.011637 -111.7633
107902000 -28.777002 -107.01415 -0.071781546 -21.921156 -0.069102213 -21.90999 -28.876072 -111.70618
108901000 -28.677652 -107.24619 -0.073002845 -22.118185 -0.070753716 -22.112469 -28.738331 -111.60658
109900000 -28.542788 -107.69473 -0.07363864 -22.3188 -0.07218001 -22.30847 -28.590645 -111.71711
110899000 -28.426989 -108.36317 -0.075362191 -22.517429 -0.072327934 -22.508081 -28.46172 -111.98634
111898000 -28.338409 -109.01084 -0.07618352 -22.72205 -0.073618889 -22.712978 -28.346064 -112.09821
112897000 -28.207909 -109.57182 -0.078463405 -22.919804 -0.0752621 -22.907927 -28.207876 -112.28172
113896000 -28.103813 -110.15895 -0.079121351 -23.119446 -0.076188788 -23.106863 -28.105429 -112.44213
114895000 -28.002872 -110.75364 -0.080320455 -23.319736 -0.077453487 -23.30319 -27.991976 -112.49041
115894000 -27.879841 -111.13703 -0.081092343 -23.518244 -0.078841917 -23.510614 -27.920639 -112.72552
116893000 -27.805845 -111.62141 -0.082098365 -23.719173 -0.079796262 -23.702606 -27.804445 -112.75272
117892000 -27.716047 -112.11852 -0.08180476 -23.914013 -0.08057756 -23.898361 -27.722099 -112.91836
118891000 -27.655197 -112.56693 -0.082850784 -24.116034 -0.080277205 -24.10018 -27.623064 -113.08032
119890000 -27.571192 -112.94788 -0.083755337 -24.320076 -0.080794066 -24.299387 -27.610098 -113.19804
120889000 -27.522947 -113.46857 -0.084829547 -24.516745 -0.081659161 -24.503878 -27.53669 -113.14182
121888000 -27.479383 -113.75586 -0.084302172 -24.714436 -0.081867546 -24.701241 -27.473995 -113.41483
122887000 -27.446524 -113.98622 -0.085919864 -24.919294 -0.082730733 -24.901772 -27.427641 -113.42506
123886000 -27.38726 -114.3801 -0.086395673 -25.119944 -0.083115958 -25.101273 -27.404869 -113.57535
124885000 -27.355532 -114.85093 -0.086485192 -25.316359 -0.083652422 -25.304493 -27.37915 -113.63412
125884000 -27.301382 -115.08847 -0.087971084 -25.517315 -0.084224053 -25.501432 -27.350899 -113.77078
126883000 -27.28569 -115.47993 -0.087369114 -25.719351 -0.085381269 -25.706091 -27.315828 -113.79599
127882000 -27.23225 -115.72289 -0.087998025 -25.921101 -0.085295998 -25.90579 -27.272219 -113.91372
128881000 -27.199003 -116.0737 -0.088326126 -26.126072 -0.085445687 -26.107861 -27.229712 -114.04491
129880000 -27.141836 -116.39896 -0.089704826 -26.328514 -0.08517351 -26.306189 -27.189806 -113.96156
130879000 -27.086172 -116.57896 -0.089175276 -26.525957 -0.086458258 -26.511934 -27.113691 -114.0093
131878000 -27.013773 -116.77608 -0.089111328 -26.726778 -0.086662382 -26.710596 -27.049292 -113.85025
132877000 -26.949072 -116.8746 -0.089391157 -26.929644 -0.087239429 -26.915754 -26.970329 -113.84288
133876000 -26.862862 -117.02467 -0.089656726 -27.130922 -0.086835884 -27.113527 -26.878242 -113.70386
134875000 -26.763966 -117.16174 -0.089417577 -27.330824 -0.087533399 -27.314886 -26.779356 -113.58167
135874000 -26.678038 -117.19355 -0.08947783 -27.531553 -0.087323681 -27.51428 -26.678789 -113.54678
136873000 -26.566532 -117.12746 -0.090602614 -27.733463 -0.087501176 -27.723228 -26.591619 -113.52412
137872000 -26.477413 -117.22521 -0.090084322 -27.935606 -0.08728195 -27.918236 -26.490189 -113.44653
138871000 -26.407909 -117.48148 -0.090764381 -28.135473 -0.087601013 -28.125547 -26.393015 -113.57716
139870000 -26.307547 -117.767 -0.091234639 -28.339033 -0.088842355 -28.318525 -26.31414 -113.77806
140869000 -26.231956 -118.30951 -0.092791975 -28.534899 -0.089551024 -28.517948 -26.209866 -113.97178
141868000 -26.149372 -118.73134 -0.09401311 -28.731745 -0.090460151 -28.719381 -26.158731 -114.2348
142867000 -26.06818 -118.92525 -0.092177168 -28.930544 -0.090746671 -28.916948 -26.078854 -114.34645
143866000 -25.993586 -119.38892 -0.094294578 -29.129572 -0.091539189 -29.114866 -26.003929 -114.80878
144865000 -25.938028 -119.96905 -0.095947213 -29.325773 -0.093183644 -29.312143 -25.94857 -115.10168
145864000 -25.881409 -120.23533 -0.096591666 -29.530016 -0.094394043 -29.517752 -25.911638 -115.37482
146863000 -25.842003 -120.62466 -0.097732328 -29.732056 -0.095163412 -29.716709 -25.862728 -115.65485
147862000 -25.802586 -120.96339 -0.098472901 -29.929411 -0.095334873 -29.916298 -25.835554 -115.96409
148861000 -25.7656 -121.38622 -0.099665441 -30.127306 -0.097684942 -30.112347 -25.81089 -116.10303
149860000 -25.737713 -121.56928 -0.10015998 -30.321646 -0.0981308 -30.306284 -25.76115 -116.19975
150859000 -25.708675 -122.01871 -0.099696696 -30.51815 -0.097892508 -30.501362 -25.739122 -116.54675
151858000 -25.700182 -122.39272 -0.09964028 -30.714142 -0.097037941 -30.698826 -25.734835 -116.87825
152857000 -25.689751 -122.68697 -0.10009906 -30.914011 -0.097453557 -30.904953 -25.713259 -117.06745
153856000 -25.685781 -122.93606 -0.099344164 -31.11927 -0.096883886 -31.102072 -25.735674 -117.34882
154855000 -25.68474 -123.07426 -0.099844761 -31.314051 -0.096695952 -31.306032 -25.724091 -117.61571
155854000 -25.695404 -123.32035 -0.09980344 -31.5156 -0.097946517 -31.502295 -25.717207 -117.86098
156853000 -25.687933 -124.02079 -0.09794493 -31.70175 -0.097125299 -31.696562 -25.710772 -118.15902
157852000 -25.692034 -124.21166 -0.099927932 -31.910231 -0.098637074 -31.895874 -25.707933 -118.51962
158851000 -25.697935 -124.47144 -0.10050754 -32.104126 -0.099105284 -32.097691 -25.692858 -118.77747
159850000 -25.681797 -124.55548 -0.10111372 -32.30579 -0.099070854 -32.297207 -25.69256 -118.95739
160849000 -25.665644 -124.66447 -0.10101674 -32.505016 -0.099834166 -32.495132 -25.664701 -119.26694
161848000 -25.653473 -124.74809 -0.10147806 -32.706333 -0.099628627 -32.696976 -25.626757 -119.38939
162847000 -25.613134 -124.92221 -0.10112458 -32.901726 -0.10063921 -32.8988 -25.596352 -119.62823
163846000 -25.575985 -125.13143 -0.10187369 -33.105743 -0.10017508 -33.100002 -25.519955 -119.63528
164845000 -25.512579 -125.11143 -0.10188746 -33.303978 -0.10082175 -33.299244 -25.457026 -119.76399
165844000 -25.462317 -125.15069 -0.10244666 -33.505054 -0.10085566 -33.498131 -25.376575 -119.88463
166843000 -25.393959 -125.20572 -0.10217077 -33.703453 -0.1008599 -33.696262 -25.309305 -120.03607
167842000 -25.343281 -125.30497 -0.10280925 -33.906502 -0.10193782 -33.898308 -25.232542 -119.96275
168841000 -25.265356 -125.48067 -0.10331342 -34.108471 -0.10184082 -34.099449 -25.159437 -120.03388
169840000 -25.201523 -125.68169 -0.10337546 -34.300579 -0.10277294 -34.297894 -25.076702 -120.24555
170839000 -25.136892 -125.96001 -0.10440149 -34.496059 -0.10334099 -34.491745 -24.988846 -120.4115
171838000 -25.077755 -126.36411 -0.10378478 -34.700062 -0.10396825 -34.689995 -24.92758 -120.66581
172837000 -25.006865 -126.72143 -0.10520977 -34.895298 -0.10539117 -34.888405 -24.856894 -120.85712
173836000 -24.94467 -127.09026 -0.1067578 -35.098583 -0.10562723 -35.091843 -24.811998 -121.07595
174835000 -24.884253 -127.51189 -0.10761719 -35.291046 -0.10637312 -35.293758 -24.767759 -121.39665
175834000 -24.836142 -127.90108 -0.10859805 -35.496231 -0.10772254 -35.48748 -24.702406 -121.64497
176833000 -24.782324 -128.20924 -0.11015021 -35.691101 -0.10854073 -35.688702 -24.661512 -121.8271
177832000 -24.736065 -128.67422 -0.11052035 -35.894077 -0.10933995 -35.888939 -24.638557 -121.94314
178831000 -24.697222 -128.95576 -0.11158632 -36.087471 -0.1104359 -36.085522 -24.601278 -122.01024
179830000 -24.634769 -129.26448 -0.11367707 -36.274109 -0.1111088 -36.275085 -24.54241 -122.04675
180829000 -24.57523 -129.62276 -0.11276785 -36.465469 -0.11146069 -36.460251 -24.494446 -122.36588
181828000 -24.549337 -130.03084 -0.11173824 -36.664371 -0.11031695 -36.662521 -24.472162 -122.55353
182827000 -24.528999 -130.44214 -0.11186467 -36.859615 -0.11099833 -36.859917 -24.457224 -122.7112
183826000 -24.485956 -130.79022 -0.1130043 -37.059174 -0.1109816 -37.058224 -24.451687 -122.87975
184825000 -24.487831 -131.10806 -0.11315469 -37.258469 -0.11160491 -37.254776 -24.428217 -122.97167
185824000 -24.456284 -131.45581 -0.11195817 -37.453049 -0.11128408 -37.458435 -24.423943 -123.04552
186823000 -24.438248 -131.85941 -0.11266053 -37.655376 -0.11174807 -37.650337 -24.413395 -123.06179
187822000 -24.416983 -132.14618 -0.11305054 -37.848389 -0.11257684 -37.849876 -24.38092 -123.14917
188821000 -24.392094 -132.42444 -0.11322563 -38.047302 -0.11213215 -38.050674 -24.358406 -123.25753
189820000 -24.371655 -132.72501 -0.11326681 -38.247158 -0.11174781 -38.247799 -24.339535 -123.44731
190819000 -24.33898 -133.05705 -0.11440708 -38.444263 -0.11318524 -38.44305 -24.299576 -123.51109
191818000 -24.305019 -133.28564 -0.11436695 -38.643547 -0.11342677 -38.640221 -24.271765 -123.55903
192817000 -24.257736 -133.61423 -0.11496231 -38.839241 -0.11369089 -38.839546 -24.226196 -123.67413
193816000 -24.224104 -133.86665 -0.11573321 -39.036663 -0.1134087 -39.036144 -24.172903 -123.80596
194815000 -24.163532 -134.26317 -0.11503567 -39.228313 -0.11493944 -39.229561 -24.10383 -123.86752
195814000 -24.109463 -134.46526 -0.11576245 -39.427612 -0.11457266 -39.42939 -24.048895 -123.98155
196813000 -24.049486 -134.79173 -0.11615168 -39.622753 -0.11457106 -39.626282 -23.968565 -124.1292
197812000 -23.996922 -135.00673 -0.11587145 -39.822788 -0.1157667 -39.820141 -23.898094 -124.19485
198811000 -23.940216 -135.16716 -0.11599641 -40.020828 -0.1154461 -40.020493 -23.830364 -124.41589
199810000 -23.868519 -135.51808 -0.11680844 -40.212276 -0.11571619 -40.212765 -23.750673 -124.49393
200809000 -23.809191 -135.78267 -0.11639203 -40.41111 -0.11526321 -40.40839 -23.670326 -124.6853
201808000 -23.750683 -135.98366 -0.11777595 -40.612949 -0.11664836 -40.614315 -23.600183 -124.76973
202807000 -23.689631 -136.35083 -0.11839731 -40.81271 -0.11704724 -40.813915 -23.544506 -124.95266
