!Keysight Technologies,E5080B,MY59205177,A.15.75.32
!Date: Friday, February 23, 2024 02:49:15
!Correction: S11(Cdelta 2-Port  ) 
!S21(Cdelta 2-Port  ) 
!S12(Cdelta 2-Port  ) 
!S22(Cdelta 2-Port  ) 
!S2P File: Measurements: S11, S21, S12, S22:
# Hz S  dB   R 50
10000000 -41.72694 -3.4013305 -0.045054451 -2.0507741 -0.048270199 -2.1077771 -52.850498 -127.1618
10999000 -41.204346 -4.6267047 -0.046437532 -2.2690947 -0.048434325 -2.3230388 -51.663994 -117.15015
11998000 -40.592453 -6.8160648 -0.047111575 -2.4931371 -0.048765991 -2.53405 -51.344296 -109.45669
12997000 -40.092937 -10.491838 -0.046268776 -2.673003 -0.047429532 -2.7043028 -49.957329 -103.85595
13996000 -39.925495 -13.300406 -0.045223158 -2.8537662 -0.048340876 -2.8741155 -48.922733 -98.418083
14995000 -39.681564 -16.327568 -0.04798647 -3.0631349 -0.048109226 -3.0851517 -48.227303 -96.120354
15994000 -39.604816 -19.438559 -0.049056578 -3.2784545 -0.04980094 -3.3018203 -47.719479 -92.994156
16993000 -39.632195 -22.67593 -0.048206333 -3.4768336 -0.049196642 -3.4866111 -46.866287 -96.422821
17992000 -39.750389 -26.368608 -0.048430134 -3.6760445 -0.049977951 -3.676821 -46.262505 -99.208481
18991000 -40.026989 -29.520779 -0.049975332 -3.8872015 -0.050746564 -3.8848908 -45.448357 -100.5404
19990000 -39.995865 -33.876247 -0.051629528 -4.0971513 -0.05276604 -4.0898633 -44.774303 -103.83143
20989000 -39.944946 -36.059883 -0.05427425 -4.3027029 -0.054969959 -4.2888045 -44.110874 -104.49513
21988000 -39.968227 -40.122108 -0.054675043 -4.497386 -0.055600751 -4.4834914 -43.793262 -104.84026
22987000 -39.902271 -44.085762 -0.05654135 -4.6962738 -0.057567138 -4.6866522 -43.496048 -104.82266
23986000 -39.954048 -47.222115 -0.056322899 -4.8909106 -0.055658437 -4.8865771 -43.381779 -105.15284
24985000 -39.74696 -50.033913 -0.056961235 -5.0991077 -0.056107342 -5.0970693 -42.988373 -102.95781
25984000 -39.600624 -52.101501 -0.058072906 -5.3085818 -0.056440383 -5.3058481 -42.550579 -102.20532
26983000 -39.388023 -53.962196 -0.058796775 -5.5079117 -0.057753384 -5.521255 -42.42115 -101.28348
27982000 -39.297508 -54.96693 -0.060306817 -5.7056413 -0.058563519 -5.7405343 -42.028862 -100.36601
28981000 -39.283066 -56.249916 -0.05812354 -5.9036484 -0.059007742 -5.9260159 -41.708 -99.716789
29980000 -39.000801 -58.209953 -0.058615468 -6.0950098 -0.059507906 -6.1005664 -41.358459 -99.886055
30979000 -38.663704 -57.829903 -0.056196239 -6.4504929 -0.054306228 -6.4377699 -40.873203 -101.3716
31978000 -38.50502 -59.242287 -0.055047818 -6.6462755 -0.055404112 -6.6360998 -40.565872 -101.10691
32977000 -38.38895 -60.853817 -0.055142459 -6.8578744 -0.055690162 -6.8556151 -40.288303 -101.66356
33976000 -38.257248 -61.844719 -0.056207515 -7.0589304 -0.056613732 -7.0547085 -39.947693 -101.50305
34975000 -38.011623 -63.133789 -0.055816807 -7.2594118 -0.05742785 -7.2571998 -39.67028 -101.67229
35974000 -37.830502 -63.958302 -0.055295043 -7.4537172 -0.057029426 -7.4568343 -39.354912 -101.13936
36973000 -37.653637 -64.869339 -0.056221414 -7.6522598 -0.057702493 -7.6601911 -39.014309 -100.68174
37972000 -37.496662 -64.940163 -0.05517628 -7.8611388 -0.057782765 -7.8726974 -38.749432 -100.18102
38971000 -37.178822 -64.977356 -0.056223772 -8.0670061 -0.058621503 -8.074275 -38.488644 -98.827148
39970000 -36.900188 -65.725845 -0.054634672 -8.2573099 -0.057717182 -8.2755661 -38.181629 -98.564964
40969000 -36.625027 -65.841415 -0.054688148 -8.4532185 -0.057757579 -8.4760513 -37.899364 -97.570717
41968000 -36.308941 -66.406364 -0.055386022 -8.6626091 -0.056711815 -8.6739225 -37.630081 -96.564079
42967000 -36.069897 -66.803482 -0.055336993 -8.8723593 -0.057538021 -8.8877125 -37.357319 -94.870346
43966000 -35.806633 -67.722267 -0.056281988 -9.0689354 -0.059143405 -9.089941 -37.038132 -94.291061
44965000 -35.617146 -68.731407 -0.057604384 -9.270483 -0.058649052 -9.2963037 -36.814869 -94.526955
45964000 -35.430698 -69.995117 -0.058070023 -9.4736137 -0.06042546 -9.4923334 -36.559738 -94.580086
46963000 -35.287838 -72.042496 -0.058456473 -9.6699448 -0.060812909 -9.6940575 -36.389992 -95.013573
47962000 -35.190235 -73.452812 -0.060452759 -9.8692474 -0.061802946 -9.8877296 -36.169243 -95.410049
48961000 -35.010674 -75.04055 -0.061739404 -10.066307 -0.063508935 -10.089525 -35.95573 -95.94725
49960000 -34.840458 -76.590645 -0.063595355 -10.267671 -0.064629376 -10.289351 -35.81596 -96.329292
50959000 -34.665073 -78.039894 -0.063916095 -10.48114 -0.06619034 -10.492753 -35.646477 -96.923256
51958000 -34.497623 -79.264519 -0.066450551 -10.678244 -0.067073293 -10.686438 -35.495422 -97.44548
52957000 -34.318409 -80.532288 -0.067784727 -10.876698 -0.067674562 -10.885942 -35.305149 -97.469238
53956000 -34.163071 -81.334068 -0.068514422 -11.080867 -0.069251083 -11.081273 -35.173908 -97.57225
54955000 -34.023518 -82.015762 -0.07001812 -11.284927 -0.070299342 -11.276608 -35.017792 -97.76297
55954000 -33.865353 -82.93766 -0.071017623 -11.482862 -0.070471145 -11.480924 -34.897869 -97.519524
56953000 -33.76437 -83.057457 -0.0704301 -11.679296 -0.069345243 -11.67117 -34.837574 -97.873627
57952000 -33.622238 -83.835663 -0.07154917 -11.878332 -0.071412072 -11.869065 -34.744183 -98.02652
58951000 -33.504124 -84.237541 -0.072678536 -12.085285 -0.072315037 -12.065008 -34.58215 -98.236969
59950000 -33.384197 -84.717705 -0.073465399 -12.283934 -0.073006794 -12.265401 -34.519867 -98.676697
60949000 -33.292454 -85.415947 -0.073415376 -12.486761 -0.07355544 -12.462086 -34.424759 -99.043266
61948000 -33.234409 -85.724014 -0.074827276 -12.687349 -0.07334508 -12.672001 -34.327068 -99.187202
62947000 -33.150913 -86.046242 -0.074875467 -12.89278 -0.074627653 -12.878303 -34.198704 -99.53672
63946000 -33.09354 -86.750259 -0.075219169 -13.091917 -0.075031385 -13.075982 -34.097786 -99.745697
64945000 -32.986076 -86.986603 -0.075522333 -13.295985 -0.075621374 -13.27842 -33.988724 -100.33377
65944000 -32.89304 -87.320274 -0.076272562 -13.495509 -0.076246746 -13.478757 -33.903957 -100.86831
66943000 -32.7584 -87.844131 -0.074324556 -13.697581 -0.074793302 -13.678134 -33.799637 -101.156
67942000 -32.694191 -87.819221 -0.076515466 -13.893038 -0.076098956 -13.880411 -33.683136 -101.55724
68941000 -32.592506 -88.033104 -0.076446436 -14.086435 -0.075747021 -14.078589 -33.573055 -101.5953
69940000 -32.4902 -88.01313 -0.07773836 -14.284358 -0.076768659 -14.277629 -33.435707 -102.03113
70939000 -32.372921 -88.082214 -0.076505981 -14.482598 -0.076796852 -14.478276 -33.291611 -101.99901
71938000 -32.220898 -87.742363 -0.076505981 -14.679781 -0.076158226 -14.672359 -33.155079 -101.96673
72937000 -32.070457 -87.72821 -0.076255701 -14.877431 -0.075910076 -14.869177 -33.003342 -101.70408
73936000 -31.923056 -87.456947 -0.075821042 -15.078727 -0.075309776 -15.065392 -32.891037 -101.58694
74935000 -31.794525 -87.805611 -0.075231813 -15.271528 -0.074384063 -15.270747 -32.715221 -101.35825
75934000 -31.679773 -88.193756 -0.076112129 -15.479488 -0.074792251 -15.476192 -32.63073 -101.30498
76933000 -31.554293 -88.565704 -0.076968379 -15.675252 -0.07631287 -15.66467 -32.46286 -101.82322
77932000 -31.46656 -89.479256 -0.077497758 -15.872061 -0.07769119 -15.86732 -32.351597 -101.89256
78931000 -31.412174 -90.180389 -0.07701923 -16.073936 -0.077013172 -16.065809 -32.261814 -101.73545
79930000 -31.30829 -91.039963 -0.07974828 -16.262569 -0.080467857 -16.263535 -32.16151 -102.13829
80929000 -31.189201 -92.030411 -0.081419133 -16.458557 -0.081106849 -16.456686 -32.059471 -102.5498
81928000 -31.118513 -92.908005 -0.081134282 -16.652477 -0.081342906 -16.648396 -31.935484 -102.75143
82927000 -31.037449 -93.670265 -0.082946822 -16.849903 -0.082551591 -16.848591 -31.842716 -103.17371
83926000 -30.924412 -94.500748 -0.08469598 -17.048302 -0.083677754 -17.050304 -31.724745 -103.42593
84925000 -30.834778 -95.002045 -0.085754842 -17.247663 -0.084458426 -17.247107 -31.626068 -103.50053
85924000 -30.755043 -95.514801 -0.086330451 -17.447969 -0.085519604 -17.445118 -31.534027 -103.60592
86923000 -30.649925 -96.10305 -0.086498924 -17.646845 -0.085874446 -17.639532 -31.44451 -103.58475
87922000 -30.556273 -96.624428 -0.08746472 -17.848627 -0.085694388 -17.841946 -31.342524 -103.75951
88921000 -30.476738 -96.928421 -0.088112146 -18.052599 -0.086423397 -18.047277 -31.250263 -103.7134
89920000 -30.389977 -97.517754 -0.088923998 -18.2491 -0.087203249 -18.242521 -31.193357 -103.92045
90919000 -30.29738 -97.86673 -0.088839978 -18.445642 -0.088659003 -18.439211 -31.115847 -104.27986
91918000 -30.203543 -98.343201 -0.090429492 -18.647732 -0.088727959 -18.642729 -31.040401 -104.25935
92917000 -30.119684 -98.687523 -0.091499537 -18.841234 -0.089522488 -18.840904 -30.973347 -104.4127
93916000 -30.038378 -99.116417 -0.090614513 -19.038652 -0.089322187 -19.035738 -30.899868 -105.05028
94915000 -29.967299 -99.785904 -0.091812827 -19.237272 -0.090809315 -19.233774 -30.834669 -105.0088
95914000 -29.89925 -100.02668 -0.093600735 -19.434511 -0.091746993 -19.43067 -30.734562 -105.32397
96913000 -29.820511 -100.29628 -0.094785064 -19.632736 -0.092382096 -19.63047 -30.678503 -105.68825
97912000 -29.752634 -100.8004 -0.095725447 -19.826521 -0.092778221 -19.830677 -30.596926 -105.95458
98911000 -29.641855 -101.04736 -0.095952772 -20.029934 -0.094369702 -20.028662 -30.57243 -106.17303
99910000 -29.578974 -101.20135 -0.096382044 -20.229126 -0.094890364 -20.226994 -30.453533 -106.59861
100909000 -29.488016 -101.51283 -0.096216626 -20.435659 -0.094145373 -20.430655 -30.360434 -106.7496
101908000 -29.396832 -101.78465 -0.097628281 -20.637938 -0.095625684 -20.636103 -30.242508 -106.60046
102907000 -29.2651 -101.8539 -0.098107494 -20.835489 -0.095854588 -20.835781 -30.161982 -106.56239
103906000 -29.168856 -101.9733 -0.097532183 -21.040833 -0.095615104 -21.039146 -30.006239 -106.5569
104905000 -29.020924 -101.97048 -0.098807618 -21.238844 -0.095869675 -21.241604 -29.871387 -106.30831
105904000 -28.881632 -102.13351 -0.099238232 -21.44392 -0.095263436 -21.434769 -29.750063 -106.19762
106903000 -28.770462 -102.26913 -0.099073499 -21.649706 -0.09600623 -21.641348 -29.619148 -106.12589
107902000 -28.606325 -102.68479 -0.099788077 -21.847187 -0.096819565 -21.845276 -29.477604 -106.14554
108901000 -28.498367 -103.00561 -0.10046356 -22.049194 -0.099076681 -22.043621 -29.336529 -106.12998
109900000 -28.383186 -103.48431 -0.1016866 -22.24828 -0.098642901 -22.239973 -29.176329 -106.30591
110899000 -28.259829 -104.15527 -0.10334895 -22.449757 -0.09971524 -22.437038 -29.051273 -106.61092
111898000 -28.173973 -104.90968 -0.10463272 -22.647732 -0.10141287 -22.643944 -28.931953 -106.89072
112897000 -28.059036 -105.48628 -0.10581422 -22.848381 -0.10234834 -22.84067 -28.79785 -107.1555
113896000 -27.955435 -106.18231 -0.1066469 -23.049286 -0.10381925 -23.037609 -28.687599 -107.28112
114895000 -27.861153 -106.83421 -0.10751026 -23.248575 -0.10514691 -23.236162 -28.565044 -107.43893
115894000 -27.73406 -107.25742 -0.10939437 -23.44795 -0.10620388 -23.433546 -28.494987 -107.65253
116893000 -27.654699 -107.86166 -0.10950746 -23.641027 -0.10711491 -23.628601 -28.361374 -107.87419
117892000 -27.57575 -108.36952 -0.1097379 -23.836367 -0.10687082 -23.828543 -28.292265 -108.10909
118891000 -27.523022 -108.82078 -0.11129842 -24.041958 -0.10875519 -24.028629 -28.192772 -108.29274
119890000 -27.43148 -109.21147 -0.11118901 -24.242483 -0.108554 -24.225325 -28.186451 -108.4408
120889000 -27.382914 -109.75458 -0.11193746 -24.439283 -0.10849985 -24.424717 -28.101505 -108.45892
121888000 -27.338821 -110.06172 -0.112448 -24.640594 -0.1091674 -24.626728 -28.046179 -108.79102
122887000 -27.294609 -110.3546 -0.11359841 -24.841667 -0.10971214 -24.827749 -27.997458 -108.86575
123886000 -27.241867 -110.79486 -0.11442994 -25.042608 -0.11067808 -25.028032 -27.977932 -109.0531
124885000 -27.215204 -111.29198 -0.11487672 -25.241463 -0.11116165 -25.230072 -27.954411 -109.09143
125884000 -27.156111 -111.54076 -0.1152446 -25.441074 -0.11139509 -25.426876 -27.92347 -109.3373
126883000 -27.134886 -111.92213 -0.11578186 -25.643997 -0.1121906 -25.626787 -27.883612 -109.35496
127882000 -27.086872 -112.23933 -0.11626016 -25.842007 -0.11342039 -25.825115 -27.839199 -109.55497
128881000 -27.052244 -112.53657 -0.11621655 -26.045244 -0.11280771 -26.026091 -27.800062 -109.66254
129880000 -26.994637 -112.88078 -0.11750147 -26.244118 -0.11335529 -26.225901 -27.754457 -109.65664
130879000 -26.931456 -113.07817 -0.11747993 -26.443865 -0.11383279 -26.429249 -27.670437 -109.71679
131878000 -26.867151 -113.30157 -0.11743259 -26.646669 -0.11441027 -26.627075 -27.608953 -109.68373
132877000 -26.794882 -113.38776 -0.11727967 -26.843063 -0.11427128 -26.828897 -27.516153 -109.68575
133876000 -26.711514 -113.57024 -0.11784457 -27.051464 -0.11448787 -27.031841 -27.423649 -109.61388
134875000 -26.608517 -113.72494 -0.11785495 -27.248407 -0.11538602 -27.229683 -27.309116 -109.4837
135874000 -26.526077 -113.7464 -0.11798555 -27.448143 -0.11526586 -27.429838 -27.20706 -109.45647
136873000 -26.411295 -113.75369 -0.11907943 -27.649126 -0.11447857 -27.637264 -27.115299 -109.51675
137872000 -26.335407 -113.87098 -0.11865269 -27.85569 -0.11519064 -27.83852 -27.004053 -109.49366
138871000 -26.2598 -114.05814 -0.11943462 -28.053036 -0.11526108 -28.034126 -26.906927 -109.66451
139870000 -26.166649 -114.37361 -0.12026939 -28.253542 -0.11686721 -28.236938 -26.826597 -109.86401
140869000 -26.073713 -114.89861 -0.12121025 -28.447451 -0.11803608 -28.428696 -26.718708 -110.03918
141868000 -25.978268 -115.37846 -0.12202779 -28.641041 -0.11967463 -28.625896 -26.645287 -110.40176
142867000 -25.906528 -115.66738 -0.12035482 -28.837557 -0.11777116 -28.822412 -26.567717 -110.64923
143866000 -25.837732 -116.20433 -0.12244394 -29.035391 -0.11975446 -29.019899 -26.494642 -111.17705
144865000 -25.788708 -116.70556 -0.12393846 -29.231459 -0.12103032 -29.218731 -26.441679 -111.48685
145864000 -25.73097 -117.0659 -0.12392381 -29.433084 -0.12152517 -29.424828 -26.404093 -111.7708
146863000 -25.681883 -117.51824 -0.12518065 -29.635395 -0.12266814 -29.622007 -26.354012 -112.15421
147862000 -25.647863 -117.83854 -0.12573858 -29.831808 -0.12275255 -29.820234 -26.322395 -112.49725
148861000 -25.617899 -118.36499 -0.12587234 -30.027958 -0.12303002 -30.016701 -26.305946 -112.73518
149860000 -25.599342 -118.57923 -0.12645435 -30.22979 -0.12388439 -30.213585 -26.27417 -112.91582
150859000 -25.580486 -119.00068 -0.12762181 -30.426447 -0.12407164 -30.415178 -26.271841 -113.19759
151858000 -25.563122 -119.31488 -0.12726729 -30.625483 -0.12457535 -30.613312 -26.265314 -113.49717
152857000 -25.549927 -119.65037 -0.1280665 -30.824518 -0.12498828 -30.81205 -26.24958 -113.64705
153856000 -25.542227 -119.87815 -0.12791507 -31.024263 -0.12439341 -31.009256 -26.266487 -113.94151
154855000 -25.538597 -120.05118 -0.12840776 -31.222734 -0.12465714 -31.21262 -26.256798 -114.15886
155854000 -25.543419 -120.3022 -0.12862667 -31.42362 -0.12525471 -31.407724 -26.248781 -114.40521
156853000 -25.537048 -121.00201 -0.12659082 -31.608606 -0.12479007 -31.59984 -26.250509 -114.70534
157852000 -25.541035 -121.21081 -0.12749973 -31.810299 -0.1255883 -31.801149 -26.239281 -115.04933
158851000 -25.538706 -121.47529 -0.12829152 -32.006756 -0.12666704 -31.999084 -26.230198 -115.32873
159850000 -25.52499 -121.59503 -0.12867574 -32.205997 -0.12666251 -32.201115 -26.225613 -115.49866
160849000 -25.501957 -121.72498 -0.12894133 -32.404942 -0.12737711 -32.400333 -26.197483 -115.78482
161848000 -25.479965 -121.84616 -0.12951495 -32.602627 -0.12705457 -32.598652 -26.159185 -115.89703
162847000 -25.439775 -122.04375 -0.12929413 -32.805214 -0.12793986 -32.800365 -26.130951 -116.18736
163846000 -25.39584 -122.29144 -0.12950268 -33.003735 -0.12755758 -33.000607 -26.050274 -116.15966
164845000 -25.334198 -122.27904 -0.13006224 -33.202942 -0.12914932 -33.19252 -25.979521 -116.27098
165844000 -25.275013 -122.3672 -0.13018334 -33.398357 -0.12853362 -33.397388 -25.89666 -116.4625
166843000 -25.208223 -122.47105 -0.12991661 -33.597282 -0.12843896 -33.598587 -25.824146 -116.66099
167842000 -25.154566 -122.66302 -0.13097882 -33.798187 -0.12921172 -33.794178 -25.737034 -116.59987
168841000 -25.075745 -122.8349 -0.13156259 -33.995956 -0.12934613 -33.992386 -25.662422 -116.68876
169840000 -25.01075 -123.13569 -0.13155939 -34.194286 -0.12986033 -34.188778 -25.569622 -116.88203
170839000 -24.950445 -123.40269 -0.13229747 -34.389103 -0.1302975 -34.388462 -25.481096 -117.13107
171838000 -24.893126 -123.86228 -0.13241543 -34.591339 -0.13146013 -34.586746 -25.417328 -117.40341
172837000 -24.819252 -124.26419 -0.13352042 -34.786518 -0.13257423 -34.778931 -25.34643 -117.65129
173836000 -24.750658 -124.6776 -0.13507403 -34.987392 -0.13342699 -34.985714 -25.308603 -117.87962
174835000 -24.702894 -125.11684 -0.13474694 -35.181709 -0.13435738 -35.182251 -25.258537 -118.26455
175834000 -24.655922 -125.55711 -0.13620991 -35.379486 -0.13537019 -35.374111 -25.198408 -118.57117
176833000 -24.602627 -125.92242 -0.13721301 -35.576649 -0.13561322 -35.576313 -25.147989 -118.77682
177832000 -24.559044 -126.44479 -0.13769366 -35.773617 -0.13602906 -35.775112 -25.121593 -118.93918
178831000 -24.51749 -126.81455 -0.13881658 -35.968864 -0.13648102 -35.969715 -25.080177 -119.24998
179830000 -24.485849 -127.28654 -0.13867867 -36.166592 -0.13713472 -36.16803 -25.056528 -119.34962
180829000 -24.444407 -127.47024 -0.13913196 -36.365131 -0.13704602 -36.366486 -25.027721 -119.55446
181828000 -24.422371 -127.86187 -0.13944845 -36.561794 -0.13802928 -36.560005 -25.007109 -119.67254
182827000 -24.392262 -128.19882 -0.13912153 -36.75602 -0.13888553 -36.759247 -24.994541 -119.75322
183826000 -24.35437 -128.57773 -0.14036192 -36.958099 -0.13869257 -36.954384 -24.987198 -119.91349
184825000 -24.357414 -128.88307 -0.14011274 -37.150688 -0.13887431 -37.149609 -24.972652 -119.99761
185824000 -24.335705 -129.25728 -0.14105418 -37.346054 -0.13885666 -37.349136 -24.963924 -120.07864
186823000 -24.318184 -129.60257 -0.14074534 -37.54723 -0.13901463 -37.54269 -24.963049 -120.03862
187822000 -24.296894 -129.92183 -0.14126143 -37.742825 -0.13987401 -37.742569 -24.926212 -120.13058
188821000 -24.276272 -130.17134 -0.14096861 -37.936985 -0.13997561 -37.943714 -24.908472 -120.20119
189820000 -24.260769 -130.44601 -0.14190087 -38.13903 -0.14026941 -38.139362 -24.90267 -120.41193
190819000 -24.225924 -130.69362 -0.14288764 -38.338364 -0.14109269 -38.337452 -24.866425 -120.33236
191818000 -24.196148 -130.86234 -0.14439268 -38.530193 -0.14270331 -38.534409 -24.833797 -120.22476
192817000 -24.122068 -131.14247 -0.14463407 -38.718597 -0.14339995 -38.719658 -24.758362 -120.34155
193816000 -24.083776 -131.51096 -0.1438286 -38.91441 -0.14213517 -38.909866 -24.695879 -120.6093
194815000 -24.030226 -131.96373 -0.14356102 -39.105583 -0.14246337 -39.110157 -24.631874 -120.75104
195814000 -23.977547 -132.20534 -0.14455888 -39.306156 -0.14254603 -39.306198 -24.57699 -120.84917
196813000 -23.922445 -132.55696 -0.14410046 -39.501122 -0.14230689 -39.504604 -24.498947 -121.04778
197812000 -23.867121 -132.80211 -0.14443764 -39.703468 -0.14285901 -39.696716 -24.42683 -121.14462
198811000 -23.809858 -132.99042 -0.14438038 -39.893272 -0.1424417 -39.894855 -24.355957 -121.38592
199810000 -23.739683 -133.38174 -0.14502162 -40.087063 -0.14239141 -40.088974 -24.274458 -121.48243
200809000 -23.681787 -133.68407 -0.14473872 -40.285904 -0.14312734 -40.287102 -24.194599 -121.68024
201808000 -23.628349 -133.93149 -0.1448819 -40.486717 -0.14388987 -40.493095 -24.127502 -121.79951
202807000 -23.567318 -134.30061 -0.14618979 -40.690948 -0.14467315 -40.688713 -24.066944 -122.01282
203806000 -23.514559 -134.74057 -0.14789069 -40.887463 -0.14516722 -40.888771 -24.001183 -122.20705
