!Keysight Technologies,E5080B,MY59205177,A.15.75.32
!Date: Friday, February 23, 2024 03:27:33
!Correction: S11(Cdelta 2-Port  ) 
!S21(Cdelta 2-Port  ) 
!S12(Cdelta 2-Port  ) 
!S22(Cdelta 2-Port  ) 
!S2P File: Measurements: S11, S21, S12, S22:
# Hz S  dB   R 50
10000000 -46.017651 -1.1301792 -0.015764657 -2.0546992 -0.019676425 -2.1103156 -46.12743 -158.68503
10999000 -45.205769 -3.2640784 -0.017113755 -2.2737098 -0.018558938 -2.3294716 -46.04491 -152.9985
11998000 -44.243076 -5.8746285 -0.016958607 -2.5007725 -0.018806435 -2.5418022 -46.325474 -148.52739
12997000 -43.501411 -11.72958 -0.016915729 -2.6818388 -0.018217092 -2.7166989 -45.987362 -142.5849
13996000 -43.218559 -15.489947 -0.015364583 -2.8594818 -0.018657466 -2.8850322 -45.787933 -137.29399
14995000 -42.838017 -19.852549 -0.018129231 -3.0728986 -0.017956633 -3.099756 -45.473186 -133.92671
15994000 -42.699703 -24.03997 -0.019611416 -3.2920475 -0.020442035 -3.3137758 -45.408379 -130.19635
16993000 -42.673588 -28.640823 -0.018373065 -3.4899511 -0.020564796 -3.4983485 -44.584866 -129.66916
17992000 -42.725323 -33.915936 -0.018944748 -3.6892684 -0.02094168 -3.6928158 -43.929176 -129.92107
18991000 -43.022339 -38.995716 -0.020792119 -3.9029632 -0.021088645 -3.8941939 -43.282921 -128.49332
19990000 -42.812355 -44.433891 -0.022208085 -4.1098876 -0.024135195 -4.1056561 -42.675396 -129.38329
20989000 -42.675934 -47.656887 -0.02455274 -4.3173575 -0.025236152 -4.307898 -42.128788 -128.5811
21988000 -42.556332 -53.120907 -0.025078373 -4.5129952 -0.026756709 -4.4992785 -41.893742 -127.98386
22987000 -42.253071 -58.0019 -0.027001809 -4.7133417 -0.028158206 -4.7033215 -41.600685 -127.41159
23986000 -42.164467 -62.215321 -0.026384789 -4.9091258 -0.026490007 -4.9082246 -41.454735 -127.29757
24985000 -41.793755 -64.872307 -0.027541284 -5.1187062 -0.026938515 -5.117506 -41.270683 -124.73931
25984000 -41.485218 -67.308029 -0.02872232 -5.323699 -0.028288482 -5.3231001 -40.961376 -122.75847
26983000 -41.156448 -69.290321 -0.029775962 -5.5222683 -0.02865874 -5.540988 -40.861038 -122.22296
27982000 -40.97221 -69.918076 -0.030051468 -5.7240109 -0.03037261 -5.7600479 -40.587273 -120.8847
28981000 -40.947803 -71.394798 -0.029273998 -5.9232526 -0.029765798 -5.9481006 -40.350094 -119.90672
29980000 -40.546165 -73.188179 -0.027961241 -6.1159425 -0.031112472 -6.1256919 -40.119564 -119.22482
30979000 -40.162834 -72.056175 -0.026332702 -6.4722176 -0.02436661 -6.4670019 -39.575775 -119.59742
31978000 -39.971207 -72.934952 -0.02583478 -6.6653843 -0.026443649 -6.65733 -39.320644 -118.83743
32977000 -39.765118 -74.67662 -0.025903007 -6.8778982 -0.027524352 -6.8789287 -39.091103 -118.79494
33976000 -39.601521 -75.708466 -0.026889546 -7.0817094 -0.027730936 -7.0764875 -38.789383 -118.21606
34975000 -39.30402 -76.5037 -0.02662049 -7.2822719 -0.028385147 -7.2811399 -38.552406 -117.85561
35974000 -39.123241 -77.094841 -0.026488185 -7.4779549 -0.028533928 -7.4794822 -38.283493 -116.85568
36973000 -38.875015 -77.751869 -0.026437137 -7.681282 -0.029174967 -7.6852641 -38.02636 -115.82027
37972000 -38.700951 -77.565094 -0.025843114 -7.8885322 -0.028552167 -7.9006634 -37.790962 -115.04155
38971000 -38.36528 -77.10437 -0.026915072 -8.0897598 -0.029488225 -8.0985336 -37.623264 -113.50685
39970000 -38.038471 -77.419724 -0.025875404 -8.2897263 -0.028085256 -8.3028698 -37.367207 -112.82144
40969000 -37.730106 -77.100243 -0.026942421 -8.480197 -0.028095156 -8.50103 -37.104725 -111.37823
41968000 -37.377102 -77.066185 -0.026584288 -8.6848669 -0.02891437 -8.7067337 -36.925388 -110.03954
42967000 -37.114281 -77.144295 -0.026367862 -8.9018984 -0.029150991 -8.9223595 -36.714611 -108.03335
43966000 -36.809681 -77.971237 -0.026153788 -9.1029472 -0.03025635 -9.1177092 -36.447155 -107.44637
44965000 -36.574966 -78.594734 -0.027523048 -9.3053265 -0.030336116 -9.3257504 -36.211292 -107.15342
45964000 -36.356461 -79.693596 -0.028842188 -9.5048332 -0.031778663 -9.5247211 -35.970856 -106.86025
46963000 -36.165951 -81.755829 -0.02873561 -9.7006855 -0.032532852 -9.7230949 -35.805614 -107.04351
47962000 -35.984661 -83.133873 -0.030415101 -9.9030457 -0.034021266 -9.9219055 -35.594906 -107.0623
48961000 -35.78056 -84.600945 -0.032393843 -10.097272 -0.035401884 -10.12246 -35.359467 -107.23681
49960000 -35.548515 -85.910652 -0.033998307 -10.300418 -0.036497869 -10.322458 -35.217854 -107.31042
50959000 -35.316532 -87.248878 -0.034990601 -10.51721 -0.037838537 -10.525326 -35.043518 -107.57243
51958000 -35.109921 -88.323112 -0.036726549 -10.714116 -0.039399039 -10.721697 -34.8596 -107.93029
52957000 -34.906166 -89.37484 -0.038295791 -10.912904 -0.040426012 -10.920036 -34.702206 -107.67897
53956000 -34.725391 -90.07254 -0.039051633 -11.118571 -0.041092589 -11.1204 -34.564838 -107.69058
54955000 -34.565395 -90.53241 -0.039740987 -11.316937 -0.042229224 -11.314113 -34.426895 -107.53134
55954000 -34.387474 -91.328621 -0.041170202 -11.517734 -0.042638578 -11.516602 -34.304417 -107.25136
56953000 -34.281612 -91.369812 -0.040742956 -11.7158 -0.041865647 -11.70683 -34.239742 -107.43658
57952000 -34.119656 -91.956322 -0.04269452 -11.915327 -0.042678051 -11.905631 -34.136032 -107.52573
58951000 -33.992252 -92.310738 -0.043515969 -12.120029 -0.043459494 -12.102445 -33.980511 -107.61208
59950000 -33.862064 -92.66394 -0.043627355 -12.323073 -0.04443983 -12.301603 -33.917545 -107.86653
60949000 -33.752693 -93.202347 -0.044247616 -12.523175 -0.044299133 -12.504942 -33.828644 -108.12605
61948000 -33.693584 -93.43383 -0.044343065 -12.724431 -0.044945382 -12.707759 -33.731438 -108.14812
62947000 -33.606018 -93.716171 -0.045099698 -12.935692 -0.046502158 -12.91712 -33.601967 -108.47896
63946000 -33.522751 -94.558159 -0.046034884 -13.134266 -0.046800185 -13.117327 -33.503246 -108.61152
64945000 -33.417305 -94.664009 -0.046757534 -13.337117 -0.047066044 -13.320584 -33.382793 -109.06284
65944000 -33.320812 -94.89209 -0.047351021 -13.537009 -0.047581844 -13.522496 -33.2855 -109.50723
66943000 -33.175682 -95.334801 -0.045433987 -13.740112 -0.045749467 -13.723394 -33.168255 -109.76461
67942000 -33.121113 -95.27066 -0.047484491 -13.935634 -0.047573209 -13.927831 -33.059742 -110.0688
68941000 -32.999481 -95.405487 -0.047213111 -14.132093 -0.046674065 -14.123144 -32.945816 -110.0452
69940000 -32.902145 -95.387497 -0.047630262 -14.328231 -0.048017092 -14.325483 -32.812054 -110.30058
70939000 -32.800205 -95.363953 -0.047629476 -14.526305 -0.047262568 -14.523578 -32.670372 -110.30244
71938000 -32.649067 -94.902687 -0.047668472 -14.720769 -0.048090644 -14.718719 -32.535126 -110.12757
72937000 -32.477566 -94.671852 -0.047211278 -14.920101 -0.047111053 -14.920747 -32.394043 -109.79285
73936000 -32.351109 -94.281952 -0.046719331 -15.123943 -0.046875544 -15.1161 -32.275536 -109.58054
74935000 -32.219151 -94.556442 -0.046832632 -15.321438 -0.045739263 -15.318055 -32.130009 -109.20249
75934000 -32.083668 -94.795135 -0.046764337 -15.529183 -0.046431255 -15.521332 -32.032555 -109.0841
76933000 -31.954184 -95.054878 -0.048034631 -15.725546 -0.047582369 -15.718419 -31.852516 -109.47768
77932000 -31.851925 -95.88707 -0.049330954 -15.918526 -0.04951423 -15.917121 -31.755083 -109.43121
78931000 -31.774813 -96.712532 -0.047390539 -16.12228 -0.048311297 -16.11688 -31.649965 -109.35783
79930000 -31.657349 -97.541901 -0.050262336 -16.316563 -0.051049858 -16.313612 -31.549488 -109.60275
80929000 -31.549194 -98.298027 -0.052588653 -16.512667 -0.052320357 -16.510588 -31.44495 -109.81199
81928000 -31.444927 -99.049683 -0.052656513 -16.702057 -0.053505011 -16.70332 -31.320061 -109.83703
82927000 -31.354403 -99.772606 -0.054216847 -16.90218 -0.054691818 -16.901056 -31.205963 -110.14046
83926000 -31.226427 -100.5491 -0.056027364 -17.102421 -0.055493254 -17.101101 -31.084579 -110.24898
84925000 -31.123129 -100.98431 -0.056737255 -17.301056 -0.055659749 -17.297205 -30.981882 -110.35289
85924000 -31.032856 -101.36379 -0.057605695 -17.503666 -0.057103653 -17.49962 -30.904602 -110.30605
86923000 -30.91958 -101.83452 -0.058480084 -17.6987 -0.057058014 -17.695992 -30.788986 -110.13374
87922000 -30.811613 -102.19045 -0.058166828 -17.905487 -0.057234537 -17.90049 -30.696642 -110.16309
88921000 -30.74003 -102.43021 -0.05969476 -18.105177 -0.058419216 -18.103094 -30.607641 -110.20509
89920000 -30.639095 -102.98324 -0.059766933 -18.305815 -0.058241859 -18.298729 -30.558449 -110.33143
90919000 -30.533998 -103.32638 -0.060297631 -18.502016 -0.059721269 -18.497755 -30.467512 -110.42288
91918000 -30.434427 -103.60921 -0.060650155 -18.703138 -0.060490035 -18.698933 -30.40155 -110.47826
92917000 -30.34334 -103.95074 -0.062326804 -18.896025 -0.061890122 -18.898499 -30.336615 -110.50439
93916000 -30.250441 -104.28905 -0.061753582 -19.097309 -0.061333235 -19.092703 -30.249489 -111.10495
94915000 -30.172113 -104.94057 -0.063332945 -19.297361 -0.062604912 -19.293444 -30.179819 -111.04177
95914000 -30.100386 -105.14238 -0.064491965 -19.492891 -0.0639048 -19.48851 -30.089218 -111.27436
96913000 -30.019548 -105.37632 -0.066007674 -19.695845 -0.064546354 -19.690081 -30.025179 -111.6441
97912000 -29.937456 -105.80123 -0.066664256 -19.889477 -0.065035596 -19.890722 -29.949583 -111.86582
98911000 -29.830931 -106.02299 -0.067384303 -20.093929 -0.066053405 -20.09296 -29.903913 -112.10007
99910000 -29.763254 -106.09975 -0.067767374 -20.292919 -0.066121474 -20.292944 -29.799696 -112.41306
100909000 -29.669464 -106.4 -0.066983387 -20.502481 -0.065867327 -20.493271 -29.716879 -112.61992
101908000 -29.578173 -106.58973 -0.067923561 -20.70052 -0.067154787 -20.695595 -29.601013 -112.38749
102907000 -29.443789 -106.62176 -0.068316408 -20.898825 -0.067451343 -20.90065 -29.533295 -112.37292
103906000 -29.346357 -106.65421 -0.069769524 -21.108267 -0.066345155 -21.106024 -29.380192 -112.3078
104905000 -29.202551 -106.53197 -0.070243046 -21.310186 -0.067444503 -21.305944 -29.250011 -112.04701
105904000 -29.060188 -106.65668 -0.07054586 -21.507069 -0.068015851 -21.50456 -29.138781 -111.87982
106903000 -28.95373 -106.73147 -0.070013911 -21.718088 -0.068415545 -21.70784 -29.009003 -111.78088
107902000 -28.776257 -107.08009 -0.070874751 -21.913446 -0.069015421 -21.908934 -28.868353 -111.72437
108901000 -28.668877 -107.30452 -0.07191024 -22.118729 -0.070051 -22.109154 -28.739622 -111.69741
109900000 -28.547014 -107.75966 -0.072933353 -22.317799 -0.071147613 -22.310184 -28.582943 -111.80785
110899000 -28.422939 -108.35825 -0.074065447 -22.514463 -0.071925245 -22.510908 -28.45933 -112.05948
111898000 -28.335119 -109.0719 -0.075527601 -22.717686 -0.073709726 -22.71269 -28.328077 -112.21826
112897000 -28.209211 -109.62569 -0.077440575 -22.919922 -0.074782237 -22.907139 -28.201426 -112.31901
113896000 -28.101913 -110.15926 -0.077953674 -23.118605 -0.075212851 -23.108471 -28.095755 -112.48152
114895000 -28.001331 -110.80341 -0.0786893 -23.316175 -0.077159412 -23.306244 -27.976295 -112.529
115894000 -27.873472 -111.16961 -0.080516115 -23.518688 -0.078453124 -23.506109 -27.908859 -112.749
116893000 -27.800167 -111.6067 -0.081309147 -23.71734 -0.079504669 -23.701468 -27.787153 -112.76362
117892000 -27.714113 -112.18925 -0.081749633 -23.915173 -0.079936005 -23.901945 -27.708174 -112.9802
118891000 -27.66123 -112.52985 -0.082054839 -24.112608 -0.080424085 -24.10017 -27.614605 -113.09702
119890000 -27.571926 -112.90668 -0.081887327 -24.315357 -0.081046723 -24.301006 -27.603012 -113.20976
120889000 -27.51778 -113.43367 -0.083726577 -24.518152 -0.081132174 -24.504665 -27.528843 -113.15186
121888000 -27.479818 -113.77583 -0.083561376 -24.713591 -0.081331037 -24.704008 -27.470015 -113.44021
122887000 -27.436783 -113.95475 -0.085108042 -24.914431 -0.082162991 -24.905853 -27.42281 -113.4409
123886000 -27.386778 -114.39135 -0.085201487 -25.118809 -0.082568482 -25.102804 -27.409168 -113.59049
124885000 -27.353811 -114.88879 -0.085866794 -25.317696 -0.083065294 -25.304182 -27.378744 -113.64906
125884000 -27.299829 -115.08889 -0.086922504 -25.513872 -0.083554253 -25.504681 -27.352564 -113.77167
126883000 -27.279713 -115.47148 -0.086994343 -25.722044 -0.084376872 -25.707994 -27.310902 -113.77861
127882000 -27.223993 -115.78591 -0.087129034 -25.918795 -0.084911644 -25.901102 -27.269663 -113.91235
128881000 -27.200752 -116.07733 -0.08787176 -26.122757 -0.084828228 -26.10569 -27.227552 -114.02891
129880000 -27.143555 -116.43233 -0.08893615 -26.325075 -0.085628912 -26.30497 -27.188648 -113.99036
130879000 -27.079157 -116.5452 -0.088250302 -26.526272 -0.085827716 -26.50782 -27.115183 -113.99656
131878000 -27.014408 -116.80468 -0.088911846 -26.728342 -0.086205289 -26.709654 -27.049923 -113.87656
132877000 -26.94339 -116.88626 -0.088127464 -26.932295 -0.086468555 -26.915043 -26.974436 -113.85441
133876000 -26.860561 -117.08099 -0.08912798 -27.13236 -0.08701124 -27.112965 -26.88003 -113.75954
134875000 -26.765675 -117.16822 -0.089272775 -27.331036 -0.088294685 -27.314863 -26.780796 -113.5861
135874000 -26.683168 -117.20745 -0.08935073 -27.531263 -0.087338738 -27.517591 -26.681581 -113.5116
136873000 -26.569592 -117.14746 -0.089782521 -27.734152 -0.087260559 -27.71785 -26.599794 -113.53828
137872000 -26.488049 -117.24879 -0.090428434 -27.941662 -0.087599695 -27.920549 -26.487762 -113.44769
138871000 -26.40863 -117.48539 -0.090419181 -28.137339 -0.087419823 -28.121311 -26.389397 -113.61426
139870000 -26.312559 -117.78976 -0.091104582 -28.335432 -0.088858478 -28.315285 -26.310295 -113.75803
140869000 -26.232006 -118.34041 -0.091529407 -28.536636 -0.089473337 -28.515276 -26.207525 -113.98863
141868000 -26.146517 -118.72171 -0.092271566 -28.73188 -0.091160625 -28.720228 -26.158398 -114.23767
142867000 -26.066484 -118.94477 -0.091587834 -28.929253 -0.089877918 -28.916214 -26.077135 -114.38408
143866000 -25.992733 -119.42036 -0.093704686 -29.126484 -0.091512226 -29.111553 -25.996832 -114.85084
144865000 -25.935528 -119.94525 -0.095527515 -29.325895 -0.093450241 -29.311819 -25.942432 -115.11168
145864000 -25.879356 -120.28556 -0.096078746 -29.526939 -0.094032682 -29.517035 -25.910889 -115.3823
146863000 -25.834578 -120.66724 -0.096746773 -29.731852 -0.095170557 -29.713755 -25.863232 -115.66952
147862000 -25.793972 -120.97099 -0.098065667 -29.924715 -0.095706664 -29.913071 -25.83251 -115.97551
148861000 -25.765022 -121.40425 -0.098316938 -30.127148 -0.096796267 -30.10857 -25.805529 -116.12311
149860000 -25.733349 -121.5498 -0.100067 -30.320204 -0.097351901 -30.310816 -25.752718 -116.21403
150859000 -25.713192 -122.06504 -0.098987162 -30.513638 -0.097135618 -30.503969 -25.734245 -116.5613
151858000 -25.701866 -122.39959 -0.099245116 -30.716198 -0.096866943 -30.700443 -25.732054 -116.86478
152857000 -25.688639 -122.71953 -0.099049665 -30.913635 -0.096719772 -30.904253 -25.712137 -117.0833
153856000 -25.686459 -122.91908 -0.097956575 -31.11713 -0.096288353 -31.101877 -25.729559 -117.36762
154855000 -25.677711 -123.07757 -0.099145003 -31.314697 -0.097224832 -31.303236 -25.721907 -117.61584
155854000 -25.702953 -123.35084 -0.099716298 -31.51757 -0.097481087 -31.505405 -25.710884 -117.89424
156853000 -25.687567 -124.05535 -0.097459115 -31.703512 -0.096812949 -31.695559 -25.712107 -118.1984
157852000 -25.691154 -124.23615 -0.098953798 -31.904804 -0.097773366 -31.89599 -25.701931 -118.5561
158851000 -25.691967 -124.47118 -0.099731922 -32.101929 -0.098323032 -32.09478 -25.687876 -118.81422
159850000 -25.68219 -124.56666 -0.1003025 -32.304241 -0.098597884 -32.296387 -25.691374 -118.98064
160849000 -25.664776 -124.6881 -0.10053695 -32.502747 -0.099907801 -32.498066 -25.663357 -119.30382
161848000 -25.646612 -124.74897 -0.10090653 -32.705566 -0.099444285 -32.695229 -25.62019 -119.38242
162847000 -25.607443 -124.92598 -0.10108829 -32.900867 -0.10030144 -32.897278 -25.594738 -119.63884
163846000 -25.569429 -125.16181 -0.10111558 -33.104858 -0.10016316 -33.095039 -25.522964 -119.62225
164845000 -25.507618 -125.10539 -0.10137922 -33.301754 -0.10068928 -33.298531 -25.452564 -119.76558
165844000 -25.456154 -125.17059 -0.10145553 -33.503784 -0.10111743 -33.498142 -25.377237 -119.89591
166843000 -25.391048 -125.22444 -0.10204594 -33.703495 -0.10122713 -33.696377 -25.306688 -120.05608
167842000 -25.336462 -125.32387 -0.10249013 -33.902042 -0.10171495 -33.893711 -25.228258 -119.97796
168841000 -25.261108 -125.50845 -0.1024085 -34.104496 -0.10124885 -34.100468 -25.154757 -120.09093
169840000 -25.193279 -125.76273 -0.10270323 -34.300694 -0.10193941 -34.292343 -25.066866 -120.27644
170839000 -25.136028 -125.98958 -0.10404196 -34.498405 -0.10285775 -34.492531 -24.987465 -120.44334
171838000 -25.073011 -126.38856 -0.10354194 -34.696667 -0.10375721 -34.69043 -24.923513 -120.687
172837000 -25.00477 -126.68948 -0.10557153 -34.894531 -0.10434581 -34.888905 -24.855988 -120.91982
173836000 -24.941736 -127.15035 -0.10613173 -35.097336 -0.10533336 -35.092262 -24.812019 -121.10742
174835000 -24.884329 -127.53934 -0.10674665 -35.28957 -0.10622935 -35.289875 -24.764122 -121.40768
175834000 -24.827587 -127.9239 -0.10748664 -35.492504 -0.10734469 -35.486977 -24.707718 -121.71541
176833000 -24.779285 -128.27248 -0.10850038 -35.691463 -0.10791069 -35.687416 -24.652807 -121.85162
177832000 -24.735798 -128.68307 -0.11000312 -35.888195 -0.1089508 -35.88673 -24.635218 -121.96161
178831000 -24.695959 -128.93933 -0.1109723 -36.085632 -0.11035837 -36.086563 -24.595449 -122.06172
179830000 -24.631508 -129.27182 -0.11259836 -36.273602 -0.11153108 -36.275532 -24.54195 -122.05978
180829000 -24.570572 -129.65292 -0.11168433 -36.464615 -0.1110363 -36.464302 -24.486708 -122.38252
181828000 -24.549225 -130.10739 -0.11113031 -36.663422 -0.11093858 -36.659821 -24.468826 -122.56381
182827000 -24.520918 -130.45744 -0.11086422 -36.859962 -0.11040033 -36.861092 -24.452055 -122.71623
183826000 -24.480352 -130.80801 -0.11255692 -37.063744 -0.11088972 -37.058475 -24.445307 -122.87724
184825000 -24.485962 -131.12894 -0.11171407 -37.253983 -0.11119804 -37.256092 -24.42654 -122.99651
185824000 -24.452688 -131.50426 -0.11179269 -37.45591 -0.11193267 -37.454014 -24.419308 -123.04294
186823000 -24.434904 -131.86815 -0.11229499 -37.652637 -0.11170691 -37.649094 -24.415276 -123.08945
187822000 -24.413153 -132.18712 -0.11354235 -37.849346 -0.1120607 -37.848465 -24.378279 -123.13401
188821000 -24.38928 -132.45406 -0.11307817 -38.04295 -0.11266637 -38.050617 -24.356241 -123.28441
189820000 -24.369432 -132.75327 -0.11269852 -38.245823 -0.11256117 -38.247158 -24.336031 -123.49898
190819000 -24.334242 -133.04208 -0.1140491 -38.442276 -0.11276308 -38.440994 -24.299025 -123.53326
191818000 -24.301399 -133.34964 -0.11394493 -38.640732 -0.11288847 -38.642246 -24.269175 -123.55269
192817000 -24.256695 -133.61182 -0.11445305 -38.837917 -0.11344483 -38.83902 -24.221313 -123.67934
193816000 -24.227682 -133.8759 -0.11436561 -39.036377 -0.11351206 -39.03447 -24.169025 -123.82909
194815000 -24.16341 -134.29181 -0.11494795 -39.228504 -0.11463591 -39.234337 -24.103338 -123.87984
195814000 -24.102652 -134.47134 -0.1158228 -39.423244 -0.11447033 -39.429024 -24.049049 -123.98833
196813000 -24.048676 -134.80751 -0.11527517 -39.620216 -0.11432815 -39.623638 -23.968197 -124.15591
197812000 -23.990591 -135.02487 -0.11549182 -39.819881 -0.11498251 -39.816872 -23.897089 -124.22136
198811000 -23.936773 -135.19699 -0.11613413 -40.017063 -0.11478422 -40.021133 -23.824396 -124.42143
199810000 -23.865927 -135.55769 -0.11632423 -40.208778 -0.11482196 -40.211071 -23.744219 -124.51434
200809000 -23.806416 -135.79599 -0.11609744 -40.406727 -0.11528128 -40.408806 -23.668528 -124.70957
201808000 -23.749247 -136.0204 -0.11712489 -40.609402 -0.11645903 -40.613991 -23.5968 -124.78528
202807000 -23.692192 -136.34221 -0.11801693 -40.810799 -0.11717302 -40.812759 -23.544785 -124.95664
203806000 -23.642166 -136.75984 -0.11999209 -41.010601 -0.11768738 -41.010952 -23.477694 -125.15539
