!Keysight Technologies,E5080B,MY59205177,A.15.75.32
!Date: Friday, February 23, 2024 02:49:22
!Correction: S11(Cdelta 2-Port  ) 
!S21(Cdelta 2-Port  ) 
!S12(Cdelta 2-Port  ) 
!S22(Cdelta 2-Port  ) 
!S2P File: Measurements: S11, S21, S12, S22:
# Hz S  dB   R 50
10000000 -41.80962 -3.2778881 -0.045372516 -2.0508871 -0.048443485 -2.1069858 -52.54097 -128.68259
10999000 -41.286583 -4.660068 -0.046793118 -2.2667809 -0.047947735 -2.3235173 -51.554932 -118.08981
11998000 -40.658897 -6.5352092 -0.04701554 -2.4904122 -0.04774097 -2.5358422 -51.279194 -110.26699
12997000 -40.178123 -10.447442 -0.045966078 -2.6738608 -0.047336105 -2.7029212 -49.80402 -104.24197
13996000 -39.967079 -13.060251 -0.045169536 -2.8517137 -0.047462508 -2.8727984 -48.978638 -99.839516
14995000 -39.740768 -16.426947 -0.046936251 -3.059845 -0.047326162 -3.0868111 -48.174805 -96.74044
15994000 -39.671677 -19.487879 -0.048649237 -3.2762344 -0.049858809 -3.3007603 -47.72105 -93.567924
16993000 -39.678276 -22.656652 -0.048036985 -3.4770513 -0.048896622 -3.4854982 -46.835011 -97.289932
17992000 -39.797974 -26.527758 -0.047690459 -3.6743271 -0.050268881 -3.6777346 -46.215408 -99.800217
18991000 -40.090858 -29.791513 -0.049032491 -3.8849874 -0.050651494 -3.8836329 -45.432495 -101.15117
19990000 -40.021725 -34.126938 -0.052106049 -4.093379 -0.053506058 -4.0935316 -44.797798 -104.70738
20989000 -40.008072 -36.526047 -0.053917002 -4.2993135 -0.055097893 -4.2901626 -44.092331 -105.36777
21988000 -40.029984 -40.534851 -0.053880833 -4.4958429 -0.054870337 -4.4858937 -43.793221 -105.50101
22987000 -39.92767 -44.500904 -0.055690687 -4.6987629 -0.056865241 -4.6876869 -43.490154 -105.38645
23986000 -40.005436 -47.534969 -0.055452615 -4.8861971 -0.055493515 -4.8882384 -43.349899 -105.84258
24985000 -39.802776 -50.134079 -0.056494407 -5.0946379 -0.055681508 -5.0960455 -42.992847 -103.69299
25984000 -39.627232 -52.290512 -0.056785513 -5.3057094 -0.056409437 -5.3054357 -42.549236 -102.95927
26983000 -39.442875 -54.299812 -0.058082875 -5.5039554 -0.05702287 -5.522779 -42.395229 -102.08172
27982000 -39.306686 -55.227329 -0.059184078 -5.7083349 -0.059096958 -5.7355094 -42.059563 -100.57056
28981000 -39.322128 -56.647293 -0.057670753 -5.902976 -0.058837708 -5.9248786 -41.714363 -100.59214
29980000 -39.020638 -58.249062 -0.057524905 -6.0956178 -0.059352025 -6.1077843 -41.360161 -100.19347
30979000 -38.679878 -58.104671 -0.054719344 -6.4522829 -0.054129824 -6.4380617 -40.823719 -101.90092
31978000 -38.553684 -59.340973 -0.054541353 -6.644124 -0.054656692 -6.6370678 -40.526024 -101.58991
32977000 -38.389221 -60.879436 -0.054448035 -6.8595047 -0.05529714 -6.8509259 -40.298496 -102.11402
33976000 -38.292896 -62.201195 -0.055472542 -7.0572109 -0.056381904 -7.0518923 -39.925701 -101.97652
34975000 -38.046799 -63.228447 -0.055263322 -7.25629 -0.056984838 -7.2575002 -39.671528 -102.18433
35974000 -37.885742 -64.09124 -0.054052766 -7.4543061 -0.056599043 -7.4560695 -39.33279 -101.53498
36973000 -37.683643 -65.032196 -0.055575319 -7.6526132 -0.057632715 -7.6566901 -38.996964 -100.92311
37972000 -37.514053 -65.139526 -0.054643847 -7.8608203 -0.057191782 -7.8709488 -38.716194 -100.63594
38971000 -37.207859 -65.125885 -0.055191487 -8.0643597 -0.057574481 -8.0729284 -38.490555 -99.154037
39970000 -36.924595 -65.861557 -0.053855933 -8.2620373 -0.056517482 -8.273859 -38.160194 -98.879837
40969000 -36.643818 -66.069527 -0.053871922 -8.4551764 -0.056089249 -8.4708776 -37.841961 -97.917999
41968000 -36.336281 -66.482872 -0.05512175 -8.6590319 -0.057189684 -8.6740437 -37.614483 -96.65712
42967000 -36.096363 -66.897415 -0.054303344 -8.8733225 -0.056731485 -8.890914 -37.354931 -95.078735
43966000 -35.834988 -67.984734 -0.054618683 -9.0706787 -0.057732921 -9.0879354 -37.035313 -94.700592
44965000 -35.63752 -68.951286 -0.055817332 -9.2752104 -0.058396388 -9.2960453 -36.806404 -94.784241
45964000 -35.445694 -70.297279 -0.05765029 -9.4732704 -0.059258603 -9.4899921 -36.554333 -94.830925
46963000 -35.319569 -72.244553 -0.057352569 -9.6682596 -0.059828084 -9.6893167 -36.404148 -95.361282
47962000 -35.197575 -73.795959 -0.059458829 -9.8674841 -0.061689779 -9.8870134 -36.172985 -95.618858
48961000 -35.017696 -75.340034 -0.060750168 -10.06474 -0.062981255 -10.089289 -35.952209 -96.124802
49960000 -34.842506 -76.764099 -0.062472552 -10.266651 -0.064245269 -10.29101 -35.816261 -96.386848
50959000 -34.654385 -78.270149 -0.063331895 -10.48068 -0.065613188 -10.48871 -35.644249 -96.984543
51958000 -34.501339 -79.549706 -0.064829327 -10.679568 -0.066816986 -10.689865 -35.4785 -97.712807
52957000 -34.314548 -80.731819 -0.066072851 -10.88043 -0.067803919 -10.886876 -35.320484 -97.704887
53956000 -34.180428 -81.495857 -0.067532055 -11.078525 -0.069220304 -11.083709 -35.169605 -97.868858
54955000 -34.028507 -82.12104 -0.068758212 -11.279977 -0.069792673 -11.276926 -35.023773 -98.009323
55954000 -33.889416 -83.123161 -0.070310131 -11.48149 -0.070113346 -11.481086 -34.908062 -97.763306
56953000 -33.771683 -83.278702 -0.069114573 -11.677997 -0.069362074 -11.669209 -34.829308 -98.084724
57952000 -33.633011 -83.932739 -0.071354702 -11.879288 -0.070464298 -11.86812 -34.720432 -98.298035
58951000 -33.511181 -84.366806 -0.071530752 -12.0814 -0.071457334 -12.060957 -34.571564 -98.485565
59950000 -33.39772 -84.933014 -0.072862014 -12.282913 -0.071758129 -12.25952 -34.497486 -98.769783
60949000 -33.301193 -85.484169 -0.072719865 -12.483043 -0.072714597 -12.464068 -34.415524 -99.234375
61948000 -33.23592 -85.911789 -0.073191598 -12.685812 -0.072549559 -12.667085 -34.324543 -99.341766
62947000 -33.165504 -86.186829 -0.073150001 -12.895833 -0.073411956 -12.873219 -34.19492 -99.739861
63946000 -33.099289 -86.877769 -0.074773021 -13.091941 -0.074255824 -13.07605 -34.08157 -99.883141
64945000 -33.000137 -87.125389 -0.074823849 -13.294753 -0.074913129 -13.27547 -33.979004 -100.49715
65944000 -32.904575 -87.484047 -0.075960129 -13.495155 -0.075635597 -13.476811 -33.890572 -101.06932
66943000 -32.773621 -87.955383 -0.073798984 -13.695642 -0.073705509 -13.679356 -33.78933 -101.41653
67942000 -32.70145 -87.967461 -0.076174565 -13.892617 -0.076026246 -13.882895 -33.682083 -101.80096
68941000 -32.59296 -88.158943 -0.075390637 -14.087837 -0.074924454 -14.076054 -33.561905 -101.87759
69940000 -32.50462 -88.19191 -0.075382732 -14.283182 -0.075597137 -14.275604 -33.417042 -102.27077
70939000 -32.391048 -88.226669 -0.075414605 -14.48252 -0.075219169 -14.477913 -33.277489 -102.19705
71938000 -32.237152 -87.867294 -0.075737797 -14.679142 -0.075955912 -14.674245 -33.144436 -102.11617
72937000 -32.079567 -87.860771 -0.075490199 -14.873849 -0.074696124 -14.869442 -32.992611 -101.86804
73936000 -31.927752 -87.606049 -0.075104862 -15.071846 -0.074780136 -15.06833 -32.871578 -101.77154
74935000 -31.809586 -87.932175 -0.074853346 -15.270812 -0.073599406 -15.267911 -32.705299 -101.49151
75934000 -31.701067 -88.303619 -0.074640818 -15.480851 -0.073984347 -15.473935 -32.607937 -101.44312
76933000 -31.565876 -88.73819 -0.075976461 -15.672431 -0.076135576 -15.667221 -32.445675 -101.96388
77932000 -31.474792 -89.601913 -0.077629782 -15.869424 -0.078034848 -15.863101 -32.349052 -101.95435
78931000 -31.414709 -90.364311 -0.075811028 -16.07048 -0.076422729 -16.063654 -32.243511 -101.94186
79930000 -31.312296 -91.297981 -0.079130575 -16.264044 -0.079095252 -16.25997 -32.159092 -102.28316
80929000 -31.202061 -92.213112 -0.080617115 -16.453857 -0.080478139 -16.453518 -32.045933 -102.76534
81928000 -31.132088 -93.081665 -0.080663793 -16.649296 -0.081236348 -16.646507 -31.932726 -102.91097
82927000 -31.04052 -93.847763 -0.082907245 -16.847172 -0.082415462 -16.847212 -31.823746 -103.2674
83926000 -30.941895 -94.613693 -0.083774343 -17.046051 -0.083093002 -17.047512 -31.715815 -103.62434
84925000 -30.829914 -95.231117 -0.084830865 -17.246487 -0.083844014 -17.244202 -31.619162 -103.69612
85924000 -30.760376 -95.675346 -0.085385494 -17.447594 -0.084980801 -17.439291 -31.526672 -103.76722
86923000 -30.654974 -96.252869 -0.085830353 -17.641832 -0.085201487 -17.637079 -31.42976 -103.77442
87922000 -30.541029 -96.697128 -0.086223774 -17.851345 -0.084726602 -17.84108 -31.344027 -103.8216
88921000 -30.484055 -97.04422 -0.086713351 -18.047632 -0.086644687 -18.041681 -31.240219 -103.87672
89920000 -30.388292 -97.671547 -0.087750517 -18.248554 -0.086806044 -18.241524 -31.183798 -104.10232
90919000 -30.298569 -97.990311 -0.088445008 -18.442398 -0.086878933 -18.439699 -31.100065 -104.31284
91918000 -30.207697 -98.477829 -0.089579299 -18.643534 -0.087671012 -18.639467 -31.032879 -104.38666
92917000 -30.124954 -98.800636 -0.090110488 -18.840181 -0.088852659 -18.838112 -30.981367 -104.59467
93916000 -30.046532 -99.213104 -0.089346766 -19.035097 -0.088857949 -19.030519 -30.892179 -105.22921
94915000 -29.977388 -99.85791 -0.091137357 -19.23568 -0.09003067 -19.228296 -30.822121 -105.15794
95914000 -29.919445 -100.11065 -0.092537582 -19.4317 -0.091494247 -19.426085 -30.72843 -105.48708
96913000 -29.827215 -100.40038 -0.09349256 -19.634106 -0.09274596 -19.62957 -30.660963 -105.907
97912000 -29.758472 -100.9267 -0.094833218 -19.828426 -0.092315987 -19.828161 -30.589661 -106.17546
98911000 -29.652014 -101.132 -0.095185906 -20.029345 -0.093773723 -20.027096 -30.550097 -106.38539
99910000 -29.588139 -101.32607 -0.095728889 -20.22978 -0.093641996 -20.228109 -30.440187 -106.65499
100909000 -29.494772 -101.62136 -0.094685584 -20.431871 -0.093405537 -20.428577 -30.350105 -106.94779
101908000 -29.409964 -101.90324 -0.096438952 -20.637907 -0.095241472 -20.632936 -30.224787 -106.70441
102907000 -29.275793 -102.00321 -0.096697539 -20.834417 -0.095273755 -20.836493 -30.149736 -106.7239
103906000 -29.182968 -102.12263 -0.096901089 -21.043285 -0.094061255 -21.034826 -29.992746 -106.69423
104905000 -29.036381 -102.0838 -0.097493798 -21.24209 -0.094789557 -21.240202 -29.865858 -106.43334
105904000 -28.893194 -102.211 -0.097822078 -21.440704 -0.095610335 -21.435011 -29.732414 -106.31211
106903000 -28.780371 -102.36865 -0.098017476 -21.647217 -0.095821775 -21.642313 -29.599998 -106.26121
107902000 -28.61698 -102.77041 -0.098296024 -21.848171 -0.095697135 -21.839596 -29.458086 -106.24248
108901000 -28.500864 -103.09847 -0.10012501 -22.046354 -0.097434491 -22.037537 -29.319782 -106.26192
109900000 -28.381418 -103.62492 -0.10039733 -22.244518 -0.098469988 -22.241549 -29.1714 -106.45254
110899000 -28.271107 -104.28314 -0.10201626 -22.447638 -0.09904702 -22.438568 -29.048748 -106.75798
111898000 -28.18083 -105.0138 -0.10338553 -22.64846 -0.10010859 -22.642643 -28.925354 -107.00534
112897000 -28.054245 -105.64727 -0.1047311 -22.84601 -0.10167228 -22.834816 -28.782547 -107.20333
113896000 -27.958906 -106.30195 -0.10603411 -23.047173 -0.10303376 -23.03863 -28.674015 -107.42205
114895000 -27.862797 -106.93491 -0.10702152 -23.247034 -0.10456537 -23.234161 -28.558512 -107.59126
115894000 -27.731934 -107.35336 -0.1082456 -23.446768 -0.10589698 -23.432369 -28.492975 -107.81133
116893000 -27.661854 -107.95902 -0.10950772 -23.639599 -0.10628346 -23.62491 -28.35561 -108.00971
117892000 -27.579412 -108.46332 -0.10908008 -23.840712 -0.10715895 -23.824915 -28.28083 -108.26801
118891000 -27.522413 -108.90622 -0.11007215 -24.040932 -0.1077313 -24.025434 -28.187899 -108.42643
119890000 -27.434937 -109.35671 -0.11065019 -24.23884 -0.10808849 -24.224463 -28.179821 -108.59646
120889000 -27.38205 -109.86 -0.11193851 -24.439552 -0.10886268 -24.424698 -28.096512 -108.56773
121888000 -27.349091 -110.20333 -0.11151063 -24.637911 -0.10888073 -24.619539 -28.039984 -108.89445
122887000 -27.303713 -110.39819 -0.11233218 -24.840349 -0.11033873 -24.829365 -27.987806 -108.96045
123886000 -27.245003 -110.86929 -0.11338212 -25.041727 -0.11041732 -25.021523 -27.979403 -109.13147
124885000 -27.21936 -111.36189 -0.11389816 -25.239576 -0.1110602 -25.230494 -27.945004 -109.23205
125884000 -27.162649 -111.59171 -0.11502929 -25.441982 -0.11119007 -25.425549 -27.914921 -109.40714
126883000 -27.143682 -111.99868 -0.11492031 -25.640383 -0.11111863 -25.62739 -27.877855 -109.46478
127882000 -27.091166 -112.24722 -0.11484031 -25.840485 -0.11261616 -25.822647 -27.829906 -109.66485
128881000 -27.061569 -112.62953 -0.11537166 -26.041603 -0.11216058 -26.023199 -27.79129 -109.79419
129880000 -27.0023 -112.98492 -0.1163782 -26.245934 -0.11297695 -26.224091 -27.745735 -109.74799
130879000 -26.941416 -113.14415 -0.116379 -26.443651 -0.11393776 -26.425385 -27.664076 -109.80377
131878000 -26.867546 -113.38223 -0.11620857 -26.646437 -0.1138389 -26.629635 -27.598457 -109.7534
132877000 -26.801477 -113.48888 -0.1159318 -26.846626 -0.11431884 -26.829742 -27.506598 -109.79304
133876000 -26.715618 -113.63617 -0.11685072 -27.049046 -0.11410624 -27.030169 -27.413813 -109.70229
134875000 -26.61692 -113.8289 -0.11704139 -27.25094 -0.11396778 -27.228012 -27.302271 -109.60872
135874000 -26.538437 -113.86061 -0.1172802 -27.446735 -0.11425134 -27.42981 -27.197739 -109.58192
136873000 -26.420954 -113.84053 -0.11796161 -27.651751 -0.11439246 -27.633337 -27.108511 -109.59252
137872000 -26.339582 -113.98264 -0.11767621 -27.850016 -0.11475074 -27.837713 -26.99877 -109.59283
138871000 -26.26475 -114.19229 -0.11813157 -28.049809 -0.11504125 -28.034092 -26.894844 -109.77436
139870000 -26.164782 -114.47029 -0.11913557 -28.250896 -0.11573347 -28.23435 -26.816599 -109.98151
140869000 -26.076967 -114.99363 -0.12122224 -28.448275 -0.11779909 -28.427126 -26.705385 -110.12848
141868000 -25.989288 -115.50722 -0.12146553 -28.636244 -0.11838295 -28.621384 -26.637199 -110.51604
142867000 -25.9091 -115.79313 -0.11903978 -28.83762 -0.11739163 -28.82091 -26.561935 -110.72911
143866000 -25.842449 -116.28895 -0.1214107 -29.03248 -0.11842046 -29.018106 -26.491587 -111.24966
144865000 -25.787758 -116.82876 -0.12282098 -29.231934 -0.12030984 -29.214918 -26.429274 -111.58711
145864000 -25.729452 -117.17773 -0.12270328 -29.43597 -0.1212941 -29.42226 -26.397341 -111.87881
146863000 -25.687098 -117.57677 -0.12376746 -29.631968 -0.12090176 -29.621307 -26.353508 -112.231
147862000 -25.640944 -117.92692 -0.12416433 -29.831684 -0.12220963 -29.81337 -26.322418 -112.54955
148861000 -25.619694 -118.48768 -0.12460625 -30.027992 -0.12286279 -30.010237 -26.299149 -112.84373
149860000 -25.609383 -118.6702 -0.12563945 -30.224632 -0.12310006 -30.215824 -26.262665 -112.99159
150859000 -25.586033 -119.0668 -0.12593976 -30.428274 -0.12416086 -30.41445 -26.262831 -113.26897
151858000 -25.569447 -119.37788 -0.12597841 -30.623724 -0.12405299 -30.613754 -26.256586 -113.54673
152857000 -25.55081 -119.73158 -0.12705751 -30.822813 -0.12364201 -30.80831 -26.237902 -113.69417
153856000 -25.54431 -119.91323 -0.12673473 -31.023178 -0.12392247 -31.00885 -26.258249 -113.99889
154855000 -25.53812 -120.11683 -0.12745228 -31.218586 -0.12407084 -31.208719 -26.252857 -114.22646
155854000 -25.550737 -120.35563 -0.12750506 -31.420336 -0.1247256 -31.404951 -26.24122 -114.48949
156853000 -25.541746 -121.07597 -0.12507141 -31.604149 -0.1243721 -31.599293 -26.243904 -114.83141
157852000 -25.546715 -121.27636 -0.12724915 -31.8081 -0.12587768 -31.798134 -26.235626 -115.16451
158851000 -25.53723 -121.52986 -0.12728328 -32.005619 -0.12605035 -31.994789 -26.216507 -115.42016
159850000 -25.528248 -121.64525 -0.12825766 -32.204105 -0.12592031 -32.198479 -26.222536 -115.59015
160849000 -25.506691 -121.77614 -0.12847869 -32.404125 -0.12718758 -32.401176 -26.191559 -115.87883
161848000 -25.487644 -121.89454 -0.1286568 -32.605457 -0.12725502 -32.599033 -26.146257 -115.9765
162847000 -25.443325 -122.08923 -0.12806064 -32.801117 -0.12767246 -32.793831 -26.120577 -116.29507
163846000 -25.402887 -122.36296 -0.12945414 -33.004726 -0.1277999 -32.99696 -26.03952 -116.22958
164845000 -25.339479 -122.36928 -0.12927173 -33.203835 -0.12820727 -33.193787 -25.969957 -116.38856
165844000 -25.282656 -122.45588 -0.12932613 -33.40007 -0.12853068 -33.39225 -25.891888 -116.52622
166843000 -25.221087 -122.55907 -0.13015532 -33.60207 -0.12811182 -33.59409 -25.817568 -116.72661
167842000 -25.156172 -122.70204 -0.13017294 -33.797993 -0.12834992 -33.790554 -25.730238 -116.64938
168841000 -25.076197 -122.92165 -0.13079047 -33.994019 -0.12871067 -33.993382 -25.6492 -116.75628
169840000 -25.013136 -123.22114 -0.13039726 -34.189236 -0.12966056 -34.18853 -25.56241 -117.01356
170839000 -24.949955 -123.48801 -0.13102177 -34.386425 -0.1298926 -34.385933 -25.475159 -117.21972
171838000 -24.889982 -123.95087 -0.13109621 -34.590591 -0.13072404 -34.585232 -25.412731 -117.48909
172837000 -24.826714 -124.33311 -0.13267484 -34.784626 -0.1317966 -34.782536 -25.340015 -117.74242
173836000 -24.761564 -124.75182 -0.13393047 -34.987164 -0.13272022 -34.982704 -25.298296 -117.97686
174835000 -24.708864 -125.23496 -0.13384718 -35.182465 -0.13293667 -35.180115 -25.248959 -118.31702
175834000 -24.654867 -125.61694 -0.13518433 -35.379116 -0.13440409 -35.375 -25.186298 -118.64817
176833000 -24.603676 -125.98563 -0.13606486 -35.578186 -0.13478859 -35.57375 -25.134678 -118.86705
177832000 -24.558838 -126.53479 -0.1363675 -35.774509 -0.13534082 -35.771301 -25.116501 -119.0349
178831000 -24.518608 -126.87578 -0.13647915 -35.969044 -0.13613617 -35.966831 -25.075794 -119.26062
179830000 -24.487951 -127.32915 -0.13803837 -36.167629 -0.13627748 -36.168667 -25.047953 -119.44839
180829000 -24.445406 -127.54577 -0.13862681 -36.36533 -0.1370706 -36.361252 -25.01923 -119.61697
181828000 -24.422918 -127.9213 -0.13773027 -36.559891 -0.1370877 -36.557858 -25.003912 -119.7572
182827000 -24.395498 -128.28429 -0.13816075 -36.755394 -0.13706259 -36.754669 -24.989037 -119.86247
183826000 -24.355209 -128.59312 -0.13970266 -36.953262 -0.13774604 -36.950043 -24.979231 -120.00893
184825000 -24.359941 -128.96667 -0.13959974 -37.147194 -0.13831334 -37.149811 -24.965572 -120.09393
185824000 -24.335701 -129.27681 -0.13904616 -37.341984 -0.13867386 -37.347118 -24.958654 -120.13124
186823000 -24.320389 -129.61855 -0.13938001 -37.543369 -0.13829276 -37.544903 -24.951654 -120.13755
187822000 -24.29756 -129.9738 -0.13974409 -37.736584 -0.13960081 -37.740189 -24.916946 -120.20693
188821000 -24.281897 -130.21327 -0.13950993 -37.933411 -0.13963984 -37.940868 -24.901335 -120.30096
189820000 -24.262457 -130.4742 -0.14012478 -38.138248 -0.13937414 -38.135429 -24.890057 -120.47216
190819000 -24.233812 -130.73195 -0.14118628 -38.337162 -0.14052261 -38.334682 -24.857706 -120.42035
191818000 -24.19869 -130.90239 -0.14230929 -38.533932 -0.14193189 -38.53178 -24.822142 -120.33809
192817000 -24.130352 -131.19974 -0.14333013 -38.716698 -0.14279373 -38.716949 -24.744417 -120.41646
193816000 -24.090063 -131.58662 -0.14244224 -38.907433 -0.14108734 -38.906624 -24.687601 -120.67279
194815000 -24.036915 -132.04863 -0.14184256 -39.105366 -0.14109269 -39.110161 -24.62468 -120.80815
195814000 -23.980724 -132.27003 -0.14258882 -39.303749 -0.14233311 -39.30463 -24.571299 -120.91537
196813000 -23.931561 -132.6185 -0.14217582 -39.498661 -0.14202283 -39.500984 -24.489422 -121.11102
197812000 -23.867981 -132.89722 -0.1422566 -39.699566 -0.14229351 -39.699718 -24.416716 -121.23277
198811000 -23.82123 -133.05617 -0.1424877 -39.891792 -0.1428574 -39.896137 -24.348593 -121.42551
199810000 -23.747515 -133.47189 -0.14351715 -40.087543 -0.14271989 -40.087334 -24.263195 -121.53194
200809000 -23.690704 -133.76382 -0.14375581 -40.286194 -0.14217956 -40.284309 -24.188591 -121.74781
201808000 -23.630381 -133.98792 -0.144329 -40.486206 -0.14363968 -40.487598 -24.118771 -121.84492
202807000 -23.570433 -134.38353 -0.14463247 -40.686802 -0.14410475 -40.688622 -24.058975 -122.0778
203806000 -23.516661 -134.851 -0.14603399 -40.883316 -0.14472561 -40.886864 -23.998741 -122.27663
204805000 -23.467594 -135.22771 -0.14700481 -41.084476 -0.1457869 -41.085861 -23.935726 -122.49414
