!Keysight Technologies,E5080B,MY59205177,A.15.75.32
!Date: Friday, February 23, 2024 03:27:39
!Correction: S11(Cdelta 2-Port  ) 
!S21(Cdelta 2-Port  ) 
!S12(Cdelta 2-Port  ) 
!S22(Cdelta 2-Port  ) 
!S2P File: Measurements: S11, S21, S12, S22:
# Hz S  dB   R 50
10000000 -46.015953 -1.2558684 -0.016330281 -2.0564284 -0.019735454 -2.1103196 -46.155975 -158.4816
10999000 -45.191891 -3.1316671 -0.017400933 -2.2743175 -0.019137146 -2.3275199 -46.137745 -152.86018
11998000 -44.251209 -6.1529665 -0.018407639 -2.4994259 -0.019291069 -2.5452504 -46.336784 -148.59729
12997000 -43.546833 -11.456422 -0.017445637 -2.6762338 -0.019158466 -2.712729 -45.931618 -142.51703
13996000 -43.246258 -15.378171 -0.016119821 -2.8623478 -0.018227492 -2.881346 -45.774307 -137.31404
14995000 -42.862656 -19.568821 -0.018694123 -3.0717571 -0.018577656 -3.0972376 -45.461529 -133.36845
15994000 -42.707836 -24.048807 -0.020567916 -3.2913158 -0.020992141 -3.3113601 -45.379391 -129.88057
16993000 -42.65794 -28.884405 -0.019723751 -3.4896472 -0.020777553 -3.5002298 -44.564163 -129.80077
17992000 -42.788795 -33.893032 -0.019698529 -3.6902199 -0.021135207 -3.6928158 -43.95332 -129.77477
18991000 -43.003147 -39.083706 -0.021043904 -3.9015207 -0.021960914 -3.897779 -43.316463 -128.48232
19990000 -42.810989 -44.74408 -0.023170883 -4.109117 -0.024534777 -4.1082058 -42.659847 -129.40036
20989000 -42.675983 -47.897579 -0.0248779 -4.3124633 -0.026295461 -4.3042002 -42.087204 -128.51042
21988000 -42.538654 -53.296238 -0.025913944 -4.5106435 -0.027347211 -4.4989781 -41.877796 -128.01608
22987000 -42.272034 -58.173782 -0.027156794 -4.7112722 -0.029245852 -4.7053699 -41.616356 -127.29864
23986000 -42.199261 -62.179474 -0.027400874 -4.9064369 -0.026848132 -4.9097033 -41.455036 -127.31544
24985000 -41.803711 -65.014923 -0.027536595 -5.1191525 -0.026838494 -5.1126828 -41.267532 -124.69173
25984000 -41.433456 -67.094612 -0.028789811 -5.3229027 -0.028237674 -5.327085 -40.948608 -122.97931
26983000 -41.14246 -69.129509 -0.029959196 -5.5240169 -0.028910983 -5.5425143 -40.864731 -122.3612
27982000 -40.9795 -70.245003 -0.031179739 -5.7210541 -0.030258697 -5.7574835 -40.552654 -120.64774
28981000 -40.948441 -71.778664 -0.028866943 -5.9214144 -0.031237882 -5.9482903 -40.339848 -120.23705
29980000 -40.562622 -73.014427 -0.029252106 -6.1139493 -0.03103165 -6.1267743 -40.067543 -119.27972
30979000 -40.181416 -71.9245 -0.026711911 -6.4735785 -0.025790513 -6.4680786 -39.557781 -119.53696
31978000 -39.972172 -73.042976 -0.026595227 -6.6664796 -0.026708785 -6.6610537 -39.311974 -118.70502
32977000 -39.781593 -74.732491 -0.02617983 -6.8795524 -0.027753081 -6.876143 -39.067558 -118.79317
33976000 -39.596725 -75.602867 -0.026843183 -7.083919 -0.027597815 -7.0756097 -38.794701 -118.02291
34975000 -39.314598 -76.576401 -0.027184404 -7.2823248 -0.028938865 -7.2793646 -38.555668 -117.73795
35974000 -39.110809 -77.076988 -0.026677269 -7.4785056 -0.028561026 -7.4797153 -38.284363 -116.85104
36973000 -38.887505 -77.944313 -0.026451461 -7.6779222 -0.029370164 -7.6816101 -38.013462 -115.69707
37972000 -38.699924 -77.639977 -0.026469171 -7.8879619 -0.029619841 -7.8983684 -37.780235 -115.00266
38971000 -38.37093 -77.09668 -0.027845826 -8.0919476 -0.030089784 -8.1026783 -37.614769 -113.38583
39970000 -38.029652 -77.584488 -0.025356704 -8.2822275 -0.028558942 -8.3028536 -37.338291 -112.79633
40969000 -37.730423 -77.186989 -0.025637399 -8.479764 -0.02843778 -8.5034838 -37.104588 -111.51614
41968000 -37.361168 -76.987274 -0.027109647 -8.6836042 -0.028889354 -8.7027121 -36.898876 -110.07047
42967000 -37.107941 -77.115067 -0.026349891 -8.9014397 -0.029690472 -8.9164305 -36.702953 -108.09149
43966000 -36.818176 -77.980034 -0.027922943 -9.0972757 -0.030577768 -9.1184855 -36.429398 -107.33677
44965000 -36.573467 -78.70211 -0.028378112 -9.304781 -0.031094482 -9.3158073 -36.206108 -107.19521
45964000 -36.354439 -79.787804 -0.028824467 -9.5025263 -0.031981543 -9.5257797 -35.969967 -106.82558
46963000 -36.149834 -81.753967 -0.029610459 -9.6986494 -0.0323928 -9.7220917 -35.794361 -106.95729
47962000 -35.988308 -83.158195 -0.03092554 -9.9031477 -0.033951607 -9.9207897 -35.580902 -107.10418
48961000 -35.776344 -84.520805 -0.033465333 -10.097234 -0.035284705 -10.122472 -35.343906 -107.22459
49960000 -35.537926 -85.823479 -0.035176143 -10.297807 -0.036424257 -10.322826 -35.244213 -107.33944
50959000 -35.312473 -87.253929 -0.035633378 -10.51253 -0.037662804 -10.522802 -35.042355 -107.54215
51958000 -35.116371 -88.261055 -0.037519716 -10.712111 -0.039227683 -10.723536 -34.854836 -107.95856
52957000 -34.894413 -89.4142 -0.038840592 -10.913719 -0.040077478 -10.920003 -34.695454 -107.69389
53956000 -34.734406 -90.148857 -0.040021308 -11.114421 -0.040720746 -11.117468 -34.564754 -107.69936
54955000 -34.557251 -90.48056 -0.040744003 -11.317096 -0.041471262 -11.313611 -34.410892 -107.60322
55954000 -34.392704 -91.353424 -0.041358363 -11.51972 -0.042434417 -11.518676 -34.306988 -107.24438
56953000 -34.284409 -91.418259 -0.041526929 -11.716156 -0.041718498 -11.704951 -34.238407 -107.45329
57952000 -34.104908 -92.008545 -0.043013982 -11.915415 -0.042477809 -11.908965 -34.137714 -107.50645
58951000 -33.986229 -92.236076 -0.043562509 -12.124611 -0.04325268 -12.102834 -33.97831 -107.63422
59950000 -33.86372 -92.69799 -0.044873714 -12.321136 -0.044377849 -12.301673 -33.907764 -107.83743
60949000 -33.750278 -93.194031 -0.045293 -12.519931 -0.045062818 -12.505341 -33.826397 -108.09925
61948000 -33.682766 -93.448647 -0.045497552 -12.724059 -0.044731174 -12.708093 -33.719139 -108.22655
62947000 -33.59602 -93.681259 -0.045943581 -12.935319 -0.045398414 -12.914803 -33.606705 -108.51128
63946000 -33.534321 -94.465996 -0.04651681 -13.132284 -0.046258051 -13.114351 -33.494438 -108.58113
64945000 -33.409805 -94.685135 -0.047338985 -13.338838 -0.047671877 -13.318104 -33.368282 -109.15428
65944000 -33.311749 -94.929939 -0.048073366 -13.538935 -0.047616392 -13.521347 -33.290222 -109.54346
66943000 -33.176109 -95.411583 -0.046185579 -13.73848 -0.046176422 -13.719196 -33.169464 -109.8063
67942000 -33.114307 -95.327103 -0.047910567 -13.936357 -0.048023112 -13.923366 -33.049759 -110.10688
68941000 -33.00774 -95.41906 -0.047557767 -14.133397 -0.04712623 -14.121892 -32.957024 -110.05414
69940000 -32.892746 -95.364342 -0.048073106 -14.32966 -0.048121005 -14.324619 -32.804905 -110.36841
70939000 -32.794132 -95.350716 -0.048382495 -14.52863 -0.047797762 -14.521841 -32.670143 -110.21815
71938000 -32.643234 -94.894997 -0.048508402 -14.725731 -0.048580915 -14.716481 -32.537357 -110.08116
72937000 -32.486599 -94.674583 -0.047336105 -14.92311 -0.047334537 -14.918464 -32.388252 -109.78963
73936000 -32.346241 -94.338966 -0.047105558 -15.123333 -0.046702322 -15.114102 -32.263378 -109.633
74935000 -32.213364 -94.536583 -0.046689503 -15.322077 -0.046431515 -15.31597 -32.112179 -109.23946
75934000 -32.081635 -94.811386 -0.047207352 -15.531108 -0.04556923 -15.521125 -32.02689 -109.18729
76933000 -31.952797 -95.160095 -0.047961082 -15.723099 -0.047434244 -15.717117 -31.846964 -109.51009
77932000 -31.844744 -95.994713 -0.049385674 -15.921306 -0.049413688 -15.91279 -31.735485 -109.46509
78931000 -31.779839 -96.678574 -0.048571751 -16.120457 -0.047868691 -16.117706 -31.638206 -109.3194
79930000 -31.660896 -97.584091 -0.050616927 -16.31517 -0.050622426 -16.310944 -31.539772 -109.63473
80929000 -31.542902 -98.356697 -0.052925091 -16.510792 -0.052902292 -16.508007 -31.436056 -109.85628
81928000 -31.442286 -99.120232 -0.053025711 -16.702044 -0.053564761 -16.700676 -31.304869 -109.79069
82927000 -31.349186 -99.806541 -0.054648563 -16.90069 -0.054351311 -16.902103 -31.199289 -110.12991
83926000 -31.22646 -100.52658 -0.056367479 -17.099224 -0.055867936 -17.102579 -31.070801 -110.33833
84925000 -31.11603 -100.96134 -0.057206206 -17.301125 -0.056060404 -17.295795 -30.977247 -110.37031
85924000 -31.028358 -101.38678 -0.057616454 -17.500401 -0.057028376 -17.502268 -30.886993 -110.29131
86923000 -30.920527 -101.89513 -0.058056381 -17.701012 -0.057344437 -17.69459 -30.788864 -110.19521
87922000 -30.805223 -102.22496 -0.057684131 -17.904528 -0.05692504 -17.898724 -30.701736 -110.18082
88921000 -30.737949 -102.46376 -0.058939256 -18.103292 -0.05771115 -18.102362 -30.600191 -110.15245
89920000 -30.620205 -102.98472 -0.058989372 -18.302408 -0.058918264 -18.297285 -30.562868 -110.29911
90919000 -30.524496 -103.30236 -0.060995355 -18.502003 -0.05962285 -18.497658 -30.456272 -110.45156
91918000 -30.422758 -103.65623 -0.061403859 -18.702723 -0.060375325 -18.696314 -30.396254 -110.50725
92917000 -30.327076 -103.90768 -0.062828399 -18.898869 -0.060753055 -18.898207 -30.331354 -110.5454
93916000 -30.245546 -104.31342 -0.062505379 -19.095268 -0.060750432 -19.094244 -30.235899 -111.23125
94915000 -30.165773 -104.95326 -0.064361125 -19.295671 -0.061528306 -19.28985 -30.172604 -111.05477
95914000 -30.099325 -105.1486 -0.064373739 -19.493389 -0.06295158 -19.492224 -30.081295 -111.30476
96913000 -30.016811 -105.4184 -0.066223718 -19.691364 -0.064108133 -19.692766 -30.019173 -111.6612
97912000 -29.93849 -105.84432 -0.067435041 -19.889227 -0.064207174 -19.892458 -29.947052 -111.9533
98911000 -29.828924 -106.00498 -0.067851253 -20.089521 -0.065515168 -20.088434 -29.898346 -112.10609
99910000 -29.756903 -106.09224 -0.068849728 -20.288082 -0.065972455 -20.289587 -29.793356 -112.39772
100909000 -29.670609 -106.3782 -0.067328036 -20.501244 -0.065463923 -20.495779 -29.701237 -112.69466
101908000 -29.571928 -106.67157 -0.068594895 -20.698586 -0.066885859 -20.696781 -29.591074 -112.36878
102907000 -29.438374 -106.61029 -0.069769263 -20.900709 -0.0667326 -20.898943 -29.521627 -112.3698
103906000 -29.346416 -106.65285 -0.069900788 -21.108776 -0.066850372 -21.102148 -29.373575 -112.33975
104905000 -29.197893 -106.54813 -0.070532441 -21.305023 -0.067101948 -21.305344 -29.244453 -112.01982
105904000 -29.052198 -106.6336 -0.070684254 -21.51018 -0.067073032 -21.500999 -29.127005 -111.92019
106903000 -28.942636 -106.72443 -0.070434831 -21.7108 -0.067608565 -21.707802 -29.004751 -111.82847
107902000 -28.776131 -107.08933 -0.071819976 -21.915701 -0.068148643 -21.905249 -28.865747 -111.71618
108901000 -28.662205 -107.29816 -0.072531663 -22.113729 -0.06983424 -22.113249 -28.728638 -111.6983
109900000 -28.538752 -107.81967 -0.072997585 -22.317455 -0.070752136 -22.311001 -28.58342 -111.82713
110899000 -28.418402 -108.41734 -0.074900754 -22.513582 -0.071788132 -22.509151 -28.452808 -112.0396
111898000 -28.330914 -109.0891 -0.076288633 -22.717354 -0.072193697 -22.711115 -28.332804 -112.17004
112897000 -28.201338 -109.60667 -0.077962637 -22.916222 -0.073700771 -22.903952 -28.199179 -112.32401
113896000 -28.102228 -110.1467 -0.078968979 -23.118389 -0.075752817 -23.106152 -28.089689 -112.42951
114895000 -28.00378 -110.82304 -0.080051497 -23.315683 -0.076586865 -23.299726 -27.976889 -112.54881
115894000 -27.872852 -111.2243 -0.080468126 -23.520466 -0.077776834 -23.504784 -27.905197 -112.75633
116893000 -27.802996 -111.6704 -0.082485899 -23.715023 -0.079191469 -23.701075 -27.789593 -112.78405
117892000 -27.706682 -112.17498 -0.081577122 -23.910627 -0.079565831 -23.900887 -27.702629 -113.00145
118891000 -27.655848 -112.62524 -0.0830492 -24.115847 -0.08003673 -24.099535 -27.612061 -113.10674
119890000 -27.56605 -112.94925 -0.083062917 -24.31171 -0.080914855 -24.297537 -27.599035 -113.24494
120889000 -27.514017 -113.46476 -0.084771477 -24.51627 -0.081464499 -24.500677 -27.527731 -113.20087
121888000 -27.485441 -113.76596 -0.084198713 -24.7129 -0.081691071 -24.696686 -27.470045 -113.45123
122887000 -27.439034 -113.98339 -0.086123966 -24.91082 -0.082510173 -24.901329 -27.418592 -113.46154
123886000 -27.384571 -114.43902 -0.086522162 -25.119104 -0.082530223 -25.099684 -27.401594 -113.59538
124885000 -27.345509 -114.90695 -0.0865895 -25.315722 -0.082611479 -25.305534 -27.376629 -113.62777
125884000 -27.295919 -115.11674 -0.088079914 -25.517561 -0.083036795 -25.502874 -27.339781 -113.77734
126883000 -27.276974 -115.5409 -0.088211738 -25.71607 -0.084242262 -25.704206 -27.30805 -113.80003
127882000 -27.227325 -115.78022 -0.088427305 -25.920959 -0.085129686 -25.900841 -27.266764 -113.95886
128881000 -27.198757 -116.11964 -0.0887409 -26.122849 -0.085033864 -26.10478 -27.222149 -114.06432
129880000 -27.139376 -116.45678 -0.089523546 -26.324589 -0.085441463 -26.304241 -27.187006 -113.99673
130879000 -27.079868 -116.62552 -0.088839188 -26.521582 -0.085928313 -26.508413 -27.111448 -114.01361
131878000 -27.012657 -116.82751 -0.089629248 -26.726543 -0.086400688 -26.707378 -27.04623 -113.89642
132877000 -26.944178 -116.89355 -0.089132473 -26.928104 -0.086447954 -26.91054 -26.968157 -113.85461
133876000 -26.859795 -117.11074 -0.089992352 -27.130552 -0.086235918 -27.111397 -26.877556 -113.79189
134875000 -26.760643 -117.23312 -0.089884788 -27.326097 -0.086768016 -27.312027 -26.773172 -113.57381
135874000 -26.68129 -117.23434 -0.089921258 -27.529701 -0.087223053 -27.514448 -26.670053 -113.57999
136873000 -26.565992 -117.15849 -0.090544201 -27.731346 -0.086848296 -27.717768 -26.595957 -113.51763
137872000 -26.484425 -117.27942 -0.090374254 -27.934338 -0.087118998 -27.921667 -26.486694 -113.45683
138871000 -26.406778 -117.54314 -0.091192082 -28.135035 -0.086881839 -28.12043 -26.386335 -113.61165
139870000 -26.305222 -117.80856 -0.091138683 -28.336376 -0.088214643 -28.317329 -26.307438 -113.78554
140869000 -26.226782 -118.36535 -0.092695713 -28.535723 -0.089013569 -28.512806 -26.202934 -114.03622
141868000 -26.150635 -118.74544 -0.093436487 -28.732246 -0.090957604 -28.713104 -26.151993 -114.27045
142867000 -26.067898 -118.95782 -0.09239611 -28.929136 -0.089976497 -28.912088 -26.07221 -114.37358
143866000 -25.991171 -119.43418 -0.094565734 -29.125334 -0.091556907 -29.109518 -26.001543 -114.81071
144865000 -25.938931 -119.98123 -0.095634684 -29.324638 -0.09294007 -29.311497 -25.941563 -115.13793
145864000 -25.878447 -120.27965 -0.095984526 -29.527632 -0.094450392 -29.514313 -25.90867 -115.36787
146863000 -25.833878 -120.67427 -0.096808709 -29.726624 -0.094682671 -29.713263 -25.859552 -115.69819
147862000 -25.792524 -121.005 -0.097823404 -29.924603 -0.094947509 -29.914341 -25.824131 -115.97559
148861000 -25.762079 -121.43896 -0.099557906 -30.122965 -0.096409567 -30.109653 -25.807606 -116.16234
149860000 -25.730541 -121.60144 -0.10023601 -30.314886 -0.096626602 -30.307762 -25.750601 -116.22501
150859000 -25.707796 -122.07803 -0.099852972 -30.512348 -0.097262159 -30.500193 -25.732876 -116.55521
151858000 -25.697073 -122.40763 -0.099130176 -30.716263 -0.096624225 -30.696739 -25.725466 -116.9043
152857000 -25.684385 -122.74607 -0.099557109 -30.914928 -0.097026557 -30.901184 -25.71376 -117.10086
153856000 -25.678001 -122.97342 -0.099645577 -31.115864 -0.096942648 -31.098213 -25.728098 -117.42625
154855000 -25.676954 -123.12048 -0.10015627 -31.313641 -0.096889175 -31.301197 -25.72352 -117.65122
155854000 -25.698757 -123.36511 -0.10042118 -31.514992 -0.097455144 -31.500956 -25.710661 -117.88766
156853000 -25.683569 -124.06525 -0.098063014 -31.702122 -0.096792303 -31.694963 -25.709467 -118.21326
157852000 -25.690487 -124.26264 -0.099378072 -31.906553 -0.098495409 -31.895895 -25.694881 -118.58205
158851000 -25.689196 -124.49126 -0.10041482 -32.102474 -0.098579876 -32.093472 -25.686104 -118.81484
159850000 -25.678082 -124.60298 -0.10095263 -32.301075 -0.098754391 -32.291988 -25.686005 -119.02676
160849000 -25.663595 -124.67066 -0.10090733 -32.502075 -0.09957353 -32.496086 -25.654957 -119.31149
161848000 -25.650118 -124.77294 -0.10103185 -32.702213 -0.09952639 -32.695274 -25.623529 -119.44762
162847000 -25.605251 -124.96837 -0.1014709 -32.904881 -0.099921577 -32.898117 -25.586409 -119.67878
163846000 -25.564016 -125.18241 -0.10216043 -33.103283 -0.099692196 -33.09182 -25.514315 -119.6776
164845000 -25.513206 -125.14379 -0.1028559 -33.305939 -0.10007945 -33.296337 -25.446707 -119.76886
165844000 -25.455652 -125.15546 -0.10288002 -33.505619 -0.10130979 -33.49543 -25.368502 -119.92546
166843000 -25.390676 -125.27924 -0.10249542 -33.701832 -0.10053457 -33.693802 -25.304581 -120.09269
167842000 -25.33481 -125.33533 -0.10294762 -33.902008 -0.10137445 -33.891853 -25.226793 -120.00673
168841000 -25.257624 -125.51923 -0.10294549 -34.099998 -0.10166433 -34.098545 -25.152269 -120.08348
169840000 -25.190666 -125.77288 -0.10341999 -34.298016 -0.10188667 -34.293045 -25.062304 -120.28025
170839000 -25.133717 -125.99886 -0.10485706 -34.492756 -0.10266506 -34.496521 -24.981218 -120.44259
171838000 -25.074186 -126.44646 -0.10390541 -34.695625 -0.10339189 -34.688946 -24.916426 -120.66714
172837000 -24.999935 -126.75696 -0.10584764 -34.893261 -0.10423445 -34.887115 -24.853138 -120.86984
173836000 -24.934416 -127.19594 -0.10733142 -35.093143 -0.1048727 -35.09145 -24.808548 -121.11492
174835000 -24.883039 -127.52595 -0.1077374 -35.289249 -0.10653813 -35.286301 -24.761965 -121.41728
175834000 -24.830593 -127.90739 -0.10882366 -35.491447 -0.10741367 -35.486195 -24.69935 -121.71848
176833000 -24.773483 -128.26443 -0.1096471 -35.688396 -0.1079221 -35.685776 -24.649101 -121.83454
177832000 -24.734228 -128.68626 -0.1099771 -35.88694 -0.10899593 -35.886791 -24.631363 -121.97421
178831000 -24.684116 -128.96338 -0.11126124 -36.086994 -0.11023623 -36.0844 -24.594355 -122.09099
179830000 -24.62863 -129.30048 -0.11304682 -36.273731 -0.11150186 -36.275856 -24.536665 -122.08907
180829000 -24.570127 -129.65909 -0.11246155 -36.460835 -0.11136056 -36.460365 -24.487295 -122.3662
181828000 -24.539598 -130.09888 -0.11193081 -36.660366 -0.11056628 -36.659344 -24.468672 -122.62692
182827000 -24.516106 -130.46384 -0.11107587 -36.856953 -0.11097549 -36.861748 -24.455132 -122.74452
183826000 -24.475573 -130.79761 -0.11203201 -37.062267 -0.11036873 -37.058872 -24.441042 -122.89184
184825000 -24.482752 -131.13925 -0.11123999 -37.250851 -0.11086821 -37.254246 -24.425817 -122.98842
185824000 -24.454952 -131.52592 -0.11232368 -37.45134 -0.11128461 -37.451023 -24.418974 -123.09364
186823000 -24.437628 -131.8665 -0.11226019 -37.654465 -0.11131117 -37.650814 -24.405218 -123.08765
187822000 -24.411898 -132.22556 -0.11321633 -37.849113 -0.11166945 -37.844845 -24.37174 -123.19067
188821000 -24.387396 -132.47382 -0.11285287 -38.045174 -0.11188167 -38.04604 -24.353724 -123.30763
189820000 -24.36356 -132.74445 -0.11278911 -38.24567 -0.1114777 -38.24514 -24.335072 -123.50503
190819000 -24.332932 -133.067 -0.11358619 -38.44257 -0.11286668 -38.439587 -24.297579 -123.56057
191818000 -24.301636 -133.37253 -0.11353225 -38.640129 -0.11277211 -38.642738 -24.26273 -123.5913
192817000 -24.254683 -133.64879 -0.11391012 -38.834595 -0.11317328 -38.83709 -24.220295 -123.67051
193816000 -24.223206 -133.88661 -0.11450222 -39.034603 -0.11325619 -39.032341 -24.169601 -123.82823
194815000 -24.161713 -134.2737 -0.11482489 -39.225948 -0.11421493 -39.22879 -24.105097 -123.91409
195814000 -24.103056 -134.46107 -0.11589724 -39.427498 -0.11425666 -39.428963 -24.044813 -123.99059
196813000 -24.047659 -134.81982 -0.1158337 -39.621315 -0.1142718 -39.620853 -23.968391 -124.12975
197812000 -23.986786 -135.03625 -0.1156375 -39.819775 -0.11445519 -39.820549 -23.89406 -124.24887
198811000 -23.935774 -135.22597 -0.11568216 -40.013805 -0.11498543 -40.013042 -23.821163 -124.42217
199810000 -23.868717 -135.54831 -0.11555349 -40.211884 -0.11495168 -40.208939 -23.743015 -124.50047
200809000 -23.806377 -135.82164 -0.11672919 -40.403942 -0.11503275 -40.403557 -23.664211 -124.70094
201808000 -23.745955 -136.02884 -0.1168345 -40.60693 -0.11617773 -40.609028 -23.594471 -124.77633
202807000 -23.689478 -136.356 -0.11818318 -40.807674 -0.11671005 -40.810806 -23.539928 -124.97379
