!Keysight Technologies,E5080B,MY59205177,A.15.75.32
!Date: Friday, February 23, 2024 03:27:45
!Correction: S11(Cdelta 2-Port  ) 
!S21(Cdelta 2-Port  ) 
!S12(Cdelta 2-Port  ) 
!S22(Cdelta 2-Port  ) 
!S2P File: Measurements: S11, S21, S12, S22:
# Hz S  dB   R 50
10000000 -45.926281 -1.1113985 -0.016044732 -2.0572166 -0.019393515 -2.1087399 -46.165188 -159.4494
10999000 -45.194359 -3.0133386 -0.016948992 -2.2726412 -0.019954151 -2.3296661 -46.057125 -152.50681
11998000 -44.272583 -6.1048412 -0.017616656 -2.5029213 -0.019362574 -2.5442033 -46.275337 -148.50974
12997000 -43.487194 -11.910956 -0.017322445 -2.6792872 -0.018807994 -2.7120516 -45.897034 -142.07756
13996000 -43.210155 -15.488144 -0.016418627 -2.8623695 -0.018776016 -2.8816276 -45.783527 -136.96692
14995000 -42.812267 -20.034359 -0.018707642 -3.0706258 -0.018424276 -3.0937195 -45.46228 -133.55103
15994000 -42.697617 -24.137171 -0.019753397 -3.290916 -0.021241598 -3.3166282 -45.33955 -130.09103
16993000 -42.68261 -28.415533 -0.019056546 -3.4915135 -0.02042331 -3.4956346 -44.519531 -129.57959
17992000 -42.744686 -33.943356 -0.018941108 -3.6862552 -0.021254085 -3.6931064 -43.958973 -129.76776
18991000 -43.022541 -39.256813 -0.020453999 -3.9010456 -0.022763619 -3.8976834 -43.275352 -128.30066
19990000 -42.806396 -45.049335 -0.022515116 -4.1086993 -0.02379239 -4.1042013 -42.60738 -129.38426
20989000 -42.65398 -48.235657 -0.024871653 -4.3095546 -0.025897538 -4.306386 -42.094292 -128.52168
21988000 -42.506653 -53.406956 -0.025223395 -4.5139122 -0.026926793 -4.5023427 -41.776089 -127.82014
22987000 -42.2309 -58.149464 -0.027527999 -4.7124453 -0.028520117 -4.7046289 -41.548847 -127.30856
23986000 -42.176067 -62.598938 -0.026366558 -4.9078488 -0.026903871 -4.9063926 -41.436596 -127.16706
24985000 -41.811802 -65.087601 -0.02746678 -5.1143193 -0.027246922 -5.1158628 -41.272495 -124.53763
25984000 -41.446285 -67.186707 -0.028889615 -5.3226352 -0.028147785 -5.321095 -40.945263 -122.83429
26983000 -41.121834 -69.282845 -0.02957345 -5.5248036 -0.029006099 -5.5416079 -40.824169 -122.17814
27982000 -40.970695 -70.213577 -0.030845242 -5.7245908 -0.030470625 -5.7607627 -40.544548 -120.58903
28981000 -40.938107 -71.391319 -0.028930787 -5.9184756 -0.03116175 -5.9494324 -40.339336 -120.12032
29980000 -40.531315 -72.857216 -0.028560245 -6.1173129 -0.030875484 -6.126996 -40.092827 -119.05904
30979000 -40.169685 -72.061638 -0.026956227 -6.472743 -0.025893113 -6.4620452 -39.552074 -119.51495
31978000 -39.94249 -73.12384 -0.026207695 -6.6689014 -0.026255094 -6.6594424 -39.304569 -118.74693
32977000 -39.777451 -74.759224 -0.025954047 -6.8771877 -0.02733054 -6.8769364 -39.065784 -118.80347
33976000 -39.605942 -75.876595 -0.02723572 -7.0794711 -0.027713222 -7.0746651 -38.772251 -118.16731
34975000 -39.307125 -76.552765 -0.02718154 -7.280396 -0.02849406 -7.2816272 -38.574398 -117.73811
35974000 -39.09362 -77.17424 -0.026051182 -7.4753065 -0.028816391 -7.4789591 -38.274143 -116.7783
36973000 -38.871574 -77.964111 -0.02662049 -7.6793194 -0.029533835 -7.6824226 -38.009094 -115.9345
37972000 -38.699566 -77.597824 -0.025709789 -7.8854213 -0.029241422 -7.8953223 -37.796207 -115.1487
38971000 -38.350037 -77.086769 -0.027670758 -8.0928555 -0.029107731 -8.0981388 -37.618595 -113.53784
39970000 -38.027454 -77.504593 -0.025951704 -8.2874613 -0.028266855 -8.3029928 -37.352421 -112.79786
40969000 -37.71439 -77.206802 -0.026209258 -8.4826918 -0.027763762 -8.4949799 -37.103897 -111.37378
41968000 -37.354446 -77.030151 -0.026096495 -8.6898994 -0.028483899 -8.7024164 -36.917519 -110.13454
42967000 -37.112331 -77.161736 -0.026285043 -8.8963108 -0.028834632 -8.915781 -36.699234 -108.32172
43966000 -36.817749 -77.962212 -0.027120586 -9.1002626 -0.030011067 -9.1203909 -36.425987 -107.41711
44965000 -36.571774 -78.766388 -0.027227385 -9.3052597 -0.030304052 -9.320302 -36.202106 -107.21596
45964000 -36.318398 -79.760803 -0.028917497 -9.5037518 -0.030869748 -9.5247736 -35.964893 -106.84852
46963000 -36.146675 -81.780701 -0.029162198 -9.6971188 -0.032224327 -9.7209415 -35.787666 -107.10646
47962000 -35.995487 -83.270004 -0.031312972 -9.8971987 -0.033106923 -9.9206839 -35.58049 -107.21567
48961000 -35.790276 -84.66024 -0.032833047 -10.099133 -0.035177447 -10.118885 -35.354759 -107.30408
49960000 -35.530506 -85.900177 -0.034532912 -10.299535 -0.036062468 -10.320226 -35.209354 -107.21349
50959000 -35.309422 -87.300095 -0.034272775 -10.513823 -0.037580814 -10.523397 -35.017166 -107.6358
51958000 -35.116264 -88.374786 -0.036731251 -10.713356 -0.038616501 -10.72105 -34.849899 -108.0028
52957000 -34.896778 -89.441406 -0.038671084 -10.910896 -0.039918896 -10.920532 -34.681767 -107.71202
53956000 -34.718719 -90.040245 -0.039769724 -11.113872 -0.04048245 -11.118634 -34.561161 -107.77798
54955000 -34.566162 -90.534889 -0.040550124 -11.315325 -0.041640613 -11.31472 -34.409592 -107.59997
55954000 -34.397289 -91.375023 -0.041156612 -11.518752 -0.041870613 -11.514716 -34.304451 -107.29593
56953000 -34.269947 -91.391319 -0.040932141 -11.716136 -0.041727383 -11.705754 -34.230137 -107.50076
57952000 -34.093719 -92.061432 -0.041429184 -11.917255 -0.042617664 -11.905327 -34.117001 -107.51646
58951000 -34.001858 -92.294273 -0.043058429 -12.121477 -0.043060519 -12.099202 -33.97187 -107.53981
59950000 -33.859932 -92.695328 -0.04364435 -12.324932 -0.044031352 -12.301071 -33.89695 -107.8667
60949000 -33.727703 -93.251396 -0.044625774 -12.522263 -0.044445843 -12.50074 -33.817753 -108.2259
61948000 -33.675968 -93.625984 -0.045035616 -12.723013 -0.044310641 -12.709089 -33.729088 -108.24346
62947000 -33.5923 -93.744179 -0.045018092 -12.932745 -0.045373823 -12.915658 -33.589218 -108.47345
63946000 -33.519295 -94.488556 -0.046389129 -13.133761 -0.046413723 -13.114207 -33.480083 -108.5572
64945000 -33.413116 -94.662155 -0.046620164 -13.335401 -0.046732154 -13.316137 -33.376793 -109.16241
65944000 -33.30851 -95.013634 -0.047947995 -13.536539 -0.046879731 -13.520689 -33.267136 -109.56601
66943000 -33.159443 -95.371742 -0.045702904 -13.740341 -0.045759145 -13.722663 -33.166523 -109.7946
67942000 -33.097595 -95.404694 -0.047951661 -13.932946 -0.047280103 -13.925654 -33.045586 -110.12791
68941000 -32.982288 -95.501511 -0.047537092 -14.128963 -0.046688192 -14.119453 -32.943016 -110.07996
69940000 -32.891106 -95.413612 -0.048646878 -14.32989 -0.047861099 -14.319855 -32.797264 -110.38546
70939000 -32.77742 -95.354095 -0.047931768 -14.522618 -0.047690194 -14.51892 -32.664314 -110.23337
71938000 -32.648705 -94.892342 -0.047921035 -14.722466 -0.047390014 -14.719625 -32.527939 -110.16741
72937000 -32.476585 -94.704475 -0.047703806 -14.924102 -0.047633402 -14.92035 -32.392357 -109.79385
73936000 -32.338974 -94.397827 -0.047798548 -15.122367 -0.046398286 -15.114755 -32.2696 -109.54903
74935000 -32.211361 -94.563499 -0.046692379 -15.318461 -0.045729324 -15.313216 -32.106525 -109.26667
75934000 -32.079964 -94.864288 -0.046615191 -15.526164 -0.04560088 -15.518378 -32.017986 -109.16619
76933000 -31.952343 -95.184624 -0.047904287 -15.718581 -0.047869213 -15.716618 -31.837902 -109.49284
77932000 -31.843142 -95.954567 -0.04966845 -15.920666 -0.049318124 -15.915127 -31.734505 -109.41322
78931000 -31.774338 -96.722191 -0.048163667 -16.11657 -0.048177019 -16.113266 -31.623827 -109.35168
79930000 -31.656586 -97.594109 -0.050912615 -16.312492 -0.050771184 -16.310328 -31.528011 -109.5931
80929000 -31.530573 -98.402824 -0.051892016 -16.511766 -0.052795909 -16.507984 -31.43816 -109.9062
81928000 -31.438444 -99.147064 -0.052373808 -16.704338 -0.053360611 -16.697779 -31.302721 -109.8532
82927000 -31.33906 -99.863899 -0.054481849 -16.90028 -0.054182772 -16.901609 -31.187899 -110.16483
83926000 -31.220879 -100.5826 -0.056226656 -17.101065 -0.055516064 -17.10181 -31.064995 -110.35949
84925000 -31.110949 -100.92773 -0.056249995 -17.300385 -0.055242348 -17.296385 -30.966553 -110.42455
85924000 -31.027159 -101.41109 -0.057668917 -17.499649 -0.057469293 -17.500751 -30.888384 -110.30818
86923000 -30.917454 -101.93085 -0.057890844 -17.700308 -0.057189945 -17.691557 -30.78043 -110.20635
87922000 -30.802404 -102.24388 -0.0577261 -17.905346 -0.057014737 -17.898458 -30.698238 -110.26033
88921000 -30.730032 -102.44495 -0.058322143 -18.104858 -0.057694361 -18.100906 -30.597906 -110.12065
89920000 -30.612827 -103.04411 -0.059472479 -18.307915 -0.058237925 -18.300102 -30.546011 -110.32604
90919000 -30.516125 -103.2834 -0.060162984 -18.501951 -0.059030306 -18.499556 -30.453636 -110.46112
91918000 -30.41881 -103.65768 -0.061069652 -18.700323 -0.060072429 -18.696966 -30.394653 -110.53561
92917000 -30.337379 -103.94315 -0.062739111 -18.900501 -0.060865674 -18.898796 -30.326092 -110.61012
93916000 -30.239397 -104.3438 -0.061412785 -19.094278 -0.061536182 -19.085915 -30.237099 -111.19551
94915000 -30.166958 -104.98785 -0.063179031 -19.299034 -0.062106226 -19.289848 -30.176561 -111.08676
95914000 -30.095821 -105.16814 -0.064133614 -19.492756 -0.063362099 -19.488478 -30.083252 -111.38962
96913000 -30.011528 -105.35246 -0.065207183 -19.691633 -0.064274959 -19.688936 -30.019701 -111.68385
97912000 -29.92935 -105.90979 -0.066371433 -19.887426 -0.064379781 -19.888819 -29.935013 -111.91406
98911000 -29.831972 -106.00064 -0.067077763 -20.091488 -0.066282861 -20.088026 -29.892078 -112.1304
99910000 -29.758827 -106.16003 -0.06774345 -20.293671 -0.066422164 -20.290567 -29.786474 -112.44465
100909000 -29.658859 -106.40209 -0.067025445 -20.498055 -0.065810293 -20.490717 -29.699255 -112.64271
101908000 -29.56893 -106.62064 -0.067805499 -20.699596 -0.067336187 -20.697083 -29.583166 -112.40405
102907000 -29.437891 -106.62978 -0.069004111 -20.897852 -0.067457914 -20.896725 -29.51306 -112.40615
103906000 -29.338858 -106.70795 -0.069219783 -21.110403 -0.067251533 -21.098377 -29.363913 -112.36266
104905000 -29.196936 -106.58057 -0.069815561 -21.304972 -0.066685021 -21.302931 -29.237686 -112.04988
105904000 -29.053108 -106.65606 -0.070286453 -21.506193 -0.06799823 -21.498375 -29.127525 -111.95144
106903000 -28.939447 -106.78091 -0.070413522 -21.712175 -0.068134964 -21.708305 -28.999538 -111.80453
107902000 -28.773548 -107.112 -0.070570596 -21.910187 -0.067910939 -21.904156 -28.857172 -111.83523
108901000 -28.662609 -107.32968 -0.071977615 -22.118851 -0.070065208 -22.108274 -28.725655 -111.7061
109900000 -28.534275 -107.79633 -0.072629839 -22.320202 -0.070548229 -22.308392 -28.57589 -111.78473
110899000 -28.418341 -108.44083 -0.074235022 -22.511997 -0.071239971 -22.506271 -28.454525 -112.06466
111898000 -28.328442 -109.10349 -0.075552098 -22.718315 -0.072719336 -22.70722 -28.327898 -112.20516
112897000 -28.199671 -109.63227 -0.077218175 -22.914679 -0.073986456 -22.903559 -28.192739 -112.39506
113896000 -28.091902 -110.22309 -0.078492396 -23.119715 -0.075470969 -23.104753 -28.084665 -112.51672
114895000 -27.987495 -110.87871 -0.078855097 -23.318092 -0.076563418 -23.30018 -27.970705 -112.55426
115894000 -27.86912 -111.21409 -0.080212601 -23.518618 -0.077382073 -23.504545 -27.90132 -112.75733
116893000 -27.792789 -111.68412 -0.08110369 -23.714422 -0.078877509 -23.698681 -27.782486 -112.82489
117892000 -27.709776 -112.22424 -0.081192829 -23.912544 -0.079228908 -23.89727 -27.699665 -113.01923
118891000 -27.654953 -112.61694 -0.081868596 -24.109972 -0.079649411 -24.097887 -27.602112 -113.12199
119890000 -27.563227 -113.0403 -0.082917802 -24.314358 -0.081250325 -24.298508 -27.594801 -113.27477
120889000 -27.510836 -113.46459 -0.083511241 -24.513659 -0.080835208 -24.501905 -27.519348 -113.20441
121888000 -27.473661 -113.79495 -0.083776712 -24.709108 -0.081451043 -24.699575 -27.463938 -113.47729
122887000 -27.437338 -114.03931 -0.084949389 -24.912304 -0.081840113 -24.897976 -27.414438 -113.45119
123886000 -27.377163 -114.4323 -0.085744813 -25.119707 -0.082199924 -25.099915 -27.398693 -113.60832
124885000 -27.345709 -114.9211 -0.086454034 -25.321756 -0.082839966 -25.300737 -27.368887 -113.68351
125884000 -27.292219 -115.13316 -0.086468816 -25.515535 -0.082978226 -25.503485 -27.343479 -113.82691
126883000 -27.270502 -115.5169 -0.087064594 -25.719 -0.084510691 -25.705904 -27.302917 -113.84468
127882000 -27.227049 -115.79785 -0.087439634 -25.916931 -0.084929064 -25.900248 -27.264318 -113.98837
128881000 -27.198416 -116.11763 -0.0877418 -26.120367 -0.084600165 -26.101246 -27.221769 -114.02873
129880000 -27.137707 -116.47833 -0.088402733 -26.325193 -0.084907681 -26.304117 -27.178801 -114.02151
130879000 -27.077433 -116.60436 -0.088392429 -26.522778 -0.085664287 -26.505682 -27.105352 -114.03717
131878000 -27.010635 -116.83501 -0.088523202 -26.725098 -0.086268663 -26.704945 -27.037205 -113.8996
132877000 -26.940783 -116.94586 -0.088448174 -26.927891 -0.085826926 -26.911194 -26.960041 -113.91402
133876000 -26.861637 -117.12193 -0.08896178 -27.131025 -0.086701468 -27.108707 -26.875446 -113.77308
134875000 -26.758247 -117.1847 -0.089168407 -27.326654 -0.086690374 -27.308304 -26.769917 -113.60841
135874000 -26.677454 -117.25195 -0.089489192 -27.527391 -0.085943624 -27.509739 -26.67293 -113.60423
136873000 -26.563744 -117.22329 -0.089538075 -27.736301 -0.086379565 -27.713112 -26.589041 -113.58744
137872000 -26.476345 -117.32571 -0.090100706 -27.936266 -0.086916171 -27.920197 -26.488039 -113.45991
138871000 -26.406982 -117.52394 -0.090205364 -28.131804 -0.087813914 -28.117832 -26.388857 -113.61982
139870000 -26.305883 -117.81136 -0.090713628 -28.334444 -0.087950744 -28.316748 -26.303307 -113.80085
140869000 -26.224417 -118.36552 -0.092002399 -28.530647 -0.089182407 -28.515448 -26.203539 -114.03564
141868000 -26.14152 -118.78475 -0.092905685 -28.72756 -0.090424202 -28.71526 -26.148878 -114.25888
142867000 -26.062847 -118.98374 -0.091809653 -28.928017 -0.090294436 -28.91218 -26.06945 -114.41035
143866000 -25.99136 -119.44863 -0.093715794 -29.126041 -0.091134191 -29.109631 -25.994772 -114.90601
144865000 -25.937366 -120.00857 -0.095209189 -29.323969 -0.092444234 -29.310869 -25.93854 -115.16216
145864000 -25.876896 -120.32613 -0.095254704 -29.526728 -0.093816042 -29.515236 -25.904804 -115.40932
146863000 -25.83267 -120.66653 -0.096296556 -29.726316 -0.094216272 -29.711189 -25.852802 -115.68871
147862000 -25.79356 -121.00608 -0.09762352 -29.925163 -0.094988525 -29.910656 -25.823278 -116.00911
148861000 -25.765013 -121.4492 -0.098334417 -30.119556 -0.096550643 -30.106112 -25.80467 -116.16128
149860000 -25.731377 -121.62988 -0.099865422 -30.318558 -0.097147532 -30.305939 -25.747461 -116.26087
150859000 -25.705791 -122.08265 -0.098767363 -30.513693 -0.097475 -30.493288 -25.733912 -116.58105
151858000 -25.694881 -122.43545 -0.098777428 -30.713943 -0.096924648 -30.699385 -25.721165 -116.92563
152857000 -25.683537 -122.77612 -0.099122763 -30.912449 -0.097691819 -30.90188 -25.707766 -117.10538
153856000 -25.675255 -122.97997 -0.098629132 -31.111946 -0.096410096 -31.097767 -25.725368 -117.41091
154855000 -25.67469 -123.13629 -0.099385746 -31.31036 -0.097257659 -31.299435 -25.712049 -117.65663
155854000 -25.691393 -123.38961 -0.099865951 -31.512516 -0.097222187 -31.498407 -25.709843 -117.94058
156853000 -25.681362 -124.08086 -0.097801961 -31.69923 -0.096609667 -31.692238 -25.707594 -118.21801
157852000 -25.68498 -124.27547 -0.099065557 -31.902483 -0.098423652 -31.893291 -25.69108 -118.59764
158851000 -25.688438 -124.53329 -0.099921316 -32.100925 -0.09872552 -32.092983 -25.683025 -118.86243
159850000 -25.676489 -124.62894 -0.10071789 -32.300472 -0.098125502 -32.292892 -25.681204 -119.02278
160849000 -25.66036 -124.68459 -0.10067206 -32.499046 -0.099245116 -32.496689 -25.654276 -119.30163
161848000 -25.640779 -124.76907 -0.10085831 -32.701275 -0.099480569 -32.693836 -25.616505 -119.42164
162847000 -25.600317 -124.96226 -0.10087208 -32.898949 -0.099785961 -32.893147 -25.585247 -119.68417
163846000 -25.56496 -125.14909 -0.10128197 -33.09927 -0.099528506 -33.094345 -25.513346 -119.71032
164845000 -25.501184 -125.16 -0.10162724 -33.302017 -0.099765562 -33.294418 -25.445602 -119.81342
165844000 -25.450806 -125.19871 -0.1015382 -33.499561 -0.10125097 -33.493687 -25.36772 -119.92226
166843000 -25.389795 -125.26251 -0.10265233 -33.697948 -0.10083234 -33.694492 -25.300045 -120.08215
167842000 -25.329401 -125.38934 -0.1023804 -33.898071 -0.10048714 -33.891159 -25.224012 -120.01584
168841000 -25.254477 -125.52557 -0.102576 -34.099262 -0.10119798 -34.094105 -25.146879 -120.08847
169840000 -25.187681 -125.76706 -0.10272364 -34.295708 -0.10201785 -34.292553 -25.05929 -120.31668
170839000 -25.12561 -125.98566 -0.10385425 -34.494198 -0.10305841 -34.48877 -24.976082 -120.45189
171838000 -25.067543 -126.41175 -0.10359337 -34.696491 -0.10353345 -34.690269 -24.913851 -120.69569
172837000 -24.999432 -126.77233 -0.10563014 -34.892834 -0.10486767 -34.885178 -24.848614 -120.89993
173836000 -24.927549 -127.17341 -0.10647234 -35.092422 -0.10560229 -35.088634 -24.805693 -121.14497
174835000 -24.877304 -127.555 -0.10680979 -35.287025 -0.10637445 -35.287491 -24.75951 -121.45901
175834000 -24.823208 -127.93385 -0.10796747 -35.486774 -0.10772679 -35.482685 -24.700567 -121.71028
176833000 -24.77685 -128.29697 -0.10935429 -35.688213 -0.10813838 -35.684269 -24.649982 -121.883
177832000 -24.72887 -128.718 -0.10938933 -35.888042 -0.10913449 -35.8862 -24.62467 -121.97417
178831000 -24.684347 -128.96793 -0.11097522 -36.08429 -0.11102701 -36.083248 -24.592846 -122.11185
179830000 -24.622488 -129.3185 -0.11259252 -36.271984 -0.11181952 -36.272453 -24.534103 -122.0697
180829000 -24.564812 -129.67615 -0.11166016 -36.462273 -0.11176427 -36.460442 -24.47979 -122.39722
181828000 -24.540764 -130.14772 -0.11100151 -36.663498 -0.11040802 -36.657078 -24.462488 -122.61671
182827000 -24.514969 -130.50229 -0.11043325 -36.857296 -0.11082944 -36.856323 -24.449486 -122.73901
183826000 -24.474651 -130.82727 -0.11173107 -37.057804 -0.11017995 -37.055534 -24.441866 -122.88247
184825000 -24.483034 -131.18843 -0.11160863 -37.253906 -0.11105994 -37.252277 -24.422812 -123.06187
185824000 -24.45113 -131.54224 -0.11153214 -37.452747 -0.11170106 -37.453869 -24.412376 -123.09595
186823000 -24.435213 -131.89027 -0.11197332 -37.653599 -0.11139297 -37.652164 -24.4077 -123.10172
187822000 -24.411539 -132.22449 -0.11218608 -37.846191 -0.11235556 -37.845821 -24.370001 -123.19707
188821000 -24.385841 -132.4912 -0.1125896 -38.040169 -0.11242568 -38.04726 -24.349939 -123.33144
189820000 -24.371899 -132.77911 -0.11281992 -38.242458 -0.11232261 -38.24168 -24.334002 -123.50996
190819000 -24.32935 -133.09912 -0.11362898 -38.440731 -0.11272535 -38.441185 -24.293325 -123.54324
191818000 -24.297045 -133.39803 -0.11371321 -38.639984 -0.11270276 -38.63821 -24.264259 -123.60287
192817000 -24.254639 -133.65956 -0.11435525 -38.83567 -0.11353996 -38.837158 -24.221434 -123.68768
193816000 -24.21814 -133.90401 -0.11441399 -39.02953 -0.11336193 -39.028839 -24.166771 -123.84267
194815000 -24.158484 -134.31064 -0.11440282 -39.223255 -0.11436801 -39.230659 -24.102575 -123.88302
195814000 -24.100657 -134.51797 -0.11575235 -39.424068 -0.11401562 -39.424446 -24.043617 -123.99519
196813000 -24.043715 -134.86955 -0.11452322 -39.613914 -0.11384927 -39.616737 -23.962725 -124.14854
197812000 -23.991468 -135.05817 -0.11507448 -39.815739 -0.11509734 -39.815098 -23.892836 -124.26211
198811000 -23.93095 -135.20323 -0.11547215 -40.014015 -0.11485333 -40.016048 -23.82165 -124.41912
199810000 -23.860126 -135.57176 -0.11578212 -40.20731 -0.11471033 -40.208836 -23.738907 -124.54809
200809000 -23.806847 -135.83006 -0.1161889 -40.404839 -0.11453013 -40.408176 -23.660559 -124.73964
201808000 -23.741137 -136.06845 -0.116517 -40.608192 -0.11654625 -40.608936 -23.592033 -124.79829
202807000 -23.686022 -136.39377 -0.11795709 -40.810318 -0.11679249 -40.811241 -23.541199 -124.97366
