!Keysight Technologies,E5080B,MY59205177,A.15.75.32
!Date: Friday, February 23, 2024 02:49:29
!Correction: S11(Cdelta 2-Port  ) 
!S21(Cdelta 2-Port  ) 
!S12(Cdelta 2-Port  ) 
!S22(Cdelta 2-Port  ) 
!S2P File: Measurements: S11, S21, S12, S22:
# Hz S  dB   R 50
10000000 -41.829987 -3.2108622 -0.044801529 -2.0509615 -0.04787628 -2.1059358 -52.29982 -129.31757
10999000 -41.315754 -4.4353375 -0.045615532 -2.268569 -0.047999557 -2.321878 -51.335342 -118.53181
11998000 -40.698742 -6.7335043 -0.046383634 -2.4931624 -0.047156848 -2.5336034 -51.095398 -110.48562
12997000 -40.210232 -10.672041 -0.045563735 -2.6693523 -0.04699827 -2.7066708 -49.768677 -105.15713
13996000 -40.023155 -13.346848 -0.045552749 -2.8494816 -0.047197409 -2.8724494 -48.88829 -99.829247
14995000 -39.779575 -16.355831 -0.046810128 -3.0584078 -0.046828181 -3.0857484 -48.159359 -97.251633
15994000 -39.686417 -19.569586 -0.047899053 -3.2799108 -0.048983011 -3.2984996 -47.683411 -94.301971
16993000 -39.726364 -22.595181 -0.048099279 -3.474421 -0.048005577 -3.4845853 -46.775272 -98.153206
17992000 -39.856853 -26.321993 -0.04801343 -3.6769402 -0.048867825 -3.6791193 -46.17498 -100.23504
18991000 -40.116142 -29.887259 -0.048614681 -3.8876572 -0.04962996 -3.8842547 -45.448849 -101.67761
19990000 -40.086006 -34.095535 -0.051183179 -4.0919824 -0.052391097 -4.0897746 -44.702541 -104.83414
20989000 -40.037228 -36.56921 -0.052936357 -4.2978573 -0.054010306 -4.2863512 -44.10997 -105.9879
21988000 -40.08913 -40.496037 -0.054078717 -4.4962854 -0.054213963 -4.4856181 -43.749802 -106.02313
22987000 -39.955177 -44.517197 -0.0548339 -4.6965075 -0.056096066 -4.6859465 -43.453518 -105.90389
23986000 -40.034016 -47.734684 -0.054313567 -4.8907266 -0.054213963 -4.891088 -43.332279 -106.02836
24985000 -39.842731 -50.427212 -0.056340992 -5.1002169 -0.054576479 -5.0940495 -42.915977 -103.78371
25984000 -39.673561 -52.518753 -0.056429368 -5.309052 -0.055813137 -5.304739 -42.576599 -103.13734
26983000 -39.461617 -54.375824 -0.05788717 -5.5025892 -0.05620699 -5.5236831 -42.373848 -102.49927
27982000 -39.370003 -55.486633 -0.058835872 -5.7027216 -0.058208015 -5.7395658 -41.950619 -101.59215
28981000 -39.365799 -56.857803 -0.057594679 -5.9000864 -0.057916552 -5.9260883 -41.711353 -100.79902
29980000 -39.047932 -58.832367 -0.057084769 -6.0948601 -0.058463294 -6.0995955 -41.329239 -100.73452
30979000 -38.693817 -58.478783 -0.05445721 -6.4496574 -0.053116642 -6.4399304 -40.82407 -102.18193
31978000 -38.549858 -59.564354 -0.054222088 -6.6451726 -0.054424182 -6.6350279 -40.488541 -102.12247
32977000 -38.408009 -61.181747 -0.054325886 -6.8552485 -0.054791693 -6.8499494 -40.248787 -102.36987
33976000 -38.302456 -62.253979 -0.054835998 -7.0571651 -0.055364259 -7.0547419 -39.914738 -102.27589
34975000 -38.068943 -63.459377 -0.055132762 -7.2541184 -0.056557346 -7.2557645 -39.671295 -102.31116
35974000 -37.888638 -64.228348 -0.054065086 -7.4527354 -0.056055423 -7.4528999 -39.320049 -101.92691
36973000 -37.688137 -65.449036 -0.055062238 -7.6499305 -0.056859471 -7.6559248 -38.966221 -101.2212
37972000 -37.535904 -65.382324 -0.055162385 -7.8616905 -0.056914024 -7.8761902 -38.69363 -100.78757
38971000 -37.216206 -65.367836 -0.055544645 -8.0601377 -0.056209352 -8.0764475 -38.4627 -99.470718
39970000 -36.924873 -66.12793 -0.052767612 -8.2584438 -0.056251831 -8.27425 -38.160213 -99.128479
40969000 -36.665264 -66.34478 -0.054462191 -8.4573164 -0.056204367 -8.4735422 -37.854534 -98.004257
41968000 -36.340614 -66.718521 -0.054029703 -8.6569366 -0.056443267 -8.6773491 -37.617088 -96.968506
42967000 -36.106094 -67.080368 -0.054748442 -8.873105 -0.056674838 -8.8850288 -37.347916 -95.235764
43966000 -35.832966 -68.127617 -0.054398756 -9.0707836 -0.057129618 -9.0855761 -37.025654 -94.988319
44965000 -35.644428 -69.07592 -0.055812087 -9.2709408 -0.057751022 -9.2922087 -36.789909 -95.039177
45964000 -35.464375 -70.346695 -0.057286993 -9.4734249 -0.058892023 -9.487709 -36.545391 -95.060402
46963000 -35.318089 -72.365036 -0.057039656 -9.6680126 -0.06000419 -9.6899881 -36.376179 -95.49913
47962000 -35.207489 -73.794525 -0.058614418 -9.8670464 -0.061067812 -9.8854418 -36.161926 -95.797974
48961000 -35.040726 -75.352158 -0.060984332 -10.0672 -0.062863857 -10.086578 -35.948669 -96.388733
49960000 -34.850945 -76.892151 -0.062458631 -10.267806 -0.063912421 -10.286296 -35.810459 -96.646439
50959000 -34.679039 -78.28614 -0.063581958 -10.480797 -0.0649812 -10.486825 -35.637863 -97.172005
51958000 -34.50256 -79.60733 -0.065285489 -10.676812 -0.066629298 -10.687445 -35.466152 -97.914604
52957000 -34.326824 -80.876137 -0.066849582 -10.882446 -0.068747163 -10.887456 -35.308254 -97.8778
53956000 -34.192551 -81.659065 -0.067696646 -11.082172 -0.06900622 -11.080544 -35.152176 -98.042366
54955000 -34.042408 -82.277534 -0.068213589 -11.28028 -0.069430992 -11.278809 -35.009663 -98.102325
55954000 -33.889816 -83.307907 -0.0695199 -11.483768 -0.070549808 -11.478804 -34.887009 -97.964157
56953000 -33.783474 -83.393921 -0.069432043 -11.677556 -0.069729015 -11.669487 -34.819145 -98.279289
57952000 -33.643013 -84.086281 -0.069878429 -11.873433 -0.070859484 -11.866486 -34.72073 -98.416618
58951000 -33.529774 -84.573006 -0.071838923 -12.084671 -0.071654178 -12.062646 -34.555058 -98.783539
59950000 -33.401615 -85.054749 -0.072053149 -12.279381 -0.072062105 -12.262255 -34.490181 -99.0429
60949000 -33.306343 -85.700272 -0.072665378 -12.486102 -0.072597988 -12.465305 -34.405067 -99.386086
61948000 -33.249912 -86.015694 -0.073111832 -12.68492 -0.072521396 -12.666264 -34.315029 -99.555908
62947000 -33.167595 -86.251793 -0.072999954 -12.894164 -0.072797522 -12.875057 -34.175018 -99.904839
63946000 -33.104858 -87.048782 -0.07446412 -13.094228 -0.07389719 -13.074194 -34.071754 -100.19158
64945000 -33.005737 -87.331566 -0.074737467 -13.292251 -0.074522577 -13.274792 -33.969177 -100.69088
65944000 -32.915356 -87.569061 -0.076051272 -13.492186 -0.075530499 -13.476788 -33.8778 -101.28751
66943000 -32.782372 -88.111458 -0.073913783 -13.694835 -0.073488303 -13.67854 -33.774391 -101.60995
67942000 -32.709599 -88.09465 -0.075533658 -13.891616 -0.075380102 -13.87955 -33.663784 -101.90077
68941000 -32.599903 -88.298477 -0.075431198 -14.087049 -0.074345618 -14.076694 -33.549591 -101.97623
69940000 -32.503834 -88.341797 -0.075090639 -14.287845 -0.075592659 -14.277781 -33.395489 -102.34212
70939000 -32.392563 -88.339851 -0.075678267 -14.481644 -0.075213373 -14.473195 -33.281734 -102.35006
71938000 -32.241322 -88.073311 -0.075539187 -14.676051 -0.075741485 -14.670734 -33.12714 -102.27258
72937000 -32.072701 -87.99926 -0.075048238 -14.878048 -0.075519964 -14.869875 -32.978325 -102.00608
73936000 -31.93796 -87.72361 -0.074951582 -15.075763 -0.074559182 -15.069939 -32.854736 -101.89118
74935000 -31.808676 -88.033218 -0.074828327 -15.271593 -0.07346461 -15.267243 -32.694401 -101.56467
75934000 -31.694334 -88.386757 -0.075014003 -15.47879 -0.074129693 -15.475103 -32.600163 -101.4981
76933000 -31.572487 -88.834633 -0.076107122 -15.669917 -0.074653722 -15.66573 -32.439854 -102.07764
77932000 -31.476341 -89.674019 -0.077106446 -15.867849 -0.076314449 -15.859954 -32.338348 -102.16416
78931000 -31.422119 -90.424309 -0.075972773 -16.068762 -0.075680375 -16.061747 -32.232552 -102.06085
79930000 -31.326231 -91.271515 -0.078668475 -16.261824 -0.078983739 -16.261595 -32.144512 -102.41254
80929000 -31.202417 -92.263252 -0.080009833 -16.456055 -0.080039099 -16.456984 -32.038464 -102.86574
81928000 -31.140585 -93.18782 -0.080009043 -16.650532 -0.07961645 -16.644417 -31.92083 -103.02147
82927000 -31.049086 -93.934975 -0.081858046 -16.84984 -0.080965489 -16.846291 -31.820942 -103.40369
83926000 -30.947233 -94.712273 -0.083304092 -17.044992 -0.082451075 -17.046244 -31.703007 -103.68333
84925000 -30.850574 -95.217461 -0.084685691 -17.243811 -0.082815953 -17.240578 -31.602142 -103.8725
85924000 -30.766176 -95.767799 -0.084355228 -17.445387 -0.084382676 -17.442327 -31.523262 -103.93237
86923000 -30.660921 -96.319069 -0.085414007 -17.643637 -0.084877327 -17.63798 -31.421381 -103.88733
87922000 -30.570223 -96.805969 -0.085827716 -17.845978 -0.084022418 -17.83906 -31.324883 -104.00483
88921000 -30.49645 -97.149818 -0.086243048 -18.049862 -0.085367545 -18.046 -31.231775 -104.06042
89920000 -30.399265 -97.745453 -0.087041348 -18.242086 -0.086538799 -18.23975 -31.178532 -104.21112
90919000 -30.301966 -98.077629 -0.088366278 -18.443525 -0.086103894 -18.439051 -31.093901 -104.47186
91918000 -30.214159 -98.562088 -0.089134581 -18.644934 -0.087700859 -18.63913 -31.020521 -104.54991
92917000 -30.128063 -98.890579 -0.089977548 -18.839827 -0.088971823 -18.837591 -30.957392 -104.75229
93916000 -30.038355 -99.389229 -0.089356802 -19.034079 -0.088781588 -19.031771 -30.876768 -105.42881
94915000 -29.970892 -100.03123 -0.091599993 -19.237686 -0.089806832 -19.22834 -30.811888 -105.28722
95914000 -29.911915 -100.2658 -0.09243498 -19.430832 -0.090404116 -19.427399 -30.711422 -105.60712
96913000 -29.823467 -100.54379 -0.093594655 -19.631407 -0.091581494 -19.628605 -30.653826 -106.00905
97912000 -29.750456 -101.01434 -0.09472315 -19.825653 -0.091781102 -19.827667 -30.577435 -106.22418
98911000 -29.651196 -101.2188 -0.094762042 -20.028585 -0.09297736 -20.024111 -30.538324 -106.48241
99910000 -29.574625 -101.412 -0.095310271 -20.224888 -0.093192369 -20.229166 -30.425962 -106.84131
100909000 -29.495461 -101.68834 -0.095325612 -20.438974 -0.092797264 -20.428568 -30.339399 -107.0508
101908000 -29.404232 -102.05525 -0.096726127 -20.634504 -0.094224207 -20.631498 -30.219767 -106.84202
102907000 -29.273031 -102.04076 -0.097123712 -20.834661 -0.094047502 -20.833132 -30.146198 -106.85969
103906000 -29.17227 -102.14517 -0.096586376 -21.045202 -0.093732722 -21.033512 -29.985769 -106.83364
104905000 -29.027906 -102.15312 -0.096576318 -21.24073 -0.094255425 -21.239513 -29.847681 -106.57879
105904000 -28.885645 -102.28539 -0.097411729 -21.440964 -0.094566002 -21.437073 -29.725826 -106.4203
106903000 -28.780138 -102.50014 -0.097600751 -21.649818 -0.09448611 -21.638348 -29.590208 -106.37783
107902000 -28.617414 -102.83985 -0.098145626 -21.846519 -0.095636539 -21.836874 -29.449509 -106.32965
108901000 -28.509693 -103.12242 -0.099885024 -22.045881 -0.096995592 -22.040728 -29.313807 -106.34983
109900000 -28.385221 -103.67206 -0.1005486 -22.250687 -0.098090552 -22.240234 -29.153889 -106.4993
110899000 -28.27561 -104.35143 -0.10208146 -22.446634 -0.098562405 -22.440289 -29.035803 -106.86633
111898000 -28.190401 -105.0601 -0.10268096 -22.647312 -0.10011177 -22.641535 -28.916397 -107.05499
112897000 -28.066269 -105.70609 -0.10457067 -22.846085 -0.10146587 -22.834749 -28.779037 -107.29932
113896000 -27.975262 -106.35473 -0.1059243 -23.046078 -0.10278884 -23.033768 -28.664112 -107.50658
114895000 -27.869905 -107.00819 -0.10659464 -23.244711 -0.10445452 -23.229176 -28.55373 -107.60355
115894000 -27.741253 -107.40207 -0.1082119 -23.444223 -0.10586701 -23.431852 -28.482527 -107.83163
116893000 -27.66353 -108.01053 -0.1084136 -23.640478 -0.10619327 -23.625263 -28.351151 -108.07074
117892000 -27.586823 -108.52838 -0.10848048 -23.837187 -0.10654609 -23.822569 -28.280191 -108.33259
118891000 -27.527779 -109.00295 -0.10912069 -24.038267 -0.10695492 -24.023302 -28.175922 -108.50765
119890000 -27.437992 -109.41953 -0.11058301 -24.237259 -0.10805054 -24.225899 -28.170511 -108.73295
120889000 -27.391741 -109.95105 -0.11175312 -24.438299 -0.10722343 -24.427763 -28.086866 -108.66318
121888000 -27.347427 -110.32069 -0.11169336 -24.636526 -0.10830903 -24.618896 -28.033268 -108.98577
122887000 -27.301531 -110.5143 -0.11273757 -24.84206 -0.10893328 -24.824177 -27.984112 -109.04497
123886000 -27.247564 -110.97674 -0.1128619 -25.040247 -0.1093665 -25.024281 -27.971239 -109.26942
124885000 -27.215813 -111.47588 -0.11358672 -25.241655 -0.11008596 -25.225195 -27.941568 -109.3363
125884000 -27.164831 -111.6796 -0.11450196 -25.439106 -0.10983559 -25.422428 -27.910376 -109.54456
126883000 -27.14036 -112.08302 -0.11461572 -25.644617 -0.11055619 -25.627172 -27.865294 -109.53968
127882000 -27.092913 -112.40195 -0.11511382 -25.841581 -0.11097044 -25.821711 -27.826429 -109.7487
128881000 -27.058531 -112.72701 -0.1154429 -26.041584 -0.11121955 -26.023005 -27.777161 -109.87682
129880000 -27.005775 -113.04127 -0.11627983 -26.242397 -0.11161713 -26.225962 -27.733479 -109.84538
130879000 -26.937551 -113.20573 -0.11579834 -26.443636 -0.11248466 -26.426247 -27.656843 -109.93243
131878000 -26.874142 -113.44148 -0.11586586 -26.643574 -0.11227401 -26.625685 -27.589613 -109.8215
132877000 -26.801727 -113.53705 -0.11548384 -26.845207 -0.11309331 -26.828148 -27.497898 -109.80296
133876000 -26.715851 -113.74055 -0.11594004 -27.045425 -0.11346662 -27.028118 -27.402136 -109.79598
134875000 -26.620586 -113.88615 -0.11699326 -27.246758 -0.11349744 -27.22706 -27.290615 -109.68449
135874000 -26.537174 -113.9089 -0.11676403 -27.443687 -0.11327 -27.43125 -27.192953 -109.64838
136873000 -26.424826 -113.85537 -0.11767169 -27.65218 -0.11360426 -27.629313 -27.0975 -109.69315
137872000 -26.343233 -114.0313 -0.11657923 -27.851847 -0.11324981 -27.836098 -26.987614 -109.67639
138871000 -26.265284 -114.21906 -0.11783606 -28.047138 -0.11418039 -28.034607 -26.889605 -109.8616
139870000 -26.169626 -114.50568 -0.11834757 -28.25131 -0.11541419 -28.233923 -26.813265 -110.02881
140869000 -26.081081 -115.01197 -0.12069628 -28.442646 -0.11705016 -28.425085 -26.696173 -110.20364
141868000 -25.993076 -115.54075 -0.12062868 -28.637245 -0.11745466 -28.624846 -26.63525 -110.5898
142867000 -25.912867 -115.8044 -0.1191651 -28.836121 -0.11683849 -28.820503 -26.552601 -110.78688
143866000 -25.849552 -116.31301 -0.12086636 -29.032642 -0.11771983 -29.017595 -26.480021 -111.32207
144865000 -25.795979 -116.86597 -0.12240932 -29.230501 -0.11917095 -29.21789 -26.424854 -111.66272
145864000 -25.739824 -117.22677 -0.12298022 -29.433939 -0.12025103 -29.419064 -26.396723 -111.95949
146863000 -25.697777 -117.58974 -0.12397575 -29.629999 -0.12020073 -29.616629 -26.338026 -112.26409
147862000 -25.658707 -117.9889 -0.12502372 -29.829025 -0.12095765 -29.815695 -26.311697 -112.64525
148861000 -25.63245 -118.5574 -0.12478235 -30.02475 -0.12235501 -30.008839 -26.280619 -112.87312
149860000 -25.613148 -118.76221 -0.12576309 -30.225954 -0.12215186 -30.211369 -26.264212 -113.08274
150859000 -25.594925 -119.12272 -0.12499814 -30.425924 -0.1228319 -30.409508 -26.256298 -113.33858
151858000 -25.573999 -119.45986 -0.12513082 -30.62578 -0.1234199 -30.608685 -26.248665 -113.67117
152857000 -25.560595 -119.77069 -0.12619106 -30.818829 -0.12337888 -30.807255 -26.228558 -113.78472
153856000 -25.548174 -119.99722 -0.12586968 -31.019978 -0.12254193 -31.009048 -26.252199 -114.06823
154855000 -25.549217 -120.19057 -0.12665051 -31.217791 -0.12359141 -31.208555 -26.240751 -114.31859
155854000 -25.556705 -120.43428 -0.12669662 -31.415571 -0.12353468 -31.40518 -26.234581 -114.53618
156853000 -25.545671 -121.12541 -0.12414169 -31.608286 -0.12302896 -31.602087 -26.231495 -114.91554
157852000 -25.546822 -121.34159 -0.12581292 -31.807871 -0.12507993 -31.796747 -26.223915 -115.23574
158851000 -25.546021 -121.58039 -0.12667024 -32.004368 -0.12544309 -31.995222 -26.212687 -115.4636
159850000 -25.52936 -121.71496 -0.12776364 -32.203056 -0.12494618 -32.194027 -26.210762 -115.65544
160849000 -25.509348 -121.85738 -0.12783855 -32.403248 -0.12573086 -32.397991 -26.185326 -115.92858
161848000 -25.485001 -121.93176 -0.12798545 -32.604691 -0.12580307 -32.596611 -26.140265 -116.06361
162847000 -25.443825 -122.17377 -0.12817287 -32.801323 -0.12678458 -32.797672 -26.107645 -116.34154
163846000 -25.395863 -122.40397 -0.12789054 -33.001724 -0.12649406 -32.994884 -26.030855 -116.33293
164845000 -25.339373 -122.42306 -0.12852828 -33.19936 -0.12671874 -33.192268 -25.962015 -116.45332
165844000 -25.281559 -122.47973 -0.1288064 -33.397961 -0.12753704 -33.392494 -25.871565 -116.61905
166843000 -25.21839 -122.61209 -0.12814862 -33.598812 -0.12762289 -33.594299 -25.805401 -116.82008
167842000 -25.159279 -122.76242 -0.12871334 -33.79678 -0.12768313 -33.793648 -25.722212 -116.74133
168841000 -25.078737 -122.96835 -0.1296947 -33.994202 -0.1278023 -33.990364 -25.641705 -116.82065
169840000 -25.011421 -123.23205 -0.12948801 -34.188198 -0.12912959 -34.190529 -25.553211 -117.05
170839000 -24.955276 -123.53183 -0.1309548 -34.385765 -0.12873253 -34.388359 -25.468546 -117.29079
171838000 -24.894623 -123.95162 -0.13035138 -34.586636 -0.12991714 -34.58461 -25.402454 -117.52714
172837000 -24.82548 -124.34604 -0.13251044 -34.784161 -0.13124295 -34.776001 -25.331238 -117.77839
173836000 -24.762781 -124.80251 -0.13357168 -34.983654 -0.13202155 -34.979481 -25.291727 -118.01358
174835000 -24.713522 -125.25349 -0.13368994 -35.177055 -0.13271435 -35.179287 -25.243717 -118.40852
175834000 -24.661631 -125.63013 -0.13480888 -35.376091 -0.13380259 -35.373997 -25.1821 -118.71865
176833000 -24.609695 -126.05864 -0.13498458 -35.575855 -0.13406022 -35.572155 -25.12764 -118.89774
177832000 -24.564814 -126.55361 -0.13659509 -35.77182 -0.13471383 -35.769505 -25.106409 -119.08881
178831000 -24.526667 -126.92636 -0.13639741 -35.969025 -0.13498405 -35.967602 -25.067228 -119.34152
179830000 -24.494774 -127.36773 -0.13682108 -36.162312 -0.13544177 -36.166424 -25.04229 -119.4699
180829000 -24.447613 -127.59174 -0.13714594 -36.364697 -0.13609798 -36.36293 -25.013205 -119.68991
181828000 -24.427559 -127.9845 -0.13773267 -36.559547 -0.13608089 -36.560154 -24.990259 -119.79469
182827000 -24.403906 -128.34392 -0.13804746 -36.758385 -0.13606994 -36.757782 -24.979021 -119.89847
183826000 -24.363037 -128.66879 -0.13935943 -36.95414 -0.13716972 -36.948582 -24.972181 -120.05446
184825000 -24.366776 -128.98502 -0.13922231 -37.145638 -0.13693649 -37.147469 -24.95546 -120.15632
185824000 -24.339344 -129.35208 -0.13888232 -37.342518 -0.13734259 -37.345158 -24.948343 -120.20066
186823000 -24.323807 -129.72134 -0.13907771 -37.54644 -0.13778692 -37.542694 -24.944725 -120.15364
187822000 -24.303783 -130.03065 -0.14016381 -37.741909 -0.13851617 -37.737995 -24.90683 -120.29313
188821000 -24.279305 -130.29266 -0.14007238 -37.933731 -0.13871582 -37.940182 -24.894434 -120.34048
189820000 -24.264303 -130.5583 -0.14015794 -38.13422 -0.13870887 -38.136032 -24.882109 -120.52822
190819000 -24.234037 -130.82094 -0.14128122 -38.334896 -0.14024562 -38.333344 -24.851271 -120.51044
191818000 -24.2029 -130.97743 -0.14209799 -38.530537 -0.14175591 -38.528172 -24.814545 -120.39156
192817000 -24.128338 -131.26189 -0.14262468 -38.715755 -0.14176179 -38.717876 -24.737036 -120.48545
193816000 -24.092867 -131.62885 -0.14142936 -38.908028 -0.14008415 -38.908978 -24.679136 -120.72598
194815000 -24.033678 -132.06857 -0.14184016 -39.105198 -0.14115821 -39.107746 -24.613073 -120.86284
195814000 -23.98105 -132.32234 -0.14264099 -39.303223 -0.14121863 -39.304848 -24.560417 -120.9648
196813000 -23.927376 -132.65674 -0.14207418 -39.495953 -0.14074187 -39.499798 -24.47938 -121.15007
197812000 -23.87228 -132.88654 -0.14216085 -39.694382 -0.14125261 -39.692413 -24.410101 -121.26778
198811000 -23.8148 -133.09888 -0.14186877 -39.892567 -0.14119376 -39.893768 -24.338335 -121.48869
199810000 -23.747663 -133.49495 -0.14309657 -40.087273 -0.14116649 -40.082924 -24.256113 -121.60602
200809000 -23.687408 -133.78442 -0.14318378 -40.283951 -0.14168049 -40.285107 -24.179121 -121.78947
201808000 -23.634077 -134.02208 -0.14427494 -40.485088 -0.14286382 -40.485001 -24.108404 -121.8963
202807000 -23.575233 -134.40723 -0.14425139 -40.686848 -0.14339247 -40.691341 -24.056725 -122.13616
203806000 -23.523317 -134.86581 -0.14541106 -40.883667 -0.1437815 -40.886463 -23.988626 -122.33059
204805000 -23.474293 -135.23721 -0.14659782 -41.08284 -0.14510486 -41.083706 -23.923771 -122.526
