!Keysight Technologies,E5080B,MY59205177,A.15.75.32
!Date: Friday, February 23, 2024 03:27:51
!Correction: S11(Cdelta 2-Port  ) 
!S21(Cdelta 2-Port  ) 
!S12(Cdelta 2-Port  ) 
!S22(Cdelta 2-Port  ) 
!S2P File: Measurements: S11, S21, S12, S22:
# Hz S  dB   R 50
10000000 -45.96566 -0.98118484 -0.01603486 -2.0559564 -0.019345934 -2.1089132 -46.102211 -159.02103
10999000 -45.173809 -3.1026192 -0.017334919 -2.2713995 -0.018974386 -2.3291223 -46.100471 -152.65781
11998000 -44.239967 -5.8197718 -0.017986525 -2.4983351 -0.018452613 -2.5432909 -46.31432 -148.34724
12997000 -43.512348 -11.876068 -0.017752592 -2.6822867 -0.01813443 -2.7108707 -45.935234 -142.30595
13996000 -43.185387 -15.492328 -0.016460462 -2.8615232 -0.018322634 -2.8809407 -45.73254 -137.04405
14995000 -42.849586 -19.797096 -0.018302096 -3.0702937 -0.017633809 -3.093873 -45.428474 -133.44539
15994000 -42.720589 -24.315891 -0.019699307 -3.289423 -0.020744521 -3.3137217 -45.382339 -130.05878
16993000 -42.650692 -28.646172 -0.019362053 -3.4888442 -0.019691247 -3.4984508 -44.546921 -129.53729
17992000 -42.71048 -34.178822 -0.019585673 -3.6865191 -0.020603549 -3.6913493 -43.950714 -129.66447
18991000 -43.015285 -39.109737 -0.020629818 -3.9023461 -0.021440342 -3.8999624 -43.356747 -128.45151
19990000 -42.783253 -44.794594 -0.023507912 -4.1107078 -0.02385512 -4.1041675 -42.635521 -129.28886
20989000 -42.69083 -48.02142 -0.025425965 -4.3136859 -0.025357487 -4.3032174 -42.118893 -128.56447
21988000 -42.548584 -53.398449 -0.026113162 -4.5121746 -0.025998838 -4.4980416 -41.888508 -127.93731
22987000 -42.22995 -58.257992 -0.027718432 -4.7121997 -0.027456621 -4.7043405 -41.605709 -127.38726
23986000 -42.166603 -62.242092 -0.026956746 -4.9086404 -0.026517615 -4.9040527 -41.480137 -127.26473
24985000 -41.798203 -65.150017 -0.027814563 -5.1172371 -0.026743686 -5.1148267 -41.261631 -124.53062
25984000 -41.449238 -67.300011 -0.029123629 -5.3249817 -0.027266718 -5.3220506 -40.938313 -122.84397
26983000 -41.144939 -69.191765 -0.029770229 -5.5250444 -0.028660042 -5.5382762 -40.85331 -122.33752
27982000 -40.978329 -70.098007 -0.031078057 -5.7216687 -0.029663367 -5.7544823 -40.560581 -120.69078
28981000 -40.94125 -71.793358 -0.029419942 -5.9214687 -0.030048341 -5.9447107 -40.293686 -119.78159
29980000 -40.51202 -73.430412 -0.028836455 -6.1169605 -0.030791016 -6.1270113 -40.065376 -119.23838
30979000 -40.160622 -72.191467 -0.026574392 -6.4692698 -0.025091911 -6.4633627 -39.554523 -119.41307
31978000 -39.9529 -73.207611 -0.025868895 -6.6696491 -0.026212644 -6.6563678 -39.298149 -118.81573
32977000 -39.748581 -74.651718 -0.026401198 -6.8799739 -0.026830941 -6.8744864 -39.064453 -118.66595
33976000 -39.587383 -75.825897 -0.026840057 -7.0808306 -0.027342001 -7.0755167 -38.75037 -118.23465
34975000 -39.28791 -76.722847 -0.027596511 -7.2821712 -0.028645972 -7.2805419 -38.536613 -117.84884
35974000 -39.103821 -77.194565 -0.02603139 -7.475749 -0.02810193 -7.4784689 -38.263737 -116.91365
36973000 -38.866108 -77.971069 -0.027072659 -7.6776943 -0.02902434 -7.680213 -37.981968 -115.89936
37972000 -38.69379 -77.647011 -0.02610014 -7.8870559 -0.029191386 -7.9010835 -37.777767 -115.13138
38971000 -38.351719 -77.180168 -0.027005196 -8.0882177 -0.030026445 -8.098752 -37.612732 -113.57593
39970000 -38.02211 -77.434174 -0.025878789 -8.2818766 -0.028548259 -8.2994995 -37.34304 -112.84795
40969000 -37.73431 -77.187897 -0.025253858 -8.4849596 -0.028115477 -8.498642 -37.089787 -111.4314
41968000 -37.381367 -77.177986 -0.026612679 -8.6831951 -0.029360522 -8.7014265 -36.906727 -110.05665
42967000 -37.102829 -77.330444 -0.02588504 -8.8961267 -0.028690791 -8.91469 -36.693527 -108.18554
43966000 -36.798824 -77.957344 -0.02771244 -9.0969801 -0.030027488 -9.1151152 -36.435234 -107.38123
44965000 -36.554356 -78.730904 -0.027681699 -9.3000765 -0.029980049 -9.3185005 -36.20295 -107.25118
45964000 -36.316631 -79.90448 -0.029296411 -9.5035896 -0.031752329 -9.5198145 -35.957165 -106.96909
46963000 -36.14537 -81.730087 -0.029597428 -9.6985826 -0.03216904 -9.7161913 -35.783882 -107.10146
47962000 -35.9729 -83.186737 -0.030975336 -9.899272 -0.033405073 -9.9160109 -35.568687 -107.12352
48961000 -35.754704 -84.595306 -0.033159353 -10.098328 -0.035109859 -10.119344 -35.356133 -107.23688
49960000 -35.540047 -85.953552 -0.034163196 -10.297095 -0.035946578 -10.322496 -35.204575 -107.22842
50959000 -35.314308 -87.307686 -0.03503966 -10.511847 -0.036862824 -10.522729 -35.023006 -107.58428
51958000 -35.096893 -88.347252 -0.037170373 -10.710253 -0.038199428 -10.721474 -34.854515 -107.95045
52957000 -34.882168 -89.307571 -0.038276207 -10.91236 -0.03956544 -10.918808 -34.690281 -107.7064
53956000 -34.728786 -90.096352 -0.039361425 -11.1152 -0.040290147 -11.116031 -34.556152 -107.7356
54955000 -34.560966 -90.55307 -0.040741913 -11.314393 -0.04082004 -11.312553 -34.405197 -107.60578
55954000 -34.389091 -91.412094 -0.04216126 -11.516415 -0.041537382 -11.509897 -34.295139 -107.34232
56953000 -34.274746 -91.448135 -0.041268725 -11.713958 -0.041094158 -11.705814 -34.231274 -107.54593
57952000 -34.099773 -92.044876 -0.043066531 -11.912545 -0.042552311 -11.90449 -34.120651 -107.60944
58951000 -33.981518 -92.408348 -0.044244476 -12.117582 -0.042634655 -12.098993 -33.965839 -107.63849
59950000 -33.846447 -92.690346 -0.04440923 -12.319242 -0.043375563 -12.299606 -33.890152 -107.85661
60949000 -33.755623 -93.320663 -0.044357188 -12.522407 -0.044452645 -12.499144 -33.798813 -108.16669
61948000 -33.679146 -93.64502 -0.045468256 -12.721518 -0.044095941 -12.704784 -33.717926 -108.29064
62947000 -33.583958 -93.878036 -0.044961337 -12.931727 -0.045162998 -12.913833 -33.585842 -108.48419
63946000 -33.515697 -94.544876 -0.046455063 -13.134668 -0.046086945 -13.114736 -33.477615 -108.62833
64945000 -33.394989 -94.630547 -0.047201071 -13.336283 -0.046596613 -13.318485 -33.370659 -109.17735
65944000 -33.293667 -95.100288 -0.04800741 -13.53509 -0.046871617 -13.520974 -33.270416 -109.63531
66943000 -33.153275 -95.439568 -0.045699239 -13.739188 -0.04573011 -13.720719 -33.16864 -109.88371
67942000 -33.090755 -95.319901 -0.048252925 -13.933763 -0.047483183 -13.922946 -33.035439 -110.09568
68941000 -32.984646 -95.412964 -0.047660097 -14.12901 -0.046838649 -14.116172 -32.925392 -110.14034
69940000 -32.888107 -95.501915 -0.047713749 -14.327297 -0.047778394 -14.320603 -32.78722 -110.45041
70939000 -32.783344 -95.37648 -0.048229631 -14.524405 -0.047204211 -14.521208 -32.653347 -110.23561
71938000 -32.63876 -94.969627 -0.048489556 -14.722968 -0.047834929 -14.715749 -32.517731 -110.15607
72937000 -32.470348 -94.762093 -0.047824722 -14.921954 -0.046898834 -14.918522 -32.378014 -109.80181
73936000 -32.337669 -94.37014 -0.047790173 -15.12335 -0.046415031 -15.11423 -32.257763 -109.59155
74935000 -32.204933 -94.61232 -0.046413198 -15.315439 -0.046398286 -15.314273 -32.101151 -109.30088
75934000 -32.074341 -94.942574 -0.046661764 -15.524328 -0.045533389 -15.52091 -32.005039 -109.17623
76933000 -31.935101 -95.205788 -0.04873798 -15.720362 -0.047383212 -15.713655 -31.841482 -109.57211
77932000 -31.835506 -95.9944 -0.04945584 -15.917495 -0.048897408 -15.912075 -31.729578 -109.43179
78931000 -31.767017 -96.752594 -0.048876725 -16.115274 -0.048110273 -16.110519 -31.621241 -109.30518
79930000 -31.656219 -97.625435 -0.051207539 -16.313799 -0.051113505 -16.310343 -31.527872 -109.65939
80929000 -31.537249 -98.387146 -0.052902557 -16.507568 -0.051936813 -16.510319 -31.424086 -109.90655
81928000 -31.440708 -99.142998 -0.052997936 -16.698454 -0.052703153 -16.697805 -31.300903 -109.82061
82927000 -31.337019 -99.878204 -0.05461973 -16.901281 -0.053752672 -16.897484 -31.193554 -110.14458
83926000 -31.218416 -100.62744 -0.056227446 -17.098799 -0.055348005 -17.098898 -31.067225 -110.2841
84925000 -31.122385 -101.05178 -0.05687442 -17.299006 -0.054807425 -17.293598 -30.971571 -110.41069
85924000 -31.024683 -101.48981 -0.05747664 -17.497282 -0.05722693 -17.497385 -30.878437 -110.35603
86923000 -30.905483 -101.94733 -0.057413422 -17.69449 -0.057292763 -17.68951 -30.779081 -110.20386
87922000 -30.808338 -102.30869 -0.057559267 -17.900562 -0.057021819 -17.898035 -30.687616 -110.22601
88921000 -30.720728 -102.55843 -0.058808584 -18.103411 -0.058142427 -18.099298 -30.59469 -110.17058
89920000 -30.62125 -103.07108 -0.059787404 -18.302002 -0.058498714 -18.295008 -30.536894 -110.35149
90919000 -30.522087 -103.37088 -0.060352229 -18.500118 -0.05959582 -18.493235 -30.449438 -110.47816
91918000 -30.423939 -103.69746 -0.061136596 -18.697821 -0.059555404 -18.697727 -30.388336 -110.5181
92917000 -30.326319 -104.02493 -0.062895902 -18.897257 -0.061279412 -18.89632 -30.317659 -110.64658
93916000 -30.235979 -104.36328 -0.061806098 -19.089184 -0.060894024 -19.091406 -30.228489 -111.21239
94915000 -30.165916 -105.07422 -0.063037202 -19.295067 -0.062191829 -19.290226 -30.170517 -111.10469
95914000 -30.093969 -105.19188 -0.064529277 -19.489433 -0.062902465 -19.488264 -30.078468 -111.36094
96913000 -30.000753 -105.41508 -0.065980867 -19.691538 -0.064238697 -19.689005 -30.017565 -111.7099
97912000 -29.923578 -105.89441 -0.066459492 -19.885668 -0.06419798 -19.889242 -29.930706 -111.94444
98911000 -29.814756 -106.07079 -0.067774735 -20.088364 -0.065412939 -20.08704 -29.894495 -112.11403
99910000 -29.748482 -106.1848 -0.06811025 -20.288445 -0.065896764 -20.28858 -29.780376 -112.46935
100909000 -29.658285 -106.40989 -0.067565188 -20.497297 -0.065141231 -20.492149 -29.700928 -112.68317
101908000 -29.568703 -106.68168 -0.06850259 -20.69779 -0.066519424 -20.694609 -29.585278 -112.48443
102907000 -29.427639 -106.70585 -0.069807142 -20.897535 -0.066854574 -20.902576 -29.513113 -112.42143
103906000 -29.335522 -106.71415 -0.069518581 -21.107454 -0.066446871 -21.095894 -29.358456 -112.37391
104905000 -29.184418 -106.62748 -0.069569349 -21.300308 -0.066720508 -21.302534 -29.231081 -112.08286
105904000 -29.043283 -106.73846 -0.07081265 -21.507637 -0.066824608 -21.49962 -29.119644 -111.93694
106903000 -28.935709 -106.76337 -0.070778973 -21.709492 -0.067273617 -21.707546 -28.992887 -111.85583
107902000 -28.767097 -107.08939 -0.072149485 -21.913342 -0.068527833 -21.903669 -28.855965 -111.77623
108901000 -28.653069 -107.34427 -0.07258562 -22.115011 -0.069719285 -22.105019 -28.722166 -111.73181
109900000 -28.525143 -107.80473 -0.073556758 -22.316563 -0.070741348 -22.30621 -28.568892 -111.81553
110899000 -28.412066 -108.42828 -0.074550495 -22.511669 -0.07170549 -22.506231 -28.446808 -112.08949
111898000 -28.323359 -109.12033 -0.076781832 -22.717369 -0.072323985 -22.709482 -28.323448 -112.20748
112897000 -28.194595 -109.66868 -0.077920467 -22.91124 -0.073613361 -22.903505 -28.189968 -112.40515
113896000 -28.093506 -110.27654 -0.078210905 -23.116524 -0.074891798 -23.10376 -28.079758 -112.53074
114895000 -27.99045 -110.8466 -0.079470396 -23.311434 -0.075876884 -23.301079 -27.966225 -112.57506
115894000 -27.867872 -111.23457 -0.080946237 -23.515106 -0.077729665 -23.502993 -27.901064 -112.79768
116893000 -27.792294 -111.68562 -0.081703737 -23.715239 -0.078961335 -23.697554 -27.775227 -112.8182
117892000 -27.70709 -112.24876 -0.081396714 -23.907722 -0.079041734 -23.894323 -27.695097 -113.09325
118891000 -27.648684 -112.65189 -0.082921498 -24.109133 -0.079249203 -24.099823 -27.597485 -113.12343
119890000 -27.562325 -112.98782 -0.082623884 -24.312559 -0.080161713 -24.29814 -27.588512 -113.29528
120889000 -27.511183 -113.51284 -0.084513858 -24.509218 -0.079718746 -24.496405 -27.51523 -113.21184
121888000 -27.469229 -113.84293 -0.084158331 -24.707073 -0.080450721 -24.697594 -27.455137 -113.4796
122887000 -27.436417 -114.04867 -0.085031487 -24.911228 -0.082235537 -24.903025 -27.409691 -113.50914
123886000 -27.373991 -114.45724 -0.085758545 -25.117977 -0.082396202 -25.094166 -27.393763 -113.63747
124885000 -27.34025 -114.97367 -0.086064555 -25.315199 -0.082134768 -25.298395 -27.370211 -113.67904
125884000 -27.288137 -115.1687 -0.087529965 -25.515461 -0.08224266 -25.498541 -27.340515 -113.80443
126883000 -27.271263 -115.52813 -0.087545283 -25.716881 -0.083439462 -25.702227 -27.298733 -113.81874
127882000 -27.219721 -115.82109 -0.087973192 -25.915749 -0.083730794 -25.897657 -27.258665 -114.00262
128881000 -27.188932 -116.16876 -0.088066705 -26.118988 -0.083917908 -26.102085 -27.224072 -114.05618
129880000 -27.136272 -116.48343 -0.089116618 -26.324413 -0.084525205 -26.301823 -27.177422 -114.01503
130879000 -27.076315 -116.64003 -0.089311622 -26.52268 -0.085948639 -26.5054 -27.102165 -114.06391
131878000 -27.00544 -116.86662 -0.089262739 -26.723133 -0.085223928 -26.701715 -27.045599 -113.92392
132877000 -26.936844 -116.98114 -0.088315554 -26.927338 -0.08620397 -26.910828 -26.960974 -113.88829
133876000 -26.851313 -117.14277 -0.089128241 -27.129774 -0.086384058 -27.107771 -26.872538 -113.79195
134875000 -26.752535 -117.24868 -0.088993751 -27.332535 -0.086610623 -27.308006 -26.772657 -113.61349
135874000 -26.676144 -117.26186 -0.08888939 -27.528399 -0.087248407 -27.514393 -26.667931 -113.59385
136873000 -26.561314 -117.19412 -0.089493684 -27.726158 -0.086421818 -27.714481 -26.584848 -113.59277
137872000 -26.474207 -117.3271 -0.08991994 -27.931965 -0.086214267 -27.916136 -26.477676 -113.52736
138871000 -26.401491 -117.54828 -0.09011022 -28.132486 -0.086790726 -28.116459 -26.389284 -113.65506
139870000 -26.301043 -117.80286 -0.090542085 -28.331038 -0.087956555 -28.318151 -26.300102 -113.87541
140869000 -26.21982 -118.37591 -0.092113979 -28.527695 -0.088685423 -28.509792 -26.198076 -114.02106
141868000 -26.143597 -118.80711 -0.093140006 -28.727022 -0.090026177 -28.710966 -26.145452 -114.31783
142867000 -26.059744 -118.99534 -0.09161903 -28.927036 -0.08930026 -28.908817 -26.068937 -114.41317
143866000 -25.985363 -119.49673 -0.093548633 -29.124716 -0.090845525 -29.109362 -25.998928 -114.87678
144865000 -25.93301 -120.03609 -0.095292538 -29.321333 -0.092579886 -29.306709 -25.935644 -115.14344
145864000 -25.879499 -120.35165 -0.095314503 -29.525211 -0.092997193 -29.512451 -25.907642 -115.41263
146863000 -25.830078 -120.67355 -0.096860595 -29.727606 -0.094085328 -29.714186 -25.856426 -115.74538
147862000 -25.795326 -121.02692 -0.097422585 -29.923475 -0.094692461 -29.913176 -25.823952 -115.99943
148861000 -25.760847 -121.48213 -0.099074557 -30.122566 -0.096579492 -30.106173 -25.79908 -116.19759
149860000 -25.730711 -121.62425 -0.099449046 -30.313416 -0.096584521 -30.305183 -25.752466 -116.25751
150859000 -25.703188 -122.11899 -0.099388659 -30.512009 -0.0961105 -30.500654 -25.730467 -116.61712
151858000 -25.688042 -122.46996 -0.098266892 -30.709162 -0.095594198 -30.697603 -25.718672 -116.94818
152857000 -25.678123 -122.78817 -0.099259943 -30.906982 -0.096683778 -30.897928 -25.707941 -117.10156
153856000 -25.678854 -123.03017 -0.098792784 -31.111113 -0.094946451 -31.101543 -25.722858 -117.41592
154855000 -25.67354 -123.19302 -0.099562675 -31.311226 -0.096470445 -31.29884 -25.717999 -117.68568
155854000 -25.689707 -123.39597 -0.099925548 -31.514135 -0.096506439 -31.497738 -25.703457 -117.92681
156853000 -25.681746 -124.11807 -0.097301602 -31.6994 -0.09530127 -31.690599 -25.703825 -118.24732
157852000 -25.686979 -124.29976 -0.098697983 -31.900946 -0.097259246 -31.891264 -25.69022 -118.59219
158851000 -25.689327 -124.53078 -0.099110313 -32.101048 -0.097782366 -32.091888 -25.679653 -118.89439
159850000 -25.670605 -124.63969 -0.10015203 -32.300774 -0.097954988 -32.288754 -25.680935 -119.05399
160849000 -25.654606 -124.74337 -0.10017031 -32.497845 -0.099047549 -32.494865 -25.644159 -119.36689
161848000 -25.635422 -124.81124 -0.10046887 -32.697353 -0.09894003 -32.694527 -25.611717 -119.4716
162847000 -25.599407 -124.98531 -0.10060769 -32.897827 -0.099824101 -32.893291 -25.578609 -119.70444
163846000 -25.556326 -125.19553 -0.10135537 -33.100544 -0.099294908 -33.095192 -25.503231 -119.70705
164845000 -25.496807 -125.19276 -0.10148786 -33.299473 -0.100027 -33.294888 -25.444565 -119.81657
165844000 -25.443727 -125.21519 -0.10144228 -33.499493 -0.10014488 -33.492081 -25.361908 -119.95222
166843000 -25.384325 -125.27104 -0.1014142 -33.698887 -0.10020819 -33.693043 -25.293413 -120.13185
167842000 -25.323915 -125.39536 -0.10219674 -33.898415 -0.10071948 -33.892036 -25.220211 -120.04223
168841000 -25.251577 -125.55421 -0.10297889 -34.097466 -0.10153608 -34.095428 -25.142706 -120.11206
169840000 -25.181995 -125.80585 -0.10235708 -34.295464 -0.10113969 -34.290421 -25.051809 -120.32572
170839000 -25.125895 -126.05461 -0.10334285 -34.490833 -0.10218693 -34.491024 -24.976995 -120.48058
171838000 -25.067322 -126.4369 -0.10372487 -34.690865 -0.10261894 -34.687004 -24.908455 -120.72923
172837000 -24.999203 -126.75561 -0.10558267 -34.89106 -0.10350615 -34.888241 -24.847811 -120.92354
173836000 -24.931057 -127.17627 -0.10666016 -35.090946 -0.10448475 -35.086964 -24.801514 -121.15553
174835000 -24.871946 -127.56927 -0.10722475 -35.285469 -0.10548984 -35.285599 -24.757032 -121.46358
175834000 -24.826462 -127.95687 -0.10758323 -35.487167 -0.10654026 -35.484734 -24.696041 -121.7316
176833000 -24.776888 -128.32397 -0.10900283 -35.687492 -0.1074487 -35.685093 -24.645947 -121.86831
177832000 -24.729511 -128.74919 -0.10954701 -35.882866 -0.10855426 -35.884159 -24.627163 -121.97195
178831000 -24.687941 -128.98389 -0.11087139 -36.08305 -0.10984807 -36.083405 -24.588356 -122.08709
179830000 -24.628233 -129.31105 -0.11274235 -36.271175 -0.11058779 -36.270878 -24.530338 -122.11059
180829000 -24.561169 -129.68765 -0.11172125 -36.459824 -0.11035837 -36.458958 -24.483274 -122.42957
181828000 -24.536875 -130.13062 -0.11070994 -36.65913 -0.10980347 -36.657082 -24.462301 -122.64706
182827000 -24.515522 -130.53285 -0.11117998 -36.855949 -0.10983533 -36.859154 -24.450994 -122.76134
183826000 -24.473484 -130.8604 -0.11203361 -37.056408 -0.11024527 -37.052437 -24.442686 -122.92004
184825000 -24.480316 -131.18849 -0.11182616 -37.250477 -0.11014463 -37.25201 -24.421482 -123.04755
185824000 -24.447166 -131.56989 -0.11178632 -37.448467 -0.11034776 -37.450199 -24.412497 -123.12225
186823000 -24.437822 -131.90942 -0.11186574 -37.651306 -0.11044467 -37.646358 -24.40955 -123.1416
187822000 -24.404955 -132.24887 -0.11239912 -37.846668 -0.11087033 -37.845577 -24.366989 -123.215
188821000 -24.383537 -132.51279 -0.11253513 -38.039307 -0.11131994 -38.046703 -24.348221 -123.33224
189820000 -24.360523 -132.81657 -0.11291185 -38.240669 -0.11185299 -38.24202 -24.333799 -123.52537
190819000 -24.331234 -133.12616 -0.11328834 -38.440315 -0.11201979 -38.437939 -24.290565 -123.57613
191818000 -24.298273 -133.40294 -0.1134443 -38.637146 -0.11245358 -38.636917 -24.25713 -123.6289
192817000 -24.24906 -133.70334 -0.11388913 -38.831657 -0.1128008 -38.835838 -24.216085 -123.67265
193816000 -24.217283 -133.95654 -0.11444588 -39.027222 -0.11232634 -39.030636 -24.164211 -123.85768
194815000 -24.15888 -134.3597 -0.11453385 -39.220463 -0.11339276 -39.227524 -24.098312 -123.9032
195814000 -24.09623 -134.53868 -0.11468322 -39.424232 -0.11347964 -39.423813 -24.041729 -124.01362
196813000 -24.04423 -134.87601 -0.11461625 -39.615211 -0.11410651 -39.619923 -23.960205 -124.17369
197812000 -23.984787 -135.09955 -0.11532754 -39.816406 -0.11444349 -39.814243 -23.886343 -124.27313
198811000 -23.933498 -135.22499 -0.11583396 -40.011765 -0.11391942 -40.015373 -23.814053 -124.43516
199810000 -23.862263 -135.59937 -0.11632901 -40.20874 -0.11379611 -40.209743 -23.738949 -124.54041
200809000 -23.798244 -135.8468 -0.11638937 -40.403652 -0.11434462 -40.407097 -23.660746 -124.73043
201808000 -23.745848 -136.05756 -0.11698607 -40.60585 -0.11603097 -40.607677 -23.594391 -124.79446
202807000 -23.680527 -136.41161 -0.11751903 -40.804771 -0.1167026 -40.811058 -23.537323 -125.0045
