!Keysight Technologies,E5080B,MY59205177,A.15.75.32
!Date: Friday, February 23, 2024 02:49:35
!Correction: S11(Cdelta 2-Port  ) 
!S21(Cdelta 2-Port  ) 
!S12(Cdelta 2-Port  ) 
!S22(Cdelta 2-Port  ) 
!S2P File: Measurements: S11, S21, S12, S22:
# Hz S  dB   R 50
10000000 -41.919945 -3.39624 -0.045107808 -2.0479064 -0.04700638 -2.1032975 -52.429733 -130.00607
10999000 -41.374985 -4.6537962 -0.045686159 -2.2686477 -0.047326162 -2.3237703 -51.36356 -119.80315
11998000 -40.762016 -6.7271051 -0.045825072 -2.4923646 -0.047202643 -2.5310013 -51.069839 -111.92657
12997000 -40.255592 -10.679006 -0.044837624 -2.6694615 -0.045716245 -2.7002194 -49.75095 -106.24742
13996000 -40.063519 -13.387861 -0.044051748 -2.8463957 -0.046538528 -2.8710968 -48.825989 -100.80151
14995000 -39.804298 -16.498293 -0.046459772 -3.0603111 -0.046478089 -3.0844395 -48.205486 -98.653313
15994000 -39.748432 -19.734543 -0.047589436 -3.2780483 -0.049094539 -3.3000255 -47.69194 -95.095322
16993000 -39.730415 -22.709959 -0.046836033 -3.4736907 -0.048323862 -3.4870305 -46.787663 -98.417496
17992000 -39.886768 -26.662256 -0.047697 -3.6772394 -0.049401645 -3.6751366 -46.108704 -100.798
18991000 -40.154285 -30.050756 -0.048731957 -3.8867285 -0.049545124 -3.8841839 -45.39053 -101.89436
19990000 -40.123543 -34.167889 -0.051152531 -4.0947456 -0.051493052 -4.0888171 -44.677353 -105.35344
20989000 -40.105488 -36.847435 -0.053139176 -4.298893 -0.052858271 -4.2879524 -44.017174 -106.22461
21988000 -40.069267 -40.841076 -0.053564236 -4.4942489 -0.054814503 -4.4817061 -43.727058 -106.40854
22987000 -39.988918 -44.95652 -0.054685265 -4.6949248 -0.055295307 -4.6869965 -43.470474 -106.30517
23986000 -40.073994 -48.105915 -0.054689981 -4.8889904 -0.054442268 -4.8876076 -43.309261 -106.41227
24985000 -39.864632 -50.511513 -0.055608619 -5.1005454 -0.055291638 -5.0939341 -42.902481 -104.08735
25984000 -39.696064 -52.753738 -0.056724668 -5.3070564 -0.055444486 -5.3017569 -42.524574 -103.44448
26983000 -39.462391 -54.796326 -0.057561889 -5.5028539 -0.056427009 -5.5200744 -42.355949 -102.90272
27982000 -39.395107 -55.701862 -0.058827475 -5.701961 -0.057673376 -5.7378573 -41.963276 -101.53119
28981000 -39.370991 -56.973003 -0.056772921 -5.9004631 -0.058530983 -5.9255152 -41.694653 -101.30948
29980000 -39.057503 -58.710102 -0.056908254 -6.0935006 -0.058492154 -6.0989985 -41.313377 -100.93106
30979000 -38.728722 -58.422234 -0.054510158 -6.4498582 -0.053437918 -6.4442453 -40.775982 -102.51614
31978000 -38.582008 -59.677708 -0.053773113 -6.6455665 -0.054653808 -6.6375084 -40.498646 -102.18195
32977000 -38.470131 -61.380665 -0.053381577 -6.8552632 -0.054941382 -6.8496447 -40.236797 -102.67435
33976000 -38.337528 -62.551399 -0.054947935 -7.0575323 -0.055678889 -7.0499067 -39.892677 -102.54774
34975000 -38.110497 -63.713432 -0.054499149 -7.2553482 -0.056351483 -7.2560372 -39.634712 -102.69016
35974000 -37.929405 -64.404625 -0.053605121 -7.4511552 -0.05652168 -7.455195 -39.297821 -102.20888
36973000 -37.73811 -65.516846 -0.054111741 -7.6524816 -0.056452185 -7.6551447 -38.94582 -101.442
37972000 -37.558243 -65.584656 -0.054436501 -7.8621087 -0.057238206 -7.8725896 -38.700165 -101.08186
38971000 -37.239952 -65.537598 -0.055138003 -8.0588503 -0.057039395 -8.0741625 -38.447186 -99.479202
39970000 -36.931202 -66.316643 -0.053522307 -8.256691 -0.056028415 -8.2720175 -38.12841 -99.361191
40969000 -36.669189 -66.386429 -0.054138474 -8.4549875 -0.056368526 -8.4758034 -37.84309 -98.260422
41968000 -36.354321 -66.797958 -0.053355634 -8.6557369 -0.056194928 -8.6709051 -37.602798 -97.192596
42967000 -36.121456 -67.20546 -0.053741664 -8.8693848 -0.056320015 -8.8896933 -37.322376 -95.441673
43966000 -35.8554 -68.300308 -0.054395087 -9.0713739 -0.05821405 -9.0862875 -37.020863 -95.092972
44965000 -35.657593 -69.259346 -0.055519998 -9.2722874 -0.057398733 -9.2913246 -36.788551 -95.258675
45964000 -35.475513 -70.467827 -0.056784462 -9.4711304 -0.059356224 -9.4927731 -36.553459 -95.143379
46963000 -35.333118 -72.495598 -0.056332339 -9.6655998 -0.059988182 -9.6888018 -36.378799 -95.668976
47962000 -35.199295 -74.015152 -0.058480084 -9.8690081 -0.061022922 -9.8865681 -36.147541 -96.099258
48961000 -35.04874 -75.518219 -0.060648318 -10.063434 -0.062546872 -10.084999 -35.925468 -96.475105
49960000 -34.861172 -77.013771 -0.062204171 -10.264583 -0.063677572 -10.288255 -35.786133 -96.835373
50959000 -34.68338 -78.519203 -0.062730178 -10.476694 -0.064973056 -10.487176 -35.625881 -97.30275
51958000 -34.520237 -79.853485 -0.064660385 -10.675917 -0.066524416 -10.684981 -35.44593 -98.127388
52957000 -34.337345 -81.026436 -0.065614507 -10.879258 -0.06723918 -10.885415 -35.282497 -98.022797
53956000 -34.193577 -81.868462 -0.066596963 -11.077843 -0.068578325 -11.081917 -35.151085 -98.203087
54955000 -34.031132 -82.482552 -0.067992188 -11.282618 -0.069260024 -11.276411 -34.993828 -98.283409
55954000 -33.894157 -83.416168 -0.06896203 -11.480441 -0.069681138 -11.479464 -34.870308 -98.129143
56953000 -33.778633 -83.557373 -0.068734802 -11.681836 -0.068574384 -11.667299 -34.809273 -98.410538
57952000 -33.642242 -84.279449 -0.070266455 -11.877219 -0.070562437 -11.864071 -34.701496 -98.592171
58951000 -33.525002 -84.687401 -0.070875801 -12.08509 -0.070411943 -12.062987 -34.541534 -98.797249
59950000 -33.411072 -85.176086 -0.071866818 -12.280901 -0.072098948 -12.26088 -34.477936 -99.199394
60949000 -33.305454 -85.764404 -0.071628913 -12.484741 -0.072314508 -12.462079 -34.392872 -99.468025
61948000 -33.266209 -86.173958 -0.073012851 -12.681796 -0.072480857 -12.665637 -34.306923 -99.724472
62947000 -33.175327 -86.398521 -0.072295561 -12.894791 -0.073071025 -12.870009 -34.163536 -100.1187
63946000 -33.11718 -87.172577 -0.073877446 -13.093305 -0.073788978 -13.070597 -34.059372 -100.28124
64945000 -33.007244 -87.439148 -0.0743156 -13.294862 -0.074710347 -13.27475 -33.956627 -100.91371
65944000 -32.921005 -87.762009 -0.074959219 -13.494833 -0.075067461 -13.475256 -33.8694 -101.37663
66943000 -32.7784 -88.260559 -0.073272422 -13.695597 -0.073659964 -13.6782 -33.766365 -101.7524
67942000 -32.719547 -88.184052 -0.075034276 -13.891507 -0.07486783 -13.878925 -33.659939 -102.14617
68941000 -32.600094 -88.391579 -0.075255781 -14.084759 -0.07481727 -14.07274 -33.532227 -102.06908
69940000 -32.503006 -88.441399 -0.07584475 -14.283936 -0.075586602 -14.275189 -33.397549 -102.50354
70939000 -32.395908 -88.438324 -0.07527975 -14.47755 -0.075579755 -14.473687 -33.249695 -102.49982
71938000 -32.249989 -88.085396 -0.075150162 -14.67821 -0.075233392 -14.669732 -33.123077 -102.41575
72937000 -32.087673 -88.143478 -0.073675238 -14.873892 -0.074902594 -14.868998 -32.974365 -102.26649
73936000 -31.933128 -87.889137 -0.075084843 -15.072641 -0.074279785 -15.066542 -32.851212 -101.98248
74935000 -31.807673 -88.212418 -0.074639507 -15.267642 -0.073260047 -15.263975 -32.677715 -101.74009
75934000 -31.705704 -88.523926 -0.07364022 -15.475842 -0.073543854 -15.476244 -32.596886 -101.70719
76933000 -31.577545 -89.003769 -0.075285017 -15.671215 -0.07493104 -15.666328 -32.430187 -102.26028
77932000 -31.484873 -89.860237 -0.076558672 -15.865261 -0.076275721 -15.863121 -32.326359 -102.29703
78931000 -31.431223 -90.499352 -0.075594768 -16.066252 -0.075735427 -16.064922 -32.228481 -102.1608
79930000 -31.332386 -91.423843 -0.078249648 -16.263645 -0.078840077 -16.258377 -32.13028 -102.57442
80929000 -31.209209 -92.384209 -0.079806544 -16.453926 -0.079650201 -16.453983 -32.03508 -102.98716
81928000 -31.13096 -93.349777 -0.079498336 -16.647903 -0.079818673 -16.644793 -31.909422 -103.19041
82927000 -31.053148 -94.059837 -0.081713758 -16.848881 -0.081250854 -16.845388 -31.802206 -103.52206
83926000 -30.951033 -94.838707 -0.083351858 -17.042988 -0.082690634 -17.045109 -31.695845 -103.85536
84925000 -30.848907 -95.342285 -0.084340446 -17.243006 -0.082971096 -17.242144 -31.591045 -103.97694
85924000 -30.769682 -95.884628 -0.085034393 -17.440971 -0.084045373 -17.44235 -31.511847 -104.05541
86923000 -30.667168 -96.476044 -0.084671959 -17.642248 -0.084618643 -17.634512 -31.406162 -104.01891
87922000 -30.564793 -96.88118 -0.08502198 -17.84799 -0.084130622 -17.838623 -31.314772 -104.08692
88921000 -30.498268 -97.313972 -0.086199217 -18.044369 -0.086018614 -18.043026 -31.217873 -104.17368
89920000 -30.405153 -97.809135 -0.086538531 -18.245224 -0.0858858 -18.239948 -31.171913 -104.34565
90919000 -30.307871 -98.20639 -0.088442102 -18.441046 -0.086516879 -18.43512 -31.081072 -104.63751
91918000 -30.205893 -98.622261 -0.088735618 -18.643604 -0.087242596 -18.640245 -30.999706 -104.70026
92917000 -30.133057 -99.056114 -0.089598589 -18.839899 -0.08850418 -18.839304 -30.942793 -104.78252
93916000 -30.051151 -99.454117 -0.089604139 -19.032595 -0.088369451 -19.028728 -30.865507 -105.5194
94915000 -29.977455 -100.09801 -0.091095857 -19.235268 -0.089365259 -19.229343 -30.78948 -105.34595
95914000 -29.907646 -100.3571 -0.091746725 -19.428156 -0.090332754 -19.42671 -30.710606 -105.66551
96913000 -29.826591 -100.64187 -0.093365602 -19.631613 -0.091449834 -19.628317 -30.645765 -106.06262
97912000 -29.765171 -101.12794 -0.094321825 -19.826061 -0.091647059 -19.825575 -30.568062 -106.29314
98911000 -29.650473 -101.34319 -0.094643258 -20.027554 -0.0928967 -20.023979 -30.512678 -106.55405
99910000 -29.587513 -101.48597 -0.095270045 -20.226637 -0.093015172 -20.222721 -30.421993 -106.89619
100909000 -29.497084 -101.84898 -0.095217392 -20.433489 -0.092532024 -20.427742 -30.325684 -107.20004
101908000 -29.407244 -102.09056 -0.095812246 -20.630379 -0.094168656 -20.633636 -30.206623 -106.95403
102907000 -29.274752 -102.16561 -0.096249446 -20.833202 -0.093962848 -20.828743 -30.132984 -106.89452
103906000 -29.182417 -102.32719 -0.096790709 -21.036011 -0.092786156 -21.03607 -29.974426 -106.926
104905000 -29.030857 -102.24545 -0.097030528 -21.238119 -0.093586452 -21.237095 -29.839127 -106.63498
105904000 -28.889563 -102.43676 -0.098444566 -21.439356 -0.094122626 -21.436756 -29.72094 -106.53625
106903000 -28.773071 -102.55513 -0.098039187 -21.642944 -0.094278701 -21.637339 -29.577724 -106.44494
107902000 -28.618849 -102.92871 -0.099113226 -21.84429 -0.094955184 -21.836327 -29.436966 -106.44206
108901000 -28.513783 -103.24054 -0.099734046 -22.04575 -0.096731424 -22.038946 -29.30311 -106.47166
109900000 -28.381525 -103.76256 -0.10064027 -22.245308 -0.097452499 -22.237949 -29.152838 -106.61915
110899000 -28.268406 -104.43597 -0.10232846 -22.440228 -0.098030716 -22.430986 -29.016449 -106.93378
111898000 -28.189024 -105.15754 -0.10298737 -22.643639 -0.09913256 -22.639784 -28.904478 -107.13966
112897000 -28.068151 -105.77204 -0.10498064 -22.843781 -0.1005849 -22.834934 -28.763084 -107.39056
113896000 -27.972116 -106.43729 -0.10624208 -23.047033 -0.10172396 -23.03157 -28.65554 -107.60201
114895000 -27.877697 -107.0664 -0.10684641 -23.24461 -0.10335372 -23.227985 -28.539742 -107.72069
115894000 -27.738602 -107.45927 -0.10797464 -23.442072 -0.10514426 -23.430653 -28.476101 -107.94199
116893000 -27.67148 -108.07629 -0.10828965 -23.63698 -0.10530737 -23.620171 -28.343948 -108.15337
117892000 -27.590242 -108.62722 -0.10821853 -23.83728 -0.10631026 -23.82556 -28.276094 -108.39994
118891000 -27.530848 -109.08389 -0.11039767 -24.03471 -0.1066599 -24.022421 -28.173264 -108.54458
119890000 -27.442024 -109.52549 -0.10990674 -24.237812 -0.10732956 -24.222696 -28.164309 -108.73661
120889000 -27.387466 -109.99815 -0.11141793 -24.439827 -0.10717832 -24.425186 -28.078201 -108.77873
121888000 -27.349161 -110.35685 -0.11155976 -24.633705 -0.1078133 -24.626133 -28.022894 -109.0876
122887000 -27.311535 -110.60594 -0.11229818 -24.836321 -0.10856806 -24.822454 -27.981081 -109.10033
123886000 -27.255238 -111.03526 -0.11303513 -25.037066 -0.10935561 -25.020296 -27.965191 -109.31834
124885000 -27.219292 -111.53868 -0.11366033 -25.239195 -0.11001586 -25.224594 -27.935133 -109.4043
125884000 -27.17238 -111.76756 -0.11373793 -25.437435 -0.11072879 -25.421364 -27.901791 -109.59814
126883000 -27.14831 -112.10051 -0.11395503 -25.637543 -0.11092424 -25.624567 -27.861969 -109.59057
127882000 -27.09766 -112.43474 -0.11464814 -25.836554 -0.11163971 -25.820129 -27.818995 -109.84236
128881000 -27.062002 -112.7911 -0.11512684 -26.0401 -0.1114907 -26.0228 -27.77429 -109.92994
129880000 -27.006996 -113.09499 -0.11542483 -26.243425 -0.11122087 -26.219734 -27.730659 -109.94781
130879000 -26.941782 -113.25066 -0.11547294 -26.440687 -0.11267514 -26.425831 -27.648087 -110.01875
131878000 -26.878 -113.51591 -0.11606979 -26.643606 -0.11264007 -26.624825 -27.579288 -109.89627
132877000 -26.802017 -113.64547 -0.11639947 -26.842257 -0.11289139 -26.826138 -27.492447 -109.91232
133876000 -26.722834 -113.75177 -0.11609451 -27.046196 -0.1128348 -27.024967 -27.401474 -109.83683
134875000 -26.622114 -113.96291 -0.11627451 -27.248074 -0.11331835 -27.228407 -27.290007 -109.72217
135874000 -26.542276 -113.95866 -0.11646143 -27.443941 -0.11343367 -27.426207 -27.184465 -109.72948
136873000 -26.426083 -113.95926 -0.11669037 -27.643681 -0.11396088 -27.632309 -27.091419 -109.76846
137872000 -26.342007 -114.07851 -0.11719137 -27.847212 -0.11369966 -27.832684 -26.984095 -109.69153
138871000 -26.268038 -114.32752 -0.11754882 -28.048035 -0.11367176 -28.034216 -26.886456 -109.89761
139870000 -26.168453 -114.56958 -0.11824515 -28.245594 -0.11545832 -28.232492 -26.802341 -110.07805
140869000 -26.083017 -115.06977 -0.11994126 -28.443144 -0.11667123 -28.421434 -26.691254 -110.2756
141868000 -25.994457 -115.61169 -0.12033379 -28.637077 -0.11757328 -28.618793 -26.622059 -110.64024
142867000 -25.916409 -115.92075 -0.11846381 -28.833559 -0.11658215 -28.820404 -26.541367 -110.8402
143866000 -25.850512 -116.41687 -0.12076708 -29.034735 -0.11710734 -29.015661 -26.478167 -111.35994
144865000 -25.791393 -116.93491 -0.12213029 -29.229692 -0.11912812 -29.216698 -26.414152 -111.74883
145864000 -25.74227 -117.29102 -0.12222188 -29.432121 -0.12034151 -29.419613 -26.381004 -112.01095
146863000 -25.689934 -117.68445 -0.12335491 -29.629969 -0.12071545 -29.61751 -26.336843 -112.35458
147862000 -25.658333 -118.07275 -0.12400372 -29.825535 -0.12131114 -29.81381 -26.305223 -112.69859
148861000 -25.629637 -118.60507 -0.12414648 -30.026167 -0.12171817 -30.00975 -26.277739 -112.94302
149860000 -25.610336 -118.8075 -0.12540232 -30.222195 -0.12223653 -30.214096 -26.252064 -113.13959
150859000 -25.594641 -119.18607 -0.12584384 -30.423285 -0.12259518 -30.410583 -26.240072 -113.4041
151858000 -25.574287 -119.53253 -0.12511563 -30.618994 -0.12255923 -30.607683 -26.244402 -113.70477
152857000 -25.560986 -119.8401 -0.1262854 -30.820799 -0.12291232 -30.809053 -26.221148 -113.86472
153856000 -25.548239 -120.0631 -0.12596321 -31.017296 -0.12254219 -31.006214 -26.242346 -114.17977
154855000 -25.543631 -120.23973 -0.12632857 -31.217066 -0.1229267 -31.209738 -26.233841 -114.38611
155854000 -25.557285 -120.50291 -0.1266745 -31.416983 -0.12396429 -31.405111 -26.226889 -114.64188
156853000 -25.544527 -121.20744 -0.12381461 -31.600843 -0.12259278 -31.598886 -26.217133 -114.93439
157852000 -25.551588 -121.41818 -0.12624542 -31.804476 -0.12453007 -31.798401 -26.217871 -115.31435
158851000 -25.547606 -121.67264 -0.12683868 -32.003613 -0.12460679 -31.993313 -26.205187 -115.56093
159850000 -25.529312 -121.7864 -0.1272417 -32.200871 -0.12474425 -32.193222 -26.203238 -115.73804
160849000 -25.506863 -121.9146 -0.12811822 -32.400211 -0.12570821 -32.396278 -26.17984 -116.01746
161848000 -25.48551 -122.03439 -0.12845737 -32.601837 -0.12579747 -32.595417 -26.133846 -116.12803
162847000 -25.443121 -122.2141 -0.12850562 -32.797482 -0.12582012 -32.796898 -26.105181 -116.38324
163846000 -25.405121 -122.47297 -0.12902559 -32.999702 -0.12634589 -32.990303 -26.020403 -116.39872
164845000 -25.339458 -122.48386 -0.1284387 -33.198181 -0.12639466 -33.190441 -25.958578 -116.51495
165844000 -25.284592 -122.52081 -0.12902586 -33.398449 -0.12709695 -33.390713 -25.874268 -116.68183
166843000 -25.216805 -122.67863 -0.12903573 -33.598751 -0.1267326 -33.593708 -25.803125 -116.86603
167842000 -25.158087 -122.79798 -0.12930533 -33.795193 -0.12747361 -33.787479 -25.716814 -116.8138
168841000 -25.076941 -123.01904 -0.12972511 -33.995377 -0.12793747 -33.992718 -25.633635 -116.87557
169840000 -25.017687 -123.28577 -0.13000302 -34.193481 -0.12775885 -34.183258 -25.545015 -117.10924
170839000 -24.953506 -123.57787 -0.1307926 -34.384212 -0.12865548 -34.383373 -25.453756 -117.32159
171838000 -24.895906 -124.01042 -0.13037966 -34.588242 -0.1293104 -34.58321 -25.396267 -117.60178
172837000 -24.830246 -124.41064 -0.132203 -34.781895 -0.13060267 -34.776108 -25.320169 -117.84181
173836000 -24.765398 -124.81718 -0.13323428 -34.982452 -0.13111275 -34.976219 -25.279322 -118.09907
174835000 -24.713535 -125.26266 -0.13366912 -35.174072 -0.13235779 -35.178116 -25.235502 -118.4622
175834000 -24.662689 -125.69339 -0.13456082 -35.375301 -0.13289583 -35.371773 -25.171524 -118.78642
176833000 -24.610773 -126.09579 -0.13547382 -35.571423 -0.13334692 -35.571053 -25.115814 -118.97023
177832000 -24.565277 -126.60163 -0.13588031 -35.767029 -0.13444842 -35.772583 -25.092564 -119.17411
178831000 -24.526609 -126.97238 -0.13651013 -35.966331 -0.13491409 -35.96373 -25.056786 -119.41228
179830000 -24.494455 -127.44034 -0.13744624 -36.163002 -0.13560681 -36.166451 -25.029608 -119.55116
180829000 -24.454706 -127.66354 -0.13775191 -36.358868 -0.13599996 -36.357048 -24.99914 -119.72153
181828000 -24.425854 -128.04453 -0.13780856 -36.556805 -0.13574676 -36.553238 -24.986256 -119.88567
182827000 -24.401672 -128.37856 -0.13781123 -36.755344 -0.13599141 -36.754906 -24.96826 -119.94893
183826000 -24.366014 -128.71815 -0.13873212 -36.951706 -0.13713044 -36.949486 -24.960403 -120.09747
184825000 -24.366896 -129.04591 -0.13898817 -37.149063 -0.13739415 -37.146164 -24.943283 -120.23737
185824000 -24.336506 -129.41895 -0.13899137 -37.341507 -0.13738506 -37.342037 -24.934374 -120.23619
186823000 -24.324549 -129.78244 -0.13908759 -37.542236 -0.13787001 -37.543797 -24.937456 -120.22527
187822000 -24.303646 -130.07912 -0.13902932 -37.737438 -0.13850361 -37.734581 -24.905121 -120.3175
188821000 -24.282997 -130.34457 -0.13935542 -37.933086 -0.13837828 -37.939823 -24.883759 -120.41985
189820000 -24.268084 -130.60873 -0.13991225 -38.132 -0.13885319 -38.135128 -24.87995 -120.56323
190819000 -24.239939 -130.87628 -0.14093652 -38.334007 -0.14004618 -38.3311 -24.841522 -120.55728
191818000 -24.202639 -131.02769 -0.1419656 -38.528133 -0.14111489 -38.528042 -24.807304 -120.37884
192817000 -24.13044 -131.32846 -0.14284509 -38.712009 -0.14231063 -38.714218 -24.734592 -120.4814
193816000 -24.090561 -131.66823 -0.14225392 -38.906597 -0.14032289 -38.909111 -24.674038 -120.78213
194815000 -24.038 -132.11636 -0.14188643 -39.101051 -0.14100552 -39.103664 -24.612448 -120.91849
195814000 -23.98378 -132.36139 -0.14268191 -39.301033 -0.14147644 -39.301785 -24.556799 -121.03009
196813000 -23.929153 -132.72533 -0.14191103 -39.495533 -0.14111729 -39.498512 -24.47485 -121.2309
197812000 -23.869991 -132.97969 -0.1422237 -39.695988 -0.14103547 -39.694859 -24.409521 -121.33212
198811000 -23.820408 -133.13287 -0.14257117 -39.893452 -0.1409547 -39.894642 -24.332952 -121.53885
199810000 -23.747004 -133.52545 -0.1426557 -40.086517 -0.14101915 -40.084 -24.254555 -121.6563
200809000 -23.690304 -133.82417 -0.14344919 -40.280437 -0.14246792 -40.286118 -24.174311 -121.8354
201808000 -23.63443 -134.05159 -0.1438278 -40.482136 -0.14212768 -40.4888 -24.102449 -121.96201
202807000 -23.57515 -134.41734 -0.14525715 -40.680984 -0.14327796 -40.687565 -24.046793 -122.14736
203806000 -23.52383 -134.90005 -0.14597347 -40.883156 -0.14378953 -40.88689 -23.978313 -122.35712
