!Keysight Technologies,E5080B,MY59205177,A.15.75.32
!Date: Friday, February 23, 2024 03:27:59
!Correction: S11(Cdelta 2-Port  ) 
!S21(Cdelta 2-Port  ) 
!S12(Cdelta 2-Port  ) 
!S22(Cdelta 2-Port  ) 
!S2P File: Measurements: S11, S21, S12, S22:
# Hz S  dB   R 50
10000000 -46.012043 -1.1485727 -0.017096862 -2.0538111 -0.019506885 -2.1084197 -46.068008 -159.21431
10999000 -45.162582 -2.9485199 -0.017875535 -2.2777162 -0.019327212 -2.3283195 -46.092121 -152.78825
11998000 -44.252491 -6.1171651 -0.018166663 -2.5013492 -0.018421937 -2.5414481 -46.305908 -147.83443
12997000 -43.556862 -11.733597 -0.017455772 -2.679074 -0.018438835 -2.711437 -45.927139 -141.87991
13996000 -43.293316 -15.777054 -0.016464878 -2.8624017 -0.01874066 -2.8800397 -45.752155 -136.84297
14995000 -42.867554 -20.082211 -0.018738579 -3.0666418 -0.018348629 -3.0990734 -45.501072 -133.34619
15994000 -42.699043 -24.253693 -0.020037368 -3.2909379 -0.021450747 -3.3136253 -45.36113 -129.87975
16993000 -42.646442 -28.820642 -0.018995445 -3.4878507 -0.02035543 -3.4983687 -44.497406 -129.6468
17992000 -42.721531 -34.329575 -0.019060185 -3.6891422 -0.021315735 -3.692189 -43.936131 -129.56926
18991000 -43.043289 -39.116669 -0.020751024 -3.9012825 -0.02245605 -3.8973887 -43.281963 -128.50354
19990000 -42.810444 -44.956722 -0.022536973 -4.10883 -0.023854598 -4.1055489 -42.588833 -129.33182
20989000 -42.686184 -48.217922 -0.025107013 -4.3150058 -0.026238166 -4.3042941 -42.072853 -128.55016
21988000 -42.480438 -53.326229 -0.025823323 -4.5090723 -0.026781714 -4.5010061 -41.802952 -128.04916
22987000 -42.212257 -58.439289 -0.026958048 -4.7136889 -0.027822118 -4.70573 -41.58424 -127.26912
23986000 -42.14983 -62.576672 -0.027356068 -4.9045515 -0.026431669 -4.9019737 -41.462212 -127.09347
24985000 -41.783024 -65.525307 -0.028558942 -5.1160293 -0.027196387 -5.114809 -41.239433 -124.91285
25984000 -41.421795 -67.429596 -0.02925784 -5.3216052 -0.028299164 -5.3238811 -40.937263 -122.8536
26983000 -41.125202 -69.512459 -0.029925052 -5.5262756 -0.029241161 -5.5380778 -40.834183 -122.45831
27982000 -40.970383 -70.356613 -0.031645678 -5.7219167 -0.030815782 -5.756187 -40.533577 -120.66936
28981000 -40.937157 -71.788544 -0.029228913 -5.9204001 -0.030439604 -5.9461398 -40.354939 -120.02346
29980000 -40.572224 -73.325752 -0.028964404 -6.114933 -0.031346604 -6.1239686 -40.09655 -119.16906
30979000 -40.136806 -72.110947 -0.026759574 -6.4723234 -0.025244225 -6.4633856 -39.497932 -119.48043
31978000 -39.951443 -73.19355 -0.025642607 -6.6648297 -0.026570745 -6.6598353 -39.281391 -118.61034
32977000 -39.750565 -74.612526 -0.026588457 -6.8766212 -0.026882254 -6.873312 -39.045979 -118.81487
33976000 -39.591888 -75.849556 -0.026921323 -7.0791755 -0.027185187 -7.0750909 -38.72311 -118.25285
34975000 -39.309521 -76.68145 -0.026903091 -7.2779083 -0.02865014 -7.2781935 -38.513645 -117.77486
35974000 -39.095673 -77.409851 -0.026100922 -7.4747057 -0.028441427 -7.4760957 -38.238026 -116.82367
36973000 -38.858395 -77.89801 -0.027242232 -7.6744905 -0.029438967 -7.6791973 -37.966785 -115.93459
37972000 -38.657574 -77.773041 -0.026722068 -7.885468 -0.029093659 -7.8973851 -37.769913 -115.1694
38971000 -38.348629 -77.182426 -0.027604848 -8.0885897 -0.028709032 -8.1024208 -37.59586 -113.57818
39970000 -38.026241 -77.553764 -0.026102485 -8.2808447 -0.028393224 -8.2962103 -37.310253 -112.83991
40969000 -37.721802 -77.162025 -0.026457973 -8.4747515 -0.028262425 -8.4943838 -37.072792 -111.35075
41968000 -37.351948 -77.148567 -0.026861936 -8.6838093 -0.028855737 -8.6993961 -36.880512 -110.11789
42967000 -37.086685 -77.244133 -0.026528813 -8.8930616 -0.028648838 -8.9177017 -36.690319 -108.15861
43966000 -36.788887 -77.942978 -0.027252132 -9.095582 -0.029981874 -9.1184864 -36.409851 -107.34885
44965000 -36.550434 -78.787773 -0.028435955 -9.3001623 -0.030308483 -9.3179541 -36.194969 -107.15289
45964000 -36.329506 -79.81675 -0.028724406 -9.5044327 -0.031749722 -9.5239096 -35.964397 -106.77962
46963000 -36.109905 -81.87368 -0.02942333 -9.6959629 -0.032313518 -9.7177153 -35.785858 -106.92587
47962000 -35.962975 -83.315689 -0.031240227 -9.9001074 -0.033166133 -9.9173203 -35.556904 -107.05688
48961000 -35.764198 -84.676323 -0.033392292 -10.093062 -0.034440544 -10.118291 -35.334526 -107.25806
49960000 -35.520603 -86.071091 -0.033930734 -10.292746 -0.035459038 -10.320693 -35.19244 -107.38652
50959000 -35.298611 -87.364243 -0.034754183 -10.511894 -0.037770387 -10.520707 -35.01001 -107.55822
51958000 -35.09164 -88.332443 -0.036733598 -10.709999 -0.038739253 -10.720126 -34.850323 -107.99666
52957000 -34.876919 -89.483986 -0.037718944 -10.913743 -0.03975771 -10.920255 -34.685745 -107.70529
53956000 -34.715057 -90.154274 -0.039058946 -11.1165 -0.04053523 -11.112789 -34.541679 -107.60762
54955000 -34.560665 -90.601364 -0.040657252 -11.315348 -0.041727908 -11.313344 -34.403347 -107.61715
55954000 -34.378017 -91.49855 -0.041806053 -11.515644 -0.041988228 -11.511235 -34.284363 -107.34292
56953000 -34.266994 -91.539116 -0.04193883 -11.715152 -0.040886674 -11.70886 -34.21524 -107.52853
57952000 -34.110577 -92.13134 -0.042905748 -11.909463 -0.042254839 -11.905382 -34.121189 -107.65398
58951000 -33.985374 -92.392174 -0.043915771 -12.115941 -0.043264445 -12.097792 -33.959232 -107.68455
59950000 -33.842426 -92.804398 -0.044289719 -12.316673 -0.044205774 -12.301915 -33.888317 -107.91187
60949000 -33.742088 -93.356628 -0.044790022 -12.519333 -0.044400603 -12.498378 -33.808739 -108.25702
61948000 -33.674953 -93.6707 -0.045936517 -12.720293 -0.044856455 -12.704355 -33.718296 -108.24851
62947000 -33.589649 -93.954155 -0.045773536 -12.929896 -0.045341127 -12.913298 -33.572277 -108.52293
63946000 -33.511501 -94.623413 -0.046888627 -13.132987 -0.046381801 -13.111997 -33.472305 -108.66508
64945000 -33.412323 -94.748558 -0.047327992 -13.332559 -0.046898048 -13.314581 -33.354736 -109.23449
65944000 -33.310127 -95.040665 -0.048259206 -13.533812 -0.047363322 -13.518758 -33.259842 -109.67111
66943000 -33.153706 -95.463387 -0.046298079 -13.737139 -0.045191769 -13.721087 -33.153202 -109.8962
67942000 -33.106701 -95.361626 -0.048497148 -13.934439 -0.047106341 -13.923329 -33.018265 -110.18947
68941000 -32.984367 -95.442535 -0.046918981 -14.126661 -0.046291016 -14.118193 -32.918777 -110.14159
69940000 -32.887909 -95.447929 -0.047866598 -14.329039 -0.047084622 -14.319183 -32.768894 -110.43815
70939000 -32.778091 -95.397514 -0.048024423 -14.523446 -0.047461983 -14.518283 -32.643642 -110.36251
71938000 -32.62648 -95.018509 -0.04830135 -14.720715 -0.046631414 -14.709431 -32.510021 -110.12496
72937000 -32.478081 -94.806427 -0.046973146 -14.918097 -0.046594784 -14.915751 -32.371796 -109.89357
73936000 -32.334522 -94.397026 -0.047058716 -15.125553 -0.046592951 -15.108544 -32.252453 -109.6334
74935000 -32.196163 -94.625206 -0.046470501 -15.314367 -0.045544114 -15.311316 -32.091351 -109.2339
75934000 -32.081482 -94.899193 -0.046764337 -15.521904 -0.045008413 -15.518824 -32.002068 -109.19672
76933000 -31.941145 -95.246986 -0.048376735 -15.716739 -0.046684269 -15.713108 -31.832779 -109.5518
77932000 -31.847031 -96.030579 -0.049838122 -15.913636 -0.048584055 -15.912371 -31.735773 -109.47202
78931000 -31.759979 -96.782402 -0.048236698 -16.115879 -0.04791528 -16.110836 -31.628309 -109.29539
79930000 -31.652338 -97.641151 -0.051042788 -16.310837 -0.049998637 -16.305775 -31.532118 -109.66631
80929000 -31.52936 -98.436951 -0.052476775 -16.507202 -0.052147184 -16.50382 -31.429945 -109.868
81928000 -31.434973 -99.180626 -0.052997936 -16.698771 -0.053032786 -16.693399 -31.294083 -109.82572
82927000 -31.33778 -99.966858 -0.054455113 -16.896719 -0.053946879 -16.896383 -31.18515 -110.18864
83926000 -31.218821 -100.61604 -0.055481195 -17.097902 -0.055190176 -17.097149 -31.07004 -110.36022
84925000 -31.109562 -101.03777 -0.056808591 -17.292776 -0.054787762 -17.294361 -30.976017 -110.40141
85924000 -31.011986 -101.48226 -0.057129882 -17.495209 -0.056888845 -17.497143 -30.883644 -110.3077
86923000 -30.908445 -102.04269 -0.058223233 -17.695652 -0.05679705 -17.688833 -30.780809 -110.24185
87922000 -30.799702 -102.29974 -0.057419457 -17.904346 -0.056486275 -17.894377 -30.69393 -110.2365
88921000 -30.717728 -102.53901 -0.058727242 -18.103346 -0.058415279 -18.096497 -30.597172 -110.23235
89920000 -30.617886 -103.10114 -0.05909171 -18.30191 -0.05879074 -18.291288 -30.536081 -110.41257
90919000 -30.515995 -103.35844 -0.06032598 -18.498196 -0.058888089 -18.495571 -30.451471 -110.55894
91918000 -30.416574 -103.67644 -0.061051276 -18.698139 -0.059234198 -18.693356 -30.384609 -110.5079
92917000 -30.319654 -104.05835 -0.062470451 -18.898903 -0.060621545 -18.896034 -30.319597 -110.65916
93916000 -30.235287 -104.38544 -0.061808985 -19.093006 -0.060359053 -19.084898 -30.224321 -111.2491
94915000 -30.162834 -105.03107 -0.063350022 -19.293638 -0.061913751 -19.289413 -30.16568 -111.1455
95914000 -30.090885 -105.25074 -0.064395547 -19.490593 -0.062772989 -19.484365 -30.072853 -111.38904
96913000 -30.000708 -105.46265 -0.065750636 -19.689234 -0.063681513 -19.687941 -30.010242 -111.74722
97912000 -29.931757 -105.9035 -0.066345155 -19.885735 -0.063930541 -19.885925 -29.936621 -111.94595
98911000 -29.820677 -106.04224 -0.067535214 -20.085661 -0.065348297 -20.083975 -29.895634 -112.20735
99910000 -29.747587 -106.19978 -0.067969576 -20.288536 -0.0649544 -20.285141 -29.775269 -112.48415
100909000 -29.655552 -106.47584 -0.067348808 -20.495789 -0.06432303 -20.490768 -29.689005 -112.73959
101908000 -29.572718 -106.68872 -0.069050401 -20.697178 -0.065977708 -20.695972 -29.584915 -112.43372
102907000 -29.424536 -106.7056 -0.068823434 -20.895668 -0.066757575 -20.897572 -29.508934 -112.44298
103906000 -29.3312 -106.75166 -0.070396684 -21.105551 -0.065817393 -21.098331 -29.355862 -112.39616
104905000 -29.185089 -106.60894 -0.070920795 -21.300833 -0.067100629 -21.299267 -29.234276 -112.06089
105904000 -29.045582 -106.69702 -0.070824228 -21.503904 -0.066867456 -21.498507 -29.119068 -111.94823
106903000 -28.932665 -106.81515 -0.070702143 -21.711491 -0.067651689 -21.703474 -28.986341 -111.7691
107902000 -28.77158 -107.15366 -0.070618741 -21.910522 -0.067660891 -21.903599 -28.851082 -111.77418
108901000 -28.653257 -107.37746 -0.072335042 -22.113234 -0.068869196 -22.105532 -28.718847 -111.75332
109900000 -28.531122 -107.84162 -0.073629424 -22.314188 -0.070301451 -22.304487 -28.568233 -111.79514
110899000 -28.411264 -108.46188 -0.075165965 -22.513382 -0.070859224 -22.505993 -28.437401 -112.062
111898000 -28.316563 -109.1382 -0.076121084 -22.711435 -0.071977884 -22.71027 -28.32163 -112.2577
112897000 -28.190767 -109.65243 -0.078055933 -22.912365 -0.073374309 -22.902729 -28.183306 -112.37292
113896000 -28.081179 -110.24272 -0.078682445 -23.113821 -0.074889161 -23.102737 -28.075127 -112.5769
114895000 -27.983992 -110.91426 -0.079315379 -23.312162 -0.076037839 -23.301863 -27.968639 -112.62537
115894000 -27.866533 -111.27745 -0.081108168 -23.515373 -0.076939926 -23.503227 -27.897297 -112.8115
116893000 -27.77931 -111.7134 -0.081746206 -23.711603 -0.078644753 -23.6961 -27.78063 -112.87363
117892000 -27.702629 -112.25301 -0.081745408 -23.911732 -0.078920737 -23.89328 -27.690294 -113.03819
118891000 -27.643528 -112.68355 -0.083009884 -24.10746 -0.079220466 -24.094906 -27.594143 -113.20999
119890000 -27.557627 -113.04395 -0.082864501 -24.3113 -0.079673931 -24.294403 -27.579765 -113.31805
120889000 -27.506762 -113.54442 -0.084198982 -24.50832 -0.079671822 -24.497002 -27.507368 -113.27032
121888000 -27.465963 -113.86967 -0.084758542 -24.70989 -0.080946766 -24.697098 -27.453526 -113.5406
122887000 -27.429512 -114.04644 -0.084765933 -24.909071 -0.08168263 -24.90177 -27.404444 -113.52322
123886000 -27.374531 -114.4724 -0.085674584 -25.115681 -0.08178366 -25.095188 -27.391109 -113.67
124885000 -27.335146 -114.97475 -0.085382588 -25.313046 -0.082278542 -25.296984 -27.362997 -113.72029
125884000 -27.285112 -115.18673 -0.086606666 -25.513103 -0.082406752 -25.498638 -27.329775 -113.86824
126883000 -27.268211 -115.53204 -0.086991966 -25.717846 -0.082701184 -25.702303 -27.288334 -113.87572
127882000 -27.217813 -115.82242 -0.087434612 -25.914837 -0.083928987 -25.900454 -27.247562 -114.02647
128881000 -27.187702 -116.1959 -0.087769799 -26.12002 -0.084132999 -26.102753 -27.210463 -114.08587
129880000 -27.131205 -116.50821 -0.088732973 -26.322922 -0.084483504 -26.30201 -27.167618 -114.08152
130879000 -27.072289 -116.70148 -0.088078327 -26.517263 -0.085050493 -26.505053 -27.096752 -114.05093
131878000 -27.004023 -116.91212 -0.089288369 -26.722389 -0.085924089 -26.703247 -27.032467 -113.94419
132877000 -26.934908 -116.98907 -0.088453986 -26.923929 -0.085355133 -26.907204 -26.955456 -113.94849
133876000 -26.848036 -117.13395 -0.088730335 -27.123871 -0.085242935 -27.106941 -26.867226 -113.82335
134875000 -26.754522 -117.2745 -0.089488924 -27.326336 -0.086227208 -27.310719 -26.762009 -113.66982
135874000 -26.666691 -117.27586 -0.089358658 -27.52384 -0.085803427 -27.511444 -26.662048 -113.62109
136873000 -26.556963 -117.24654 -0.09004917 -27.730185 -0.085394733 -27.714207 -26.580589 -113.5735
137872000 -26.478176 -117.33335 -0.090016134 -27.930943 -0.086377978 -27.916481 -26.478609 -113.52632
138871000 -26.406843 -117.59039 -0.090695657 -28.132584 -0.086873382 -28.115145 -26.383104 -113.66715
139870000 -26.303835 -117.83868 -0.09119869 -28.331705 -0.088266157 -28.313532 -26.298067 -113.8395
140869000 -26.222584 -118.42319 -0.091947667 -28.528078 -0.088501014 -28.510046 -26.199978 -114.06215
141868000 -26.136419 -118.79488 -0.093008302 -28.726435 -0.090050489 -28.713459 -26.147306 -114.28681
142867000 -26.056658 -119.01922 -0.091398813 -28.925558 -0.088873267 -28.907764 -26.063679 -114.40997
143866000 -25.981625 -119.51751 -0.093507901 -29.120163 -0.090553187 -29.106903 -25.998142 -114.90112
144865000 -25.928207 -120.05156 -0.095490731 -29.319696 -0.092123233 -29.306381 -25.934557 -115.1587
145864000 -25.875006 -120.32622 -0.095966533 -29.523626 -0.093528531 -29.509604 -25.903179 -115.43464
146863000 -25.830441 -120.71563 -0.096272208 -29.721476 -0.093591742 -29.712999 -25.850389 -115.7402
147862000 -25.787188 -121.0733 -0.098119147 -29.921932 -0.094144054 -29.9086 -25.8223 -116.03886
148861000 -25.755199 -121.48882 -0.098902687 -30.120773 -0.095856711 -30.101686 -25.801064 -116.191
149860000 -25.725639 -121.6664 -0.10010303 -30.314152 -0.096310057 -30.301743 -25.747385 -116.28667
150859000 -25.703711 -122.14873 -0.099858537 -30.510246 -0.095906198 -30.495705 -25.727018 -116.64416
151858000 -25.687813 -122.46272 -0.098209701 -30.711731 -0.095880523 -30.699955 -25.718224 -116.97201
152857000 -25.678328 -122.79306 -0.099050194 -30.909588 -0.096216366 -30.894756 -25.702127 -117.1579
153856000 -25.669413 -123.01826 -0.099297024 -31.111826 -0.095470883 -31.09753 -25.725536 -117.49023
154855000 -25.671978 -123.18797 -0.099138647 -31.310585 -0.095945366 -31.297581 -25.712524 -117.71101
155854000 -25.690838 -123.44118 -0.099236637 -31.508524 -0.09606763 -31.497004 -25.702459 -117.97552
156853000 -25.678953 -124.12955 -0.097558394 -31.697535 -0.09530127 -31.690975 -25.701845 -118.30853
157852000 -25.681707 -124.29572 -0.09897472 -31.897776 -0.097425759 -31.891773 -25.690088 -118.62195
158851000 -25.682129 -124.57063 -0.099991508 -32.095711 -0.097481087 -32.087814 -25.680618 -118.8901
159850000 -25.669361 -124.65765 -0.10036528 -32.298008 -0.09744826 -32.288929 -25.676432 -119.08463
160849000 -25.655527 -124.76164 -0.10039628 -32.497845 -0.099078 -32.493187 -25.642132 -119.38832
161848000 -25.63998 -124.86235 -0.10076664 -32.697674 -0.098345272 -32.691204 -25.605112 -119.47307
162847000 -25.599379 -124.9935 -0.10113598 -32.898994 -0.099034302 -32.894688 -25.579597 -119.71657
163846000 -25.560472 -125.19981 -0.10162671 -33.097767 -0.098955385 -33.092335 -25.506859 -119.7343
164845000 -25.498619 -125.20303 -0.10223834 -33.30164 -0.099215455 -33.290768 -25.439074 -119.85181
165844000 -25.448654 -125.24212 -0.10136226 -33.498215 -0.10026065 -33.491135 -25.360525 -119.95744
166843000 -25.381445 -125.27243 -0.10164181 -33.697742 -0.1001531 -33.692528 -25.292051 -120.14481
167842000 -25.331406 -125.41351 -0.10268521 -33.898865 -0.10000978 -33.889832 -25.218052 -120.04344
168841000 -25.250599 -125.56594 -0.1016018 -34.098843 -0.1010353 -34.096203 -25.138149 -120.13668
169840000 -25.183844 -125.81952 -0.10219276 -34.291866 -0.10147249 -34.287708 -25.051853 -120.29578
170839000 -25.1236 -126.02362 -0.10359019 -34.491051 -0.1012054 -34.488255 -24.977867 -120.49006
171838000 -25.06168 -126.45105 -0.10338739 -34.691944 -0.10265393 -34.686596 -24.909853 -120.72107
172837000 -24.99835 -126.78623 -0.10513923 -34.888596 -0.1031891 -34.882458 -24.841246 -120.93914
173836000 -24.928919 -127.20058 -0.10644794 -35.091831 -0.10454123 -35.086128 -24.799971 -121.14822
174835000 -24.875305 -127.62013 -0.10695519 -35.285442 -0.10544422 -35.284386 -24.759192 -121.47182
175834000 -24.822449 -127.9926 -0.107847 -35.485577 -0.10612112 -35.482544 -24.700014 -121.75883
176833000 -24.766077 -128.30836 -0.10840351 -35.684456 -0.10723245 -35.683022 -24.646967 -121.83828
177832000 -24.726194 -128.74965 -0.10935455 -35.881752 -0.10804629 -35.883293 -24.628195 -122.0145
178831000 -24.681477 -129.02263 -0.11107242 -36.082527 -0.10957622 -36.076893 -24.591024 -122.1104
179830000 -24.621241 -129.34886 -0.11302982 -36.267902 -0.11053389 -36.270954 -24.531 -122.12608
180829000 -24.557947 -129.68181 -0.11188167 -36.459591 -0.10999781 -36.461143 -24.483164 -122.44446
181828000 -24.534557 -130.15462 -0.11081775 -36.659214 -0.10986798 -36.655628 -24.463945 -122.66553
182827000 -24.518181 -130.51411 -0.11063559 -36.8564 -0.10932562 -36.85228 -24.447321 -122.78195
183826000 -24.470741 -130.8611 -0.1122594 -37.056229 -0.10944773 -37.049683 -24.442616 -122.95697
184825000 -24.479401 -131.21211 -0.11205539 -37.253735 -0.11015021 -37.25005 -24.417633 -123.06729
185824000 -24.448278 -131.55383 -0.11193214 -37.449825 -0.11052141 -37.447361 -24.415257 -123.12196
186823000 -24.430372 -131.93332 -0.11132445 -37.647469 -0.11024447 -37.646896 -24.408609 -123.1623
187822000 -24.408508 -132.26338 -0.11215048 -37.843182 -0.11069294 -37.841949 -24.365522 -123.25499
188821000 -24.38545 -132.50874 -0.1123189 -38.037094 -0.11126735 -38.042446 -24.34362 -123.36841
189820000 -24.361729 -132.80914 -0.11245066 -38.239201 -0.11116085 -38.237675 -24.32869 -123.55303
190819000 -24.329117 -133.12041 -0.11314459 -38.4384 -0.11181553 -38.437981 -24.284639 -123.57859
191818000 -24.297752 -133.41125 -0.11293257 -38.636082 -0.1122849 -38.634121 -24.26078 -123.61132
192817000 -24.248394 -133.71065 -0.11386601 -38.831654 -0.11224346 -38.833244 -24.211515 -123.72994
193816000 -24.217421 -133.97708 -0.11416736 -39.026867 -0.11228436 -39.025555 -24.162628 -123.87171
194815000 -24.157246 -134.35855 -0.11488894 -39.22583 -0.11328834 -39.225273 -24.098606 -123.95919
195814000 -24.100395 -134.53571 -0.11543918 -39.423809 -0.11284596 -39.420395 -24.037308 -124.04531
196813000 -24.045433 -134.88797 -0.11509016 -39.6138 -0.11304709 -39.621052 -23.95887 -124.18085
197812000 -23.984934 -135.09189 -0.11540409 -39.811176 -0.11398958 -39.811707 -23.884436 -124.29271
198811000 -23.932167 -135.25206 -0.11585337 -40.008884 -0.11384528 -40.014172 -23.818872 -124.44729
199810000 -23.85811 -135.60632 -0.11584752 -40.207146 -0.11355802 -40.208706 -23.738672 -124.56018
200809000 -23.798904 -135.85864 -0.11595732 -40.402714 -0.11415434 -40.402649 -23.656826 -124.73249
201808000 -23.740139 -136.07332 -0.11764004 -40.603088 -0.11480974 -40.607887 -23.588167 -124.81902
202807000 -23.68576 -136.41328 -0.11773925 -40.804676 -0.11627956 -40.808613 -23.537025 -125.0004
203806000 -23.629604 -136.82501 -0.11939019 -41.003872 -0.11635002 -41.009373 -23.470066 -125.1583
