!Keysight Technologies,E5080B,MY59205177,A.15.75.32
!Date: Friday, February 23, 2024 02:49:41
!Correction: S11(Cdelta 2-Port  ) 
!S21(Cdelta 2-Port  ) 
!S12(Cdelta 2-Port  ) 
!S22(Cdelta 2-Port  ) 
!S2P File: Measurements: S11, S21, S12, S22:
# Hz S  dB   R 50
10000000 -41.939751 -3.3365529 -0.044437997 -2.0499983 -0.046795473 -2.1045158 -52.230087 -131.15666
10999000 -41.399254 -4.7545123 -0.045372516 -2.2680297 -0.046952214 -2.3222921 -51.297947 -120.42593
11998000 -40.739014 -6.7926393 -0.0457513 -2.4921277 -0.046813268 -2.5344646 -51.07655 -112.27349
12997000 -40.283478 -10.559545 -0.045021493 -2.6692276 -0.046188194 -2.7049353 -49.707401 -106.70117
13996000 -40.084969 -13.428022 -0.043818757 -2.85045 -0.04703778 -2.8695929 -48.808876 -100.77801
14995000 -39.84502 -16.646605 -0.045893613 -3.0618463 -0.046123572 -3.087126 -48.121758 -98.983055
15994000 -39.783173 -19.910431 -0.047491293 -3.2760739 -0.04848275 -3.2993665 -47.602955 -95.354362
16993000 -39.813118 -22.772905 -0.046959542 -3.4774511 -0.047656171 -3.4833386 -46.732723 -98.750801
17992000 -39.901356 -26.829317 -0.047213372 -3.6754346 -0.048418354 -3.6788719 -46.137833 -101.1042
18991000 -40.174923 -30.33539 -0.048415214 -3.8838205 -0.049271785 -3.8828499 -45.309357 -102.16436
19990000 -40.147823 -34.446938 -0.050945878 -4.0933805 -0.051359985 -4.0899906 -44.685787 -105.40272
20989000 -40.132744 -36.80999 -0.052657038 -4.2989359 -0.053060301 -4.2878671 -43.950134 -106.70313
21988000 -40.106487 -41.049042 -0.053634997 -4.494349 -0.05403075 -4.4817538 -43.709671 -106.35017
22987000 -40.00869 -45.149189 -0.054726157 -4.6931763 -0.055413026 -4.685472 -43.385078 -106.62234
23986000 -40.10033 -48.128906 -0.053887647 -4.8890896 -0.05421868 -4.8889174 -43.253597 -106.99756
24985000 -39.885132 -50.700153 -0.055052537 -5.0988545 -0.054936927 -5.0925889 -42.928925 -104.60454
25984000 -39.695953 -52.940681 -0.056509092 -5.3061304 -0.055300549 -5.3043461 -42.477703 -103.67921
26983000 -39.483345 -54.790302 -0.056887534 -5.5041432 -0.056031562 -5.5202694 -42.306862 -103.15061
27982000 -39.391266 -55.884758 -0.0584995 -5.7039599 -0.057817917 -5.7388773 -41.914417 -101.90259
28981000 -39.391411 -56.993721 -0.056305066 -5.9010434 -0.058188602 -5.9271212 -41.597908 -101.52221
29980000 -39.112011 -59.003704 -0.056379281 -6.0949025 -0.057878513 -6.1037431 -41.282837 -101.23613
30979000 -38.752071 -58.624134 -0.053747691 -6.4514699 -0.052654941 -6.437047 -40.763702 -102.77848
31978000 -38.57283 -59.986172 -0.053285662 -6.6474781 -0.054180149 -6.6353664 -40.467484 -102.43671
32977000 -38.471416 -61.551685 -0.053115591 -6.8540521 -0.054944266 -6.8504572 -40.221382 -102.91775
33976000 -38.350899 -62.708542 -0.054171238 -7.0587063 -0.054754209 -7.0501409 -39.875671 -102.92141
34975000 -38.099396 -63.715618 -0.05395579 -7.2524238 -0.056503847 -7.2546682 -39.626923 -102.93428
35974000 -37.946804 -64.587219 -0.053359039 -7.4509826 -0.05587633 -7.4552393 -39.283733 -102.24223
36973000 -37.732861 -65.500359 -0.053799059 -7.6554589 -0.056801774 -7.6543922 -38.968487 -101.6576
37972000 -37.559017 -65.598129 -0.053632375 -7.861033 -0.056927137 -7.8682799 -38.676353 -101.19042
38971000 -37.256336 -65.714653 -0.054848056 -8.06143 -0.056571506 -8.0739031 -38.442261 -99.66256
39970000 -36.96199 -66.535736 -0.053288806 -8.2582636 -0.055944242 -8.2741861 -38.129845 -99.532814
40969000 -36.679676 -66.650688 -0.052730143 -8.4463663 -0.054929584 -8.4742489 -37.833248 -98.334648
41968000 -36.375278 -66.950165 -0.053528335 -8.6543121 -0.056124389 -8.679038 -37.59856 -97.40361
42967000 -36.125217 -67.491806 -0.053345412 -8.866024 -0.055733163 -8.888834 -37.326397 -95.643822
43966000 -35.866177 -68.389671 -0.054295219 -9.0662193 -0.057065886 -9.0861216 -37.014732 -95.339378
44965000 -35.668831 -69.293327 -0.054508325 -9.2697372 -0.057786435 -9.2910738 -36.800449 -95.3274
45964000 -35.468559 -70.678925 -0.055727657 -9.4675093 -0.058627278 -9.49265 -36.52132 -95.296364
46963000 -35.341248 -72.609642 -0.056745384 -9.6664104 -0.059014563 -9.6851721 -36.35614 -95.837334
47962000 -35.215935 -74.191574 -0.057531986 -9.8685675 -0.060982756 -9.8848877 -36.155998 -96.225998
48961000 -35.056919 -75.707985 -0.060001042 -10.065763 -0.062336519 -10.086157 -35.928711 -96.737389
49960000 -34.850166 -77.150352 -0.061373666 -10.264512 -0.063687816 -10.284325 -35.781158 -97.04007
50959000 -34.687557 -78.660873 -0.062135633 -10.477412 -0.064876623 -10.486699 -35.601158 -97.470375
51958000 -34.5233 -79.889687 -0.063414633 -10.676185 -0.066046573 -10.684732 -35.453381 -98.197784
52957000 -34.341717 -81.18251 -0.06556116 -10.876114 -0.067565709 -10.883199 -35.269814 -98.183716
53956000 -34.197414 -81.911324 -0.06688533 -11.077695 -0.067625396 -11.083227 -35.141842 -98.346123
54955000 -34.050541 -82.616333 -0.067667201 -11.277124 -0.069038302 -11.275382 -34.992115 -98.412086
55954000 -33.905029 -83.516846 -0.068867616 -11.481219 -0.069585659 -11.478185 -34.875282 -98.23996
56953000 -33.782162 -83.662895 -0.068317987 -11.679994 -0.068073958 -11.670938 -34.793697 -98.583588
57952000 -33.633362 -84.390335 -0.069972344 -11.878684 -0.069661677 -11.869555 -34.685284 -98.749191
58951000 -33.527992 -84.853561 -0.070780814 -12.082472 -0.070482455 -12.060883 -34.541267 -98.898682
59950000 -33.419743 -85.252716 -0.071258657 -12.278522 -0.071324177 -12.255325 -34.471649 -99.308563
60949000 -33.320374 -85.876564 -0.071481012 -12.479074 -0.071723126 -12.461425 -34.381748 -99.656464
61948000 -33.25811 -86.312996 -0.072448485 -12.682183 -0.071738124 -12.662714 -34.30225 -99.893379
62947000 -33.172066 -86.638229 -0.072756194 -12.894737 -0.072745658 -12.870787 -34.1474 -100.28119
63946000 -33.114441 -87.391724 -0.07355123 -13.090893 -0.073723942 -13.075671 -34.046127 -100.4457
64945000 -33.008873 -87.512856 -0.073848218 -13.295587 -0.07436879 -13.274205 -33.946575 -101.01517
65944000 -32.917545 -87.872986 -0.074758276 -13.490424 -0.074271627 -13.474565 -33.85775 -101.49873
66943000 -32.78051 -88.312347 -0.072882019 -13.692683 -0.072932824 -13.675208 -33.751682 -101.81072
67942000 -32.723915 -88.28653 -0.075263418 -13.892165 -0.07439065 -13.877059 -33.638203 -102.17333
68941000 -32.60659 -88.509262 -0.07449282 -14.082705 -0.073599406 -14.068311 -33.5327 -102.27698
69940000 -32.495617 -88.546661 -0.074269779 -14.284946 -0.074457534 -14.2735 -33.388977 -102.63567
70939000 -32.401421 -88.53109 -0.07474748 -14.481017 -0.074440941 -14.471795 -33.247421 -102.5733
71938000 -32.242035 -88.237122 -0.07444305 -14.675794 -0.074685588 -14.670588 -33.105675 -102.46673
72937000 -32.099102 -88.13459 -0.073709987 -14.876818 -0.074330084 -14.868399 -32.964149 -102.28059
73936000 -31.954866 -87.978836 -0.073774233 -15.075724 -0.073329024 -15.065697 -32.84293 -102.18201
74935000 -31.822899 -88.245659 -0.074293479 -15.265096 -0.072718546 -15.269257 -32.671684 -101.89162
75934000 -31.699083 -88.622856 -0.073107354 -15.477648 -0.073820569 -15.471757 -32.578983 -101.79964
76933000 -31.582628 -89.060104 -0.075091168 -15.671498 -0.074625544 -15.668461 -32.427444 -102.33899
77932000 -31.493088 -89.880219 -0.076424047 -15.869612 -0.075776257 -15.861351 -32.313389 -102.32825
78931000 -31.428219 -90.595726 -0.075732008 -16.066996 -0.075528391 -16.064672 -32.218456 -102.27771
79930000 -31.323027 -91.57338 -0.077885941 -16.256866 -0.077796862 -16.259764 -32.117748 -102.66765
80929000 -31.207552 -92.535744 -0.079191737 -16.45421 -0.078923114 -16.451124 -32.015915 -103.03868
81928000 -31.144772 -93.373947 -0.078863271 -16.650227 -0.079471186 -16.64447 -31.899281 -103.19048
82927000 -31.053125 -94.166412 -0.080812268 -16.846155 -0.080510311 -16.84486 -31.788603 -103.66489
83926000 -30.951429 -94.906898 -0.08261887 -17.04236 -0.081601389 -17.044521 -31.678623 -104.022
84925000 -30.851801 -95.465477 -0.083678015 -17.245035 -0.082056418 -17.240305 -31.589174 -104.05635
85924000 -30.762424 -95.964272 -0.084327251 -17.442404 -0.083217278 -17.440605 -31.495152 -104.15906
86923000 -30.671844 -96.555023 -0.0846131 -17.640409 -0.083569825 -17.639282 -31.386711 -104.09908
87922000 -30.562063 -96.955261 -0.084383734 -17.846365 -0.083407536 -17.841755 -31.297836 -104.16621
88921000 -30.498415 -97.356934 -0.085940719 -18.045063 -0.084804468 -18.041466 -31.209473 -104.22469
89920000 -30.406839 -97.955101 -0.086048186 -18.247757 -0.085311837 -18.23695 -31.152512 -104.44765
90919000 -30.30477 -98.262459 -0.087416917 -18.444643 -0.086456142 -18.437021 -31.072412 -104.68277
91918000 -30.216179 -98.712547 -0.087855116 -18.640574 -0.087023124 -18.637663 -30.998394 -104.77601
92917000 -30.137527 -99.099487 -0.089086227 -18.84289 -0.087965533 -18.834949 -30.936325 -104.91876
93916000 -30.053635 -99.491119 -0.088577628 -19.033701 -0.087375715 -19.030365 -30.857925 -105.61898
94915000 -29.981327 -100.18457 -0.090361036 -19.23387 -0.088420697 -19.229517 -30.790504 -105.48232
95914000 -29.918623 -100.42142 -0.0910763 -19.42791 -0.090050489 -19.42659 -30.700392 -105.7826
96913000 -29.825523 -100.67757 -0.092290074 -19.628159 -0.090910822 -19.625406 -30.631657 -106.16015
97912000 -29.762161 -101.16431 -0.09354493 -19.824377 -0.091145292 -19.823792 -30.555155 -106.4306
98911000 -29.653805 -101.37891 -0.093743302 -20.027044 -0.092100754 -20.023315 -30.515896 -106.67992
99910000 -29.588076 -101.63284 -0.094757281 -20.223925 -0.092315458 -20.22204 -30.402721 -107.00287
100909000 -29.497448 -101.91292 -0.093496792 -20.434307 -0.091662921 -20.426804 -30.322826 -107.23042
101908000 -29.414318 -102.1671 -0.09570878 -20.634356 -0.09285941 -20.632029 -30.195576 -107.03513
102907000 -29.276703 -102.21003 -0.095988765 -20.834726 -0.093462668 -20.829016 -30.117935 -107.00927
103906000 -29.182091 -102.31002 -0.096135907 -21.039576 -0.093348414 -21.033716 -29.965866 -107.03009
104905000 -29.036266 -102.29625 -0.096492939 -21.239273 -0.093500227 -21.237684 -29.83741 -106.75745
105904000 -28.891117 -102.4794 -0.096669748 -21.437632 -0.094545633 -21.42874 -29.703337 -106.54954
106903000 -28.782665 -102.64162 -0.09701518 -21.647167 -0.094144583 -21.640354 -29.577204 -106.53206
107902000 -28.621244 -102.98948 -0.097616367 -21.845501 -0.094877131 -21.833223 -29.433567 -106.54224
108901000 -28.505077 -103.28478 -0.09856002 -22.041182 -0.09586782 -22.038088 -29.297178 -106.52406
109900000 -28.384743 -103.86356 -0.098745383 -22.244846 -0.097424433 -22.236294 -29.1455 -106.72707
110899000 -28.274109 -104.53748 -0.10102364 -22.44157 -0.097765423 -22.434731 -29.01825 -107.03983
111898000 -28.189583 -105.19118 -0.10266771 -22.643871 -0.099357411 -22.636908 -28.89414 -107.22071
112897000 -28.069748 -105.83628 -0.10389428 -22.844269 -0.100671 -22.833218 -28.756382 -107.436
113896000 -27.967232 -106.49834 -0.10516257 -23.043158 -0.1023857 -23.033007 -28.650068 -107.64944
114895000 -27.867882 -107.17024 -0.10598663 -23.243544 -0.1035483 -23.2285 -28.539249 -107.79475
115894000 -27.738949 -107.54678 -0.10724439 -23.441681 -0.10464519 -23.429371 -28.474762 -108.04951
116893000 -27.66441 -108.15716 -0.10800914 -23.640795 -0.1053018 -23.621372 -28.3321 -108.2514
117892000 -27.58812 -108.69173 -0.10738077 -23.8335 -0.10582669 -23.822182 -28.259684 -108.44103
118891000 -27.532537 -109.14078 -0.10918625 -24.032927 -0.10660446 -24.02129 -28.168314 -108.67289
119890000 -27.443535 -109.54143 -0.10887861 -24.238455 -0.10679733 -24.223009 -28.148745 -108.79523
120889000 -27.390697 -110.10172 -0.11007295 -24.437689 -0.1071287 -24.423361 -28.079241 -108.82606
121888000 -27.352083 -110.45637 -0.11024632 -24.631536 -0.10827877 -24.61879 -28.017605 -109.15983
122887000 -27.313189 -110.65061 -0.1117834 -24.836166 -0.10891949 -24.819366 -27.971272 -109.19781
123886000 -27.261175 -111.09004 -0.11189522 -25.038563 -0.10942968 -25.018196 -27.953337 -109.37302
124885000 -27.22283 -111.6048 -0.11206707 -25.233076 -0.10975303 -25.225872 -27.921602 -109.45448
125884000 -27.168079 -111.80849 -0.11336831 -25.435843 -0.10992214 -25.422985 -27.893076 -109.60587
126883000 -27.150749 -112.19405 -0.11345759 -25.635874 -0.11065842 -25.623636 -27.858574 -109.71729
127882000 -27.098106 -112.49509 -0.11375546 -25.836391 -0.11112951 -25.821119 -27.808336 -109.86497
128881000 -27.062559 -112.86591 -0.11436349 -26.03787 -0.11136083 -26.022305 -27.770386 -110.00524
129880000 -27.008181 -113.17655 -0.11498383 -26.240843 -0.1114259 -26.220362 -27.727219 -109.97952
130879000 -26.944767 -113.33717 -0.11446635 -26.438738 -0.11216058 -26.42358 -27.646935 -110.06359
131878000 -26.877874 -113.57037 -0.11561384 -26.642374 -0.11237255 -26.623884 -27.579533 -109.97954
132877000 -26.806818 -113.66689 -0.11490542 -26.842403 -0.11254523 -26.825781 -27.486288 -110.02915
133876000 -26.723877 -113.84725 -0.11525869 -27.042759 -0.11269533 -27.023619 -27.388262 -109.90479
134875000 -26.624229 -114.01474 -0.11544636 -27.245829 -0.11349984 -27.227079 -27.278267 -109.80173
135874000 -26.541489 -114.05491 -0.11586879 -27.443359 -0.11304948 -27.424324 -27.180065 -109.78789
136873000 -26.425276 -113.99262 -0.11571991 -27.64576 -0.11296047 -27.629606 -27.092857 -109.79891
137872000 -26.346825 -114.1596 -0.11690497 -27.851629 -0.11351232 -27.832508 -26.977493 -109.72842
138871000 -26.272408 -114.36438 -0.11658428 -28.048508 -0.11351737 -28.027958 -26.879234 -109.99022
139870000 -26.176149 -114.64525 -0.11733764 -28.249609 -0.11527995 -28.230562 -26.793955 -110.14437
140869000 -26.091616 -115.10101 -0.11982897 -28.440165 -0.11642128 -28.425171 -26.687654 -110.35317
141868000 -25.993597 -115.66463 -0.11923879 -28.63773 -0.11733658 -28.618902 -26.620264 -110.65007
142867000 -25.920712 -115.9325 -0.1182792 -28.832684 -0.11608122 -28.817907 -26.538364 -110.89498
143866000 -25.848515 -116.42943 -0.12015868 -29.029564 -0.11766663 -29.014818 -26.468876 -111.43771
144865000 -25.794661 -116.96638 -0.12127281 -29.229443 -0.11926514 -29.215324 -26.412413 -111.77773
145864000 -25.741779 -117.33389 -0.12152011 -29.428522 -0.1201837 -29.417509 -26.37484 -112.07486
146863000 -25.694962 -117.76085 -0.12223173 -29.62738 -0.12055868 -29.615721 -26.331196 -112.37093
147862000 -25.655329 -118.12281 -0.12348435 -29.8242 -0.12089776 -29.813654 -26.298569 -112.75061
148861000 -25.625408 -118.62524 -0.12347289 -30.026182 -0.12225995 -30.009979 -26.275322 -113.0518
149860000 -25.608616 -118.85326 -0.12474025 -30.223734 -0.12184409 -30.209646 -26.243349 -113.22095
150859000 -25.597111 -119.23687 -0.1244648 -30.421133 -0.12296904 -30.408436 -26.243492 -113.49802
151858000 -25.577822 -119.58368 -0.12438542 -30.624912 -0.12315039 -30.609468 -26.232594 -113.81192
152857000 -25.561811 -119.89999 -0.12504423 -30.820187 -0.12347263 -30.808111 -26.220451 -113.92999
153856000 -25.553791 -120.09056 -0.12443577 -31.017294 -0.12220431 -31.006931 -26.239489 -114.22691
154855000 -25.546062 -120.28148 -0.12547106 -31.216072 -0.12216996 -31.2092 -26.227732 -114.44074
155854000 -25.561262 -120.52405 -0.12612657 -31.413877 -0.12364654 -31.400747 -26.221359 -114.71154
156853000 -25.545864 -121.23035 -0.12394565 -31.603155 -0.12236699 -31.595718 -26.218054 -115.04708
157852000 -25.549839 -121.45926 -0.12532131 -31.803352 -0.12421361 -31.794033 -26.20974 -115.37896
158851000 -25.546907 -121.67416 -0.126077 -32.00108 -0.12421521 -31.993235 -26.188585 -115.62701
159850000 -25.531847 -121.8163 -0.12673393 -32.199245 -0.12488971 -32.194527 -26.192249 -115.78316
160849000 -25.508718 -121.95755 -0.12642877 -32.398758 -0.12538579 -32.396381 -26.167879 -116.09653
161848000 -25.488029 -122.05432 -0.12659934 -32.600903 -0.12574898 -32.594284 -26.125406 -116.2148
162847000 -25.443769 -122.24503 -0.1269149 -32.798374 -0.1263371 -32.794769 -26.098249 -116.43932
163846000 -25.400047 -122.50967 -0.12769914 -32.99752 -0.12628433 -32.990063 -26.012102 -116.44182
164845000 -25.34343 -122.52805 -0.12755145 -33.197144 -0.12676245 -33.188663 -25.944763 -116.5867
165844000 -25.284485 -122.57442 -0.12806223 -33.398773 -0.1268544 -33.387753 -25.861078 -116.71819
166843000 -25.223097 -122.70103 -0.12732433 -33.592464 -0.12761116 -33.591873 -25.791901 -116.91907
167842000 -25.156616 -122.84755 -0.1278916 -33.793232 -0.12726595 -33.789585 -25.70739 -116.87531
168841000 -25.084032 -123.04066 -0.12848295 -33.99168 -0.12744321 -33.989452 -25.625193 -116.93784
169840000 -25.014452 -123.34142 -0.12836537 -34.187534 -0.12743096 -34.185661 -25.536705 -117.17582
170839000 -24.959005 -123.63603 -0.12982166 -34.382153 -0.12851042 -34.382572 -25.450315 -117.39426
171838000 -24.901329 -124.05458 -0.13044021 -34.58466 -0.12972245 -34.576233 -25.387398 -117.65578
172837000 -24.831007 -124.4328 -0.13184062 -34.777065 -0.13061307 -34.778072 -25.315895 -117.89251
173836000 -24.762827 -124.9026 -0.13224918 -34.982258 -0.13152069 -34.978924 -25.277061 -118.12341
174835000 -24.713697 -125.35136 -0.1329332 -35.17453 -0.13250056 -35.174526 -25.226786 -118.4837
175834000 -24.659111 -125.72884 -0.13404848 -35.376053 -0.13304824 -35.370396 -25.160727 -118.81221
176833000 -24.613201 -126.1121 -0.13449807 -35.572456 -0.13359064 -35.568592 -25.110548 -118.98029
177832000 -24.560801 -126.64821 -0.13486762 -35.770355 -0.13386479 -35.76828 -25.087061 -119.19918
178831000 -24.524519 -127.02719 -0.13561402 -35.967373 -0.13449328 -35.961033 -25.049849 -119.47009
179830000 -24.487379 -127.48279 -0.13548717 -36.161068 -0.1347229 -36.16291 -25.02284 -119.60188
180829000 -24.455442 -127.70584 -0.13686757 -36.361591 -0.13577187 -36.363735 -24.993298 -119.77087
181828000 -24.422886 -128.07811 -0.13637337 -36.559032 -0.13615781 -36.553146 -24.975935 -119.92138
182827000 -24.403423 -128.42914 -0.13656463 -36.750908 -0.13656142 -36.752136 -24.963572 -120.02137
183826000 -24.361551 -128.77806 -0.13763167 -36.950581 -0.13614312 -36.944584 -24.956141 -120.09644
184825000 -24.37081 -129.0869 -0.13751625 -37.146057 -0.13652509 -37.149975 -24.938211 -120.21689
185824000 -24.340855 -129.44373 -0.13736555 -37.339111 -0.13713686 -37.341209 -24.933228 -120.30177
186823000 -24.327126 -129.81067 -0.13760869 -37.541161 -0.13696802 -37.538254 -24.927896 -120.26865
187822000 -24.305983 -130.12694 -0.13866156 -37.734386 -0.13748151 -37.738003 -24.895014 -120.34676
188821000 -24.284016 -130.38901 -0.1386784 -37.932495 -0.13826898 -37.938175 -24.878756 -120.43061
189820000 -24.265913 -130.6154 -0.13887511 -38.132488 -0.13796729 -38.131695 -24.871828 -120.61671
190819000 -24.237658 -130.91389 -0.14012051 -38.333538 -0.13938054 -38.32909 -24.83589 -120.57621
191818000 -24.20191 -131.08334 -0.1414981 -38.526237 -0.14105472 -38.524128 -24.799814 -120.47012
192817000 -24.129044 -131.37819 -0.14168638 -38.712719 -0.14087342 -38.7164 -24.729048 -120.55888
193816000 -24.093355 -131.70782 -0.14099829 -38.902443 -0.13998309 -38.902893 -24.666189 -120.82256
194815000 -24.037767 -132.18033 -0.14078037 -39.101574 -0.14061727 -39.10429 -24.600389 -120.97733
195814000 -23.984249 -132.39537 -0.14146467 -39.295197 -0.14100204 -39.302956 -24.550919 -121.05177
196813000 -23.931517 -132.75676 -0.14114136 -39.494358 -0.14068465 -39.499496 -24.471397 -121.27193
197812000 -23.870022 -132.95862 -0.14156736 -39.692905 -0.14105739 -39.689667 -24.398769 -121.37662
198811000 -23.815042 -133.19109 -0.14114778 -39.891754 -0.14049534 -39.889626 -24.325304 -121.55268
199810000 -23.749361 -133.5645 -0.14175645 -40.085751 -0.14072555 -40.086262 -24.241369 -121.68717
200809000 -23.692915 -133.86491 -0.1420255 -40.282669 -0.14072797 -40.279339 -24.167404 -121.89638
201808000 -23.635153 -134.11929 -0.14274183 -40.483326 -0.14215228 -40.48542 -24.09462 -121.97924
202807000 -23.577543 -134.48091 -0.14354336 -40.684029 -0.14339568 -40.686352 -24.040461 -122.21233
203806000 -23.526443 -134.93672 -0.14479466 -40.881226 -0.14306071 -40.884789 -23.97369 -122.41831
204805000 -23.47566 -135.31482 -0.14587149 -41.081665 -0.1448182 -41.08234 -23.916262 -122.6088
