!Keysight Technologies,E5080B,MY59205177,A.15.75.32
!Date: Friday, February 23, 2024 02:49:48
!Correction: S11(Cdelta 2-Port  ) 
!S21(Cdelta 2-Port  ) 
!S12(Cdelta 2-Port  ) 
!S22(Cdelta 2-Port  ) 
!S2P File: Measurements: S11, S21, S12, S22:
# Hz S  dB   R 50
10000000 -41.969662 -3.4020813 -0.044425968 -2.045305 -0.046911918 -2.1062071 -52.094738 -131.05531
10999000 -41.430527 -4.6865401 -0.044786099 -2.268481 -0.046097934 -2.3197784 -51.261173 -120.90572
11998000 -40.816357 -6.7830849 -0.045397367 -2.4917986 -0.04580022 -2.5361378 -50.926384 -112.67318
12997000 -40.309692 -10.552274 -0.044166546 -2.6715548 -0.045766734 -2.7023766 -49.594803 -107.53992
13996000 -40.108982 -13.364103 -0.043384191 -2.8501596 -0.046061568 -2.8687615 -48.821922 -102.10764
14995000 -39.880886 -16.385723 -0.046268776 -3.0579317 -0.045594603 -3.083926 -48.121941 -99.364708
15994000 -39.802456 -19.740875 -0.046807248 -3.2790682 -0.048413645 -3.2994106 -47.652935 -96.190102
16993000 -39.820282 -23.131599 -0.046305142 -3.472044 -0.047505427 -3.48241 -46.823616 -99.194565
17992000 -39.939941 -26.771238 -0.046642404 -3.6738696 -0.047787033 -3.6779609 -46.154598 -101.96932
18991000 -40.191628 -30.20853 -0.048002176 -3.8849301 -0.049041655 -3.8830962 -45.331703 -102.63221
19990000 -40.170837 -34.237446 -0.050304499 -4.0939784 -0.05110329 -4.0899835 -44.668816 -106.09277
20989000 -40.143044 -36.818981 -0.052048676 -4.2946281 -0.053333357 -4.2885017 -44.047306 -107.02062
21988000 -40.194286 -41.027893 -0.052636601 -4.4964852 -0.053636044 -4.4841399 -43.685616 -106.64093
22987000 -40.063995 -45.14542 -0.054201379 -4.6941867 -0.054101255 -4.6859903 -43.406399 -107.2449
23986000 -40.138954 -48.505245 -0.054037564 -4.887167 -0.053905729 -4.884387 -43.21563 -107.45026
24985000 -39.919403 -51.106609 -0.054821841 -5.0977697 -0.054502819 -5.0981555 -42.91069 -104.85073
25984000 -39.730354 -53.038044 -0.056406289 -5.3050761 -0.054558653 -5.3053975 -42.486427 -104.1482
26983000 -39.533127 -54.82135 -0.056607436 -5.5007401 -0.055670761 -5.5210443 -42.340385 -103.74526
27982000 -39.408695 -56.167374 -0.057620913 -5.7032323 -0.057349421 -5.7334013 -41.922546 -102.41915
28981000 -39.445091 -57.445675 -0.0560431 -5.8998747 -0.057536971 -5.9222469 -41.63998 -101.97327
29980000 -39.104107 -59.400394 -0.056692932 -6.0934653 -0.057723742 -6.1016302 -41.249886 -101.43606
30979000 -38.727047 -58.713985 -0.053558994 -6.4500532 -0.052134082 -6.4369998 -40.756611 -103.10485
31978000 -38.61047 -60.144325 -0.052908059 -6.6462626 -0.053180844 -6.6331525 -40.461285 -102.67383
32977000 -38.471527 -61.678665 -0.052769706 -6.8547525 -0.05388188 -6.8513365 -40.206413 -103.21321
33976000 -38.357101 -62.884911 -0.053258147 -7.0531068 -0.054369137 -7.0508847 -39.849194 -103.11055
34975000 -38.126572 -63.881317 -0.053464912 -7.2570195 -0.05531995 -7.2561584 -39.598007 -103.08163
35974000 -37.956635 -64.833099 -0.052701842 -7.4511209 -0.055329915 -7.4533381 -39.243034 -102.62756
36973000 -37.75647 -65.795349 -0.053224865 -7.6510763 -0.055957876 -7.652153 -38.928066 -101.96799
37972000 -37.560116 -65.873573 -0.053098559 -7.8576651 -0.055522095 -7.8670778 -38.655991 -101.6037
38971000 -37.265141 -65.79081 -0.054227069 -8.0625153 -0.056080859 -8.070816 -38.43959 -100.00236
39970000 -36.97403 -66.699417 -0.052336078 -8.2523546 -0.055178113 -8.273036 -38.115826 -99.7714
40969000 -36.706497 -66.681686 -0.052789621 -8.4463882 -0.055303697 -8.4757318 -37.817234 -98.571152
41968000 -36.388962 -67.097076 -0.052257478 -8.6591387 -0.055420104 -8.6684875 -37.5867 -97.566467
42967000 -36.134731 -67.587036 -0.052961774 -8.8682985 -0.055063549 -8.885952 -37.31078 -95.933151
43966000 -35.869892 -68.53698 -0.053235874 -9.0667629 -0.055935588 -9.0858631 -37.001144 -95.478058
44965000 -35.687485 -69.632538 -0.053841781 -9.2685938 -0.056432776 -9.2872763 -36.763775 -95.638702
45964000 -35.491547 -70.752777 -0.055430856 -9.4714384 -0.05804877 -9.4893951 -36.523384 -95.578079
46963000 -35.34544 -72.74353 -0.055752303 -9.6647472 -0.059155475 -9.6823845 -36.347588 -96.087395
47962000 -35.233475 -74.259415 -0.057222471 -9.8642979 -0.059468802 -9.8826704 -36.151451 -96.45269
48961000 -35.057003 -75.784576 -0.060032275 -10.064026 -0.061585546 -10.082333 -35.922131 -96.889336
49960000 -34.873199 -77.344177 -0.061457682 -10.263902 -0.062992021 -10.286416 -35.777012 -97.062607
50959000 -34.704922 -78.788445 -0.061437991 -10.477559 -0.063879848 -10.487383 -35.604088 -97.780426
51958000 -34.535515 -80.000893 -0.063657083 -10.674843 -0.065671004 -10.683993 -35.440536 -98.332138
52957000 -34.351418 -81.220787 -0.065255798 -10.879523 -0.066117533 -10.880696 -35.264141 -98.369186
53956000 -34.210598 -82.026428 -0.066307299 -11.078738 -0.066925548 -11.082699 -35.137894 -98.459145
54955000 -34.056805 -82.706429 -0.067163728 -11.27995 -0.068007961 -11.276701 -34.980633 -98.555603
55954000 -33.908966 -83.692093 -0.068520211 -11.480547 -0.068801075 -11.475352 -34.851513 -98.420639
56953000 -33.785507 -83.895668 -0.068174936 -11.675029 -0.068266444 -11.667498 -34.784077 -98.678719
57952000 -33.646412 -84.578087 -0.069420472 -11.876482 -0.069666676 -11.870376 -34.675865 -98.928902
58951000 -33.532127 -84.921677 -0.070000753 -12.080458 -0.069970235 -12.056854 -34.517967 -99.06601
59950000 -33.415932 -85.411392 -0.070806861 -12.280205 -0.070666626 -12.258928 -34.468822 -99.462456
60949000 -33.324448 -86.08242 -0.071448646 -12.478188 -0.071517333 -12.457181 -34.385147 -99.819138
61948000 -33.267246 -86.41951 -0.071681015 -12.678138 -0.071196288 -12.660994 -34.282524 -99.87896
62947000 -33.176903 -86.657127 -0.072401628 -12.888971 -0.071903139 -12.872404 -34.152718 -100.3146
63946000 -33.113331 -87.407089 -0.073002584 -13.091398 -0.07288149 -13.07121 -34.036152 -100.57391
64945000 -33.018536 -87.638298 -0.073875599 -13.290563 -0.073765278 -13.275392 -33.938919 -101.14735
65944000 -32.922363 -87.969826 -0.074450955 -13.490063 -0.074097566 -13.473878 -33.842762 -101.67128
66943000 -32.788094 -88.461548 -0.072635368 -13.692661 -0.072406635 -13.673904 -33.74036 -102.0209
67942000 -32.722744 -88.458496 -0.075187825 -13.887983 -0.074096255 -13.878068 -33.629959 -102.39217
68941000 -32.607815 -88.595947 -0.074737735 -14.084842 -0.073714465 -14.074517 -33.524117 -102.44386
69940000 -32.515316 -88.644295 -0.074932091 -14.280446 -0.074427776 -14.271771 -33.378948 -102.6813
70939000 -32.407814 -88.692253 -0.074240021 -14.483056 -0.074298218 -14.472778 -33.244247 -102.8007
71938000 -32.248634 -88.395081 -0.075119615 -14.671236 -0.07324557 -14.667951 -33.105869 -102.6187
72937000 -32.099659 -88.248817 -0.073941693 -14.87378 -0.073574133 -14.868279 -32.960896 -102.33745
73936000 -31.948151 -88.014778 -0.073995404 -15.072039 -0.073000215 -15.064003 -32.834797 -102.22919
74935000 -31.821812 -88.384827 -0.07331375 -15.264143 -0.071791552 -15.267597 -32.665005 -102.01369
75934000 -31.709656 -88.721588 -0.074118637 -15.480128 -0.072136059 -15.47554 -32.586655 -101.96597
76933000 -31.57247 -89.088715 -0.075337954 -15.672774 -0.073733948 -15.66446 -32.416176 -102.48442
77932000 -31.500284 -89.971275 -0.075551569 -15.868869 -0.075049557 -15.857435 -32.308018 -102.47421
78931000 -31.440725 -90.742393 -0.074552864 -16.065504 -0.074047543 -16.060665 -32.207645 -102.3746
79930000 -31.327068 -91.595856 -0.077232137 -16.25857 -0.077148348 -16.25658 -32.111671 -102.80704
80929000 -31.217396 -92.56797 -0.078852467 -16.453785 -0.078763366 -16.452 -32.013741 -103.13744
81928000 -31.148226 -93.427895 -0.079055704 -16.647331 -0.07926476 -16.644474 -31.890972 -103.34785
82927000 -31.059858 -94.255554 -0.080919601 -16.846567 -0.080428042 -16.842241 -31.776579 -103.76321
83926000 -30.951864 -95.007416 -0.082247674 -17.042927 -0.082015269 -17.039257 -31.666533 -104.02115
84925000 -30.854771 -95.518875 -0.083350532 -17.240665 -0.081512764 -17.241344 -31.573881 -104.17654
85924000 -30.768826 -96.035667 -0.084538668 -17.443165 -0.083461896 -17.439861 -31.490908 -104.22981
86923000 -30.673485 -96.637817 -0.084470041 -17.641775 -0.08425995 -17.638006 -31.385405 -104.20498
87922000 -30.576149 -97.078087 -0.084188685 -17.84568 -0.083642654 -17.838636 -31.291382 -104.28429
88921000 -30.500496 -97.482834 -0.085704416 -18.045492 -0.084713668 -18.040277 -31.205732 -104.31631
89920000 -30.419043 -97.999504 -0.085228153 -18.247818 -0.084723964 -18.234976 -31.145594 -104.53449
90919000 -30.31179 -98.338379 -0.086625941 -18.444077 -0.086039998 -18.434761 -31.059919 -104.76894
91918000 -30.223963 -98.815681 -0.087943606 -18.640753 -0.086039208 -18.633127 -30.994303 -104.86044
92917000 -30.137255 -99.211899 -0.088787399 -18.841915 -0.087429859 -18.832203 -30.934393 -104.95544
93916000 -30.062813 -99.664375 -0.088349104 -19.032953 -0.087217242 -19.025095 -30.840111 -105.70008
94915000 -29.988903 -100.27148 -0.089791238 -19.232302 -0.087542638 -19.229025 -30.788357 -105.55193
95914000 -29.91481 -100.47337 -0.090800062 -19.426989 -0.089434229 -19.425657 -30.693115 -105.85284
96913000 -29.836264 -100.76791 -0.09204708 -19.630253 -0.090159111 -19.624332 -30.622705 -106.26085
97912000 -29.764389 -101.29617 -0.092622198 -19.822475 -0.090773366 -19.823574 -30.550428 -106.52868
98911000 -29.657171 -101.56405 -0.0935243 -20.02895 -0.091580167 -20.023073 -30.510353 -106.72192
99910000 -29.594254 -101.65012 -0.094003059 -20.223654 -0.09246777 -20.223083 -30.396334 -107.06748
100909000 -29.502611 -101.98184 -0.093362957 -20.432346 -0.092189334 -20.427778 -30.315416 -107.37138
101908000 -29.409554 -102.2951 -0.094699338 -20.63299 -0.092525154 -20.628031 -30.196037 -107.13628
102907000 -29.276066 -102.33851 -0.095442571 -20.830111 -0.093464784 -20.831881 -30.111286 -107.07619
103906000 -29.178949 -102.43427 -0.095961504 -21.035515 -0.092405364 -21.02989 -29.964039 -107.05127
104905000 -29.039825 -102.35699 -0.095910959 -21.234894 -0.093491234 -21.237694 -29.820581 -106.83092
105904000 -28.893398 -102.55664 -0.095803782 -21.437716 -0.093369305 -21.429445 -29.706133 -106.71548
106903000 -28.784742 -102.66849 -0.096392892 -21.64164 -0.093672678 -21.640038 -29.567263 -106.6596
107902000 -28.62356 -103.06721 -0.097130328 -21.844997 -0.094851203 -21.832994 -29.427172 -106.5958
108901000 -28.510279 -103.35587 -0.098564789 -22.045918 -0.09544839 -22.035107 -29.287281 -106.58175
109900000 -28.390167 -103.92674 -0.098561347 -22.243568 -0.09692359 -22.235798 -29.129566 -106.77199
110899000 -28.275261 -104.54923 -0.10032925 -22.440308 -0.097275659 -22.433022 -29.007421 -107.13522
111898000 -28.189774 -105.28271 -0.10173827 -22.64361 -0.098802581 -22.638227 -28.888948 -107.30132
112897000 -28.072071 -105.87785 -0.10342635 -22.843174 -0.099924229 -22.830708 -28.749556 -107.52387
113896000 -27.966919 -106.51991 -0.10410956 -23.041739 -0.10158802 -23.033022 -28.641533 -107.74568
114895000 -27.871231 -107.19907 -0.10567762 -23.242243 -0.10259111 -23.227091 -28.525816 -107.88602
115894000 -27.744211 -107.58266 -0.10634023 -23.442844 -0.10375191 -23.425825 -28.449581 -108.0834
116893000 -27.667931 -108.25462 -0.10637312 -23.637032 -0.10435218 -23.619703 -28.323109 -108.30633
117892000 -27.592348 -108.74726 -0.10677531 -23.833982 -0.1049703 -23.816898 -28.251581 -108.5511
118891000 -27.533976 -109.19398 -0.1077029 -24.033735 -0.10554501 -24.020674 -28.154394 -108.74232
119890000 -27.445833 -109.61777 -0.10779419 -24.234169 -0.10634421 -24.217718 -28.139053 -108.86427
120889000 -27.392334 -110.16804 -0.10998188 -24.434696 -0.10697243 -24.420639 -28.067533 -108.92504
121888000 -27.348757 -110.47999 -0.10983161 -24.630648 -0.10745613 -24.620327 -28.007765 -109.22662
122887000 -27.309328 -110.70828 -0.11073968 -24.836147 -0.10809353 -24.823618 -27.958166 -109.26212
123886000 -27.256485 -111.14947 -0.11094575 -25.035986 -0.10816094 -25.016001 -27.951262 -109.43042
124885000 -27.222582 -111.65443 -0.11177675 -25.234039 -0.10822649 -25.219988 -27.917704 -109.52245
125884000 -27.164871 -111.90491 -0.11254178 -25.435888 -0.10913184 -25.416727 -27.885275 -109.74452
126883000 -27.14859 -112.29733 -0.11252478 -25.634771 -0.10985285 -25.622242 -27.841825 -109.77819
127882000 -27.093855 -112.56819 -0.11320517 -25.835869 -0.11045635 -25.818201 -27.797794 -109.98038
128881000 -27.060522 -112.8454 -0.11303779 -26.039406 -0.11037112 -26.017988 -27.762081 -110.08584
129880000 -27.00305 -113.23684 -0.11450355 -26.240892 -0.1107572 -26.218599 -27.713152 -110.05604
130879000 -26.946112 -113.40299 -0.11409667 -26.43807 -0.11176587 -26.421085 -27.631912 -110.14067
131878000 -26.881617 -113.64362 -0.11400738 -26.639616 -0.11156055 -26.622059 -27.566889 -110.04076
132877000 -26.803144 -113.71351 -0.11424735 -26.842478 -0.11198739 -26.824759 -27.475834 -110.06609
133876000 -26.724953 -113.86443 -0.1141251 -27.044083 -0.11215898 -27.021492 -27.385118 -110.00799
134875000 -26.625986 -114.05204 -0.11446077 -27.238733 -0.11265203 -27.226257 -27.273542 -109.8368
135874000 -26.541401 -114.10325 -0.11465106 -27.44141 -0.11231093 -27.425346 -27.174995 -109.88265
136873000 -26.428593 -114.08346 -0.1154118 -27.647198 -0.11228622 -27.630375 -27.080055 -109.91019
137872000 -26.343468 -114.1573 -0.11555243 -27.847717 -0.11267381 -27.833584 -26.96825 -109.84241
138871000 -26.272099 -114.41323 -0.11560374 -28.043865 -0.1127381 -28.03182 -26.872349 -110.05058
139870000 -26.174692 -114.69468 -0.11659358 -28.250147 -0.11429998 -28.228756 -26.789213 -110.25633
140869000 -26.087885 -115.19424 -0.11851276 -28.440763 -0.11526055 -28.422876 -26.67967 -110.38371
141868000 -25.994389 -115.69316 -0.11872851 -28.633852 -0.11670819 -28.616982 -26.616434 -110.77775
142867000 -25.922173 -115.96529 -0.11753657 -28.830156 -0.114831 -28.815454 -26.523777 -110.95412
143866000 -25.853565 -116.49969 -0.11917149 -29.030691 -0.11681562 -29.015263 -26.454393 -111.49569
144865000 -25.798628 -117.02771 -0.12055629 -29.228085 -0.11815046 -29.212545 -26.405313 -111.86691
145864000 -25.745211 -117.36596 -0.12099438 -29.428392 -0.11925449 -29.415802 -26.378799 -112.17177
146863000 -25.698009 -117.78307 -0.12167398 -29.626472 -0.11929999 -29.617052 -26.319414 -112.48035
147862000 -25.659273 -118.16188 -0.12264657 -29.825134 -0.1197651 -29.81144 -26.29253 -112.8221
148861000 -25.628946 -118.71865 -0.12268358 -30.025194 -0.12084906 -30.009865 -26.265524 -113.09129
149860000 -25.616203 -118.89029 -0.12351391 -30.22188 -0.12078438 -30.209316 -26.237139 -113.27138
150859000 -25.599171 -119.29449 -0.12354054 -30.422745 -0.12190159 -30.406742 -26.233141 -113.51664
151858000 -25.58169 -119.62309 -0.12457429 -30.61829 -0.12205947 -30.605131 -26.228302 -113.87286
152857000 -25.564407 -119.9473 -0.12462331 -30.817822 -0.12192955 -30.8022 -26.207548 -113.95459
153856000 -25.55146 -120.1543 -0.12416726 -31.017702 -0.12124193 -31.001595 -26.228977 -114.23915
154855000 -25.547018 -120.3502 -0.12481645 -31.215658 -0.12223227 -31.200153 -26.2188 -114.4876
155854000 -25.560268 -120.57053 -0.12472986 -31.41354 -0.12218221 -31.399832 -26.215979 -114.7501
156853000 -25.547892 -121.30457 -0.1232388 -31.599258 -0.12212949 -31.593321 -26.213129 -115.07034
157852000 -25.550602 -121.5355 -0.12491102 -31.803902 -0.12313707 -31.79454 -26.200863 -115.38509
158851000 -25.541908 -121.77235 -0.12488704 -32.001778 -0.12355199 -31.990482 -26.189507 -115.64059
159850000 -25.53289 -121.88189 -0.12547958 -32.199589 -0.12415127 -32.193417 -26.18853 -115.85887
160849000 -25.507824 -121.9941 -0.12614815 -32.399086 -0.12496377 -32.391617 -26.165565 -116.12734
161848000 -25.48926 -122.10616 -0.12594429 -32.598652 -0.12456816 -32.592037 -26.122833 -116.23165
162847000 -25.4475 -122.33643 -0.12629339 -32.794315 -0.12536821 -32.792347 -26.088369 -116.47885
163846000 -25.403702 -122.53822 -0.12626195 -33.000042 -0.12556911 -32.989819 -26.009207 -116.49679
164845000 -25.345333 -122.59293 -0.12721291 -33.197048 -0.12542363 -33.187016 -25.939228 -116.62363
165844000 -25.289911 -122.63454 -0.12696049 -33.393154 -0.12563226 -33.387978 -25.858105 -116.77573
166843000 -25.220306 -122.7438 -0.12696022 -33.593418 -0.12624063 -33.588482 -25.783195 -116.96358
167842000 -25.164152 -122.91872 -0.12717825 -33.791828 -0.12633577 -33.784191 -25.704283 -116.91924
168841000 -25.087439 -123.11987 -0.1278796 -33.99474 -0.12705298 -33.988316 -25.622913 -117.01371
169840000 -25.019373 -123.40141 -0.12799798 -34.188313 -0.12800784 -34.183765 -25.527061 -117.2193
170839000 -24.95923 -123.65891 -0.12926745 -34.384777 -0.12798145 -34.385536 -25.448069 -117.43397
171838000 -24.903049 -124.12003 -0.12934107 -34.584633 -0.12928534 -34.575989 -25.37822 -117.67393
172837000 -24.832561 -124.5134 -0.13040474 -34.782497 -0.13019454 -34.773636 -25.303381 -117.93575
173836000 -24.76857 -124.9271 -0.13198899 -34.980244 -0.13012759 -34.974945 -25.26693 -118.2316
174835000 -24.715641 -125.37312 -0.13269033 -35.174793 -0.1317942 -35.175789 -25.220387 -118.54469
175834000 -24.663242 -125.8146 -0.1327381 -35.372585 -0.13253553 -35.369911 -25.155521 -118.86293
176833000 -24.613697 -126.18287 -0.13359037 -35.571243 -0.13291559 -35.571144 -25.107054 -119.07777
177832000 -24.567501 -126.67773 -0.13385679 -35.765144 -0.13282457 -35.768539 -25.081184 -119.25196
178831000 -24.524164 -127.05257 -0.13399135 -35.96249 -0.13336134 -35.959831 -25.049265 -119.47362
179830000 -24.491158 -127.52734 -0.13503933 -36.160946 -0.13437419 -36.160534 -25.018507 -119.66698
180829000 -24.452894 -127.75168 -0.13569601 -36.358692 -0.13520943 -36.359493 -24.988647 -119.84215
181828000 -24.43437 -128.09666 -0.13569975 -36.557053 -0.13475788 -36.552654 -24.969454 -119.94687
182827000 -24.406965 -128.47839 -0.13568053 -36.75032 -0.13591529 -36.749176 -24.955896 -120.05189
183826000 -24.360374 -128.81447 -0.13726777 -36.95018 -0.13557796 -36.944317 -24.947313 -120.17954
184825000 -24.370573 -129.1189 -0.13726082 -37.142632 -0.13593799 -37.145237 -24.930353 -120.30718
185824000 -24.342842 -129.4826 -0.13780695 -37.339535 -0.13572246 -37.33897 -24.927986 -120.32784
186823000 -24.324705 -129.8394 -0.13673827 -37.538139 -0.13699178 -37.540623 -24.922535 -120.33329
187822000 -24.304523 -130.16075 -0.13776314 -37.736603 -0.13702866 -37.735256 -24.887436 -120.42091
188821000 -24.284603 -130.40488 -0.1383203 -37.929962 -0.13773695 -37.932468 -24.872444 -120.51077
189820000 -24.266384 -130.68538 -0.13859582 -38.131386 -0.13771397 -38.130833 -24.863583 -120.65498
190819000 -24.238167 -130.93607 -0.13965856 -38.331928 -0.13872623 -38.329308 -24.828117 -120.6402
191818000 -24.200171 -131.12234 -0.14088412 -38.526764 -0.13977431 -38.527237 -24.795107 -120.54494
192817000 -24.132277 -131.39209 -0.14133336 -38.711407 -0.14042476 -38.71402 -24.716608 -120.59525
193816000 -24.094618 -131.75757 -0.14072315 -38.902866 -0.1393998 -38.901459 -24.663679 -120.86777
194815000 -24.038971 -132.20984 -0.13984942 -39.100304 -0.13937467 -39.104877 -24.597549 -120.97314
195814000 -23.984879 -132.44008 -0.1409023 -39.299042 -0.140259 -39.29924 -24.541071 -121.12076
196813000 -23.93289 -132.77725 -0.14059855 -39.494186 -0.13959119 -39.493431 -24.462416 -121.29395
197812000 -23.874897 -133.0379 -0.14054722 -39.691978 -0.14049213 -39.691727 -24.390984 -121.41888
198811000 -23.820869 -133.23845 -0.14028358 -39.886658 -0.14012532 -39.888916 -24.321796 -121.61288
199810000 -23.749018 -133.60751 -0.14114055 -40.083622 -0.1403432 -40.081215 -24.241327 -121.73751
200809000 -23.696802 -133.90651 -0.14140931 -40.278324 -0.13987081 -40.279629 -24.159868 -121.96455
201808000 -23.634184 -134.15543 -0.14254175 -40.481182 -0.14120446 -40.482059 -24.090824 -122.03315
202807000 -23.579596 -134.53938 -0.14260809 -40.677639 -0.14179443 -40.680607 -24.032675 -122.26067
203806000 -23.526354 -135.00821 -0.14438412 -40.878262 -0.14198805 -40.87989 -23.967176 -122.44551
