!Keysight Technologies,E5080B,MY59205177,A.15.75.32
!Date: Friday, February 23, 2024 03:28:05
!Correction: S11(Cdelta 2-Port  ) 
!S21(Cdelta 2-Port  ) 
!S12(Cdelta 2-Port  ) 
!S22(Cdelta 2-Port  ) 
!S2P File: Measurements: S11, S21, S12, S22:
# Hz S  dB   R 50
10000000 -46.032276 -1.4557122 -0.016362762 -2.055248 -0.018712841 -2.1079032 -46.122078 -159.17343
10999000 -45.151161 -3.3144917 -0.017253574 -2.274457 -0.018891189 -2.3284767 -46.08794 -152.51501
11998000 -44.249107 -6.4897604 -0.017429002 -2.4981883 -0.018949427 -2.5415084 -46.291153 -148.49498
12997000 -43.531578 -11.77911 -0.017472146 -2.6792481 -0.018309895 -2.7125082 -45.920437 -142.10091
13996000 -43.221989 -15.370165 -0.016001344 -2.8599451 -0.018380342 -2.8818715 -45.724609 -137.20471
14995000 -42.870323 -19.639084 -0.018418817 -3.071022 -0.018469509 -3.0929561 -45.440269 -133.32683
15994000 -42.74258 -24.519783 -0.019821787 -3.2913063 -0.021240817 -3.3077011 -45.317455 -130.00064
16993000 -42.684769 -28.774082 -0.018522281 -3.4870365 -0.020193925 -3.4983573 -44.523754 -129.53964
17992000 -42.724133 -34.377819 -0.019110106 -3.6865759 -0.0212442 -3.692569 -43.899895 -129.84721
18991000 -43.015545 -39.227875 -0.019572152 -3.8981273 -0.022140436 -3.8971045 -43.280819 -128.52113
19990000 -42.814545 -44.836346 -0.022813842 -4.1079946 -0.024386914 -4.1035519 -42.61319 -129.41803
20989000 -42.657547 -48.305897 -0.024359321 -4.309876 -0.025226779 -4.3015547 -42.044052 -128.49109
21988000 -42.537849 -53.62151 -0.025667084 -4.508256 -0.026832243 -4.4990773 -41.807983 -127.71214
22987000 -42.240227 -58.10384 -0.027179977 -4.7105546 -0.027801277 -4.7053642 -41.549648 -127.32758
23986000 -42.165443 -62.445606 -0.026154568 -4.9070959 -0.026710348 -4.9084334 -41.466957 -127.03025
24985000 -41.7836 -65.072876 -0.027453754 -5.117734 -0.027516276 -5.1127124 -41.275108 -124.62732
25984000 -41.463139 -67.556541 -0.029494479 -5.3208752 -0.02834033 -5.3217845 -40.925632 -122.89014
26983000 -41.142574 -69.554001 -0.029092096 -5.5226374 -0.029058479 -5.5394363 -40.821083 -122.37284
27982000 -40.965816 -70.350899 -0.030839507 -5.7220297 -0.030435955 -5.7576389 -40.508038 -120.78833
28981000 -40.964931 -71.788048 -0.028778344 -5.9174252 -0.030344717 -5.944376 -40.299149 -119.98743
29980000 -40.576477 -73.547081 -0.028894827 -6.1161628 -0.031062415 -6.1240301 -40.041813 -119.16405
30979000 -40.144707 -72.14222 -0.02648011 -6.4727778 -0.025042443 -6.4647875 -39.522293 -119.59657
31978000 -39.937168 -73.082474 -0.025836082 -6.6664252 -0.026224623 -6.6562028 -39.275742 -118.76025
32977000 -39.746483 -74.91922 -0.026087901 -6.8757653 -0.027050517 -6.8743415 -39.043079 -118.82158
33976000 -39.595406 -75.885681 -0.026625961 -7.0784731 -0.027060937 -7.0734386 -38.768665 -118.08751
34975000 -39.280399 -76.744331 -0.026593143 -7.2778459 -0.028684538 -7.2800035 -38.52927 -117.77891
35974000 -39.077068 -77.376152 -0.025589226 -7.4724097 -0.02833017 -7.4773965 -38.253372 -116.91702
36973000 -38.857075 -77.968269 -0.026183996 -7.674417 -0.028995674 -7.6827908 -37.970116 -115.85403
37972000 -38.670395 -77.755646 -0.026180873 -7.885829 -0.028781993 -7.8954649 -37.763142 -115.10316
38971000 -38.332607 -77.266975 -0.027510544 -8.0910215 -0.029768925 -8.0972662 -37.585724 -113.52647
39970000 -38.012375 -77.569313 -0.024784697 -8.2890959 -0.028509956 -8.2971506 -37.295269 -112.96613
40969000 -37.736084 -77.428513 -0.025493665 -8.4790459 -0.028244188 -8.5005941 -37.053219 -111.36095
41968000 -37.363247 -77.278641 -0.026425157 -8.6823683 -0.02845211 -8.7011127 -36.878948 -110.1902
42967000 -37.074352 -77.392601 -0.025906393 -8.8987761 -0.028932091 -8.9161272 -36.675144 -108.18848
43966000 -36.782558 -78.071205 -0.026463702 -9.0975523 -0.029684478 -9.1142473 -36.40369 -107.55029
44965000 -36.554623 -78.782394 -0.028058682 -9.3010073 -0.030184144 -9.3250809 -36.189884 -107.25574
45964000 -36.316162 -79.979736 -0.02858083 -9.4993353 -0.031539034 -9.5193739 -35.955975 -106.92915
46963000 -36.136848 -81.795242 -0.029125974 -9.6979065 -0.032143746 -9.7198744 -35.762676 -107.01257
47962000 -35.978508 -83.246971 -0.030212557 -9.8991575 -0.033259518 -9.9176731 -35.567665 -107.14677
48961000 -35.742691 -84.751442 -0.032734718 -10.096696 -0.035433721 -10.116905 -35.326031 -107.26297
49960000 -35.514633 -86.111099 -0.033739507 -10.296796 -0.036412247 -10.31903 -35.201366 -107.33357
50959000 -35.289425 -87.350876 -0.034533173 -10.510387 -0.037363578 -10.520441 -35.006413 -107.58734
51958000 -35.097065 -88.475647 -0.036563132 -10.708558 -0.03869015 -10.719381 -34.81036 -108.03526
52957000 -34.872292 -89.53157 -0.037812687 -10.910336 -0.039590258 -10.917596 -34.667839 -107.78398
53956000 -34.717491 -90.203651 -0.039181713 -11.111288 -0.040064152 -11.111302 -34.541832 -107.75788
54955000 -34.537655 -90.664879 -0.04070925 -11.315655 -0.041071162 -11.311567 -34.382683 -107.59503
55954000 -34.376034 -91.526688 -0.040918294 -11.515166 -0.042460036 -11.512328 -34.280289 -107.33147
56953000 -34.260277 -91.490471 -0.041101474 -11.715024 -0.041580502 -11.705864 -34.202579 -107.51437
57952000 -34.09304 -92.098251 -0.042988885 -11.915393 -0.042552311 -11.900695 -34.107285 -107.6344
58951000 -33.960114 -92.372231 -0.043180261 -12.122167 -0.042677265 -12.097111 -33.949806 -107.69109
59950000 -33.845493 -92.768036 -0.043572184 -12.319235 -0.044492658 -12.299488 -33.901096 -107.91174
60949000 -33.732586 -93.317245 -0.04422931 -12.519354 -0.043690633 -12.497122 -33.797604 -108.15878
61948000 -33.672291 -93.68029 -0.044397462 -12.719427 -0.044480626 -12.702853 -33.707253 -108.29866
62947000 -33.579906 -93.898895 -0.044245522 -12.93064 -0.045122195 -12.913315 -33.569176 -108.52509
63946000 -33.517307 -94.674423 -0.045768041 -13.133996 -0.04600846 -13.110961 -33.467575 -108.64878
64945000 -33.406193 -94.778206 -0.046457157 -13.332841 -0.04631561 -13.312886 -33.352737 -109.14002
65944000 -33.293083 -95.00695 -0.047488417 -13.532876 -0.047247652 -13.515861 -33.263752 -109.63946
66943000 -33.154518 -95.487045 -0.045258731 -13.736034 -0.045765687 -13.720536 -33.149673 -109.89784
67942000 -33.10149 -95.446556 -0.04751851 -13.931821 -0.047593623 -13.920626 -33.028217 -110.12515
68941000 -32.989452 -95.53569 -0.047234569 -14.127295 -0.046494309 -14.118691 -32.925331 -110.1422
69940000 -32.872345 -95.512672 -0.047250792 -14.327056 -0.047419064 -14.317998 -32.775558 -110.43021
70939000 -32.771442 -95.417679 -0.047256026 -14.523477 -0.047062904 -14.517149 -32.657436 -110.34286
71938000 -32.626076 -95.019928 -0.047305226 -14.720294 -0.04704354 -14.710402 -32.5154 -110.2235
72937000 -32.463604 -94.778061 -0.047031764 -14.918125 -0.047491558 -14.91116 -32.370613 -109.89152
73936000 -32.332233 -94.461418 -0.047067873 -15.118576 -0.04687947 -15.114161 -32.248928 -109.62642
74935000 -32.202412 -94.697441 -0.046252556 -15.316954 -0.045635149 -15.31208 -32.097385 -109.31125
75934000 -32.072254 -94.891296 -0.046375263 -15.523647 -0.045497291 -15.522541 -32.007988 -109.24463
76933000 -31.93615 -95.271553 -0.048198219 -15.715825 -0.046993036 -15.713097 -31.832815 -109.56345
77932000 -31.832605 -96.051048 -0.049086947 -15.915998 -0.049390126 -15.908571 -31.723408 -109.49216
78931000 -31.765003 -96.792274 -0.047482137 -16.115271 -0.047952969 -16.110647 -31.631832 -109.38586
79930000 -31.654375 -97.687889 -0.0500861 -16.310884 -0.051167987 -16.308205 -31.521702 -109.64675
80929000 -31.544191 -98.511314 -0.051599927 -16.505669 -0.052096356 -16.503601 -31.424974 -109.96079
81928000 -31.434671 -99.230408 -0.052089285 -16.69895 -0.052588653 -16.695711 -31.287624 -109.9033
82927000 -31.341515 -99.921867 -0.05399432 -16.898266 -0.053501602 -16.896215 -31.181061 -110.21478
83926000 -31.213903 -100.65604 -0.054691557 -17.096252 -0.055265419 -17.097906 -31.059277 -110.39565
84925000 -31.111275 -101.09853 -0.056743026 -17.296806 -0.05562409 -17.29015 -30.959475 -110.42608
85924000 -31.022707 -101.48344 -0.057299059 -17.49947 -0.056629729 -17.494925 -30.876122 -110.37851
86923000 -30.913082 -101.99407 -0.056939989 -17.691769 -0.056883074 -17.687603 -30.769855 -110.27122
87922000 -30.793781 -102.33117 -0.057246078 -17.902288 -0.056816984 -17.892494 -30.684116 -110.26116
88921000 -30.729786 -102.55376 -0.058254715 -18.097706 -0.057407916 -18.097546 -30.592588 -110.22933
89920000 -30.61842 -103.137 -0.059099846 -18.30537 -0.05885765 -18.295561 -30.531969 -110.42001
90919000 -30.5107 -103.41339 -0.059686624 -18.495543 -0.05902952 -18.493858 -30.449404 -110.50472
91918000 -30.421022 -103.76736 -0.060829185 -18.697096 -0.059197199 -18.693609 -30.369883 -110.58102
92917000 -30.328543 -104.07613 -0.062417928 -18.896664 -0.061110605 -18.89311 -30.314083 -110.61619
93916000 -30.243504 -104.43526 -0.061725751 -19.090546 -0.060323093 -19.084452 -30.223398 -111.25678
94915000 -30.158035 -105.02988 -0.06271337 -19.293652 -0.061753582 -19.28558 -30.162548 -111.12835
95914000 -30.089109 -105.24923 -0.063855417 -19.48773 -0.062837072 -19.484365 -30.067188 -111.40034
96913000 -30.006676 -105.43864 -0.065009579 -19.687243 -0.063890614 -19.686678 -29.999125 -111.72611
97912000 -29.925335 -105.89334 -0.066283911 -19.883614 -0.063936062 -19.885605 -29.925728 -111.99012
98911000 -29.821255 -106.09235 -0.067066453 -20.085648 -0.065381669 -20.081947 -29.883913 -112.2402
99910000 -29.745136 -106.2408 -0.067258634 -20.283115 -0.065810822 -20.286531 -29.781006 -112.52774
100909000 -29.656321 -106.43557 -0.066985227 -20.496542 -0.06522873 -20.488365 -29.68824 -112.7451
101908000 -29.569788 -106.70356 -0.068539143 -20.692225 -0.066918455 -20.693527 -29.579082 -112.46867
102907000 -29.430523 -106.70985 -0.068461828 -20.894648 -0.066590652 -20.895741 -29.494417 -112.49661
103906000 -29.335775 -106.73964 -0.069529891 -21.101652 -0.065933295 -21.095819 -29.353409 -112.45818
104905000 -29.186533 -106.67112 -0.070016541 -21.300369 -0.067042537 -21.296848 -29.22061 -112.12984
105904000 -29.042019 -106.75806 -0.069815561 -21.505568 -0.066818558 -21.495253 -29.111361 -112.00638
106903000 -28.93215 -106.83138 -0.069766633 -21.713104 -0.06781286 -21.703505 -28.983238 -111.83808
107902000 -28.760344 -107.16905 -0.0705477 -21.911587 -0.068218321 -21.902832 -28.855846 -111.87753
108901000 -28.651955 -107.35386 -0.071406543 -22.113531 -0.069098003 -22.103022 -28.714474 -111.78652
109900000 -28.526045 -107.86829 -0.072500072 -22.313089 -0.070741877 -22.305851 -28.563543 -111.85438
110899000 -28.405394 -108.49371 -0.073554121 -22.507542 -0.071148925 -22.500799 -28.435982 -112.11942
111898000 -28.31707 -109.13477 -0.075435936 -22.711981 -0.072531395 -22.706081 -28.31628 -112.23047
112897000 -28.186388 -109.70085 -0.076787628 -22.91168 -0.07355202 -22.900671 -28.180679 -112.43497
113896000 -28.085838 -110.23398 -0.07747826 -23.112274 -0.075005837 -23.099844 -28.077883 -112.55015
114895000 -27.98171 -110.94744 -0.078693248 -23.311117 -0.076547869 -23.29846 -27.956293 -112.58448
115894000 -27.860079 -111.29829 -0.079454049 -23.513817 -0.07766404 -23.499649 -27.885592 -112.85375
116893000 -27.786215 -111.69524 -0.080717593 -23.708471 -0.079057023 -23.693716 -27.76449 -112.87564
117892000 -27.694832 -112.2494 -0.081231341 -23.902588 -0.078739643 -23.892088 -27.684109 -113.09062
118891000 -27.643402 -112.68742 -0.0817127 -24.109818 -0.079462484 -24.093819 -27.593702 -113.18787
119890000 -27.550667 -113.06401 -0.082350299 -24.311346 -0.079810239 -24.294537 -27.568972 -113.32986
120889000 -27.502871 -113.55325 -0.083622597 -24.509096 -0.080089465 -24.494497 -27.501986 -113.25011
121888000 -27.462454 -113.89349 -0.083451338 -24.707579 -0.081029579 -24.696106 -27.444405 -113.52973
122887000 -27.42111 -114.0705 -0.084441274 -24.911304 -0.081274591 -24.894962 -27.399494 -113.52666
123886000 -27.365347 -114.4874 -0.084849872 -25.114269 -0.08215455 -25.09436 -27.385513 -113.647
124885000 -27.333267 -115.00264 -0.085773855 -25.313017 -0.082510963 -25.297361 -27.357985 -113.72684
125884000 -27.284933 -115.17245 -0.086879462 -25.510435 -0.082417309 -25.494946 -27.326704 -113.83958
126883000 -27.261662 -115.59871 -0.086284243 -25.711472 -0.083634742 -25.700918 -27.290133 -113.87195
127882000 -27.209658 -115.86141 -0.087113187 -25.913841 -0.084281586 -25.897163 -27.249811 -114.02342
128881000 -27.178778 -116.1726 -0.087342173 -26.114843 -0.083681449 -26.10004 -27.213686 -114.09929
129880000 -27.119343 -116.52034 -0.088106334 -26.319132 -0.084705748 -26.297792 -27.168339 -114.09076
130879000 -27.06451 -116.71497 -0.087519661 -26.521589 -0.085380211 -26.502775 -27.09502 -114.11752
131878000 -26.998318 -116.90955 -0.088094972 -26.721378 -0.085652143 -26.703581 -27.03034 -113.9571
132877000 -26.927046 -116.98572 -0.088241585 -26.922783 -0.08586257 -26.906437 -26.946867 -113.96354
133876000 -26.844271 -117.15096 -0.088323742 -27.124763 -0.085296527 -27.107576 -26.86577 -113.84758
134875000 -26.747349 -117.29943 -0.088485427 -27.325356 -0.086394884 -27.30619 -26.760269 -113.67663
135874000 -26.665768 -117.31224 -0.088118747 -27.523594 -0.085864417 -27.513945 -26.665272 -113.68618
136873000 -26.557226 -117.28775 -0.089048713 -27.732105 -0.08606112 -27.714058 -26.583225 -113.62398
137872000 -26.472574 -117.38134 -0.088440776 -27.925426 -0.086110234 -27.917522 -26.470827 -113.56558
138871000 -26.39883 -117.58987 -0.09003067 -28.12841 -0.086137697 -28.119318 -26.379433 -113.68359
139870000 -26.29859 -117.92887 -0.089722529 -28.3321 -0.087438047 -28.311642 -26.294653 -113.87737
140869000 -26.217531 -118.44186 -0.092038095 -28.527336 -0.088358879 -28.508295 -26.190397 -114.09284
141868000 -26.137827 -118.82258 -0.092437096 -28.726072 -0.090019308 -28.71246 -26.142147 -114.31298
142867000 -26.05871 -119.02028 -0.090955228 -28.923632 -0.089118466 -28.908049 -26.066074 -114.44733
143866000 -25.98105 -119.53327 -0.092600249 -29.120823 -0.090426587 -29.107214 -25.990175 -114.91983
144865000 -25.9266 -120.05312 -0.094125271 -29.322515 -0.091771051 -29.302185 -25.929052 -115.19551
145864000 -25.869808 -120.3384 -0.095146216 -29.521734 -0.093546517 -29.510738 -25.893963 -115.4597
146863000 -25.825541 -120.70605 -0.096044607 -29.723816 -0.093504198 -29.708437 -25.845762 -115.74059
147862000 -25.783936 -121.07877 -0.096881241 -29.917124 -0.094438486 -29.906315 -25.811728 -116.06204
148861000 -25.755434 -121.50085 -0.09731245 -30.118216 -0.095997497 -30.106808 -25.794573 -116.23441
149860000 -25.723223 -121.66209 -0.099280603 -30.309692 -0.095835537 -30.298727 -25.742422 -116.2806
150859000 -25.698168 -122.13515 -0.098713078 -30.511074 -0.095979236 -30.494619 -25.720829 -116.64383
151858000 -25.69227 -122.50761 -0.097987823 -30.713076 -0.096217953 -30.696239 -25.716724 -116.99128
152857000 -25.678244 -122.81624 -0.098249421 -30.90843 -0.096658893 -30.897612 -25.696642 -117.15303
153856000 -25.670988 -123.02161 -0.097816788 -31.10936 -0.096376486 -31.094933 -25.716774 -117.4551
154855000 -25.6717 -123.18522 -0.097844318 -31.307777 -0.09631376 -31.298506 -25.708858 -117.72596
155854000 -25.689159 -123.42269 -0.098749883 -31.511351 -0.096310586 -31.495079 -25.70006 -117.97148
156853000 -25.675171 -124.13789 -0.096977323 -31.695572 -0.095706135 -31.687721 -25.699022 -118.29414
157852000 -25.682945 -124.338 -0.098248892 -31.898829 -0.09711656 -31.887415 -25.687239 -118.62679
158851000 -25.68021 -124.54354 -0.098892361 -32.099205 -0.097483203 -32.090179 -25.67753 -118.89763
159850000 -25.676582 -124.66319 -0.099189237 -32.298222 -0.097571626 -32.287922 -25.675121 -119.06128
160849000 -25.651484 -124.76591 -0.099690072 -32.495991 -0.098269016 -32.492329 -25.646723 -119.3521
161848000 -25.639992 -124.87708 -0.099887937 -32.693939 -0.098681033 -32.690777 -25.611057 -119.48349
162847000 -25.599852 -125.03359 -0.099905156 -32.894829 -0.098927312 -32.892361 -25.584124 -119.74271
163846000 -25.557556 -125.22096 -0.10059179 -33.097954 -0.098980546 -33.088272 -25.502459 -119.722
164845000 -25.499084 -125.19736 -0.10091448 -33.294743 -0.099925548 -33.287926 -25.439007 -119.83705
165844000 -25.445847 -125.26472 -0.10121229 -33.497169 -0.10035813 -33.491318 -25.364981 -119.99766
166843000 -25.384119 -125.30079 -0.10070518 -33.697632 -0.10051814 -33.688568 -25.295483 -120.14672
167842000 -25.332617 -125.42398 -0.10142585 -33.899529 -0.10009959 -33.889633 -25.218302 -120.07368
168841000 -25.246515 -125.60815 -0.10162671 -34.093899 -0.1011728 -34.090775 -25.143423 -120.15031
169840000 -25.184692 -125.84562 -0.10181379 -34.287842 -0.10151594 -34.287361 -25.054539 -120.31855
170839000 -25.121645 -126.06047 -0.10284848 -34.484768 -0.10241035 -34.487068 -24.972475 -120.50559
171838000 -25.063402 -126.48998 -0.10257282 -34.692417 -0.10294125 -34.683517 -24.908987 -120.75157
172837000 -24.996614 -126.8084 -0.10425778 -34.886276 -0.10389242 -34.87738 -24.83913 -120.95836
173836000 -24.923206 -127.23801 -0.10539117 -35.089184 -0.10503845 -35.083996 -24.79986 -121.1985
174835000 -24.871721 -127.62285 -0.10551 -35.285885 -0.10572536 -35.284626 -24.755213 -121.48344
175834000 -24.821621 -127.97503 -0.10718814 -35.484715 -0.10658695 -35.478924 -24.696178 -121.75225
176833000 -24.772699 -128.35602 -0.10788017 -35.682896 -0.10688355 -35.680298 -24.645704 -121.92176
177832000 -24.724884 -128.76877 -0.10876951 -35.883129 -0.10762861 -35.882469 -24.621805 -122.0252
178831000 -24.680489 -129.0145 -0.11010454 -36.07869 -0.10973869 -36.075024 -24.581066 -122.11263
179830000 -24.623072 -129.34911 -0.1120607 -36.264294 -0.11018738 -36.26886 -24.5292 -122.1451
180829000 -24.559645 -129.74588 -0.11177596 -36.457851 -0.11025376 -36.456211 -24.472744 -122.45287
181828000 -24.535219 -130.16641 -0.11010321 -36.656857 -0.10908326 -36.655918 -24.454514 -122.68134
182827000 -24.5117 -130.5267 -0.11007427 -36.851734 -0.10964843 -36.854626 -24.443913 -122.80466
183826000 -24.470903 -130.86736 -0.11172815 -37.050785 -0.10938216 -37.050076 -24.433973 -122.94064
184825000 -24.477102 -131.23488 -0.11128674 -37.248806 -0.11022774 -37.253117 -24.411386 -123.08408
185824000 -24.448912 -131.56351 -0.11129285 -37.44548 -0.11076039 -37.446514 -24.409592 -123.14192
186823000 -24.428396 -131.94028 -0.11152178 -37.648045 -0.11024871 -37.645611 -24.402517 -123.16475
187822000 -24.406162 -132.27202 -0.11173293 -37.843147 -0.11066798 -37.840729 -24.365406 -123.23092
188821000 -24.384111 -132.54674 -0.11176852 -38.035816 -0.11116829 -38.043056 -24.341797 -123.36632
189820000 -24.363958 -132.83897 -0.11222752 -38.238316 -0.11114067 -38.236526 -24.329144 -123.57523
190819000 -24.326048 -133.14005 -0.11274023 -38.438019 -0.11194011 -38.433628 -24.286366 -123.61689
191818000 -24.296396 -133.44312 -0.11274341 -38.632816 -0.1122849 -38.634953 -24.259844 -123.64124
192817000 -24.246616 -133.71893 -0.11357291 -38.829323 -0.1126329 -38.830959 -24.212547 -123.74485
193816000 -24.21216 -133.97476 -0.11331304 -39.027683 -0.11265548 -39.024155 -24.159657 -123.86884
194815000 -24.155437 -134.34172 -0.11404591 -39.216972 -0.11400313 -39.223717 -24.091373 -123.95661
195814000 -24.096306 -134.58246 -0.11420935 -39.420769 -0.11368345 -39.420719 -24.037384 -124.071
196813000 -24.044228 -134.89769 -0.11478103 -39.617626 -0.11358248 -39.617634 -23.958944 -124.21232
197812000 -23.983131 -135.10001 -0.11441585 -39.811501 -0.11456096 -39.809406 -23.88751 -124.30486
198811000 -23.933733 -135.28123 -0.1141942 -40.009941 -0.11329923 -40.009727 -23.81197 -124.50894
199810000 -23.857889 -135.60735 -0.11528474 -40.203941 -0.11395689 -40.203602 -23.73842 -124.59018
200809000 -23.797802 -135.85815 -0.1160985 -40.401051 -0.11456362 -40.403545 -23.655338 -124.77645
201808000 -23.739134 -136.09857 -0.11611392 -40.602486 -0.11503673 -40.606518 -23.584728 -124.83123
202807000 -23.679726 -136.44484 -0.11710521 -40.806602 -0.11609212 -40.807602 -23.531685 -125.03853
