!Keysight Technologies,E5080B,MY59205177,A.15.75.32
!Date: Friday, February 23, 2024 03:28:12
!Correction: S11(Cdelta 2-Port  ) 
!S21(Cdelta 2-Port  ) 
!S12(Cdelta 2-Port  ) 
!S22(Cdelta 2-Port  ) 
!S2P File: Measurements: S11, S21, S12, S22:
# Hz S  dB   R 50
10000000 -45.986588 -1.1706815 -0.016353408 -2.0554514 -0.018884171 -2.1086655 -46.127605 -159.11044
10999000 -45.215103 -3.3771112 -0.017378323 -2.2735806 -0.018973606 -2.3294029 -46.056801 -152.6624
11998000 -44.303677 -6.4560943 -0.017569352 -2.4987638 -0.018507205 -2.5417471 -46.251442 -148.38997
12997000 -43.521294 -11.822323 -0.016899876 -2.6775031 -0.018116234 -2.7103684 -45.91581 -142.34509
13996000 -43.246571 -15.514216 -0.016057463 -2.8615615 -0.01853554 -2.8810062 -45.705708 -136.99484
14995000 -42.871384 -19.950277 -0.018644728 -3.0692856 -0.018158605 -3.0922744 -45.436749 -133.49457
15994000 -42.746964 -24.418612 -0.018869091 -3.2896893 -0.020227214 -3.3110855 -45.317917 -130.11801
16993000 -42.678185 -28.986872 -0.019216968 -3.4852016 -0.019400276 -3.4958191 -44.459324 -129.50929
17992000 -42.792961 -34.118416 -0.019526387 -3.690469 -0.020471945 -3.689074 -43.901253 -129.55359
18991000 -43.029144 -39.293419 -0.020254781 -3.8988616 -0.02171714 -3.8983126 -43.223545 -128.44518
19990000 -42.766483 -44.909084 -0.022362638 -4.1088557 -0.023031654 -4.1035852 -42.535534 -129.38396
20989000 -42.674152 -48.314072 -0.024840411 -4.3142872 -0.025830874 -4.3050318 -42.020618 -128.668
21988000 -42.464848 -53.636494 -0.025051296 -4.5087342 -0.026166549 -4.4988189 -41.83382 -128.08907
22987000 -42.234238 -58.304462 -0.026235562 -4.7095685 -0.027440209 -4.7024288 -41.549835 -127.26309
23986000 -42.139946 -62.520267 -0.026392603 -4.9046059 -0.026300929 -4.9028368 -41.432011 -126.92347
24985000 -41.714264 -65.324615 -0.027470687 -5.115386 -0.026718682 -5.1126308 -41.200119 -124.57446
25984000 -41.433548 -67.586174 -0.028219175 -5.3201671 -0.027828893 -5.3226886 -40.890301 -122.99134
26983000 -41.1591 -69.649834 -0.029714713 -5.5202513 -0.027920337 -5.5411763 -40.804581 -122.23247
27982000 -40.967747 -70.511482 -0.030976117 -5.7197108 -0.030613221 -5.7538338 -40.536274 -120.84487
28981000 -40.937397 -71.840591 -0.028732223 -5.9201579 -0.029857283 -5.9453321 -40.276985 -119.96458
29980000 -40.544765 -73.316505 -0.028800756 -6.1137223 -0.030526672 -6.1195221 -40.071491 -118.96036
30979000 -40.143955 -72.081184 -0.026750198 -6.4735503 -0.024620946 -6.4565263 -39.52726 -119.44756
31978000 -39.934883 -73.35997 -0.025741037 -6.667376 -0.025910039 -6.6545711 -39.282291 -118.60465
32977000 -39.719627 -74.889702 -0.025597299 -6.8754768 -0.02668873 -6.8756547 -39.010769 -118.64129
33976000 -39.581711 -75.964188 -0.026026443 -7.0784678 -0.026401717 -7.0733695 -38.742573 -118.10722
34975000 -39.272701 -76.742889 -0.027334707 -7.2783742 -0.028036274 -7.2810678 -38.50502 -117.82706
35974000 -39.082596 -77.219017 -0.025657188 -7.4737587 -0.027395403 -7.4784555 -38.234913 -116.67604
36973000 -38.841881 -78.100311 -0.026812447 -7.6758471 -0.028632684 -7.6780777 -37.973785 -115.89922
37972000 -38.678123 -77.833267 -0.025423883 -7.8838253 -0.028436216 -7.8949032 -37.747726 -115.18035
38971000 -38.339909 -77.346695 -0.026691074 -8.0878191 -0.028366126 -8.0983276 -37.586967 -113.55309
39970000 -37.994045 -77.552589 -0.025742598 -8.2804317 -0.028160291 -8.2981501 -37.322441 -112.92443
40969000 -37.706535 -77.298088 -0.026218373 -8.4736729 -0.02765617 -8.4985476 -37.066952 -111.36201
41968000 -37.342583 -77.414452 -0.026474381 -8.6845713 -0.027586874 -8.6981287 -36.878082 -110.26547
42967000 -37.102234 -77.514191 -0.025307234 -8.8974419 -0.028471913 -8.9133778 -36.662655 -108.2361
43966000 -36.772758 -78.094826 -0.027098445 -9.0969744 -0.029871358 -9.1157188 -36.395973 -107.48026
44965000 -36.556396 -78.866241 -0.027593646 -9.2999048 -0.030063199 -9.3226509 -36.169025 -107.21212
45964000 -36.318951 -79.888893 -0.02886069 -9.5016174 -0.031065803 -9.5211573 -35.939186 -106.89821
46963000 -36.110634 -81.884705 -0.029428022 -9.6993055 -0.031894967 -9.7150469 -35.745621 -107.06752
47962000 -35.969635 -83.263214 -0.03101705 -9.8936071 -0.03288652 -9.9170523 -35.565613 -107.08441
48961000 -35.744991 -84.67775 -0.032938164 -10.093948 -0.034673814 -10.117006 -35.324074 -107.29392
49960000 -35.528793 -86.065155 -0.034105014 -10.295868 -0.035690535 -10.318699 -35.18388 -107.31254
50959000 -35.309177 -87.320305 -0.035375785 -10.509193 -0.036614556 -10.518313 -35.000847 -107.66902
51958000 -35.091759 -88.442604 -0.03660072 -10.711202 -0.038230505 -10.719425 -34.829491 -108.16719
52957000 -34.867859 -89.512619 -0.038536321 -10.909373 -0.038962826 -10.91697 -34.674618 -107.72652
53956000 -34.708439 -90.198364 -0.039086111 -11.112591 -0.0400699 -11.11508 -34.535244 -107.66696
54955000 -34.53056 -90.76709 -0.040201839 -11.314377 -0.041106701 -11.31126 -34.376095 -107.62743
55954000 -34.375011 -91.528191 -0.041062798 -11.514091 -0.04100766 -11.512636 -34.270744 -107.29629
56953000 -34.260181 -91.567886 -0.040638961 -11.714405 -0.040367749 -11.699153 -34.202229 -107.52657
57952000 -34.087147 -92.110374 -0.042285159 -11.908458 -0.041629378 -11.90321 -34.102356 -107.66829
58951000 -33.955227 -92.438957 -0.043418445 -12.119858 -0.04225719 -12.100471 -33.949989 -107.69376
59950000 -33.837521 -92.834732 -0.043313339 -12.318522 -0.043692462 -12.295852 -33.881081 -107.9052
60949000 -33.724003 -93.425461 -0.044644605 -12.518888 -0.043503679 -12.499593 -33.78833 -108.20876
61948000 -33.663635 -93.708794 -0.045005277 -12.721171 -0.044028476 -12.704605 -33.700497 -108.28461
62947000 -33.578056 -93.873734 -0.045023322 -12.930001 -0.044924196 -12.914397 -33.565926 -108.52412
63946000 -33.497349 -94.670448 -0.046583269 -13.129321 -0.045731418 -13.112588 -33.45311 -108.63969
64945000 -33.387932 -94.801331 -0.047017634 -13.333212 -0.04630959 -13.31691 -33.346348 -109.1739
65944000 -33.287312 -95.077126 -0.048225965 -13.533515 -0.046762504 -13.515949 -33.255062 -109.63477
66943000 -33.15786 -95.4748 -0.045645092 -13.733848 -0.04504608 -13.719835 -33.152306 -109.89444
67942000 -33.088013 -95.420029 -0.047837283 -13.932931 -0.047238231 -13.919619 -33.031052 -110.24434
68941000 -32.986023 -95.563301 -0.047134865 -14.123564 -0.046181653 -14.118213 -32.924332 -110.13379
69940000 -32.881687 -95.547462 -0.048011597 -14.322791 -0.047250792 -14.318769 -32.777248 -110.41135
70939000 -32.771725 -95.468811 -0.0479035 -14.519229 -0.046708081 -14.51822 -32.645115 -110.31036
71938000 -32.626572 -95.023918 -0.048334591 -14.720453 -0.047403622 -14.712332 -32.517262 -110.1301
72937000 -32.468983 -94.806587 -0.04674916 -14.919624 -0.04703255 -14.91242 -32.368416 -109.87734
73936000 -32.337791 -94.48333 -0.047490511 -15.11701 -0.04613927 -15.11283 -32.260117 -109.71784
74935000 -32.197639 -94.664459 -0.046431255 -15.31666 -0.045019139 -15.307538 -32.091991 -109.34437
75934000 -32.078156 -94.947739 -0.047055054 -15.521004 -0.045350023 -15.516585 -31.999643 -109.24167
76933000 -31.933817 -95.274101 -0.048071273 -15.713987 -0.04716653 -15.706772 -31.839046 -109.59565
77932000 -31.835789 -96.072426 -0.049273878 -15.916328 -0.04943987 -15.907036 -31.725515 -109.54041
78931000 -31.75835 -96.802765 -0.047942761 -16.115063 -0.047438692 -16.11062 -31.628122 -109.39452
79930000 -31.650501 -97.734848 -0.050114904 -16.30735 -0.049909607 -16.308279 -31.514999 -109.70493
80929000 -31.537746 -98.501076 -0.05220744 -16.505856 -0.052106835 -16.504795 -31.42079 -109.9726
81928000 -31.430811 -99.209953 -0.052374855 -16.696573 -0.052005973 -16.697044 -31.285175 -109.90875
82927000 -31.333015 -99.941216 -0.054287877 -16.897326 -0.053527549 -16.893997 -31.17746 -110.23305
83926000 -31.212917 -100.70378 -0.055161074 -17.097036 -0.054269794 -17.093147 -31.053169 -110.42071
84925000 -31.108328 -101.14049 -0.056443267 -17.295847 -0.054637816 -17.292383 -30.955626 -110.48357
85924000 -31.018179 -101.47639 -0.056827214 -17.493605 -0.056490995 -17.49225 -30.873535 -110.40093
86923000 -30.90873 -101.95241 -0.056809377 -17.693905 -0.056699228 -17.689533 -30.761662 -110.23734
87922000 -30.789545 -102.34241 -0.057601761 -17.900997 -0.056367479 -17.893099 -30.676861 -110.27995
88921000 -30.719645 -102.61595 -0.058177058 -18.099522 -0.057520971 -18.099075 -30.57868 -110.27214
89920000 -30.617149 -103.1199 -0.0593515 -18.297403 -0.058210116 -18.291632 -30.527493 -110.36301
90919000 -30.507845 -103.44807 -0.059993956 -18.497709 -0.058459621 -18.492783 -30.449669 -110.57257
91918000 -30.410364 -103.74215 -0.060874861 -18.699949 -0.059341002 -18.693995 -30.369083 -110.54872
92917000 -30.327572 -104.09188 -0.061904561 -18.893963 -0.06046956 -18.895157 -30.304556 -110.64651
93916000 -30.23978 -104.45815 -0.061855987 -19.089075 -0.060528882 -19.086435 -30.223547 -111.20066
94915000 -30.154448 -105.08736 -0.063151449 -19.292402 -0.061354499 -19.285172 -30.161667 -111.14845
95914000 -30.089861 -105.27415 -0.064456239 -19.487886 -0.062161632 -19.48473 -30.070562 -111.42367
96913000 -30.003532 -105.49452 -0.06510707 -19.686607 -0.063080534 -19.685455 -30.004229 -111.77126
97912000 -29.918486 -105.93169 -0.066294424 -19.882208 -0.0634128 -19.886295 -29.917799 -111.9931
98911000 -29.805683 -106.1415 -0.066928446 -20.089388 -0.064919718 -20.084648 -29.882576 -112.21552
99910000 -29.746536 -106.24321 -0.06810867 -20.284384 -0.065638945 -20.28376 -29.768911 -112.51432
100909000 -29.654957 -106.4802 -0.067517862 -20.492628 -0.06504453 -20.489414 -29.685995 -112.72702
101908000 -29.564383 -106.77 -0.068044245 -20.692961 -0.066860355 -20.691221 -29.577074 -112.52573
102907000 -29.424774 -106.7483 -0.068290114 -20.898077 -0.066200592 -20.893419 -29.499607 -112.51263
103906000 -29.325483 -106.75975 -0.069236614 -21.098293 -0.066057347 -21.097679 -29.353661 -112.47276
104905000 -29.17741 -106.61981 -0.069301054 -21.296488 -0.066823557 -21.300486 -29.227028 -112.13796
105904000 -29.033186 -106.74939 -0.06948439 -21.50478 -0.066438988 -21.497986 -29.110703 -112.019
106903000 -28.920532 -106.8451 -0.070123605 -21.706497 -0.06712193 -21.706841 -28.979555 -111.92678
107902000 -28.763834 -107.11918 -0.071217075 -21.911163 -0.067521274 -21.901793 -28.838163 -111.87083
108901000 -28.647928 -107.37908 -0.072384782 -22.11117 -0.069018051 -22.105549 -28.707611 -111.80611
109900000 -28.521885 -107.86571 -0.072603785 -22.313681 -0.069966555 -22.304657 -28.556646 -111.91512
110899000 -28.403748 -108.49862 -0.074182622 -22.50816 -0.070863172 -22.500193 -28.435921 -112.15723
111898000 -28.308525 -109.15777 -0.0751075 -22.711582 -0.071869187 -22.70488 -28.314976 -112.28075
112897000 -28.190142 -109.70459 -0.076875366 -22.910744 -0.072938353 -22.897511 -28.175299 -112.44787
113896000 -28.080004 -110.30369 -0.077551514 -23.108784 -0.074864931 -23.10083 -28.06671 -112.61182
114895000 -27.978252 -110.96179 -0.07880871 -23.309626 -0.075503364 -23.298424 -27.951777 -112.65347
115894000 -27.856831 -111.31416 -0.08008261 -23.510189 -0.077073514 -23.499405 -27.878618 -112.85004
116893000 -27.779026 -111.74228 -0.081526481 -23.711004 -0.078035899 -23.693289 -27.763567 -112.87443
117892000 -27.698217 -112.27785 -0.080992915 -23.902744 -0.078162409 -23.894491 -27.679596 -113.06206
118891000 -27.636614 -112.713 -0.08151751 -24.108301 -0.07878235 -24.092863 -27.586853 -113.20998
119890000 -27.554798 -113.06322 -0.082551859 -24.305864 -0.079942338 -24.297258 -27.575457 -113.37178
120889000 -27.499126 -113.58236 -0.083750322 -24.509623 -0.079752497 -24.495392 -27.500641 -113.27456
121888000 -27.453127 -113.87947 -0.083464794 -24.70735 -0.080889538 -24.693876 -27.442848 -113.53902
122887000 -27.423307 -114.08514 -0.084984764 -24.906136 -0.081197843 -24.897934 -27.390657 -113.55293
123886000 -27.366127 -114.52859 -0.085174561 -25.112253 -0.082042962 -25.092169 -27.383221 -113.69598
124885000 -27.329372 -115.01782 -0.085705735 -25.309055 -0.082595125 -25.295633 -27.351444 -113.75198
125884000 -27.279755 -115.24133 -0.086104423 -25.510019 -0.082150862 -25.495377 -27.321241 -113.89738
126883000 -27.256599 -115.58903 -0.086864404 -25.714645 -0.083275065 -25.699764 -27.287073 -113.90998
127882000 -27.206884 -115.90936 -0.087423258 -25.91165 -0.083926879 -25.896772 -27.239172 -114.01997
128881000 -27.176147 -116.22463 -0.086813703 -26.115446 -0.083747685 -26.101467 -27.202297 -114.13438
129880000 -27.121082 -116.52361 -0.088093124 -26.317768 -0.08386486 -26.298439 -27.165791 -114.12213
130879000 -27.065508 -116.69137 -0.087576717 -26.516216 -0.084659822 -26.501879 -27.088678 -114.11875
131878000 -26.999985 -116.92751 -0.088851869 -26.720179 -0.085542575 -26.701273 -27.029068 -113.97031
132877000 -26.921646 -117.02114 -0.088413037 -26.921438 -0.084913492 -26.903732 -26.95068 -113.99797
133876000 -26.838182 -117.16261 -0.088864818 -27.123283 -0.084739275 -27.102697 -26.863724 -113.83109
134875000 -26.744955 -117.30961 -0.088571288 -27.327707 -0.086298503 -27.302919 -26.759769 -113.69563
135874000 -26.664141 -117.32477 -0.089361563 -27.524361 -0.085662439 -27.508907 -26.658905 -113.64025
136873000 -26.546652 -117.24954 -0.089057431 -27.72834 -0.085684881 -27.709763 -26.57802 -113.61296
137872000 -26.466871 -117.39676 -0.089014098 -27.927408 -0.085647389 -27.914709 -26.471146 -113.57773
138871000 -26.39473 -117.59818 -0.089891665 -28.129812 -0.085967124 -28.11622 -26.371353 -113.71612
139870000 -26.295223 -117.89341 -0.090305008 -28.326454 -0.087039769 -28.308939 -26.297073 -113.85967
140869000 -26.218643 -118.46573 -0.091852218 -28.525602 -0.088268004 -28.511528 -26.193678 -114.1063
141868000 -26.137375 -118.82625 -0.092028312 -28.724859 -0.089991823 -28.712322 -26.139633 -114.36208
142867000 -26.053942 -119.04957 -0.09083654 -28.922132 -0.089233667 -28.905638 -26.056494 -114.45491
143866000 -25.984562 -119.53963 -0.092920765 -29.119669 -0.090053402 -29.102972 -25.992105 -114.93614
144865000 -25.926014 -120.06713 -0.094581611 -29.317726 -0.091712095 -29.302605 -25.924452 -115.19117
145864000 -25.868067 -120.3875 -0.094772361 -29.521044 -0.093058549 -29.507343 -25.892307 -115.44535
146863000 -25.823223 -120.75513 -0.095578581 -29.720961 -0.093842499 -29.709848 -25.843616 -115.75691
147862000 -25.787766 -121.0742 -0.096730098 -29.917028 -0.094138764 -29.904579 -25.816008 -116.05184
148861000 -25.757486 -121.51836 -0.097249448 -30.117456 -0.095578052 -30.103441 -25.792885 -116.22746
149860000 -25.722239 -121.68691 -0.098526388 -30.307909 -0.096464358 -30.298965 -25.743202 -116.29423
150859000 -25.695942 -122.17225 -0.098602653 -30.509459 -0.095721744 -30.492165 -25.720592 -116.6754
151858000 -25.683445 -122.51605 -0.097929575 -30.707268 -0.096067891 -30.694536 -25.709993 -117.01984
152857000 -25.675194 -122.81873 -0.097962402 -30.903255 -0.095483854 -30.895163 -25.700029 -117.16319
153856000 -25.665565 -123.05559 -0.098006882 -31.107462 -0.095554769 -31.095715 -25.717033 -117.51286
154855000 -25.672831 -123.21988 -0.09826266 -31.307941 -0.096165024 -31.293663 -25.706305 -117.73558
155854000 -25.684978 -123.47634 -0.098750949 -31.506178 -0.096467271 -31.4939 -25.701353 -117.98883
156853000 -25.675217 -124.16611 -0.09640269 -31.695971 -0.095427223 -31.687649 -25.69647 -118.30848
157852000 -25.679276 -124.38687 -0.097848289 -31.896618 -0.096998766 -31.887749 -25.683775 -118.62515
158851000 -25.679716 -124.56412 -0.098414645 -32.095791 -0.097235687 -32.087482 -25.670328 -118.90951
159850000 -25.666878 -124.71636 -0.099501491 -32.29483 -0.097503327 -32.28603 -25.675589 -119.08984
160849000 -25.65527 -124.77944 -0.10006488 -32.493385 -0.09840326 -32.487854 -25.646975 -119.3652
161848000 -25.637844 -124.89427 -0.099903829 -32.693649 -0.099013649 -32.690128 -25.604586 -119.5155
162847000 -25.597742 -125.06782 -0.10030992 -32.892445 -0.099072441 -32.88723 -25.57736 -119.74963
163846000 -25.557272 -125.25547 -0.099927932 -33.092728 -0.099206187 -33.086342 -25.499197 -119.73815
164845000 -25.498569 -125.25332 -0.10027283 -33.293537 -0.098842837 -33.288372 -25.439835 -119.84607
165844000 -25.439781 -125.27881 -0.10100032 -33.493614 -0.099748082 -33.489624 -25.361002 -120.00122
166843000 -25.379898 -125.31203 -0.10000581 -33.693115 -0.09935794 -33.689415 -25.293594 -120.18465
167842000 -25.323532 -125.40834 -0.10145447 -33.894382 -0.10108193 -33.88739 -25.213514 -120.09782
168841000 -25.241138 -125.58891 -0.10155728 -34.09288 -0.10068981 -34.088352 -25.14053 -120.16285
169840000 -25.182981 -125.8484 -0.10169799 -34.291687 -0.1004241 -34.288834 -25.054739 -120.32755
170839000 -25.120977 -126.0807 -0.10281296 -34.487747 -0.10104616 -34.486889 -24.970287 -120.54424
171838000 -25.063721 -126.48286 -0.10216679 -34.689629 -0.10210265 -34.685326 -24.907919 -120.75257
172837000 -24.99238 -126.83715 -0.10407218 -34.884106 -0.10306849 -34.879753 -24.840004 -120.98799
173836000 -24.927704 -127.24519 -0.1049467 -35.087536 -0.10433786 -35.08514 -24.797106 -121.19463
174835000 -24.874027 -127.62341 -0.10592801 -35.283142 -0.10437922 -35.283005 -24.753483 -121.51469
175834000 -24.820812 -128.01024 -0.10677584 -35.48172 -0.10610202 -35.479454 -24.688463 -121.76767
176833000 -24.767838 -128.34967 -0.10788044 -35.682911 -0.10671376 -35.678581 -24.638237 -121.91051
177832000 -24.725641 -128.78587 -0.10910184 -35.882275 -0.10785495 -35.881908 -24.62006 -122.0304
178831000 -24.688959 -129.05907 -0.11036634 -36.082493 -0.10892214 -36.078022 -24.584314 -122.14686
179830000 -24.614645 -129.39301 -0.11196136 -36.265804 -0.1105931 -36.270882 -24.528797 -122.1971
180829000 -24.561262 -129.72768 -0.11098558 -36.455639 -0.10980984 -36.454067 -24.476881 -122.48553
181828000 -24.534542 -130.19666 -0.11064249 -36.654709 -0.10917935 -36.650951 -24.453159 -122.6786
182827000 -24.509192 -130.57048 -0.1101518 -36.855049 -0.10982683 -36.852837 -24.43932 -122.81879
183826000 -24.470812 -130.92224 -0.11089662 -37.050476 -0.10975621 -37.047432 -24.4342 -122.93826
184825000 -24.475386 -131.22406 -0.11072109 -37.249043 -0.11007056 -37.246605 -24.410166 -123.09176
185824000 -24.443789 -131.61417 -0.11119804 -37.440617 -0.1098494 -37.445717 -24.404177 -123.15205
186823000 -24.424116 -131.97345 -0.11165139 -37.645985 -0.1099548 -37.644371 -24.40251 -123.16522
187822000 -24.401531 -132.31709 -0.11214517 -37.843002 -0.11050388 -37.841179 -24.35569 -123.26196
188821000 -24.37833 -132.56755 -0.11143547 -38.036327 -0.11102329 -38.039211 -24.341003 -123.38235
189820000 -24.356356 -132.87448 -0.11180039 -38.23904 -0.11109128 -38.238113 -24.324987 -123.57631
190819000 -24.321814 -133.18048 -0.11277503 -38.434605 -0.11134596 -38.43335 -24.285208 -123.61147
191818000 -24.292927 -133.46574 -0.11231465 -38.630367 -0.11175285 -38.63409 -24.256401 -123.67107
192817000 -24.245232 -133.72911 -0.11325858 -38.831135 -0.11178127 -38.830132 -24.211569 -123.73761
193816000 -24.210621 -133.98579 -0.11278433 -39.024616 -0.11189549 -39.02523 -24.159094 -123.91109
194815000 -24.148561 -134.37996 -0.11386335 -39.219025 -0.11246952 -39.221943 -24.087431 -123.96055
195814000 -24.094875 -134.58424 -0.11495061 -39.420162 -0.11310527 -39.422409 -24.031151 -124.08463
196813000 -24.038143 -134.88806 -0.11453199 -39.61166 -0.11301202 -39.611176 -23.953606 -124.24498
197812000 -23.978491 -135.12421 -0.1149554 -39.8111 -0.1133343 -39.809162 -23.884615 -124.32914
198811000 -23.927427 -135.28255 -0.11457505 -40.010586 -0.11395662 -40.011074 -23.810658 -124.49574
199810000 -23.853434 -135.62314 -0.11450222 -40.202759 -0.11340843 -40.201813 -23.732847 -124.58258
200809000 -23.795086 -135.87898 -0.11533817 -40.400105 -0.11350568 -40.399456 -23.653042 -124.79809
201808000 -23.732365 -136.09665 -0.11643564 -40.601521 -0.11524247 -40.602051 -23.583023 -124.84194
202807000 -23.678373 -136.45265 -0.11652125 -40.802422 -0.11566568 -40.806499 -23.523626 -125.06765
