!Keysight Technologies,E5080B,MY59205177,A.15.75.32
!Date: Friday, February 23, 2024 02:49:54
!Correction: S11(Cdelta 2-Port  ) 
!S21(Cdelta 2-Port  ) 
!S12(Cdelta 2-Port  ) 
!S22(Cdelta 2-Port  ) 
!S2P File: Measurements: S11, S21, S12, S22:
# Hz S  dB   R 50
10000000 -42.023685 -3.3954651 -0.043281965 -2.0485575 -0.045892041 -2.1061673 -51.961285 -132.78438
10999000 -41.503563 -4.911397 -0.044907719 -2.267807 -0.046187147 -2.3187335 -51.105907 -122.00723
11998000 -40.856541 -6.7396235 -0.044873454 -2.4904139 -0.045494936 -2.5340383 -50.966877 -114.41859
12997000 -40.368328 -10.871728 -0.044155825 -2.672019 -0.045469824 -2.701412 -49.631062 -107.99722
13996000 -40.161602 -13.491778 -0.042891372 -2.8505151 -0.045257684 -2.8688152 -48.702255 -103.06464
14995000 -39.906319 -16.602259 -0.045147303 -3.0611358 -0.044458658 -3.0802205 -48.100674 -100.79475
15994000 -39.838833 -19.76195 -0.046852779 -3.2791784 -0.047966842 -3.3015273 -47.643761 -96.901039
16993000 -39.846947 -23.246801 -0.04585411 -3.4735258 -0.04705479 -3.4818149 -46.700443 -100.36861
17992000 -39.999611 -26.901569 -0.046332877 -3.6744368 -0.047773946 -3.6778293 -46.081894 -102.15414
18991000 -40.237633 -30.209118 -0.047243204 -3.8857257 -0.04850186 -3.8844328 -45.326233 -103.32713
19990000 -40.200706 -34.480362 -0.049976643 -4.0905695 -0.050423391 -4.0898519 -44.566402 -106.62691
20989000 -40.170708 -37.108181 -0.051603332 -4.2980533 -0.053100396 -4.2893119 -43.99958 -107.17927
21988000 -40.170036 -41.311695 -0.052239142 -4.4955463 -0.053764202 -4.4823365 -43.681324 -107.65025
22987000 -40.066662 -45.177532 -0.053771805 -4.6907287 -0.05447818 -4.6879683 -43.354336 -107.68707
23986000 -40.185265 -48.718719 -0.053470418 -4.8871903 -0.052824471 -4.8855276 -43.204048 -107.56731
24985000 -39.937489 -50.967232 -0.054371756 -5.0985341 -0.053217791 -5.0971045 -42.858707 -105.3998
25984000 -39.792007 -53.177643 -0.054844122 -5.3033137 -0.05358861 -5.3042517 -42.414852 -104.52445
26983000 -39.574772 -55.001274 -0.055507414 -5.4988675 -0.055027634 -5.5215478 -42.24757 -103.72611
27982000 -39.411339 -56.347782 -0.056834817 -5.7015538 -0.056869961 -5.7361002 -41.908913 -102.38606
28981000 -39.480164 -57.783878 -0.055762004 -5.8998947 -0.05701841 -5.9237113 -41.614811 -102.41485
29980000 -39.169815 -59.662174 -0.05566027 -6.0955167 -0.056977496 -6.101203 -41.256859 -102.03641
30979000 -38.772579 -59.021877 -0.052906223 -6.4470439 -0.05158814 -6.4389844 -40.720608 -103.4149
31978000 -38.658638 -60.285381 -0.052510574 -6.6470308 -0.052938715 -6.6320653 -40.433163 -103.08661
32977000 -38.51162 -61.994705 -0.052883688 -6.857306 -0.053346723 -6.8468413 -40.184013 -103.41223
33976000 -38.367466 -63.115738 -0.053635258 -7.0531025 -0.05373852 -7.0503902 -39.841927 -103.43245
34975000 -38.130905 -64.343025 -0.053498719 -7.2544355 -0.055028941 -7.2536345 -39.568642 -103.43909
35974000 -37.958565 -65.051666 -0.051942576 -7.4473252 -0.05411908 -7.4527159 -39.234581 -102.62769
36973000 -37.755264 -65.990425 -0.053119786 -7.6471457 -0.055354558 -7.65307 -38.918247 -102.21207
37972000 -37.601994 -66.068413 -0.05246577 -7.8605914 -0.055299502 -7.8666253 -38.627865 -101.70328
38971000 -37.266396 -66.181549 -0.053521782 -8.0600758 -0.055455498 -8.0670862 -38.417099 -100.24014
39970000 -37.002419 -66.77961 -0.052171022 -8.2542086 -0.054264028 -8.2783327 -38.115967 -100.13281
40969000 -36.725868 -66.944603 -0.05241625 -8.4501104 -0.053808495 -8.4678192 -37.817146 -98.852287
41968000 -36.387566 -67.31366 -0.052202724 -8.6559963 -0.054380145 -8.6709232 -37.559296 -97.736549
42967000 -36.154324 -67.701416 -0.052339222 -8.8708067 -0.055462055 -8.8864183 -37.291714 -96.044159
43966000 -35.900608 -68.656532 -0.053899702 -9.068552 -0.056254715 -9.0849123 -36.984406 -95.747299
44965000 -35.693462 -69.635666 -0.054098636 -9.2700434 -0.056291692 -9.2900286 -36.781143 -95.725975
45964000 -35.48745 -70.868828 -0.055344332 -9.4713516 -0.057919964 -9.4886723 -36.500725 -95.782448
46963000 -35.365894 -72.831108 -0.055666041 -9.6653099 -0.057799552 -9.6855812 -36.339424 -96.249794
47962000 -35.248844 -74.434265 -0.056568623 -9.866993 -0.059481926 -9.8840551 -36.140953 -96.553482
48961000 -35.074837 -75.935539 -0.059058122 -10.061532 -0.061014783 -10.086026 -35.918079 -97.099686
49960000 -34.885124 -77.452576 -0.060655668 -10.261282 -0.062583111 -10.284023 -35.775566 -97.410851
50959000 -34.704388 -78.972137 -0.061319843 -10.477312 -0.063789479 -10.487216 -35.596226 -97.89389
51958000 -34.544544 -80.186241 -0.062875941 -10.67454 -0.064722128 -10.684173 -35.421162 -98.641785
52957000 -34.358402 -81.369652 -0.064582348 -10.873585 -0.066338316 -10.882203 -35.246071 -98.633247
53956000 -34.215923 -82.268158 -0.06580136 -11.077719 -0.067408226 -11.078544 -35.102737 -98.727722
54955000 -34.06488 -82.964737 -0.067218408 -11.278103 -0.067857295 -11.277761 -34.954262 -98.832603
55954000 -33.931122 -83.805954 -0.067392454 -11.476737 -0.0686922 -11.474257 -34.83847 -98.646416
56953000 -33.805378 -83.995911 -0.06801559 -11.674669 -0.067333825 -11.668388 -34.77071 -98.965744
57952000 -33.652889 -84.674522 -0.068844207 -11.874757 -0.067911461 -11.869101 -34.662743 -99.065216
58951000 -33.551514 -85.147034 -0.069749534 -12.079075 -0.069010422 -12.05575 -34.510258 -99.239029
59950000 -33.418232 -85.506577 -0.069810823 -12.280347 -0.070098616 -12.25762 -34.453819 -99.684578
60949000 -33.330994 -86.229912 -0.070831858 -12.480834 -0.070859484 -12.458551 -34.355309 -100.00179
61948000 -33.270931 -86.555794 -0.072068416 -12.680276 -0.070666887 -12.658558 -34.277645 -100.13918
62947000 -33.195934 -86.837624 -0.071773127 -12.886197 -0.070682146 -12.869701 -34.135635 -100.49394
63946000 -33.124126 -87.581131 -0.072869383 -13.091062 -0.072458751 -13.065866 -34.033695 -100.68675
64945000 -33.028915 -87.806229 -0.072527975 -13.290592 -0.072718024 -13.273199 -33.921444 -101.28297
65944000 -32.923286 -88.162636 -0.074363001 -13.491006 -0.07298205 -13.474988 -33.841793 -101.81113
66943000 -32.785027 -88.645935 -0.071757071 -13.695114 -0.07159391 -13.67654 -33.740528 -102.15858
67942000 -32.722122 -88.573471 -0.074142329 -13.890017 -0.073710777 -13.874809 -33.62664 -102.53196
68941000 -32.617813 -88.741615 -0.073955908 -14.07825 -0.072232388 -14.074484 -33.503647 -102.63005
69940000 -32.511875 -88.834381 -0.07416603 -14.281749 -0.073517524 -14.271212 -33.3717 -102.95007
70939000 -32.409122 -88.857346 -0.074054383 -14.480484 -0.073024169 -14.469855 -33.224655 -102.89093
71938000 -32.253513 -88.513832 -0.074862301 -14.674576 -0.072944142 -14.669155 -33.085651 -102.79232
72937000 -32.094284 -88.364006 -0.07378187 -14.871634 -0.073023379 -14.864144 -32.94001 -102.57359
73936000 -31.950274 -88.202148 -0.073383257 -15.069462 -0.072244495 -15.060493 -32.822834 -102.44472
74935000 -31.823868 -88.488983 -0.072535343 -15.266139 -0.070995785 -15.26096 -32.659008 -102.14787
75934000 -31.717058 -88.82148 -0.072649583 -15.477605 -0.072203174 -15.469168 -32.566051 -102.06648
76933000 -31.589418 -89.257698 -0.074024633 -15.669083 -0.073637061 -15.662473 -32.404411 -102.58783
77932000 -31.498936 -90.093407 -0.075742275 -15.867581 -0.074607901 -15.861146 -32.292702 -102.68216
78931000 -31.440418 -90.846687 -0.074329026 -16.066246 -0.074214749 -16.056425 -32.195587 -102.59667
79930000 -31.329845 -91.796288 -0.076835319 -16.256901 -0.07671807 -16.25572 -32.103523 -102.92732
80929000 -31.222044 -92.684425 -0.078583598 -16.450628 -0.078233831 -16.451118 -31.992933 -103.35107
81928000 -31.154537 -93.624092 -0.078125507 -16.646324 -0.077877507 -16.642696 -31.877499 -103.54242
82927000 -31.073294 -94.374306 -0.079934955 -16.843054 -0.079463802 -16.839802 -31.78322 -103.90236
83926000 -30.957695 -95.129395 -0.081721939 -17.040827 -0.080728136 -17.044006 -31.666058 -104.2229
84925000 -30.859678 -95.65731 -0.082852364 -17.242785 -0.080493964 -17.239811 -31.556677 -104.29964
85924000 -30.778234 -96.162811 -0.083587237 -17.437923 -0.082069874 -17.438519 -31.485584 -104.38309
86923000 -30.675571 -96.744812 -0.083356604 -17.639595 -0.082889304 -17.636806 -31.379929 -104.32085
87922000 -30.573355 -97.158318 -0.083406739 -17.844248 -0.082690366 -17.834873 -31.286194 -104.42262
88921000 -30.513853 -97.556435 -0.085049435 -18.045059 -0.083347894 -18.035347 -31.192492 -104.47687
89920000 -30.415997 -98.167267 -0.085345894 -18.244116 -0.083793342 -18.232538 -31.143192 -104.72477
90919000 -30.31654 -98.539024 -0.085795239 -18.441439 -0.084582217 -18.433479 -31.05274 -104.90929
91918000 -30.223167 -98.90094 -0.087130353 -18.639961 -0.08523766 -18.63196 -30.986481 -104.96573
92917000 -30.143368 -99.297966 -0.088382922 -18.837769 -0.086694069 -18.833887 -30.920961 -105.09385
93916000 -30.050116 -99.739899 -0.08754053 -19.033791 -0.08670754 -19.026106 -30.832783 -105.78759
94915000 -29.987638 -100.45145 -0.08933223 -19.233711 -0.087778516 -19.226765 -30.775278 -105.68026
95914000 -29.917425 -100.63836 -0.089984156 -19.428694 -0.088774718 -19.423714 -30.674236 -105.96479
96913000 -29.839464 -100.92487 -0.09157858 -19.625341 -0.089615501 -19.623518 -30.620941 -106.40479
97912000 -29.764788 -101.40997 -0.092348777 -19.823082 -0.090161756 -19.824549 -30.536352 -106.6524
98911000 -29.662737 -101.58836 -0.092875279 -20.024632 -0.090993822 -20.020966 -30.504562 -106.833
99910000 -29.590481 -101.76743 -0.093390994 -20.224398 -0.091054358 -20.222229 -30.395945 -107.27164
100909000 -29.501865 -102.0743 -0.093354762 -20.432905 -0.090668961 -20.425484 -30.305172 -107.47151
101908000 -29.422094 -102.33883 -0.094673678 -20.62916 -0.092519596 -20.629715 -30.188036 -107.21724
102907000 -29.292274 -102.44655 -0.094545893 -20.830128 -0.092798583 -20.828903 -30.105457 -107.18581
103906000 -29.185991 -102.52524 -0.094894335 -21.031847 -0.091610834 -21.031624 -29.949589 -107.19906
104905000 -29.040241 -102.46724 -0.095730215 -21.232218 -0.092871048 -21.234604 -29.816359 -106.90582
105904000 -28.901176 -102.61682 -0.095890053 -21.435007 -0.092010595 -21.430321 -29.690235 -106.78431
106903000 -28.7883 -102.78267 -0.095419817 -21.639299 -0.093931377 -21.638945 -29.56407 -106.73731
107902000 -28.630999 -103.16082 -0.095956214 -21.844154 -0.094258331 -21.832468 -29.412443 -106.70157
108901000 -28.51852 -103.46276 -0.097489558 -22.043888 -0.095356047 -22.034967 -29.284527 -106.73469
109900000 -28.393728 -104.01101 -0.09808208 -22.24157 -0.096342608 -22.229441 -29.129904 -106.84063
110899000 -28.287291 -104.67168 -0.099640012 -22.44182 -0.096770592 -22.434845 -29.002333 -107.2065
111898000 -28.19116 -105.36129 -0.10121123 -22.643301 -0.098264776 -22.634367 -28.882341 -107.39625
112897000 -28.075813 -105.98382 -0.10288903 -22.840858 -0.099040397 -22.82967 -28.746826 -107.66599
113896000 -27.976124 -106.62416 -0.10370418 -23.043938 -0.10089699 -23.030806 -28.633694 -107.85402
114895000 -27.874378 -107.28721 -0.10497321 -23.239691 -0.10246813 -23.225948 -28.523758 -107.99275
115894000 -27.746851 -107.70877 -0.10604234 -23.43956 -0.10332058 -23.426121 -28.449409 -108.18198
116893000 -27.672623 -108.30697 -0.10676523 -23.634361 -0.10428058 -23.617258 -28.320148 -108.40491
117892000 -27.593304 -108.86438 -0.10714038 -23.832985 -0.10463776 -23.820782 -28.248377 -108.65732
118891000 -27.53805 -109.31907 -0.1071839 -24.032618 -0.10498727 -24.019054 -28.146597 -108.8419
119890000 -27.448797 -109.68691 -0.10811662 -24.236246 -0.105993 -24.218346 -28.138361 -109.00198
120889000 -27.396034 -110.2343 -0.10943578 -24.435331 -0.10583146 -24.422447 -28.062883 -108.99699
121888000 -27.357178 -110.60204 -0.10969037 -24.631989 -0.10667502 -24.620331 -28.005249 -109.32218
122887000 -27.315166 -110.80672 -0.1102118 -24.833132 -0.10732187 -24.820999 -27.953745 -109.37141
123886000 -27.256388 -111.23486 -0.11078057 -25.037956 -0.10766868 -25.019075 -27.941313 -109.48933
124885000 -27.22838 -111.77195 -0.11136004 -25.232922 -0.10875704 -25.219269 -27.912054 -109.5975
125884000 -27.174389 -111.94756 -0.11233909 -25.429739 -0.10842633 -25.419304 -27.883089 -109.83453
126883000 -27.150187 -112.35317 -0.11277476 -25.634659 -0.1095648 -25.620079 -27.834736 -109.85873
127882000 -27.102736 -112.64792 -0.11315177 -25.834629 -0.10953719 -25.818018 -27.793821 -110.04099
128881000 -27.069284 -113.01326 -0.11304044 -26.034475 -0.10993435 -26.020218 -27.74375 -110.15065
129880000 -27.010212 -113.32446 -0.11392181 -26.238338 -0.11058832 -26.218412 -27.708359 -110.13519
130879000 -26.949612 -113.49171 -0.11347327 -26.433868 -0.11111836 -26.419153 -27.627645 -110.24265
131878000 -26.881414 -113.71065 -0.11359417 -26.638096 -0.11132047 -26.61986 -27.558083 -110.10161
132877000 -26.809269 -113.76032 -0.11326017 -26.841961 -0.11161235 -26.82082 -27.465275 -110.16005
133876000 -26.722267 -113.97622 -0.11423805 -27.043165 -0.11147583 -27.02273 -27.376387 -110.04309
134875000 -26.623072 -114.14889 -0.11438476 -27.240198 -0.11190425 -27.222677 -27.266813 -109.9507
135874000 -26.541651 -114.20291 -0.11445545 -27.440168 -0.11184342 -27.421944 -27.160717 -109.94749
136873000 -26.429234 -114.11989 -0.11522759 -27.646999 -0.11130957 -27.624996 -27.076441 -109.95657
137872000 -26.356022 -114.27394 -0.11468934 -27.846239 -0.11253248 -27.824505 -26.959145 -109.89337
138871000 -26.275557 -114.45645 -0.1156577 -28.043575 -0.11277051 -28.032907 -26.859713 -110.11214
139870000 -26.175798 -114.7617 -0.11637262 -28.24618 -0.11369727 -28.22419 -26.780468 -110.29667
140869000 -26.091715 -115.23983 -0.11810631 -28.441862 -0.11537326 -28.420732 -26.672016 -110.48394
141868000 -25.998327 -115.75461 -0.11803395 -28.632982 -0.11599162 -28.616592 -26.601297 -110.82815
142867000 -25.918678 -116.0615 -0.11639044 -28.828388 -0.11568323 -28.813768 -26.524336 -111.02107
143866000 -25.859547 -116.56476 -0.11850505 -29.026497 -0.11616071 -29.008795 -26.452795 -111.57489
144865000 -25.803938 -117.13181 -0.12007459 -29.226828 -0.11779723 -29.211323 -26.393993 -111.92249
145864000 -25.747746 -117.44487 -0.12041896 -29.426306 -0.11856996 -29.412415 -26.365364 -112.21777
146863000 -25.700527 -117.85237 -0.12126003 -29.627485 -0.11884158 -29.613808 -26.315617 -112.54037
147862000 -25.661091 -118.25702 -0.12230575 -29.82567 -0.1195195 -29.80653 -26.288185 -112.89497
148861000 -25.635736 -118.78564 -0.12256403 -30.020445 -0.12007459 -30.006458 -26.261917 -113.18581
149860000 -25.615871 -118.96317 -0.12278689 -30.217422 -0.12044743 -30.209286 -26.231113 -113.34923
150859000 -25.601044 -119.39127 -0.12409215 -30.422373 -0.12083894 -30.403519 -26.222334 -113.60571
151858000 -25.585461 -119.66228 -0.1232625 -30.61845 -0.12106732 -30.601397 -26.220341 -113.89275
152857000 -25.565945 -120.02427 -0.12445255 -30.817005 -0.12133297 -30.805553 -26.197542 -114.07317
153856000 -25.562141 -120.23965 -0.12325212 -31.013153 -0.12148896 -31.003971 -26.218445 -114.37778
154855000 -25.551914 -120.39394 -0.12396962 -31.214319 -0.12192236 -31.199703 -26.212666 -114.5768
155854000 -25.564898 -120.63445 -0.12425383 -31.415438 -0.12219393 -31.397816 -26.207756 -114.82317
156853000 -25.550869 -121.36544 -0.12200063 -31.599632 -0.12137796 -31.591291 -26.203993 -115.14158
157852000 -25.557014 -121.57532 -0.1237078 -31.800917 -0.12307742 -31.789244 -26.197878 -115.49368
158851000 -25.55056 -121.83883 -0.12455085 -31.99791 -0.12318154 -31.990391 -26.179928 -115.78134
159850000 -25.533525 -121.96546 -0.1251865 -32.197483 -0.12312322 -32.192982 -26.183878 -115.89222
160849000 -25.514059 -122.07653 -0.12590565 -32.398064 -0.12393606 -32.390949 -26.150846 -116.2047
161848000 -25.495775 -122.19009 -0.1261756 -32.595299 -0.12342443 -32.590248 -26.104094 -116.3194
162847000 -25.44717 -122.39847 -0.12566237 -32.795467 -0.12433348 -32.792915 -26.084389 -116.58483
163846000 -25.402662 -122.59739 -0.12619692 -32.996456 -0.12422852 -32.989231 -25.99696 -116.57751
164845000 -25.344978 -122.64254 -0.12679763 -33.196724 -0.12457003 -33.186886 -25.932999 -116.71254
165844000 -25.292953 -122.70774 -0.12650926 -33.393749 -0.12550196 -33.387871 -25.848167 -116.86919
166843000 -25.223499 -122.83391 -0.1259315 -33.592438 -0.12508899 -33.588463 -25.78133 -117.0223
167842000 -25.164284 -122.96967 -0.12686799 -33.788857 -0.1257647 -33.785881 -25.688011 -116.98896
168841000 -25.09054 -123.17107 -0.12718919 -33.992283 -0.12550996 -33.987942 -25.616045 -117.07594
169840000 -25.022499 -123.45855 -0.12731101 -34.186096 -0.1269453 -34.180046 -25.527012 -117.28635
170839000 -24.962704 -123.7849 -0.12844269 -34.382011 -0.1258425 -34.380562 -25.44058 -117.52235
171838000 -24.903959 -124.16447 -0.1284499 -34.583874 -0.12811476 -34.578354 -25.374886 -117.78769
172837000 -24.836731 -124.52403 -0.12962483 -34.77697 -0.12865788 -34.772491 -25.30566 -118.02965
173836000 -24.773941 -124.99432 -0.13109754 -34.978603 -0.12979046 -34.976044 -25.261126 -118.27326
174835000 -24.719988 -125.44249 -0.13140462 -35.172588 -0.13092653 -35.170933 -25.215261 -118.61863
175834000 -24.670315 -125.85542 -0.13253045 -35.370731 -0.13147347 -35.365952 -25.153706 -118.94388
176833000 -24.618746 -126.23849 -0.13363415 -35.568878 -0.13191427 -35.56702 -25.104256 -119.16941
177832000 -24.573008 -126.74963 -0.13329034 -35.765869 -0.13252512 -35.765049 -25.076746 -119.28201
178831000 -24.535877 -127.11996 -0.13418891 -35.960396 -0.13291718 -35.95702 -25.039232 -119.55261
179830000 -24.499109 -127.57221 -0.13437098 -36.159138 -0.13336775 -36.162071 -25.012972 -119.71815
180829000 -24.459412 -127.81777 -0.13517204 -36.355595 -0.13383543 -36.356689 -24.988066 -119.91911
181828000 -24.430521 -128.19023 -0.1351165 -36.560192 -0.13375641 -36.54932 -24.964945 -120.05363
182827000 -24.412392 -128.5152 -0.13544017 -36.747234 -0.13427861 -36.747639 -24.94821 -120.11578
183826000 -24.373997 -128.84447 -0.13652724 -36.948387 -0.13480487 -36.941113 -24.944317 -120.25637
184825000 -24.377697 -129.19876 -0.1362569 -37.139343 -0.1351715 -37.142551 -24.928402 -120.3626
185824000 -24.345192 -129.55423 -0.13617463 -37.336464 -0.13593212 -37.342896 -24.926064 -120.40662
186823000 -24.331903 -129.90642 -0.13639955 -37.539192 -0.13563272 -37.534416 -24.917406 -120.39268
187822000 -24.311142 -130.22951 -0.13725227 -37.730537 -0.13669527 -37.72892 -24.884829 -120.44214
188821000 -24.292381 -130.47336 -0.1368836 -37.929657 -0.1362302 -37.93021 -24.865957 -120.57769
189820000 -24.273478 -130.72972 -0.13766213 -38.128632 -0.13654861 -38.130016 -24.856483 -120.73154
190819000 -24.243675 -130.97897 -0.13895503 -38.329414 -0.13802341 -38.326584 -24.817043 -120.672
191818000 -24.205805 -131.17047 -0.13989219 -38.526279 -0.13952596 -38.525723 -24.788303 -120.59045
192817000 -24.139614 -131.43221 -0.1405309 -38.708824 -0.13948373 -38.711739 -24.711111 -120.65159
193816000 -24.097374 -131.80469 -0.13950752 -38.898689 -0.1380095 -38.900723 -24.653875 -120.92892
194815000 -24.040739 -132.29242 -0.13965829 -39.098228 -0.13924129 -39.102024 -24.590395 -121.04777
195814000 -23.986324 -132.46957 -0.13970506 -39.296761 -0.13890933 -39.297058 -24.534317 -121.20324
196813000 -23.933489 -132.85544 -0.13954842 -39.489399 -0.13836919 -39.494614 -24.453779 -121.36592
197812000 -23.877859 -133.10611 -0.13979222 -39.691013 -0.13984193 -39.685799 -24.383421 -121.4878
198811000 -23.825632 -133.2998 -0.13949229 -39.887714 -0.13917527 -39.888031 -24.311104 -121.68845
199810000 -23.751781 -133.63826 -0.14022851 -40.076267 -0.13851351 -40.080315 -24.23204 -121.8089
200809000 -23.695263 -133.94537 -0.14063251 -40.28001 -0.13945806 -40.280296 -24.152678 -122.00114
201808000 -23.635818 -134.18584 -0.14090149 -40.478798 -0.14013842 -40.480831 -24.082396 -122.10478
202807000 -23.579369 -134.5833 -0.14187199 -40.680767 -0.14100178 -40.680103 -24.03096 -122.31122
203806000 -23.52948 -135.0186 -0.14334378 -40.87785 -0.14171633 -40.878708 -23.963451 -122.48195
