!Keysight Technologies,E5080B,MY59205177,A.15.75.32
!Date: Friday, February 23, 2024 02:46:07
!Correction: S11(Cdelta 2-Port  ) 
!S21(Cdelta 2-Port  ) 
!S12(Cdelta 2-Port  ) 
!S22(Cdelta 2-Port  ) 
!S2P File: Measurements: S11, S21, S12, S22:
# Hz S  dB   R 50
10000000 -39.004223 -3.2121418 -0.072283454 -2.0557168 -0.075696178 -2.1103625 -52.230644 -46.260468
10999000 -38.621078 -4.3889966 -0.073742375 -2.2713914 -0.076338425 -2.3268218 -50.53651 -50.082348
11998000 -38.129261 -5.8520885 -0.074199207 -2.496273 -0.075009525 -2.5400057 -49.518471 -48.051414
12997000 -37.813431 -9.0614805 -0.073553331 -2.6772416 -0.075188883 -2.7110441 -48.410172 -51.749779
13996000 -37.652557 -11.044168 -0.072575353 -2.8575163 -0.074954741 -2.8774502 -47.331562 -53.021992
14995000 -37.47163 -13.791865 -0.074966326 -3.0665848 -0.07499899 -3.0943992 -46.733337 -53.46003
15994000 -37.434372 -16.079248 -0.076513097 -3.2880402 -0.07717865 -3.3097732 -46.10804 -53.478649
16993000 -37.48336 -18.846064 -0.075257361 -3.4825697 -0.076532856 -3.4966862 -45.867371 -58.933113
17992000 -37.59782 -21.746035 -0.076491229 -3.6852739 -0.077168636 -3.6840253 -45.619446 -63.269451
18991000 -37.82259 -24.267067 -0.077222392 -3.893146 -0.078419916 -3.8922901 -45.19849 -66.628212
19990000 -37.836952 -27.53307 -0.079279788 -4.1053238 -0.081051201 -4.0969162 -44.86808 -71.853416
20989000 -37.869408 -29.442877 -0.081424668 -4.3110299 -0.082832314 -4.2997303 -44.478073 -74.676186
21988000 -37.906506 -32.578911 -0.082477458 -4.5062714 -0.083060548 -4.4959946 -44.191494 -76.342651
22987000 -37.889809 -35.712372 -0.08402928 -4.7074652 -0.08431115 -4.6992621 -43.868725 -77.193535
23986000 -38.050953 -38.224815 -0.083651103 -4.9005151 -0.083096698 -4.9016175 -43.783855 -77.965553
24985000 -37.892902 -40.8377 -0.084459215 -5.1123199 -0.084060416 -5.1068697 -43.269142 -76.866447
25984000 -37.818615 -42.633186 -0.08529336 -5.3206921 -0.084101327 -5.3251305 -42.8438 -77.452995
26983000 -37.671818 -44.550434 -0.086556226 -5.5169444 -0.085652672 -5.5355587 -42.648663 -76.982689
27982000 -37.621235 -45.486282 -0.088434964 -5.7186537 -0.087135635 -5.7548809 -42.247604 -77.315521
28981000 -37.65514 -46.665016 -0.085768312 -5.9140787 -0.087450989 -5.9419427 -41.933334 -77.774101
29980000 -37.384781 -48.255627 -0.086154856 -6.1097403 -0.087571695 -6.1170144 -41.53611 -78.581009
30979000 -37.10725 -48.626343 -0.083965406 -6.4655542 -0.082191482 -6.4536371 -41.18885 -81.291862
31978000 -36.997852 -49.730965 -0.083762467 -6.6624212 -0.083331801 -6.6511321 -40.882568 -81.821838
32977000 -36.933231 -51.291378 -0.083411492 -6.8743091 -0.083886497 -6.8682199 -40.609295 -82.789543
33976000 -36.842125 -52.314877 -0.083648458 -7.0722094 -0.084305346 -7.0653167 -40.27961 -83.55146
34975000 -36.65041 -53.616924 -0.083542906 -7.2695208 -0.085255608 -7.2726965 -40.042469 -84.088768
35974000 -36.506157 -54.516968 -0.083498836 -7.4722338 -0.084947012 -7.4746475 -39.667728 -84.161812
36973000 -36.363106 -55.534969 -0.083425477 -7.6673493 -0.086100988 -7.672967 -39.321472 -84.363762
37972000 -36.215683 -55.890911 -0.083269 -7.8803043 -0.085888967 -7.8880463 -39.017288 -84.444817
38971000 -35.955215 -56.326397 -0.084835351 -8.0813084 -0.085609108 -8.090848 -38.705204 -83.490265
39970000 -35.71315 -57.384666 -0.083320454 -8.2765503 -0.085272767 -8.2908154 -38.429466 -83.680054
40969000 -35.452332 -57.783928 -0.083333649 -8.4745922 -0.085116751 -8.4862642 -38.060688 -82.974968
41968000 -35.190784 -58.340294 -0.083567448 -8.675806 -0.086422868 -8.6944408 -37.791634 -82.431175
42967000 -34.98951 -58.929733 -0.08331465 -8.8900881 -0.085971348 -8.9079599 -37.455555 -81.170166
43966000 -34.762962 -60.222187 -0.084119275 -9.0860538 -0.086956836 -9.1063356 -37.120541 -81.296509
44965000 -34.617786 -61.317566 -0.084661402 -9.2938347 -0.08698193 -9.3092251 -36.920811 -81.673958
45964000 -34.458542 -62.542545 -0.086056635 -9.4925594 -0.088706553 -9.5118961 -36.679932 -82.102669
46963000 -34.358082 -64.508553 -0.086385109 -9.6855326 -0.089450344 -9.7090626 -36.529743 -82.7798
47962000 -34.273483 -65.957336 -0.08776214 -9.8877888 -0.09053918 -9.9094296 -36.343391 -83.464233
48961000 -34.142349 -67.489937 -0.090508252 -10.08506 -0.092447408 -10.104753 -36.122532 -84.21505
49960000 -34.015614 -68.99971 -0.091184944 -10.288576 -0.093147673 -10.30936 -36.001961 -84.544655
50959000 -33.872524 -70.503395 -0.09244556 -10.500858 -0.094569974 -10.50974 -35.855682 -85.470894
51958000 -33.725155 -71.79821 -0.094694048 -10.699544 -0.096045926 -10.708989 -35.721798 -86.359596
52957000 -33.567932 -73.083023 -0.095903017 -10.903281 -0.096809238 -10.905359 -35.552044 -86.590485
53956000 -33.459778 -73.988907 -0.097002469 -11.104877 -0.097693145 -11.102538 -35.41684 -86.884308
54955000 -33.33886 -74.674133 -0.097554684 -11.30539 -0.098769486 -11.297884 -35.265144 -87.200195
55954000 -33.204128 -75.691605 -0.099515267 -11.503318 -0.099329069 -11.497597 -35.147598 -87.119308
56953000 -33.100639 -75.967094 -0.098750949 -11.702752 -0.098213941 -11.696023 -35.089664 -87.554199
57952000 -32.977882 -76.747475 -0.10038833 -11.900174 -0.10003283 -11.88684 -34.986576 -87.852066
58951000 -32.879948 -77.171417 -0.10133602 -12.103594 -0.10100006 -12.083344 -34.853558 -88.335518
59950000 -32.777309 -77.829117 -0.10197227 -12.308702 -0.10176238 -12.287474 -34.792839 -88.666298
60949000 -32.698936 -78.502068 -0.10256355 -12.506514 -0.10292747 -12.486835 -34.727535 -89.16642
61948000 -32.632923 -78.853737 -0.10308121 -12.705667 -0.1019932 -12.688376 -34.631001 -89.334671
62947000 -32.555393 -79.192291 -0.10286624 -12.91974 -0.10326915 -12.89886 -34.500214 -89.926895
63946000 -32.520847 -80.007927 -0.10422305 -13.119563 -0.10471174 -13.098104 -34.401684 -90.249733
64945000 -32.406551 -80.27726 -0.10459639 -13.320643 -0.10500318 -13.301527 -34.314098 -91.049278
65944000 -32.325424 -80.699013 -0.10538746 -13.518787 -0.10478095 -13.503703 -34.238369 -91.575699
66943000 -32.196537 -81.223778 -0.10377524 -13.720866 -0.10354936 -13.703531 -34.144482 -92.016388
67942000 -32.142887 -81.316589 -0.10573279 -13.916541 -0.10494908 -13.906633 -34.044121 -92.52002
68941000 -32.024525 -81.618576 -0.10535882 -14.109021 -0.10453063 -14.09746 -33.933422 -92.624855
69940000 -31.938032 -81.698799 -0.10604738 -14.308116 -0.10588504 -14.299424 -33.797112 -93.190491
70939000 -31.835072 -81.861855 -0.10587178 -14.502447 -0.10568532 -14.49987 -33.64032 -93.320534
71938000 -31.675409 -81.713104 -0.10594552 -14.703922 -0.1059182 -14.691759 -33.505936 -93.409676
72937000 -31.531179 -81.803886 -0.10512862 -14.90333 -0.10498488 -14.891294 -33.342476 -93.243248
73936000 -31.378635 -81.714172 -0.10470325 -15.099313 -0.10376728 -15.094679 -33.21796 -93.285942
74935000 -31.266027 -82.079727 -0.10453991 -15.293437 -0.10348309 -15.294216 -33.042309 -93.13327
75934000 -31.150007 -82.489029 -0.10437233 -15.507188 -0.10452426 -15.498169 -32.957439 -93.176506
76933000 -31.027353 -83.031654 -0.10586329 -15.698121 -0.10644794 -15.69118 -32.793873 -93.770027
77932000 -30.961948 -83.857803 -0.10666786 -15.896993 -0.10724253 -15.890703 -32.688412 -94.02964
78931000 -30.911051 -84.64817 -0.10581422 -16.097309 -0.10591077 -16.09115 -32.589893 -93.988091
79930000 -30.819229 -85.54171 -0.10826285 -16.288122 -0.10865432 -16.290388 -32.499172 -94.381332
80929000 -30.717106 -86.586235 -0.11015101 -16.485157 -0.1103844 -16.480585 -32.409134 -94.942528
81928000 -30.659531 -87.460815 -0.110168 -16.675797 -0.11125328 -16.67333 -32.289333 -95.198212
82927000 -30.579901 -88.205383 -0.11152098 -16.877514 -0.11178712 -16.877518 -32.200775 -95.74884
83926000 -30.486908 -89.076157 -0.11325353 -17.074308 -0.11363934 -17.074259 -32.095291 -96.122467
84925000 -30.398973 -89.695313 -0.11456415 -17.274954 -0.11387663 -17.268177 -31.988049 -96.332886
85924000 -30.323309 -90.166656 -0.11521217 -17.474621 -0.11561623 -17.47419 -31.91283 -96.522881
86923000 -30.241508 -90.845245 -0.11562979 -17.674513 -0.11544849 -17.665602 -31.810341 -96.570724
87922000 -30.146601 -91.301071 -0.11526906 -17.880613 -0.11539505 -17.868126 -31.716761 -96.758194
88921000 -30.080736 -91.720955 -0.11774643 -18.075581 -0.11601395 -18.071156 -31.614902 -96.904068
89920000 -29.985556 -92.361786 -0.11772834 -18.274607 -0.11706346 -18.269974 -31.572109 -97.136696
90919000 -29.899967 -92.80143 -0.11852899 -18.472673 -0.11824356 -18.467413 -31.481539 -97.45253
91918000 -29.812494 -93.254883 -0.11971029 -18.675074 -0.1189198 -18.669645 -31.412333 -97.559906
92917000 -29.730816 -93.674095 -0.12028376 -18.875328 -0.11938247 -18.869001 -31.339748 -97.743523
93916000 -29.662409 -94.14566 -0.12044105 -19.067883 -0.11915445 -19.059534 -31.279053 -98.526215
94915000 -29.594015 -94.854904 -0.12146208 -19.266685 -0.12110298 -19.261877 -31.202682 -98.424553
95914000 -29.533548 -95.143921 -0.1228524 -19.464846 -0.12188855 -19.458199 -31.124084 -98.892487
96913000 -29.449663 -95.507401 -0.12406897 -19.665379 -0.12315492 -19.660181 -31.063597 -99.367744
97912000 -29.396637 -95.993408 -0.12484016 -19.858965 -0.12247376 -19.860731 -30.982023 -99.639397
98911000 -29.288845 -96.274986 -0.12530346 -20.058441 -0.12426902 -20.059515 -30.942835 -99.860649
99910000 -29.22077 -96.510704 -0.12573645 -20.26174 -0.1248295 -20.257679 -30.840151 -100.33563
100909000 -29.143805 -96.857033 -0.12582119 -20.467699 -0.12371286 -20.458982 -30.750053 -100.6337
101908000 -29.050817 -97.194046 -0.12629686 -20.670528 -0.12540232 -20.664862 -30.618223 -100.49541
102907000 -28.920826 -97.405426 -0.12689972 -20.866423 -0.12566078 -20.869125 -30.540354 -100.45953
103906000 -28.823078 -97.523651 -0.12804544 -21.076668 -0.12476183 -21.069786 -30.385344 -100.6031
104905000 -28.672174 -97.626381 -0.12838431 -21.270933 -0.12553234 -21.271593 -30.230333 -100.36736
105904000 -28.538731 -97.831337 -0.12812755 -21.476427 -0.1260706 -21.46921 -30.105255 -100.38879
106903000 -28.425674 -98.050636 -0.12813048 -21.679142 -0.1264032 -21.673494 -29.966154 -100.40629
107902000 -28.270113 -98.5905 -0.12966269 -21.880447 -0.12707484 -21.872923 -29.818462 -100.51736
108901000 -28.169847 -98.896881 -0.13050771 -22.083857 -0.12757143 -22.075613 -29.678871 -100.63251
109900000 -28.043657 -99.511528 -0.13090572 -22.281528 -0.12971283 -22.27453 -29.521429 -100.84124
110899000 -27.938816 -100.21455 -0.13238901 -22.480122 -0.12997369 -22.47299 -29.396294 -101.30958
111898000 -27.852053 -100.96478 -0.13359517 -22.681423 -0.13111569 -22.673243 -29.270758 -101.62362
112897000 -27.739363 -101.66261 -0.13507672 -22.880228 -0.13254113 -22.870302 -29.14176 -101.95772
113896000 -27.643816 -102.28367 -0.13663596 -23.08387 -0.13383703 -23.069403 -29.021248 -102.19941
114895000 -27.549116 -103.02257 -0.13734739 -23.283417 -0.13544978 -23.267616 -28.911148 -102.40039
115894000 -27.428463 -103.47534 -0.13904589 -23.479082 -0.13701075 -23.469875 -28.836905 -102.69305
116893000 -27.352737 -104.09703 -0.13967031 -23.676065 -0.13774095 -23.658468 -28.705246 -102.99504
117892000 -27.282555 -104.63804 -0.13990609 -23.873785 -0.13762634 -23.860785 -28.63205 -103.29405
118891000 -27.223166 -105.1322 -0.14079882 -24.075375 -0.13856696 -24.060953 -28.531452 -103.56966
119890000 -27.136852 -105.51151 -0.14100952 -24.277075 -0.1392878 -24.259249 -28.520569 -103.76308
120889000 -27.089071 -106.12228 -0.14311823 -24.477524 -0.14035952 -24.462601 -28.434748 -103.80956
121888000 -27.048519 -106.45393 -0.14230208 -24.680752 -0.14022584 -24.659098 -28.379814 -104.16559
122887000 -27.007673 -106.70396 -0.14385349 -24.874886 -0.1410213 -24.866503 -28.330687 -104.23531
123886000 -26.954523 -107.16562 -0.14398299 -25.080032 -0.14211966 -25.060099 -28.314302 -104.46487
124885000 -26.919222 -107.7085 -0.14518917 -25.276768 -0.14196292 -25.263807 -28.283451 -104.53754
125884000 -26.868368 -107.9292 -0.14562306 -25.474718 -0.14303343 -25.461729 -28.255928 -104.80577
126883000 -26.84635 -108.35793 -0.14642593 -25.677141 -0.143126 -25.664751 -28.203838 -104.86052
127882000 -26.795849 -108.68537 -0.14644788 -25.87784 -0.14400573 -25.861792 -28.164255 -105.00481
128881000 -26.760433 -109.01988 -0.14664708 -26.077246 -0.14341681 -26.062452 -28.119432 -105.20407
129880000 -26.706594 -109.39555 -0.14782508 -26.281015 -0.143987 -26.262358 -28.070778 -105.21056
130879000 -26.646185 -109.58082 -0.14746219 -26.481167 -0.14484926 -26.466106 -27.98708 -105.31789
131878000 -26.58112 -109.85032 -0.14748415 -26.681967 -0.14564689 -26.663351 -27.919558 -105.30447
132877000 -26.505941 -109.99209 -0.14687575 -26.886578 -0.1448704 -26.865517 -27.826584 -105.32583
133876000 -26.420391 -110.22015 -0.14781785 -27.08832 -0.14462979 -27.068193 -27.726336 -105.30342
134875000 -26.322165 -110.44064 -0.14803344 -27.282198 -0.14588942 -27.268961 -27.614069 -105.24622
135874000 -26.236492 -110.53973 -0.14886729 -27.483269 -0.14556739 -27.464417 -27.506214 -105.29319
136873000 -26.127527 -110.55806 -0.14937176 -27.685995 -0.14575477 -27.669106 -27.412064 -105.34663
137872000 -26.046989 -110.71116 -0.14918289 -27.889994 -0.14611644 -27.872971 -27.300526 -105.33591
138871000 -25.976286 -110.99055 -0.1499974 -28.088446 -0.1467748 -28.073757 -27.195818 -105.61694
139870000 -25.878605 -111.32442 -0.15027823 -28.292194 -0.14801818 -28.272167 -27.118673 -105.8525
140869000 -25.79565 -111.81936 -0.15259279 -28.486229 -0.14931603 -28.467123 -27.006445 -106.09761
141868000 -25.710632 -112.35678 -0.15280166 -28.677181 -0.14989075 -28.662449 -26.946987 -106.4575
142867000 -25.63637 -112.67268 -0.1512953 -28.876551 -0.14907733 -28.858103 -26.857353 -106.71621
143866000 -25.571411 -113.206 -0.15305316 -29.073336 -0.15065446 -29.055233 -26.804478 -107.27073
144865000 -25.524906 -113.75348 -0.1543705 -29.273327 -0.15170246 -29.255589 -26.747644 -107.68172
145864000 -25.463999 -114.11978 -0.15491343 -29.473892 -0.1533047 -29.458479 -26.723913 -107.98022
146863000 -25.423025 -114.55013 -0.15585431 -29.674 -0.15439947 -29.658642 -26.670452 -108.33242
147862000 -25.388758 -114.94476 -0.15667142 -29.86923 -0.15447243 -29.854719 -26.647951 -108.74536
148861000 -25.362865 -115.44007 -0.15747203 -30.065926 -0.15435414 -30.053194 -26.629713 -108.99424
149860000 -25.348232 -115.67924 -0.15816702 -30.264578 -0.15489277 -30.254303 -26.59923 -109.14043
150859000 -25.336138 -116.09288 -0.15827414 -30.466309 -0.15567857 -30.449684 -26.603025 -109.49731
151858000 -25.314009 -116.40945 -0.15816058 -30.669346 -0.15594795 -30.649698 -26.594471 -109.7157
152857000 -25.298613 -116.75922 -0.15908258 -30.863573 -0.15655898 -30.848738 -26.579151 -109.89556
153856000 -25.293859 -116.96027 -0.15851925 -31.064169 -0.15570137 -31.048241 -26.609079 -110.18983
154855000 -25.285879 -117.1658 -0.15972115 -31.259714 -0.15632845 -31.245882 -26.602772 -110.40446
155854000 -25.301287 -117.40688 -0.15946013 -31.459469 -0.15687566 -31.447161 -26.593977 -110.72491
156853000 -25.292194 -118.11559 -0.15769295 -31.649256 -0.15536815 -31.639397 -26.601017 -110.9947
157852000 -25.29463 -118.36234 -0.15912929 -31.848175 -0.15778582 -31.839846 -26.600863 -111.38752
158851000 -25.285385 -118.58234 -0.15967442 -32.04797 -0.15818904 -32.036572 -26.594564 -111.61052
159850000 -25.275412 -118.73804 -0.16009715 -32.246189 -0.15786797 -32.238472 -26.587709 -111.79111
160849000 -25.25486 -118.84136 -0.16060641 -32.444862 -0.15910673 -32.439003 -26.560989 -112.13077
161848000 -25.233343 -118.99994 -0.16110337 -32.646633 -0.15926409 -32.636135 -26.520924 -112.21984
162847000 -25.191324 -119.23071 -0.16106415 -32.844757 -0.15944293 -32.840416 -26.493956 -112.52483
163846000 -25.149374 -119.49094 -0.16173688 -33.04554 -0.15942119 -33.038471 -26.409645 -112.54116
164845000 -25.084541 -119.56039 -0.16181265 -33.243431 -0.16026475 -33.233738 -26.345715 -112.69556
165844000 -25.031128 -119.66938 -0.16190292 -33.439335 -0.16050729 -33.43457 -26.262577 -112.90665
166843000 -24.964014 -119.79388 -0.16204748 -33.638943 -0.16080518 -33.637386 -26.185188 -113.13718
167842000 -24.911156 -119.99167 -0.16190158 -33.840195 -0.16130297 -33.834972 -26.100233 -113.1124
168841000 -24.832064 -120.21714 -0.16347666 -34.038807 -0.16141716 -34.030239 -26.020342 -113.22813
169840000 -24.766817 -120.53706 -0.16330948 -34.235653 -0.1626865 -34.22924 -25.921253 -113.49232
170839000 -24.70583 -120.84354 -0.16406643 -34.425919 -0.16257712 -34.429329 -25.842659 -113.73986
171838000 -24.651058 -121.29182 -0.1639788 -34.630623 -0.16360515 -34.622639 -25.773489 -114.07129
172837000 -24.589437 -121.71828 -0.16541184 -34.826485 -0.16447183 -34.820553 -25.708233 -114.33237
173836000 -24.523308 -122.15552 -0.16705304 -35.028522 -0.16553286 -35.023926 -25.666071 -114.59026
174835000 -24.476826 -122.63314 -0.1676928 -35.223679 -0.16625576 -35.222729 -25.624187 -115.03607
175834000 -24.426086 -123.03017 -0.16799387 -35.423607 -0.1673 -35.418293 -25.559662 -115.39826
176833000 -24.376204 -123.42286 -0.16929662 -35.618073 -0.16784938 -35.615757 -25.508703 -115.60862
177832000 -24.332767 -123.94626 -0.16996336 -35.815567 -0.1684026 -35.816158 -25.48819 -115.78242
178831000 -24.295382 -124.35462 -0.16989391 -36.014355 -0.16880034 -36.006901 -25.450886 -116.07277
179830000 -24.260708 -124.80531 -0.17108522 -36.210598 -0.1690875 -36.213894 -25.427299 -116.25928
180829000 -24.224388 -125.05894 -0.17097376 -36.407261 -0.16946512 -36.408253 -25.396185 -116.46567
181828000 -24.197687 -125.44331 -0.17094414 -36.603252 -0.17019999 -36.601189 -25.383133 -116.58328
182827000 -24.173349 -125.80773 -0.17140028 -36.800282 -0.17061728 -36.800419 -25.358829 -116.7087
183826000 -24.132355 -126.16115 -0.17237033 -37.005192 -0.17063074 -36.999126 -25.352211 -116.87206
184825000 -24.13529 -126.46855 -0.17225398 -37.194988 -0.17127426 -37.198177 -25.333933 -116.96232
185824000 -24.109978 -126.84265 -0.17270972 -37.389786 -0.1717342 -37.390888 -25.334187 -117.02579
186823000 -24.092651 -127.21178 -0.17276196 -37.592007 -0.17196041 -37.588009 -25.324471 -117.01843
187822000 -24.071568 -127.52955 -0.17294541 -37.783939 -0.17255725 -37.785103 -25.292084 -117.13293
188821000 -24.048723 -127.77435 -0.17307067 -37.979794 -0.17291497 -37.985271 -25.267357 -117.24785
189820000 -24.029156 -128.08856 -0.17406912 -38.183334 -0.1735238 -38.182819 -25.258665 -117.40457
190819000 -24.002201 -128.32191 -0.17487861 -38.380802 -0.17428818 -38.380188 -25.221817 -117.38758
191818000 -23.968405 -128.54401 -0.17630987 -38.576141 -0.17578879 -38.577427 -25.187834 -117.27225
192817000 -23.897995 -128.83879 -0.17695746 -38.762173 -0.17638159 -38.764019 -25.108343 -117.38043
193816000 -23.860743 -129.21741 -0.17611523 -38.956505 -0.17503762 -38.953808 -25.051138 -117.68218
194815000 -23.799299 -129.68932 -0.17618372 -39.152306 -0.17576373 -39.152966 -24.980074 -117.85251
195814000 -23.744781 -129.9474 -0.17751779 -39.3507 -0.17510203 -39.353195 -24.9223 -117.99687
196813000 -23.69141 -130.30069 -0.17676954 -39.547894 -0.17585269 -39.547924 -24.836544 -118.20738
197812000 -23.632484 -130.59433 -0.17657839 -39.739796 -0.17617293 -39.741364 -24.761698 -118.36256
198811000 -23.579247 -130.77496 -0.17677547 -39.936928 -0.17567478 -39.946594 -24.691015 -118.58624
199810000 -23.512518 -131.19482 -0.17678329 -40.135571 -0.17549688 -40.132023 -24.60718 -118.76359
200809000 -23.451693 -131.50821 -0.1773053 -40.332127 -0.1758915 -40.331112 -24.52166 -119.02178
201808000 -23.388865 -131.77937 -0.17814182 -40.531857 -0.17730449 -40.533699 -24.447559 -119.13939
202807000 -23.334702 -132.18719 -0.1792461 -40.732399 -0.17838833 -40.734318 -24.394802 -119.38522
203806000 -23.285961 -132.63785 -0.18019903 -40.935001 -0.1787557 -40.933666 -24.324152 -119.59462
204805000 -23.229738 -133.02522 -0.18111221 -41.132839 -0.17984934 -41.134487 -24.265692 -119.85007
