!Keysight Technologies,E5080B,MY59205177,A.15.75.32
!Date: Friday, February 23, 2024 03:25:33
!Correction: S11(Cdelta 2-Port  ) 
!S21(Cdelta 2-Port  ) 
!S12(Cdelta 2-Port  ) 
!S22(Cdelta 2-Port  ) 
!S2P File: Measurements: S11, S21, S12, S22:
# Hz S  dB   R 50
10000000 -45.90704 -0.34708786 -0.016550627 -2.0623081 -0.018851932 -2.115701 -46.314079 -159.63438
10999000 -45.10762 -2.3992279 -0.017685533 -2.2823787 -0.019090084 -2.3350401 -46.281296 -153.41788
11998000 -44.162899 -5.1341295 -0.017903607 -2.5081911 -0.01872272 -2.54689 -46.49654 -149.18614
12997000 -43.452564 -10.744378 -0.017673576 -2.6862817 -0.018660847 -2.7216694 -46.100563 -142.88087
13996000 -43.182144 -14.559197 -0.017024877 -2.8688631 -0.019182906 -2.8904965 -46.024689 -137.41789
14995000 -42.831486 -18.85117 -0.018801235 -3.0767391 -0.019247908 -3.1030726 -45.712517 -133.58095
15994000 -42.66095 -23.146727 -0.020050891 -3.2992706 -0.021299608 -3.31884 -45.599514 -130.49899
16993000 -42.644936 -27.289797 -0.019354254 -3.4959431 -0.020453999 -3.5036023 -44.725113 -129.87932
17992000 -42.73251 -32.745014 -0.019998621 -3.6972847 -0.021734571 -3.6972737 -44.1436 -129.85794
18991000 -43.04937 -37.915085 -0.021256426 -3.9074924 -0.021960134 -3.9079897 -43.549618 -128.89185
19990000 -42.858173 -43.299225 -0.023889998 -4.1206951 -0.025248131 -4.1173487 -42.878918 -129.35231
20989000 -42.723801 -46.799049 -0.02578322 -4.3220387 -0.026804894 -4.3136725 -42.308842 -128.65314
21988000 -42.583538 -51.965717 -0.026118631 -4.5215683 -0.027186489 -4.5125704 -42.081676 -127.95984
22987000 -42.334091 -56.754375 -0.027587393 -4.7236891 -0.028928181 -4.7144237 -41.783707 -127.20062
23986000 -42.264538 -61.295067 -0.027181279 -4.9174595 -0.027238326 -4.9211936 -41.681183 -127.39923
24985000 -41.883289 -63.749115 -0.028802318 -5.127326 -0.027184144 -5.1269193 -41.481037 -124.80524
25984000 -41.558392 -65.901405 -0.03040728 -5.3362598 -0.028047217 -5.3359451 -41.148525 -123.04324
26983000 -41.22113 -67.836784 -0.030594973 -5.533535 -0.028850786 -5.554389 -41.063004 -122.10051
27982000 -41.094448 -68.997383 -0.032431398 -5.7368107 -0.030871052 -5.7686501 -40.764881 -120.59315
28981000 -41.071728 -70.528648 -0.029801765 -5.9320998 -0.030619217 -5.9592571 -40.554874 -119.87287
29980000 -40.631527 -71.888863 -0.029326642 -6.1279268 -0.031444643 -6.1347914 -40.267632 -119.2935
30979000 -40.259148 -70.865494 -0.027826026 -6.4851832 -0.026121756 -6.4763036 -39.754868 -119.20539
31978000 -40.068539 -71.949821 -0.026744729 -6.6805353 -0.027227385 -6.668314 -39.531422 -118.57899
32977000 -39.862404 -73.491341 -0.026961956 -6.893301 -0.028290305 -6.8868213 -39.263035 -118.62656
33976000 -39.714043 -74.573441 -0.027613444 -7.0965457 -0.02857171 -7.0875416 -38.959633 -117.97688
34975000 -39.408195 -75.570656 -0.027723642 -7.2952118 -0.02970585 -7.296968 -38.726353 -117.60117
35974000 -39.197147 -76.11602 -0.027049216 -7.4888544 -0.029315695 -7.4944625 -38.456394 -116.51295
36973000 -38.981258 -76.862152 -0.027930237 -7.6897531 -0.029957894 -7.6945395 -38.180695 -115.66096
37972000 -38.810135 -76.591026 -0.027795285 -7.8993783 -0.030565776 -7.9070234 -37.948303 -114.80991
38971000 -38.44416 -76.201721 -0.028915673 -8.106658 -0.031071801 -8.1108198 -37.785492 -113.29874
39970000 -38.134441 -76.504128 -0.02642099 -8.2945652 -0.030633554 -8.3176222 -37.50243 -112.63123
40969000 -37.819729 -76.252045 -0.027376126 -8.4924955 -0.028995674 -8.5155792 -37.274548 -111.09439
41968000 -37.455811 -76.170639 -0.027485015 -8.7024784 -0.029924009 -8.7165947 -37.065216 -109.86621
42967000 -37.195755 -76.29493 -0.027754383 -8.9156008 -0.02988022 -8.9334192 -36.864902 -107.88514
43966000 -36.879841 -77.178787 -0.028818475 -9.1182728 -0.031536948 -9.1341639 -36.580589 -107.08701
44965000 -36.647453 -77.918938 -0.029611241 -9.3167963 -0.031036863 -9.3389359 -36.354046 -106.7402
45964000 -36.416138 -78.948265 -0.030358793 -9.5177069 -0.032992154 -9.5410748 -36.115074 -106.53745
46963000 -36.222801 -80.979156 -0.030755039 -9.712986 -0.033770815 -9.7339973 -35.934753 -106.64732
47962000 -36.070759 -82.324181 -0.032517724 -9.9153252 -0.034953807 -9.9357548 -35.708382 -106.69592
48961000 -35.846039 -83.712013 -0.034367487 -10.115608 -0.036407549 -10.139154 -35.495884 -106.92689
49960000 -35.624817 -85.13166 -0.035541508 -10.315867 -0.03755575 -10.341299 -35.346794 -106.96242
50959000 -35.400826 -86.537041 -0.036120676 -10.528415 -0.039101522 -10.539575 -35.160698 -107.27021
51958000 -35.189396 -87.621391 -0.03804196 -10.729939 -0.039708596 -10.73994 -34.986561 -107.6453
52957000 -34.971897 -88.663147 -0.03949726 -10.930185 -0.040999562 -10.937701 -34.811672 -107.30877
53956000 -34.810749 -89.360764 -0.04065882 -11.132557 -0.042719353 -11.134433 -34.693733 -107.26662
54955000 -34.64394 -89.950539 -0.042018808 -11.334364 -0.043658473 -11.333403 -34.52977 -107.18758
55954000 -34.471741 -90.788338 -0.042614788 -11.537207 -0.043409817 -11.532362 -34.417938 -106.86934
56953000 -34.3494 -90.772255 -0.04318209 -11.733274 -0.042581588 -11.726883 -34.355507 -107.11656
57952000 -34.182407 -91.349899 -0.044380203 -11.936372 -0.044074759 -11.925009 -34.244556 -107.18783
58951000 -34.06884 -91.696892 -0.044715744 -12.139493 -0.044755761 -12.119317 -34.09491 -107.10885
59950000 -33.935936 -92.092827 -0.045648489 -12.340133 -0.045382719 -12.319408 -34.025146 -107.40142
60949000 -33.815788 -92.555092 -0.045950904 -12.54257 -0.046133514 -12.523243 -33.936836 -107.73826
61948000 -33.769142 -92.92524 -0.047134604 -12.740275 -0.046096366 -12.723759 -33.863094 -107.86642
62947000 -33.670036 -93.202965 -0.047470883 -12.952281 -0.047147427 -12.936687 -33.696995 -108.11578
63946000 -33.600842 -93.902702 -0.048071533 -13.155076 -0.04793334 -13.135122 -33.600681 -108.13415
64945000 -33.491779 -94.066811 -0.048817299 -13.356011 -0.048635364 -13.337848 -33.490475 -108.68646
65944000 -33.394821 -94.289215 -0.049647238 -13.558545 -0.049374938 -13.53791 -33.399422 -109.20296
66943000 -33.251015 -94.67952 -0.047931768 -13.760312 -0.047747251 -13.744398 -33.289837 -109.396
67942000 -33.177208 -94.737816 -0.050010946 -13.954282 -0.049754068 -13.945 -33.166458 -109.73635
68941000 -33.075184 -94.782974 -0.049787063 -14.150194 -0.049097944 -14.141895 -33.059151 -109.73771
69940000 -32.971863 -94.718704 -0.050064888 -14.352975 -0.05048991 -14.344538 -32.91367 -110.00165
70939000 -32.865166 -94.835518 -0.049696729 -14.548408 -0.049011026 -14.543228 -32.782207 -109.90953
71938000 -32.713814 -94.229515 -0.049954385 -14.744861 -0.049537793 -14.743206 -32.6423 -109.72453
72937000 -32.546844 -94.130379 -0.048937984 -14.94502 -0.049305819 -14.939417 -32.490326 -109.40819
73936000 -32.402851 -93.732155 -0.049261834 -15.144117 -0.048893478 -15.13264 -32.380127 -109.21011
74935000 -32.2752 -93.978119 -0.048930392 -15.338163 -0.048128594 -15.33909 -32.224903 -108.87397
75934000 -32.144676 -94.221329 -0.048827771 -15.545927 -0.047756672 -15.545318 -32.121708 -108.79243
76933000 -32.026375 -94.515198 -0.050853945 -15.742846 -0.049721863 -15.739165 -31.950346 -109.13661
77932000 -31.903589 -95.342308 -0.051642887 -15.939973 -0.051099624 -15.934223 -31.833084 -109.0825
78931000 -31.841194 -96.076843 -0.050053366 -16.14327 -0.050350063 -16.138969 -31.739035 -108.98257
79930000 -31.711308 -96.979141 -0.052699223 -16.333164 -0.052761585 -16.333878 -31.633064 -109.25783
80929000 -31.602322 -97.750298 -0.054601118 -16.531952 -0.054901272 -16.528509 -31.528246 -109.50165
81928000 -31.513084 -98.487938 -0.054342661 -16.727104 -0.054767314 -16.722944 -31.403719 -109.45898
82927000 -31.402229 -99.274246 -0.055874754 -16.926422 -0.056635235 -16.92388 -31.28684 -109.74557
83926000 -31.297182 -99.952477 -0.057945933 -17.123091 -0.05725342 -17.123795 -31.16486 -109.92575
84925000 -31.182665 -100.41006 -0.059048936 -17.323633 -0.057788536 -17.321218 -31.059555 -109.92653
85924000 -31.088953 -100.80932 -0.059742525 -17.522129 -0.059543334 -17.518177 -30.985182 -109.93189
86923000 -30.975965 -101.32438 -0.060267184 -17.719564 -0.059871651 -17.716002 -30.876755 -109.76333
87922000 -30.862827 -101.68108 -0.059998155 -17.930407 -0.059534937 -17.920918 -30.786966 -109.82983
88921000 -30.794127 -101.93507 -0.061761461 -18.13142 -0.060006551 -18.124132 -30.684242 -109.76719
89920000 -30.687939 -102.45469 -0.061659586 -18.325109 -0.061467659 -18.321297 -30.641357 -109.92393
90919000 -30.581556 -102.74393 -0.062779024 -18.525873 -0.061846007 -18.519487 -30.546797 -110.04984
91918000 -30.481359 -103.08182 -0.063484766 -18.727997 -0.062832341 -18.722776 -30.475658 -110.0276
92917000 -30.388012 -103.4284 -0.065509915 -18.923414 -0.06363003 -18.920349 -30.414248 -110.17001
93916000 -30.302429 -103.78135 -0.063917674 -19.120604 -0.063563049 -19.117268 -30.32473 -110.77486
94915000 -30.215973 -104.4521 -0.065937765 -19.319786 -0.065128349 -19.314482 -30.261707 -110.6085
95914000 -30.166069 -104.64454 -0.067223139 -19.515615 -0.065886512 -19.514227 -30.167221 -110.90804
96913000 -30.070898 -104.85911 -0.068049245 -19.717581 -0.067212626 -19.715765 -30.106161 -111.24592
97912000 -29.991814 -105.31816 -0.069367863 -19.913208 -0.067432411 -19.916042 -30.020603 -111.53529
98911000 -29.8843 -105.46735 -0.069975235 -20.11665 -0.068644598 -20.113506 -29.986273 -111.73426
99910000 -29.809238 -105.62881 -0.071344443 -20.316454 -0.069031201 -20.316975 -29.866827 -112.02967
100909000 -29.724691 -105.8771 -0.070103087 -20.526022 -0.068587266 -20.517662 -29.78256 -112.21802
101908000 -29.633265 -106.09695 -0.070989206 -20.723843 -0.069505692 -20.723568 -29.683052 -111.98482
102907000 -29.497408 -106.10693 -0.072117105 -20.926552 -0.070069149 -20.924072 -29.6008 -111.95676
103906000 -29.397655 -106.15432 -0.072536923 -21.129217 -0.069971815 -21.127117 -29.448914 -111.91805
104905000 -29.254189 -106.08546 -0.073003903 -21.331923 -0.070489824 -21.333002 -29.326769 -111.66771
105904000 -29.105749 -106.15533 -0.07324557 -21.529346 -0.070531391 -21.526615 -29.204014 -111.51226
106903000 -29.00308 -106.22879 -0.073080242 -21.738993 -0.070843175 -21.73126 -29.08392 -111.40058
107902000 -28.83153 -106.57169 -0.073510416 -21.943213 -0.071827605 -21.934839 -28.947374 -111.30579
108901000 -28.719803 -106.83221 -0.074862301 -22.140759 -0.07321845 -22.134459 -28.816835 -111.3287
109900000 -28.595608 -107.33364 -0.07652811 -22.343536 -0.074523367 -22.33256 -28.658573 -111.33813
110899000 -28.474993 -107.93043 -0.077597901 -22.541945 -0.075094588 -22.533878 -28.532412 -111.62637
111898000 -28.38413 -108.58466 -0.079152979 -22.742376 -0.076097637 -22.737604 -28.410601 -111.76728
112897000 -28.262024 -109.15227 -0.080289602 -22.944719 -0.077143602 -22.932869 -28.28236 -111.96397
113896000 -28.159246 -109.74747 -0.081606142 -23.145456 -0.079085499 -23.132944 -28.173054 -112.04016
114895000 -28.063385 -110.41987 -0.08286266 -23.341629 -0.080332585 -23.329666 -28.059319 -112.16674
115894000 -27.940016 -110.74598 -0.084019251 -23.542532 -0.08124242 -23.533587 -27.986818 -112.3251
116893000 -27.867598 -111.23391 -0.085071608 -23.742741 -0.082612008 -23.725241 -27.865805 -112.34639
117892000 -27.780453 -111.79541 -0.085047849 -23.939066 -0.082689315 -23.925686 -27.785734 -112.5665
118891000 -27.717804 -112.1575 -0.085886858 -24.141459 -0.083167143 -24.12479 -27.694395 -112.71676
119890000 -27.635309 -112.54243 -0.086605079 -24.338209 -0.083703883 -24.32682 -27.683435 -112.83908
120889000 -27.578411 -113.02986 -0.087540001 -24.54356 -0.083490655 -24.527016 -27.600273 -112.75172
121888000 -27.542812 -113.36299 -0.088240527 -24.736647 -0.084573768 -24.724276 -27.546028 -113.02692
122887000 -27.502218 -113.5328 -0.088347785 -24.945595 -0.0855534 -24.928078 -27.499369 -113.04002
123886000 -27.45076 -113.97495 -0.088528492 -25.146826 -0.085780188 -25.128021 -27.486433 -113.18818
124885000 -27.415003 -114.48817 -0.089657523 -25.347204 -0.086409144 -25.330153 -27.455252 -113.26592
125884000 -27.364716 -114.67744 -0.090086967 -25.542604 -0.086829551 -25.532383 -27.431553 -113.39399
126883000 -27.338928 -115.06627 -0.090864293 -25.747639 -0.087853536 -25.734293 -27.391565 -113.38067
127882000 -27.292498 -115.3627 -0.090960778 -25.948208 -0.088706031 -25.930349 -27.35054 -113.55114
128881000 -27.261751 -115.6618 -0.091452479 -26.148163 -0.088446587 -26.134256 -27.304367 -113.64285
129880000 -27.20117 -116.03828 -0.092289813 -26.354244 -0.088541172 -26.33497 -27.267271 -113.57281
130879000 -27.140434 -116.17407 -0.091812558 -26.553032 -0.089377418 -26.535805 -27.19231 -113.61359
131878000 -27.074207 -116.41924 -0.092325248 -26.756643 -0.089846998 -26.73506 -27.127501 -113.48431
132877000 -27.002213 -116.52338 -0.091946341 -26.957516 -0.089474395 -26.938557 -27.046654 -113.47975
133876000 -26.914339 -116.63438 -0.092805199 -27.158262 -0.089537546 -27.140568 -26.954964 -113.36552
134875000 -26.820278 -116.78244 -0.092219211 -27.359051 -0.090210125 -27.339933 -26.851826 -113.21523
135874000 -26.726749 -116.81289 -0.092925787 -27.559849 -0.090058424 -27.541761 -26.74535 -113.21035
136873000 -26.621216 -116.76939 -0.093864717 -27.763096 -0.090689048 -27.746767 -26.660692 -113.15423
137872000 -26.538277 -116.90484 -0.093467698 -27.963156 -0.09058015 -27.95088 -26.55385 -113.0897
138871000 -26.458244 -117.11819 -0.093527734 -28.166355 -0.090600237 -28.149044 -26.458899 -113.26118
139870000 -26.355879 -117.39945 -0.094149075 -28.363228 -0.092427842 -28.347647 -26.368198 -113.43401
140869000 -26.280539 -117.96139 -0.096252091 -28.561457 -0.093172796 -28.545219 -26.270073 -113.61712
141868000 -26.192596 -118.35009 -0.096424922 -28.761999 -0.094962329 -28.74617 -26.216349 -113.93848
142867000 -26.111668 -118.56496 -0.095483057 -28.958172 -0.094173148 -28.941975 -26.13151 -113.99475
143866000 -26.034271 -119.04618 -0.097673558 -29.157129 -0.095091976 -29.140179 -26.058075 -114.51038
144865000 -25.977266 -119.61095 -0.098802052 -29.357027 -0.096695155 -29.340544 -25.995598 -114.78355
145864000 -25.922733 -119.89445 -0.099361911 -29.557627 -0.09772677 -29.544847 -25.965174 -115.00948
146863000 -25.879421 -120.28635 -0.10118685 -29.756802 -0.098552078 -29.744692 -25.913115 -115.30628
147862000 -25.847679 -120.58633 -0.10194258 -29.956459 -0.098841511 -29.941978 -25.878353 -115.6028
148861000 -25.807058 -121.08158 -0.10234912 -30.155037 -0.10064636 -30.142397 -25.860237 -115.79816
149860000 -25.780355 -121.21698 -0.10355201 -30.346323 -0.101835 -30.336607 -25.813383 -115.88058
150859000 -25.750971 -121.67239 -0.10355148 -30.546038 -0.10127376 -30.527763 -25.787294 -116.20483
151858000 -25.744518 -122.04436 -0.10268945 -30.744263 -0.10095104 -30.72657 -25.780737 -116.5388
152857000 -25.730257 -122.36743 -0.10292906 -30.941303 -0.10106285 -30.93214 -25.762953 -116.67194
153856000 -25.726276 -122.55355 -0.1026632 -31.143562 -0.10086837 -31.129425 -25.782473 -116.97565
154855000 -25.722023 -122.74689 -0.10357932 -31.343336 -0.10142665 -31.333858 -25.778517 -117.23797
155854000 -25.742004 -122.99146 -0.10362545 -31.545254 -0.10175178 -31.528526 -25.76799 -117.50981
156853000 -25.727676 -123.69328 -0.10145341 -31.732328 -0.10032237 -31.724258 -25.763838 -117.81074
157852000 -25.739698 -123.89973 -0.10285431 -31.934143 -0.10271303 -31.926802 -25.75614 -118.18599
158851000 -25.741488 -124.12118 -0.10396931 -32.131668 -0.10275199 -32.121807 -25.744331 -118.44386
159850000 -25.726662 -124.2021 -0.10436437 -32.332607 -0.10312415 -32.326397 -25.745651 -118.60526
160849000 -25.712837 -124.33591 -0.10508937 -32.531963 -0.10367078 -32.526653 -25.717354 -118.93336
161848000 -25.698345 -124.38763 -0.1054246 -32.73436 -0.10390144 -32.729557 -25.683134 -119.01545
162847000 -25.653681 -124.56148 -0.10577364 -32.931229 -0.10448529 -32.928028 -25.654726 -119.3023
163846000 -25.613861 -124.79231 -0.10546438 -33.135372 -0.10407775 -33.129753 -25.580591 -119.26594
164845000 -25.553875 -124.75974 -0.1063397 -33.334007 -0.10525698 -33.324791 -25.516705 -119.40932
165844000 -25.507282 -124.82291 -0.10623837 -33.530525 -0.10548056 -33.527988 -25.43454 -119.52852
166843000 -25.442131 -124.87585 -0.10699552 -33.733944 -0.10487059 -33.72691 -25.369026 -119.69924
167842000 -25.384205 -124.97053 -0.10661878 -33.930176 -0.1061503 -33.927677 -25.292219 -119.59747
168841000 -25.303576 -125.1548 -0.10698622 -34.13335 -0.10638639 -34.127163 -25.215612 -119.69468
169840000 -25.243069 -125.39037 -0.10734734 -34.326313 -0.10657527 -34.326744 -25.128849 -119.90079
170839000 -25.183098 -125.63468 -0.10786319 -34.526752 -0.10743809 -34.522137 -25.045549 -120.10184
171838000 -25.120695 -126.0684 -0.10775784 -34.728027 -0.10818323 -34.72084 -24.979372 -120.3122
172837000 -25.052557 -126.39014 -0.10992029 -34.920506 -0.10924173 -34.915432 -24.908987 -120.51671
173836000 -24.98798 -126.80446 -0.11105303 -35.126083 -0.11013056 -35.12384 -24.872431 -120.73348
174835000 -24.930563 -127.1961 -0.11120149 -35.318008 -0.11084244 -35.321236 -24.820858 -121.08186
175834000 -24.87789 -127.58868 -0.11228383 -35.520714 -0.1118599 -35.516544 -24.758442 -121.35331
176833000 -24.829247 -127.9199 -0.113511 -35.721485 -0.11251707 -35.71814 -24.710011 -121.49344
177832000 -24.782557 -128.38644 -0.11413414 -35.920662 -0.1130253 -35.921188 -24.686285 -121.63507
178831000 -24.742189 -128.67039 -0.11484855 -36.121223 -0.11505108 -36.116535 -24.650097 -121.81473
179830000 -24.688086 -128.94942 -0.11739668 -36.310238 -0.1168111 -36.314251 -24.608152 -121.74874
180829000 -24.613514 -129.27765 -0.11683131 -36.499573 -0.11567365 -36.497536 -24.543139 -121.92826
181828000 -24.591215 -129.73485 -0.11651913 -36.695396 -0.11546789 -36.689556 -24.51527 -122.23274
182827000 -24.564074 -130.15306 -0.11584221 -36.894218 -0.11553594 -36.89151 -24.504539 -122.383
183826000 -24.52496 -130.47243 -0.11661486 -37.09116 -0.11554153 -37.090473 -24.492315 -122.53801
184825000 -24.522402 -130.80257 -0.11678769 -37.288666 -0.11569306 -37.294666 -24.469734 -122.66229
185824000 -24.496202 -131.17908 -0.11647233 -37.483837 -0.11624739 -37.486485 -24.465984 -122.71063
186823000 -24.475643 -131.53424 -0.11691241 -37.68726 -0.11619421 -37.684425 -24.459923 -122.73918
187822000 -24.448034 -131.89615 -0.11708526 -37.879829 -0.11695948 -37.882298 -24.418472 -122.81983
188821000 -24.42594 -132.10948 -0.11735281 -38.077232 -0.11754429 -38.079525 -24.400536 -122.96163
189820000 -24.407349 -132.41595 -0.11756902 -38.277187 -0.11747674 -38.279312 -24.382088 -123.14675
190819000 -24.368944 -132.73842 -0.11848297 -38.474358 -0.11806268 -38.472656 -24.340046 -123.19786
191818000 -24.337412 -133.03397 -0.11885913 -38.673786 -0.11782914 -38.673069 -24.312035 -123.25697
192817000 -24.288498 -133.30502 -0.11907995 -38.870888 -0.11871175 -38.873569 -24.26158 -123.34508
193816000 -24.256472 -133.57645 -0.11959028 -39.068695 -0.11859576 -39.067516 -24.215389 -123.50771
194815000 -24.1943 -133.9704 -0.11985531 -39.261036 -0.11971801 -39.265568 -24.143309 -123.58997
195814000 -24.139629 -134.15611 -0.12067552 -39.460747 -0.11991013 -39.463539 -24.084368 -123.65683
196813000 -24.07901 -134.48694 -0.11991652 -39.655098 -0.11945777 -39.652676 -24.00683 -123.8389
197812000 -24.023607 -134.7 -0.1206521 -39.848118 -0.12052807 -39.856049 -23.932695 -123.93854
198811000 -23.966755 -134.86258 -0.12036839 -40.051647 -0.12016667 -40.05471 -23.860859 -124.11508
199810000 -23.893967 -135.22815 -0.12168968 -40.244106 -0.1201805 -40.241943 -23.783964 -124.23359
200809000 -23.836931 -135.47884 -0.12212364 -40.443054 -0.12073168 -40.44463 -23.70204 -124.38537
201808000 -23.777039 -135.70395 -0.12198573 -40.643623 -0.12177327 -40.646938 -23.63509 -124.50025
202807000 -23.721115 -136.01534 -0.12371286 -40.842979 -0.12257787 -40.844986 -23.577673 -124.67384
203806000 -23.666916 -136.4664 -0.12465927 -41.044384 -0.12332402 -41.049034 -23.511684 -124.83762
