!Keysight Technologies,E5080B,MY59205177,A.15.75.32
!Date: Friday, February 23, 2024 03:28:18
!Correction: S11(Cdelta 2-Port  ) 
!S21(Cdelta 2-Port  ) 
!S12(Cdelta 2-Port  ) 
!S22(Cdelta 2-Port  ) 
!S2P File: Measurements: S11, S21, S12, S22:
# Hz S  dB   R 50
10000000 -45.986217 -1.1175958 -0.016057983 -2.0555305 -0.019507926 -2.1098139 -46.091454 -158.57535
10999000 -45.164696 -3.3353171 -0.017233821 -2.2725804 -0.019361794 -2.3254309 -46.042553 -152.5103
11998000 -44.267235 -6.3215251 -0.017229924 -2.5003908 -0.018755998 -2.5409019 -46.257389 -148.26642
12997000 -43.525421 -12.194472 -0.016448248 -2.6792264 -0.018433375 -2.7096682 -45.910561 -142.24983
13996000 -43.237885 -15.603967 -0.016041355 -2.8605132 -0.018931748 -2.8822653 -45.705582 -136.82744
14995000 -42.849201 -20.18924 -0.018757818 -3.0706227 -0.018439094 -3.090817 -45.422543 -133.6088
15994000 -42.707993 -24.348188 -0.01970971 -3.2924476 -0.020909946 -3.3121707 -45.350529 -129.95596
16993000 -42.667286 -28.799606 -0.018424535 -3.490608 -0.020140612 -3.4957297 -44.487984 -129.74753
17992000 -42.725643 -34.310055 -0.019196946 -3.6866212 -0.020889658 -3.6902826 -43.936687 -129.59682
18991000 -43.027473 -39.295677 -0.020430593 -3.9013286 -0.021608656 -3.894697 -43.294796 -128.09756
19990000 -42.803112 -45.017345 -0.023024887 -4.110383 -0.024209643 -4.1026735 -42.581795 -129.23448
20989000 -42.682564 -48.574352 -0.024320275 -4.3142419 -0.02609962 -4.3030715 -42.072941 -128.61905
21988000 -42.510437 -53.603207 -0.025565792 -4.5091701 -0.026617365 -4.4991908 -41.816261 -128.09827
22987000 -42.21862 -58.421177 -0.026752543 -4.7119789 -0.027771318 -4.7022047 -41.563332 -127.24937
23986000 -42.14212 -62.469799 -0.026648881 -4.9059081 -0.026759835 -4.9077191 -41.384644 -127.23432
24985000 -41.721664 -65.483521 -0.027540764 -5.1166606 -0.02704687 -5.1110005 -41.244953 -124.63952
25984000 -41.445908 -67.508659 -0.028957106 -5.3178482 -0.02781274 -5.3198037 -40.892288 -123.08248
26983000 -41.126045 -69.503181 -0.029270871 -5.5191884 -0.028553208 -5.5416002 -40.791748 -122.26973
27982000 -40.939983 -70.293312 -0.03019014 -5.724699 -0.03049513 -5.7573137 -40.536011 -120.677
28981000 -40.94775 -72.072235 -0.02922813 -5.9209218 -0.030376259 -5.9449177 -40.304119 -119.83372
29980000 -40.531036 -72.978592 -0.028588125 -6.1121836 -0.030607486 -6.1176372 -40.023514 -119.02541
30979000 -40.1422 -72.181786 -0.02541451 -6.4676938 -0.025264533 -6.460681 -39.522823 -119.49185
31978000 -39.948257 -73.337173 -0.025396803 -6.6668863 -0.025909778 -6.6547031 -39.276028 -118.79098
32977000 -39.729336 -74.731262 -0.025147889 -6.8756795 -0.026777286 -6.8740449 -39.013008 -118.7238
33976000 -39.572659 -75.818001 -0.026704619 -7.0753164 -0.027310742 -7.0691948 -38.742001 -118.23686
34975000 -39.269585 -76.703407 -0.026562931 -7.2751856 -0.028491456 -7.2751489 -38.490864 -117.83933
35974000 -39.069637 -77.282402 -0.026347026 -7.4751344 -0.027887251 -7.4787951 -38.24913 -116.81371
36973000 -38.85178 -78.030464 -0.026072277 -7.6716328 -0.029152034 -7.676589 -37.984669 -115.70118
37972000 -38.652657 -77.77475 -0.026401717 -7.8859496 -0.028444294 -7.8946366 -37.74197 -115.22826
38971000 -38.337116 -77.289597 -0.026673103 -8.0871143 -0.02876219 -8.102705 -37.56197 -113.51464
39970000 -37.982479 -77.654846 -0.024872955 -8.2831249 -0.028746294 -8.3014765 -37.314018 -112.89132
40969000 -37.693565 -77.521538 -0.024727164 -8.4764204 -0.02813554 -8.4965115 -37.069244 -111.43179
41968000 -37.369324 -77.387581 -0.025337698 -8.6832962 -0.028365083 -8.7015324 -36.864689 -110.09395
42967000 -37.072903 -77.448006 -0.026169673 -8.8927069 -0.028514646 -8.9139643 -36.65192 -108.32397
43966000 -36.782425 -78.158669 -0.0261491 -9.09303 -0.029909413 -9.1170044 -36.390884 -107.48985
44965000 -36.550144 -79.030426 -0.026933825 -9.3000002 -0.029595083 -9.3210239 -36.166542 -107.22604
45964000 -36.310314 -79.962257 -0.028464356 -9.4997663 -0.031019134 -9.5177536 -35.940536 -106.93012
46963000 -36.128342 -82.038902 -0.028324958 -9.6944027 -0.031864196 -9.716094 -35.75544 -107.0866
47962000 -35.95496 -83.318932 -0.030464629 -9.8964815 -0.03235681 -9.9153852 -35.552895 -107.21327
48961000 -35.735268 -84.72802 -0.032730807 -10.094386 -0.03426208 -10.115565 -35.312984 -107.27919
49960000 -35.525311 -86.204727 -0.033416551 -10.293039 -0.03531054 -10.316745 -35.171288 -107.35991
50959000 -35.28809 -87.394203 -0.034624759 -10.510367 -0.03673673 -10.519341 -34.987675 -107.63904
51958000 -35.08622 -88.500671 -0.036661286 -10.706146 -0.038487222 -10.721163 -34.823376 -108.0787
52957000 -34.869659 -89.519958 -0.037770648 -10.906192 -0.039224029 -10.915596 -34.66148 -107.82819
53956000 -34.700745 -90.188339 -0.038567662 -11.110828 -0.040360432 -11.112231 -34.515896 -107.67564
54955000 -34.532707 -90.636467 -0.039170217 -11.3132 -0.041508894 -11.307755 -34.381908 -107.80713
55954000 -34.358238 -91.541779 -0.040615968 -11.513198 -0.041736793 -11.514548 -34.262665 -107.40658
56953000 -34.251522 -91.540565 -0.041322559 -11.71203 -0.040368792 -11.700503 -34.201725 -107.55213
57952000 -34.081539 -92.137741 -0.041487463 -11.909744 -0.041663613 -11.901028 -34.112095 -107.72153
58951000 -33.962959 -92.467087 -0.042783141 -12.115172 -0.042289082 -12.098051 -33.944931 -107.68613
59950000 -33.840343 -92.864487 -0.043515448 -12.313643 -0.04346237 -12.294693 -33.888828 -108.00666
60949000 -33.72477 -93.457756 -0.043643568 -12.523909 -0.044188775 -12.498622 -33.777195 -108.23677
61948000 -33.650833 -93.702003 -0.044880256 -12.722161 -0.043258172 -12.702289 -33.691292 -108.32708
62947000 -33.573151 -93.854965 -0.045169275 -12.926752 -0.044767529 -12.911386 -33.57468 -108.55
63946000 -33.495152 -94.633911 -0.046137441 -13.130219 -0.045822717 -13.110673 -33.446278 -108.7401
64945000 -33.390163 -94.866867 -0.04663717 -13.330637 -0.046359565 -13.314098 -33.344116 -109.12174
65944000 -33.294575 -95.084503 -0.047041707 -13.531209 -0.047032285 -13.512243 -33.246994 -109.60944
66943000 -33.139484 -95.597397 -0.045700025 -13.735528 -0.045267627 -13.718739 -33.145699 -109.87147
67942000 -33.088547 -95.467224 -0.047680251 -13.928865 -0.047033597 -13.919303 -33.018452 -110.19166
68941000 -32.973579 -95.54335 -0.047519822 -14.125391 -0.045892041 -14.116128 -32.9072 -110.13019
69940000 -32.889538 -95.566437 -0.047332443 -14.327401 -0.046737649 -14.318287 -32.762703 -110.4474
70939000 -32.772064 -95.52121 -0.047647275 -14.521459 -0.04632058 -14.52081 -32.63731 -110.31443
71938000 -32.628494 -95.095718 -0.047538403 -14.717034 -0.047041707 -14.710896 -32.503437 -110.20567
72937000 -32.463421 -94.827034 -0.04647861 -14.91744 -0.046863768 -14.910462 -32.359722 -109.92044
73936000 -32.332104 -94.499565 -0.046938606 -15.119567 -0.046063662 -15.111558 -32.239162 -109.62822
74935000 -32.196312 -94.65892 -0.046602633 -15.313458 -0.045141812 -15.310653 -32.092815 -109.37739
75934000 -32.070614 -94.947525 -0.045971833 -15.525432 -0.044899087 -15.5178 -31.998854 -109.2388
76933000 -31.938635 -95.327141 -0.047073107 -15.717637 -0.046977334 -15.71128 -31.830505 -109.56545
77932000 -31.840647 -96.15654 -0.048787978 -15.909835 -0.048548713 -15.905901 -31.721016 -109.53739
78931000 -31.759623 -96.848816 -0.04784723 -16.115696 -0.047862146 -16.110241 -31.610916 -109.35117
79930000 -31.641476 -97.736023 -0.049724482 -16.306168 -0.049399551 -16.30558 -31.512613 -109.69724
80929000 -31.522518 -98.545158 -0.051654674 -16.503424 -0.051786702 -16.503008 -31.413273 -109.9892
81928000 -31.430681 -99.215897 -0.051725402 -16.698542 -0.052749529 -16.692343 -31.280914 -109.90951
82927000 -31.334646 -100.00938 -0.054130089 -16.893768 -0.053477492 -16.897392 -31.174644 -110.27518
83926000 -31.202795 -100.70029 -0.054697324 -17.092699 -0.054327983 -17.09704 -31.056454 -110.42458
84925000 -31.105455 -101.145 -0.055989344 -17.292814 -0.054571759 -17.290667 -30.964355 -110.45861
85924000 -31.014002 -101.48155 -0.056818556 -17.491238 -0.056186013 -17.488844 -30.876522 -110.45062
86923000 -30.902937 -102.02185 -0.057030477 -17.693577 -0.056439072 -17.690985 -30.769106 -110.22922
87922000 -30.793154 -102.32896 -0.056410749 -17.89926 -0.056323946 -17.891636 -30.673199 -110.23607
88921000 -30.717497 -102.62276 -0.058259439 -18.09729 -0.057486344 -18.097015 -30.589251 -110.28262
89920000 -30.618731 -103.16734 -0.059108768 -18.297504 -0.058362544 -18.294682 -30.530405 -110.4508
90919000 -30.504284 -103.43528 -0.059348349 -18.497368 -0.058805697 -18.488815 -30.440653 -110.52888
91918000 -30.411901 -103.78989 -0.060387399 -18.694679 -0.059018236 -18.692543 -30.371117 -110.59272
92917000 -30.317623 -104.1133 -0.061491549 -18.897591 -0.059190899 -18.889101 -30.299625 -110.71285
93916000 -30.229382 -104.44975 -0.060812909 -19.087015 -0.060340416 -19.084307 -30.218382 -111.31418
94915000 -30.143656 -105.1019 -0.062919535 -19.288328 -0.061361853 -19.287769 -30.158407 -111.197
95914000 -30.079708 -105.2824 -0.063874856 -19.486738 -0.062602282 -19.48259 -30.064117 -111.42667
96913000 -29.991632 -105.53164 -0.065439746 -19.685841 -0.063546494 -19.684752 -29.99399 -111.77083
97912000 -29.914989 -105.93164 -0.065549597 -19.883942 -0.063943945 -19.886063 -29.911951 -112.02647
98911000 -29.804733 -106.16411 -0.06689427 -20.085789 -0.06507317 -20.084593 -29.870985 -112.26196
99910000 -29.741005 -106.28869 -0.066501282 -20.284897 -0.065722257 -20.283051 -29.761568 -112.54152
100909000 -29.651325 -106.50615 -0.066580407 -20.491777 -0.065446578 -20.487123 -29.680285 -112.73515
101908000 -29.557947 -106.75635 -0.06757465 -20.691797 -0.066804893 -20.68977 -29.567017 -112.52271
102907000 -29.419783 -106.7423 -0.068036884 -20.89366 -0.066277079 -20.891848 -29.48711 -112.53067
103906000 -29.320738 -106.77066 -0.06835217 -21.101183 -0.06576325 -21.094393 -29.340981 -112.46221
104905000 -29.176937 -106.68256 -0.069318414 -21.299284 -0.066289432 -21.299463 -29.221384 -112.18321
105904000 -29.032887 -106.76214 -0.069893688 -21.503563 -0.066995479 -21.493677 -29.109642 -112.02624
106903000 -28.922325 -106.8576 -0.06895519 -21.708828 -0.067593314 -21.703382 -28.975348 -111.91711
107902000 -28.755087 -107.24554 -0.070011541 -21.907839 -0.067379303 -21.898932 -28.8382 -111.87012
108901000 -28.640608 -107.43327 -0.07116919 -22.110493 -0.06901069 -22.101238 -28.710306 -111.80527
109900000 -28.517025 -107.96284 -0.071581014 -22.3111 -0.070468508 -22.301214 -28.556318 -111.878
110899000 -28.396029 -108.5246 -0.073585451 -22.510063 -0.071063146 -22.502054 -28.428492 -112.12153
111898000 -28.306053 -109.18433 -0.074766964 -22.709213 -0.072301082 -22.704268 -28.306675 -112.29316
112897000 -28.182728 -109.73795 -0.076452233 -22.909161 -0.07389877 -22.897619 -28.178959 -112.44503
113896000 -28.074759 -110.28197 -0.077415012 -23.112736 -0.074763805 -23.098436 -28.064474 -112.60048
114895000 -27.968254 -110.965 -0.078286812 -23.307688 -0.076149531 -23.294729 -27.95145 -112.66152
115894000 -27.851742 -111.29734 -0.07973668 -23.513176 -0.076766022 -23.499273 -27.884586 -112.84992
116893000 -27.782391 -111.81274 -0.080942281 -23.70772 -0.078311324 -23.691753 -27.764059 -112.88129
117892000 -27.687824 -112.30175 -0.080447555 -23.904394 -0.078363508 -23.890755 -27.685202 -113.10075
118891000 -27.631113 -112.73518 -0.080969706 -24.108889 -0.079261065 -24.092258 -27.585579 -113.22663
119890000 -27.548105 -113.12604 -0.08186464 -24.306427 -0.080107391 -24.290722 -27.574657 -113.37656
120889000 -27.490292 -113.60157 -0.08262942 -24.509228 -0.079828955 -24.496387 -27.499916 -113.297
121888000 -27.453913 -113.87215 -0.083398558 -24.707081 -0.080717064 -24.696991 -27.437521 -113.57256
122887000 -27.418697 -114.11525 -0.084642664 -24.906902 -0.08096496 -24.895594 -27.397989 -113.59757
123886000 -27.358963 -114.52054 -0.084546059 -25.11224 -0.081752799 -25.090435 -27.379696 -113.71425
124885000 -27.330164 -115.03963 -0.085199378 -25.308575 -0.082145579 -25.291719 -27.356762 -113.76239
125884000 -27.276098 -115.25032 -0.086329922 -25.508308 -0.082168534 -25.496031 -27.318518 -113.90633
126883000 -27.257929 -115.63465 -0.085990094 -25.713331 -0.083300926 -25.698765 -27.279079 -113.90889
127882000 -27.206633 -115.93252 -0.086637035 -25.912983 -0.083516516 -25.896336 -27.239302 -114.04443
128881000 -27.177561 -116.23476 -0.086847506 -26.114283 -0.083631307 -26.099766 -27.200325 -114.10355
129880000 -27.124516 -116.57166 -0.087759495 -26.316202 -0.083929256 -26.296062 -27.160923 -114.07537
130879000 -27.062731 -116.71119 -0.087539472 -26.513536 -0.085014328 -26.499226 -27.082609 -114.15076
131878000 -26.993944 -116.95647 -0.087740481 -26.718443 -0.085185125 -26.701584 -27.022709 -113.97108
132877000 -26.928574 -117.03132 -0.087359339 -26.920267 -0.085070029 -26.902504 -26.942167 -113.97063
133876000 -26.838614 -117.1813 -0.088187166 -27.116865 -0.085320547 -27.101326 -26.854389 -113.85076
134875000 -26.743053 -117.32336 -0.088391379 -27.321159 -0.085654519 -27.300707 -26.760221 -113.69566
135874000 -26.661739 -117.35336 -0.088229701 -27.521248 -0.08554469 -27.509144 -26.655355 -113.65717
136873000 -26.549809 -117.27718 -0.089051351 -27.727341 -0.086150371 -27.710808 -26.576231 -113.61958
137872000 -26.469486 -117.43161 -0.088359937 -27.929823 -0.086224832 -27.911497 -26.470615 -113.55333
138871000 -26.394138 -117.64819 -0.088995606 -28.128935 -0.087014943 -28.113726 -26.371143 -113.70281
139870000 -26.293423 -117.92484 -0.089997634 -28.327614 -0.087747082 -28.312805 -26.291779 -113.86007
140869000 -26.21719 -118.45963 -0.09114106 -28.526314 -0.087936215 -28.506289 -26.19083 -114.11394
141868000 -26.136318 -118.85909 -0.092016146 -28.722694 -0.08966624 -28.711622 -26.137558 -114.35281
142867000 -26.048361 -119.0873 -0.090814866 -28.920732 -0.089285724 -28.905546 -26.063322 -114.45866
143866000 -25.978455 -119.56062 -0.093122281 -29.117151 -0.090603411 -29.104355 -25.984528 -114.91701
144865000 -25.92491 -120.04964 -0.094418645 -29.319895 -0.091708392 -29.300907 -25.925667 -115.22964
145864000 -25.867672 -120.38615 -0.094798557 -29.521591 -0.092950381 -29.507624 -25.896837 -115.46623
146863000 -25.824833 -120.76239 -0.095923133 -29.721354 -0.092708938 -29.708759 -25.841049 -115.7737
147862000 -25.783098 -121.11787 -0.097168185 -29.920265 -0.093747005 -29.902998 -25.813484 -116.08079
148861000 -25.751604 -121.5468 -0.09741649 -30.113033 -0.095461093 -30.09922 -25.787134 -116.25985
149860000 -25.720949 -121.6927 -0.099118523 -30.312012 -0.095413201 -30.29598 -25.73443 -116.3112
150859000 -25.695534 -122.19971 -0.098364867 -30.50605 -0.095506079 -30.49267 -25.720266 -116.68925
151858000 -25.683847 -122.50144 -0.097579569 -30.705843 -0.095794253 -30.691401 -25.709465 -117.00784
152857000 -25.668858 -122.8711 -0.098055601 -30.905397 -0.09597712 -30.893814 -25.696218 -117.20968
153856000 -25.668894 -123.07668 -0.097799048 -31.106184 -0.095032975 -31.09374 -25.713615 -117.49902
154855000 -25.662195 -123.25956 -0.098860577 -31.308149 -0.095742121 -31.297625 -25.704664 -117.72207
155854000 -25.682272 -123.47156 -0.098606363 -31.507893 -0.096398979 -31.497561 -25.695463 -118.0141
156853000 -25.672674 -124.20672 -0.096324347 -31.692286 -0.095295712 -31.683731 -25.690771 -118.30547
157852000 -25.681534 -124.38426 -0.098010063 -31.894819 -0.096910357 -31.882999 -25.682526 -118.67561
158851000 -25.677368 -124.59407 -0.098215528 -32.094658 -0.097188301 -32.087753 -25.670372 -118.91172
159850000 -25.668945 -124.70815 -0.098857932 -32.292454 -0.097077116 -32.286354 -25.66861 -119.13136
160849000 -25.650286 -124.79395 -0.099348933 -32.492897 -0.098266631 -32.487873 -25.640438 -119.39635
161848000 -25.631468 -124.9052 -0.099390253 -32.695908 -0.098145887 -32.684937 -25.605991 -119.48882
162847000 -25.586288 -125.0593 -0.099979587 -32.891476 -0.098058514 -32.888508 -25.578098 -119.77719
163846000 -25.554602 -125.27067 -0.1000421 -33.096363 -0.098119676 -33.084942 -25.499294 -119.77204
164845000 -25.495905 -125.28731 -0.09990754 -33.294247 -0.099118255 -33.288456 -25.435829 -119.86401
165844000 -25.442225 -125.27433 -0.1006771 -33.49297 -0.098727114 -33.487419 -25.354715 -120.01017
166843000 -25.377712 -125.35011 -0.10022541 -33.690948 -0.099630214 -33.687355 -25.289022 -120.19274
167842000 -25.321196 -125.46988 -0.10063206 -33.89772 -0.099573001 -33.885639 -25.212561 -120.10351
168841000 -25.249327 -125.61629 -0.10121308 -34.093998 -0.10019813 -34.087181 -25.137781 -120.17688
169840000 -25.182568 -125.8688 -0.10129019 -34.291718 -0.10110418 -34.285515 -25.052454 -120.33083
170839000 -25.123568 -126.098 -0.10227519 -34.488239 -0.10130555 -34.484985 -24.969673 -120.53648
171838000 -25.06493 -126.4828 -0.10206555 -34.689686 -0.10219806 -34.681553 -24.907818 -120.74717
172837000 -24.990879 -126.84054 -0.10384523 -34.885296 -0.10324424 -34.879868 -24.832323 -120.97707
173836000 -24.92347 -127.22632 -0.10546623 -35.085239 -0.10434024 -35.083477 -24.794685 -121.20055
174835000 -24.870176 -127.66147 -0.10563572 -35.281654 -0.10461044 -35.282185 -24.750307 -121.54192
175834000 -24.818375 -128.0208 -0.10670739 -35.480606 -0.10615242 -35.47924 -24.690151 -121.77116
176833000 -24.765814 -128.3596 -0.10799693 -35.680073 -0.10690425 -35.683247 -24.640856 -121.91827
177832000 -24.723291 -128.78333 -0.10833982 -35.879715 -0.10732292 -35.87896 -24.619486 -122.03167
178831000 -24.67602 -129.04227 -0.11009976 -36.076298 -0.10919395 -36.072113 -24.583164 -122.14527
179830000 -24.612307 -129.42496 -0.11175737 -36.261223 -0.11044042 -36.264687 -24.525478 -122.17822
180829000 -24.558472 -129.73276 -0.11019482 -36.454758 -0.10972064 -36.456921 -24.467026 -122.50175
181828000 -24.531797 -130.18697 -0.10972542 -36.651665 -0.10827187 -36.652359 -24.453613 -122.68905
182827000 -24.51119 -130.55858 -0.10954117 -36.850739 -0.10893276 -36.851727 -24.438168 -122.82076
183826000 -24.466028 -130.91582 -0.11064515 -37.052887 -0.10893806 -37.046963 -24.428181 -122.96632
184825000 -24.470337 -131.2554 -0.11034244 -37.250374 -0.1089386 -37.248596 -24.415108 -123.13196
185824000 -24.443027 -131.62263 -0.10996542 -37.44408 -0.10921943 -37.447819 -24.40448 -123.16372
186823000 -24.423056 -131.98869 -0.11076039 -37.643433 -0.10943817 -37.641727 -24.402229 -123.17558
187822000 -24.400099 -132.31728 -0.11115102 -37.842251 -0.10962719 -37.839867 -24.358442 -123.26144
188821000 -24.379278 -132.57916 -0.11129417 -38.037624 -0.11019349 -38.039669 -24.336555 -123.40723
189820000 -24.357088 -132.88368 -0.11155817 -38.236668 -0.11049432 -38.234898 -24.318699 -123.62443
190819000 -24.322817 -133.18448 -0.11257684 -38.434093 -0.11107481 -38.430714 -24.280132 -123.63056
191818000 -24.290287 -133.47188 -0.1125888 -38.633018 -0.1117988 -38.631771 -24.251635 -123.66795
192817000 -24.244823 -133.72093 -0.11266212 -38.82708 -0.11164103 -38.82914 -24.21176 -123.7532
193816000 -24.210268 -133.9973 -0.11337867 -39.024998 -0.11176587 -39.022617 -24.156591 -123.91168
194815000 -24.149895 -134.38664 -0.11371959 -39.221031 -0.11287545 -39.219471 -24.08996 -123.99627
195814000 -24.092955 -134.5835 -0.11431725 -39.420437 -0.11316319 -39.419445 -24.029903 -124.07898
196813000 -24.038425 -134.92656 -0.11400871 -39.613651 -0.11230934 -39.617409 -23.952595 -124.25825
197812000 -23.980003 -135.15234 -0.11396991 -39.815746 -0.11306489 -39.809162 -23.878647 -124.34182
198811000 -23.925417 -135.293 -0.11413175 -40.006924 -0.11274793 -40.011215 -23.810808 -124.56402
199810000 -23.849669 -135.65443 -0.11456946 -40.199986 -0.1129161 -40.202892 -23.726465 -124.59666
200809000 -23.791405 -135.8916 -0.11514571 -40.401836 -0.11333935 -40.404701 -23.650816 -124.78606
201808000 -23.733103 -136.10487 -0.11607723 -40.600758 -0.11447379 -40.605217 -23.582615 -124.8603
202807000 -23.677713 -136.45387 -0.11613758 -40.801674 -0.11516538 -40.805752 -23.522421 -125.07414
203806000 -23.620979 -136.88628 -0.11798501 -41.0005 -0.11579648 -41.00494 -23.46257 -125.21106
