!Keysight Technologies,E5080B,MY59205177,A.15.75.32
!Date: Friday, February 23, 2024 02:50:01
!Correction: S11(Cdelta 2-Port  ) 
!S21(Cdelta 2-Port  ) 
!S12(Cdelta 2-Port  ) 
!S22(Cdelta 2-Port  ) 
!S2P File: Measurements: S11, S21, S12, S22:
# Hz S  dB   R 50
10000000 -42.066166 -3.4189699 -0.043523289 -2.0522945 -0.045889165 -2.1007335 -51.906349 -133.0547
10999000 -41.565388 -4.6547689 -0.044472519 -2.2636878 -0.045289598 -2.322701 -51.076576 -122.25105
11998000 -40.908428 -6.7355452 -0.044222247 -2.493521 -0.045798387 -2.5343556 -50.836803 -114.75249
12997000 -40.400505 -10.874605 -0.043361969 -2.6736875 -0.045587279 -2.7012062 -49.532593 -109.62308
13996000 -40.213806 -13.605784 -0.042773992 -2.8478992 -0.045737695 -2.872597 -48.777023 -103.5246
14995000 -39.953686 -16.738657 -0.045564521 -3.0580754 -0.045125857 -3.0819888 -48.00309 -101.02167
15994000 -39.889008 -20.0765 -0.046570711 -3.2769172 -0.04706081 -3.302413 -47.552658 -97.495041
16993000 -39.895107 -23.37303 -0.045451254 -3.473505 -0.045992762 -3.4832633 -46.675133 -100.59563
17992000 -40.013836 -26.962952 -0.046269562 -3.6761615 -0.047634974 -3.6741471 -46.026932 -102.26675
18991000 -40.288479 -30.494787 -0.046909299 -3.883733 -0.04835213 -3.8804278 -45.300392 -103.56111
19990000 -40.25832 -35.00473 -0.049537793 -4.0930996 -0.050424438 -4.090765 -44.623043 -107.03907
20989000 -40.205399 -37.430145 -0.051147558 -4.3010111 -0.05238324 -4.2894182 -43.981598 -107.51123
21988000 -40.203312 -41.575798 -0.051826261 -4.494359 -0.053623728 -4.4844813 -43.653545 -107.60162
22987000 -40.09824 -45.474106 -0.053887386 -4.6912537 -0.053933512 -4.6843052 -43.338078 -107.67834
23986000 -40.177807 -48.626369 -0.053769708 -4.8857551 -0.053971518 -4.8907924 -43.178848 -108.03198
24985000 -39.947304 -51.308182 -0.054801919 -5.0990977 -0.053847808 -5.0929036 -42.864391 -105.79293
25984000 -39.77552 -53.651627 -0.055016622 -5.3023772 -0.054350525 -5.3051581 -42.442886 -104.67764
26983000 -39.553455 -55.489773 -0.055934541 -5.5047655 -0.055519212 -5.5221877 -42.272305 -104.21822
27982000 -39.46172 -56.389229 -0.056827735 -5.7038741 -0.056870487 -5.737339 -41.87278 -102.84351
28981000 -39.496391 -57.67886 -0.055429805 -5.8995643 -0.056589864 -5.9221416 -41.634068 -102.674
29980000 -39.168247 -59.738022 -0.05459876 -6.0929914 -0.057150602 -6.0977392 -41.25095 -101.992
30979000 -38.800343 -59.253696 -0.052496161 -6.4446964 -0.051387224 -6.4403076 -40.719814 -103.50356
31978000 -38.665302 -60.509003 -0.052627169 -6.6415792 -0.052790668 -6.6334705 -40.41116 -103.3725
32977000 -38.514675 -62.045868 -0.052593369 -6.8535275 -0.05331187 -6.847949 -40.162758 -103.75002
33976000 -38.408806 -63.120811 -0.052816346 -7.0553904 -0.05362897 -7.0469656 -39.815536 -103.57484
34975000 -38.162113 -64.346527 -0.052616689 -7.2534056 -0.054763645 -7.2520885 -39.54282 -103.61127
35974000 -37.978844 -65.14875 -0.052226827 -7.4488397 -0.054399803 -7.4517817 -39.221851 -102.99214
36973000 -37.782597 -66.217743 -0.052983787 -7.6483221 -0.055033926 -7.6560359 -38.896076 -102.3493
37972000 -37.612644 -66.223534 -0.052444287 -7.8593307 -0.055216916 -7.8666277 -38.62973 -101.94198
38971000 -37.295593 -66.14679 -0.053115591 -8.0622549 -0.054925654 -8.0729809 -38.402752 -100.51095
39970000 -37.001743 -66.924942 -0.052002307 -8.2543058 -0.054178316 -8.2706347 -38.100861 -100.24751
40969000 -36.718098 -66.966064 -0.052327957 -8.4494858 -0.053750575 -8.4721613 -37.783848 -99.016479
41968000 -36.401611 -67.504929 -0.052376952 -8.656414 -0.05408553 -8.6715212 -37.55217 -97.994972
42967000 -36.165894 -67.91967 -0.05227844 -8.8660736 -0.055217177 -8.883008 -37.277409 -96.19014
43966000 -35.898605 -68.831184 -0.052436687 -9.0642357 -0.055556443 -9.0858784 -36.966801 -95.876099
44965000 -35.707253 -69.835327 -0.054377522 -9.2691813 -0.056291431 -9.2878513 -36.757999 -95.931023
45964000 -35.511192 -71.055275 -0.055775117 -9.468545 -0.056993231 -9.4890432 -36.50536 -95.936203
46963000 -35.375912 -73.067856 -0.055555917 -9.6665258 -0.057536971 -9.6861105 -36.3354 -96.384117
47962000 -35.262245 -74.620872 -0.05671601 -9.8658953 -0.058909342 -9.883173 -36.121181 -96.747093
48961000 -35.090473 -76.113358 -0.059416842 -10.060596 -0.060224403 -10.083372 -35.898575 -97.204979
49960000 -34.906883 -77.570442 -0.060201567 -10.263433 -0.061623614 -10.285818 -35.77586 -97.503967
50959000 -34.720474 -79.006653 -0.060830235 -10.475995 -0.063277259 -10.48521 -35.58226 -98.014877
51958000 -34.541927 -80.339241 -0.06267897 -10.673991 -0.064571574 -10.683569 -35.413448 -98.760368
52957000 -34.35651 -81.578262 -0.064594701 -10.873348 -0.065914109 -10.881462 -35.251976 -98.711044
53956000 -34.217831 -82.362373 -0.064977258 -11.075144 -0.066382736 -11.077464 -35.103657 -98.713554
54955000 -34.058399 -82.959183 -0.065788485 -11.277223 -0.067360379 -11.274743 -34.95565 -98.972649
55954000 -33.928223 -83.901154 -0.067361429 -11.479368 -0.067340918 -11.477235 -34.820229 -98.721558
56953000 -33.800308 -84.108223 -0.066859044 -11.679601 -0.067134544 -11.661233 -34.779942 -99.055092
57952000 -33.653332 -84.819809 -0.068597265 -11.874345 -0.067922242 -11.865153 -34.665005 -99.211693
58951000 -33.540356 -85.236259 -0.069725066 -12.081214 -0.068532303 -12.055473 -34.509445 -99.430794
59950000 -33.426655 -85.727348 -0.069923677 -12.276989 -0.069722705 -12.260828 -34.435936 -99.725479
60949000 -33.336391 -86.364494 -0.070896059 -12.481758 -0.06984555 -12.459087 -34.355251 -100.0736
61948000 -33.268909 -86.61776 -0.071759969 -12.681425 -0.069708765 -12.658939 -34.270725 -100.28192
62947000 -33.193966 -86.907784 -0.070949472 -12.890523 -0.0708187 -12.868946 -34.129379 -100.57127
63946000 -33.13443 -87.679611 -0.072069734 -13.08666 -0.072078422 -13.065957 -34.019543 -100.85693
64945000 -33.033844 -87.901146 -0.072728552 -13.291492 -0.072765931 -13.270244 -33.921265 -101.38294
65944000 -32.930367 -88.226837 -0.073823467 -13.488918 -0.07266327 -13.473035 -33.833839 -101.94044
66943000 -32.787853 -88.756287 -0.071701542 -13.690454 -0.071374439 -13.67324 -33.724483 -102.24897
67942000 -32.738148 -88.719437 -0.07384453 -13.886974 -0.073418006 -13.876778 -33.610161 -102.66581
68941000 -32.608097 -88.845482 -0.073404849 -14.081306 -0.072192647 -14.070721 -33.490566 -102.6909
69940000 -32.521118 -88.858543 -0.073206604 -14.279034 -0.073422223 -14.270114 -33.357189 -103.06162
70939000 -32.40834 -88.928604 -0.073904827 -14.480515 -0.073456712 -14.471558 -33.215656 -102.99552
71938000 -32.267551 -88.573471 -0.073520422 -14.67415 -0.072720915 -14.664606 -33.089905 -102.88274
72937000 -32.103901 -88.498291 -0.072870702 -14.875154 -0.072352149 -14.863429 -32.939884 -102.64274
73936000 -31.954283 -88.215408 -0.072924927 -15.07238 -0.071586013 -15.065007 -32.812466 -102.5507
74935000 -31.831417 -88.552895 -0.072669588 -15.265058 -0.071086824 -15.260633 -32.639751 -102.22303
75934000 -31.720419 -88.901863 -0.073283739 -15.476004 -0.070960522 -15.469219 -32.559742 -102.26972
76933000 -31.589808 -89.293716 -0.073984347 -15.667009 -0.072317667 -15.662493 -32.395069 -102.71983
77932000 -31.504038 -90.197914 -0.075293705 -15.867786 -0.074391961 -15.854733 -32.291405 -102.77532
78931000 -31.446438 -90.965714 -0.073449336 -16.067373 -0.073724732 -16.060278 -32.195206 -102.68634
79930000 -31.338774 -91.811043 -0.076632448 -16.258244 -0.076098166 -16.254105 -32.086189 -102.9778
80929000 -31.226236 -92.82074 -0.07816162 -16.452204 -0.077734143 -16.447653 -31.985535 -103.47527
81928000 -31.148804 -93.627892 -0.077657193 -16.645031 -0.078049339 -16.639133 -31.872055 -103.62537
82927000 -31.0811 -94.418358 -0.079873256 -16.841433 -0.08020179 -16.840565 -31.765657 -103.93867
83926000 -30.96261 -95.239548 -0.080999777 -17.041147 -0.080339171 -17.041954 -31.642387 -104.25706
84925000 -30.863035 -95.740692 -0.082032412 -17.242693 -0.080650076 -17.237833 -31.553507 -104.39448
85924000 -30.776806 -96.222778 -0.082813583 -17.438269 -0.082333148 -17.438511 -31.455023 -104.477
86923000 -30.684576 -96.854248 -0.08315105 -17.640232 -0.082246095 -17.628963 -31.366089 -104.4298
87922000 -30.578579 -97.262589 -0.083418354 -17.846687 -0.081925049 -17.834085 -31.28064 -104.50778
88921000 -30.504065 -97.625641 -0.084245168 -18.043667 -0.082994319 -18.038712 -31.178658 -104.55643
89920000 -30.407877 -98.256752 -0.084999546 -18.239578 -0.083709158 -18.233522 -31.136957 -104.72475
90919000 -30.321495 -98.538651 -0.086463012 -18.439087 -0.084221944 -18.434175 -31.046869 -104.96884
91918000 -30.226379 -98.946671 -0.086802609 -18.636356 -0.085214429 -18.633259 -30.980022 -105.11943
92917000 -30.142506 -99.374542 -0.087724365 -18.834663 -0.086063236 -18.830212 -30.90728 -105.20776
93916000 -30.055147 -99.760292 -0.087036334 -19.02787 -0.086528495 -19.024412 -30.826458 -105.9243
94915000 -29.982643 -100.442 -0.088769436 -19.234426 -0.087327644 -19.226723 -30.763388 -105.77488
95914000 -29.92313 -100.63636 -0.089838013 -19.423397 -0.087962627 -19.423601 -30.674732 -106.11898
96913000 -29.845833 -100.95083 -0.090870112 -19.624414 -0.089268811 -19.623686 -30.614576 -106.51881
97912000 -29.767981 -101.47002 -0.09223666 -19.820194 -0.089241594 -19.819887 -30.536768 -106.73548
98911000 -29.665421 -101.65897 -0.09254472 -20.024055 -0.090493187 -20.02104 -30.492777 -106.97858
99910000 -29.600782 -101.86134 -0.093572967 -20.221395 -0.090880424 -20.22139 -30.382965 -107.31863
100909000 -29.50708 -102.12478 -0.09264759 -20.430397 -0.090551071 -20.423313 -30.302893 -107.53474
101908000 -29.418257 -102.4487 -0.093396284 -20.629913 -0.091675341 -20.625566 -30.179277 -107.3437
102907000 -29.290915 -102.51113 -0.094254896 -20.828241 -0.092172943 -20.831957 -30.100012 -107.28282
103906000 -29.191011 -102.62955 -0.094442718 -21.036129 -0.091157191 -21.031118 -29.941566 -107.28835
104905000 -29.042873 -102.57315 -0.095011279 -21.229959 -0.091541834 -21.231562 -29.813404 -107.04564
105904000 -28.898727 -102.68655 -0.095621191 -21.437534 -0.092193298 -21.429031 -29.687181 -106.85284
106903000 -28.79623 -102.82715 -0.095618807 -21.642717 -0.092424929 -21.633507 -29.552601 -106.80628
107902000 -28.63065 -103.25156 -0.096497439 -21.839645 -0.093355291 -21.83252 -29.416521 -106.82823
108901000 -28.519289 -103.56374 -0.097224563 -22.043068 -0.093964174 -22.033981 -29.273497 -106.79628
109900000 -28.395067 -104.08086 -0.098569289 -22.240067 -0.095172673 -22.234219 -29.115896 -106.95853
110899000 -28.282005 -104.75896 -0.10016501 -22.441526 -0.096090652 -22.42956 -28.991051 -107.23315
111898000 -28.19589 -105.43285 -0.10113439 -22.638275 -0.097950488 -22.633837 -28.868134 -107.47113
112897000 -28.072601 -106.07941 -0.10243367 -22.842085 -0.098590471 -22.82905 -28.736715 -107.70294
113896000 -27.974924 -106.66216 -0.10355943 -23.040611 -0.10002223 -23.027775 -28.624496 -107.93559
114895000 -27.876554 -107.33959 -0.10408968 -23.238214 -0.10104007 -23.229078 -28.508368 -108.07271
115894000 -27.750666 -107.76795 -0.10563067 -23.4389 -0.10310083 -23.427307 -28.447866 -108.24909
116893000 -27.671213 -108.37067 -0.10585852 -23.635242 -0.10401916 -23.616938 -28.306746 -108.48291
117892000 -27.597116 -108.86922 -0.10606886 -23.833879 -0.10440043 -23.817251 -28.241114 -108.71078
118891000 -27.536648 -109.29559 -0.10661639 -24.035606 -0.10466587 -24.016626 -28.143759 -108.88535
119890000 -27.452238 -109.76804 -0.10743675 -24.238607 -0.10514029 -24.217941 -28.126213 -109.03581
120889000 -27.397301 -110.3403 -0.10908034 -24.437031 -0.10495969 -24.417561 -28.05509 -109.08263
121888000 -27.353245 -110.6474 -0.10954701 -24.628584 -0.10623943 -24.619806 -27.988443 -109.35704
122887000 -27.318699 -110.8716 -0.11009764 -24.832321 -0.10747152 -24.82008 -27.942888 -109.45311
123886000 -27.261547 -111.29043 -0.1110841 -25.031994 -0.10689443 -25.014698 -27.934324 -109.61332
124885000 -27.229399 -111.8158 -0.1113688 -25.233665 -0.10790989 -25.218004 -27.901018 -109.70144
125884000 -27.170441 -112.0228 -0.11142564 -25.432728 -0.10793271 -25.41884 -27.875626 -109.87143
126883000 -27.153416 -112.41122 -0.11238584 -25.632889 -0.10918652 -25.61754 -27.834732 -109.90547
127882000 -27.10387 -112.71302 -0.1123784 -25.832922 -0.10916793 -25.816479 -27.789371 -110.11983
128881000 -27.074951 -113.0405 -0.11282577 -26.035522 -0.10913715 -26.020187 -27.744003 -110.23306
129880000 -27.010933 -113.38554 -0.11331092 -26.235235 -0.10933517 -26.216715 -27.698275 -110.17034
130879000 -26.951731 -113.53356 -0.11322908 -26.435213 -0.11011171 -26.420162 -27.624527 -110.25095
131878000 -26.883173 -113.74438 -0.1136319 -26.640253 -0.11076517 -26.619047 -27.554728 -110.19318
132877000 -26.814869 -113.86103 -0.11342145 -26.839188 -0.11065922 -26.822552 -27.4673 -110.15908
133876000 -26.727966 -114.05939 -0.11354182 -27.040556 -0.11115475 -27.022041 -27.367287 -110.12693
134875000 -26.629488 -114.16948 -0.11389603 -27.242188 -0.11120972 -27.221554 -27.263063 -110.0165
135874000 -26.54973 -114.19503 -0.1143401 -27.439039 -0.11110429 -27.421406 -27.162828 -110.05201
136873000 -26.435406 -114.19836 -0.1147704 -27.64476 -0.11103205 -27.625328 -27.068798 -109.9904
137872000 -26.354349 -114.32732 -0.11458223 -27.84623 -0.11164051 -27.8298 -26.955252 -110.00053
138871000 -26.277 -114.53104 -0.11540463 -28.043047 -0.11211595 -28.029537 -26.865154 -110.18146
139870000 -26.179279 -114.82143 -0.11586401 -28.246574 -0.11315974 -28.220949 -26.772476 -110.37072
140869000 -26.095045 -115.31129 -0.1176661 -28.442509 -0.11442143 -28.420406 -26.663851 -110.51397
141868000 -26.001915 -115.81698 -0.11835396 -28.63228 -0.11535465 -28.617302 -26.600227 -110.91097
142867000 -25.924131 -116.12016 -0.11655184 -28.828558 -0.11423539 -28.81509 -26.519047 -111.14076
143866000 -25.857885 -116.62724 -0.11835103 -29.026897 -0.11504896 -29.01125 -26.451109 -111.66682
144865000 -25.805714 -117.15479 -0.11946602 -29.223286 -0.11617082 -29.209362 -26.392986 -112.00031
145864000 -25.743366 -117.49782 -0.11987181 -29.425959 -0.11791001 -29.413059 -26.353893 -112.27135
146863000 -25.701357 -117.918 -0.12030931 -29.624502 -0.11857369 -29.611019 -26.309937 -112.60998
147862000 -25.662422 -118.28493 -0.12155924 -29.819397 -0.11850452 -29.807608 -26.277763 -112.96591
148861000 -25.636471 -118.79353 -0.1219181 -30.020557 -0.11989523 -30.004236 -26.251524 -113.19329
149860000 -25.620001 -119.01225 -0.12296931 -30.215075 -0.11925024 -30.202728 -26.221725 -113.41754
150859000 -25.603619 -119.41651 -0.12337702 -30.420321 -0.12000088 -30.405611 -26.226843 -113.64249
151858000 -25.586933 -119.71104 -0.12316477 -30.619711 -0.12050598 -30.600092 -26.212826 -113.9245
152857000 -25.568798 -120.07549 -0.12357304 -30.813112 -0.1208959 -30.80084 -26.195524 -114.11936
153856000 -25.557827 -120.26906 -0.12286439 -31.012262 -0.11995218 -30.998632 -26.218237 -114.39248
154855000 -25.552622 -120.44604 -0.12347715 -31.21627 -0.1207016 -31.200377 -26.207321 -114.61961
155854000 -25.568872 -120.71772 -0.12412624 -31.411043 -0.12168542 -31.400295 -26.20182 -114.897
156853000 -25.558954 -121.40095 -0.12205042 -31.596479 -0.12051158 -31.592159 -26.199081 -115.21409
157852000 -25.557219 -121.63238 -0.12302975 -31.80035 -0.12233876 -31.786892 -26.188589 -115.54097
158851000 -25.553453 -121.83826 -0.12345452 -31.999067 -0.12272991 -31.988932 -26.177423 -115.82351
159850000 -25.533558 -121.99516 -0.12463556 -32.195946 -0.12274988 -32.188511 -26.174749 -116.00276
160849000 -25.513704 -122.10905 -0.12515932 -32.394852 -0.12394458 -32.391319 -26.145555 -116.27366
161848000 -25.495203 -122.21509 -0.12514228 -32.597797 -0.12331817 -32.589947 -26.102379 -116.36934
162847000 -25.454069 -122.41669 -0.12524991 -32.794476 -0.12434466 -32.789875 -26.074953 -116.59742
163846000 -25.40955 -122.65644 -0.12569009 -32.995667 -0.12406018 -32.98341 -25.989918 -116.63754
164845000 -25.346916 -122.66477 -0.12635309 -33.197155 -0.12436011 -33.187958 -25.928566 -116.76618
165844000 -25.294285 -122.76051 -0.12656043 -33.394142 -0.12481245 -33.385406 -25.844238 -116.90702
166843000 -25.22422 -122.84871 -0.12591445 -33.592464 -0.12462677 -33.58506 -25.767059 -117.08973
167842000 -25.163311 -123.00974 -0.12634456 -33.790966 -0.12517585 -33.783615 -25.686037 -117.02842
168841000 -25.089733 -123.1983 -0.12680669 -33.990555 -0.12518437 -33.983387 -25.609591 -117.10854
169840000 -25.021767 -123.50452 -0.127005 -34.181076 -0.12603997 -34.178917 -25.517382 -117.39646
170839000 -24.962816 -123.79469 -0.12784362 -34.379658 -0.12624222 -34.376644 -25.430666 -117.5799
171838000 -24.907953 -124.20616 -0.12816834 -34.579819 -0.1272385 -34.57531 -25.364504 -117.83071
172837000 -24.840216 -124.59015 -0.12957522 -34.777466 -0.12805903 -34.771694 -25.294464 -118.06153
173836000 -24.772995 -125.03881 -0.13109674 -34.973335 -0.12868133 -34.973179 -25.255354 -118.3087
174835000 -24.723457 -125.47865 -0.13099776 -35.173332 -0.12971364 -35.171001 -25.209883 -118.67503
175834000 -24.673353 -125.88222 -0.131791 -35.371658 -0.1304162 -35.368526 -25.144279 -118.99714
176833000 -24.618845 -126.25251 -0.13289182 -35.568779 -0.13129044 -35.566086 -25.092119 -119.19646
177832000 -24.575056 -126.77864 -0.13310295 -35.761734 -0.13169013 -35.763313 -25.071747 -119.36266
178831000 -24.533768 -127.16799 -0.13331328 -35.963348 -0.13163063 -35.955997 -25.029697 -119.59896
179830000 -24.503408 -127.59784 -0.13465615 -36.159111 -0.13262761 -36.159229 -25.008646 -119.73869
180829000 -24.461044 -127.83139 -0.13457178 -36.357323 -0.13358076 -36.354107 -24.976295 -119.93099
181828000 -24.436403 -128.21654 -0.13459153 -36.55225 -0.13309708 -36.551434 -24.955124 -120.04418
182827000 -24.410112 -128.57793 -0.13482329 -36.747646 -0.13333999 -36.74979 -24.941917 -120.16611
183826000 -24.368946 -128.90157 -0.13569121 -36.945534 -0.13352257 -36.942139 -24.938614 -120.30293
184825000 -24.373554 -129.21684 -0.13600396 -37.139839 -0.13386454 -37.139153 -24.922352 -120.41838
185824000 -24.345701 -129.56573 -0.13577187 -37.33672 -0.13510208 -37.338551 -24.911764 -120.44648
186823000 -24.331303 -129.94502 -0.136024 -37.539722 -0.13473359 -37.533043 -24.913956 -120.44212
187822000 -24.310455 -130.28363 -0.13651654 -37.732079 -0.13535364 -37.732494 -24.875013 -120.49509
188821000 -24.291471 -130.48587 -0.13618265 -37.927063 -0.13569014 -37.9296 -24.859722 -120.6337
189820000 -24.273853 -130.757 -0.13698031 -38.127945 -0.1360459 -38.129173 -24.848326 -120.7754
190819000 -24.244846 -131.02505 -0.13842078 -38.328426 -0.13738586 -38.324467 -24.815248 -120.74945
191818000 -24.213522 -131.20442 -0.13902238 -38.523205 -0.1384932 -38.520718 -24.781479 -120.63424
192817000 -24.136906 -131.49049 -0.14037743 -38.70723 -0.13914266 -38.710949 -24.706236 -120.69719
193816000 -24.101456 -131.84647 -0.13937414 -38.900806 -0.13767336 -38.899387 -24.648018 -120.98344
194815000 -24.043072 -132.28595 -0.13939284 -39.097172 -0.13772064 -39.099869 -24.588129 -121.09232
195814000 -23.988178 -132.51707 -0.13939257 -39.296921 -0.13853836 -39.297688 -24.529724 -121.20754
196813000 -23.936733 -132.8748 -0.13876286 -39.489128 -0.13762526 -39.492386 -24.450893 -121.4228
197812000 -23.879206 -133.13136 -0.13960375 -39.688774 -0.13870914 -39.687817 -24.378695 -121.51598
198811000 -23.82609 -133.30864 -0.1392453 -39.885056 -0.13877702 -39.886921 -24.307957 -121.72908
199810000 -23.757359 -133.6852 -0.13954173 -40.079044 -0.13790396 -40.079552 -24.2299 -121.82843
200809000 -23.702669 -133.9928 -0.14028439 -40.28038 -0.13895716 -40.27639 -24.150232 -122.05935
201808000 -23.637306 -134.23285 -0.14072315 -40.47757 -0.13975532 -40.478569 -24.077711 -122.13789
202807000 -23.583286 -134.58368 -0.14192574 -40.676765 -0.14071353 -40.679371 -24.020113 -122.38187
203806000 -23.534258 -135.06682 -0.1434845 -40.878265 -0.14110446 -40.883442 -23.953896 -122.55743
204805000 -23.483452 -135.41426 -0.14432096 -41.080139 -0.14247701 -41.076862 -23.897293 -122.74484
