!Keysight Technologies,E5080B,MY59205177,A.15.75.32
!Date: Friday, February 23, 2024 02:50:07
!Correction: S11(Cdelta 2-Port  ) 
!S21(Cdelta 2-Port  ) 
!S12(Cdelta 2-Port  ) 
!S22(Cdelta 2-Port  ) 
!S2P File: Measurements: S11, S21, S12, S22:
# Hz S  dB   R 50
10000000 -42.10503 -3.7502213 -0.042173546 -2.0499649 -0.045440003 -2.1072896 -51.831661 -133.23959
10999000 -41.595284 -4.8068433 -0.044005461 -2.2656028 -0.045117486 -2.3212702 -51.136948 -123.39839
11998000 -40.934582 -6.9133158 -0.044129673 -2.4915137 -0.045068312 -2.534102 -50.817265 -115.86718
12997000 -40.426407 -10.567535 -0.042908624 -2.6693656 -0.044877902 -2.7056127 -49.526989 -109.29299
13996000 -40.232254 -13.522998 -0.042608775 -2.8478622 -0.045006845 -2.8704906 -48.676449 -104.29032
14995000 -39.992264 -16.840395 -0.044751052 -3.0614705 -0.044957411 -3.0827491 -48.054829 -100.96836
15994000 -39.910076 -19.953957 -0.046080142 -3.2773173 -0.047172811 -3.2999551 -47.585087 -97.841812
16993000 -39.923908 -23.199263 -0.04510833 -3.4726102 -0.04687345 -3.4824202 -46.584446 -101.0504
17992000 -40.035004 -27.140238 -0.045954566 -3.6732652 -0.046588764 -3.6746588 -46.006893 -103.32227
18991000 -40.319862 -30.82403 -0.046536695 -3.8842719 -0.048056353 -3.8829095 -45.199421 -104.46095
19990000 -40.288277 -34.806736 -0.048317056 -4.0953383 -0.049883161 -4.0854511 -44.565765 -107.58868
20989000 -40.244205 -37.660042 -0.051087312 -4.2957201 -0.051811066 -4.2857437 -43.892616 -107.96739
21988000 -40.237846 -41.539299 -0.051921092 -4.4919996 -0.052760798 -4.4836993 -43.648769 -107.83068
22987000 -40.082672 -45.548004 -0.053491645 -4.6907153 -0.053219888 -4.6853395 -43.300419 -108.0573
23986000 -40.191681 -48.913532 -0.052577909 -4.8886819 -0.052285776 -4.8866634 -43.162659 -108.37825
24985000 -39.97049 -51.803383 -0.053907301 -5.0950942 -0.053294312 -5.0901818 -42.855633 -106.16614
25984000 -39.821957 -53.533806 -0.053766824 -5.3050041 -0.053210717 -5.3052626 -42.35841 -105.15965
26983000 -39.55101 -55.631481 -0.054710694 -5.5019178 -0.05384938 -5.5200939 -42.270576 -104.02057
27982000 -39.461475 -56.512012 -0.056896977 -5.7030387 -0.055906747 -5.7338395 -41.871819 -102.97581
28981000 -39.49799 -58.028282 -0.055017669 -5.8966746 -0.055979904 -5.9263115 -41.557728 -102.73536
29980000 -39.163483 -59.815647 -0.055096317 -6.0906391 -0.056476574 -6.0991569 -41.230907 -102.40211
30979000 -38.825516 -59.302776 -0.052029029 -6.451426 -0.05092283 -6.4354105 -40.675266 -103.71812
31978000 -38.664516 -60.718723 -0.052018024 -6.6398735 -0.052328482 -6.6311703 -40.408134 -103.37762
32977000 -38.542183 -62.131157 -0.05160176 -6.8526411 -0.052998196 -6.8512225 -40.156586 -104.06907
33976000 -38.394501 -63.402687 -0.05211129 -7.0530801 -0.052918278 -7.0497899 -39.79858 -103.66277
34975000 -38.16581 -64.499176 -0.052547514 -7.2536106 -0.05412668 -7.2533321 -39.550522 -103.71217
35974000 -37.999577 -65.38903 -0.05158709 -7.4483972 -0.053917002 -7.4497051 -39.215618 -103.14742
36973000 -37.803123 -66.273697 -0.052238617 -7.6488986 -0.054794315 -7.6549015 -38.898117 -102.49981
37972000 -37.630802 -66.342262 -0.051485717 -7.8589611 -0.054683167 -7.8706703 -38.61845 -102.2356
38971000 -37.312748 -66.22625 -0.053096987 -8.0621729 -0.055006661 -8.0687914 -38.383675 -100.61665
39970000 -37.017044 -67.048126 -0.050908163 -8.2564468 -0.053586252 -8.2666693 -38.116177 -100.40755
40969000 -36.743122 -67.211082 -0.051023144 -8.4505787 -0.053666707 -8.4707937 -37.78381 -99.199188
41968000 -36.432529 -67.55793 -0.050857875 -8.656127 -0.054423917 -8.6685343 -37.539612 -98.026619
42967000 -36.166107 -67.900459 -0.051980823 -8.8650846 -0.054008473 -8.8819904 -37.290646 -96.485947
43966000 -35.934589 -68.997231 -0.052475203 -9.0649347 -0.054772034 -9.0796852 -36.962097 -96.044029
44965000 -35.710785 -69.930725 -0.053839158 -9.2681503 -0.055926673 -9.2886114 -36.737202 -96.077919
45964000 -35.527885 -71.146271 -0.054814503 -9.4727087 -0.057235584 -9.4909916 -36.495884 -96.032677
46963000 -35.394855 -73.266068 -0.054720916 -9.6626539 -0.057086606 -9.683156 -36.32246 -96.538002
47962000 -35.257702 -74.670082 -0.056649923 -9.8675156 -0.058966544 -9.8835773 -36.101627 -96.742462
48961000 -35.094021 -76.283379 -0.058196474 -10.064534 -0.060138572 -10.083334 -35.880867 -97.411331
49960000 -34.913197 -77.719688 -0.059587948 -10.26369 -0.061863076 -10.28422 -35.735565 -97.69207
50959000 -34.732487 -79.191635 -0.060233064 -10.476442 -0.06294895 -10.484441 -35.587631 -98.087318
51958000 -34.551041 -80.411003 -0.062586263 -10.675542 -0.064464904 -10.678822 -35.400181 -98.829773
52957000 -34.370552 -81.576355 -0.064067416 -10.875694 -0.065298103 -10.880259 -35.240593 -98.864372
53956000 -34.215847 -82.482407 -0.065110482 -11.074851 -0.066519685 -11.077353 -35.097847 -98.919357
54955000 -34.077671 -83.042824 -0.065716736 -11.274564 -0.066731811 -11.27111 -34.938812 -99.020859
55954000 -33.932095 -83.952744 -0.067545995 -11.480296 -0.067376673 -11.46921 -34.823746 -98.82225
56953000 -33.81673 -84.161507 -0.066557795 -11.675845 -0.066511795 -11.665471 -34.769264 -99.210182
57952000 -33.67189 -84.914879 -0.067636959 -11.870311 -0.068256974 -11.86355 -34.6539 -99.369736
58951000 -33.554379 -85.217453 -0.069200322 -12.079872 -0.068400823 -12.054311 -34.498787 -99.581177
59950000 -33.42897 -85.824722 -0.069787152 -12.279249 -0.069001742 -12.260897 -34.440174 -99.812126
60949000 -33.33036 -86.338554 -0.070488505 -12.48033 -0.069071971 -12.455199 -34.353291 -100.22439
61948000 -33.286442 -86.786926 -0.070550859 -12.679761 -0.06955646 -12.660222 -34.246426 -100.39519
62947000 -33.200249 -87.023308 -0.070875533 -12.889112 -0.070474297 -12.868952 -34.118263 -100.74989
63946000 -33.127327 -87.722542 -0.071596809 -13.087554 -0.071678124 -13.067453 -34.018688 -100.93936
64945000 -33.026096 -87.919075 -0.071989991 -13.290097 -0.072098687 -13.271684 -33.904308 -101.54965
65944000 -32.932293 -88.326553 -0.073028386 -13.488576 -0.072199225 -13.471593 -33.824039 -102.07777
66943000 -32.801075 -88.809471 -0.071035251 -13.689804 -0.070675574 -13.672836 -33.724041 -102.32745
67942000 -32.737667 -88.735008 -0.072685905 -13.888464 -0.072870702 -13.874187 -33.594784 -102.77769
68941000 -32.621685 -88.904533 -0.072459802 -14.080567 -0.072422422 -14.069086 -33.492321 -102.73905
69940000 -32.524033 -89.004646 -0.07301417 -14.277143 -0.07269828 -14.269383 -33.351295 -103.15359
70939000 -32.426125 -89.021896 -0.073391415 -14.474182 -0.072675645 -14.470205 -33.205307 -103.08002
71938000 -32.266983 -88.686172 -0.073014431 -14.672126 -0.072250552 -14.660492 -33.066196 -102.97208
72937000 -32.108612 -88.646851 -0.071860239 -14.870152 -0.071971826 -14.864527 -32.924942 -102.80751
73936000 -31.97224 -88.344849 -0.072316088 -15.070538 -0.071386017 -15.065456 -32.812069 -102.63766
74935000 -31.842209 -88.622009 -0.07130444 -15.266094 -0.070874222 -15.262099 -32.654156 -102.43606
75934000 -31.72262 -88.989349 -0.0723074 -15.474 -0.071680494 -15.468074 -32.559834 -102.27567
76933000 -31.589424 -89.374496 -0.073529378 -15.666637 -0.072947301 -15.660306 -32.383934 -102.79706
77932000 -31.511383 -90.270485 -0.074258193 -15.864986 -0.074420929 -15.862961 -32.274864 -102.8409
78931000 -31.442259 -91.073364 -0.072980471 -16.064659 -0.073671281 -16.056225 -32.189354 -102.74348
79930000 -31.338182 -91.887535 -0.075592928 -16.252949 -0.07640323 -16.253347 -32.094765 -103.12125
80929000 -31.230585 -92.889709 -0.077137016 -16.449869 -0.077621348 -16.448069 -31.981806 -103.50329
81928000 -31.159027 -93.720268 -0.077282466 -16.643543 -0.077981345 -16.639812 -31.855455 -103.68725
82927000 -31.069263 -94.532074 -0.079070732 -16.842958 -0.07957717 -16.840767 -31.749067 -104.10522
83926000 -30.96686 -95.290627 -0.080951512 -17.041145 -0.081070453 -17.041231 -31.644939 -104.3513
84925000 -30.856047 -95.834862 -0.081532285 -17.241785 -0.080531672 -17.234772 -31.543922 -104.49987
85924000 -30.778683 -96.298134 -0.082290679 -17.439322 -0.082222611 -17.434687 -31.468798 -104.52319
86923000 -30.675735 -96.899048 -0.08312387 -17.635563 -0.082345285 -17.631638 -31.354702 -104.53042
87922000 -30.576982 -97.334221 -0.082898542 -17.844379 -0.081905 -17.837078 -31.277864 -104.57549
88921000 -30.515001 -97.685356 -0.083433919 -18.044529 -0.083432339 -18.037502 -31.173904 -104.63748
89920000 -30.417482 -98.290985 -0.084606498 -18.243872 -0.083134957 -18.232639 -31.125593 -104.86729
90919000 -30.324537 -98.657951 -0.085587986 -18.436369 -0.084128246 -18.432364 -31.037846 -105.09278
91918000 -30.223677 -99.058907 -0.085991941 -18.638039 -0.085007198 -18.629644 -30.972219 -105.18298
92917000 -30.139013 -99.427338 -0.086876817 -18.836149 -0.085919335 -18.83218 -30.904985 -105.29147
93916000 -30.059496 -99.879555 -0.086734213 -19.025511 -0.08589267 -19.025455 -30.81864 -105.96378
94915000 -29.990278 -100.53839 -0.088611178 -19.230974 -0.086750321 -19.220459 -30.753942 -105.90823
95914000 -29.917019 -100.82213 -0.089164704 -19.427935 -0.088534832 -19.418837 -30.669836 -106.19776
96913000 -29.837313 -101.04817 -0.090338834 -19.623606 -0.089278586 -19.621716 -30.598753 -106.56197
97912000 -29.777395 -101.5505 -0.09161216 -19.821394 -0.089396179 -19.81983 -30.526117 -106.81657
98911000 -29.673504 -101.74182 -0.092153639 -20.020887 -0.090621643 -20.020979 -30.485655 -107.02414
99910000 -29.605503 -101.91344 -0.092874222 -20.220943 -0.090521738 -20.220781 -30.363684 -107.39194
100909000 -29.506428 -102.25206 -0.091981776 -20.428295 -0.089886375 -20.421877 -30.282583 -107.577
101908000 -29.425638 -102.48323 -0.093207709 -20.628536 -0.091386646 -20.625019 -30.167948 -107.35454
102907000 -29.285089 -102.53913 -0.093471132 -20.829403 -0.091721609 -20.830601 -30.085896 -107.39191
103906000 -29.198315 -102.6248 -0.094295636 -21.035761 -0.091131546 -21.029121 -29.932945 -107.36414
104905000 -29.04842 -102.62591 -0.094431341 -21.233814 -0.09161903 -21.234735 -29.803017 -107.07374
105904000 -28.902958 -102.75882 -0.094663627 -21.432589 -0.092389233 -21.426294 -29.680353 -106.99195
106903000 -28.791569 -102.91772 -0.094263889 -21.640617 -0.091770262 -21.630707 -29.543371 -106.89565
107902000 -28.632526 -103.32912 -0.095782608 -21.838423 -0.092745431 -21.831488 -29.397444 -106.91264
108901000 -28.522402 -103.60149 -0.096498236 -22.042635 -0.093667917 -22.030062 -29.264229 -106.87515
109900000 -28.401974 -104.14688 -0.097919777 -22.24534 -0.095329851 -22.231274 -29.11096 -107.02123
110899000 -28.286497 -104.77715 -0.098912485 -22.43692 -0.095973678 -22.428968 -28.985683 -107.33746
111898000 -28.202267 -105.46315 -0.09975709 -22.638609 -0.096840471 -22.634144 -28.872461 -107.53428
112897000 -28.075888 -106.08907 -0.10197174 -22.838093 -0.098165222 -22.827053 -28.733418 -107.79097
113896000 -27.982021 -106.7297 -0.10230911 -23.041048 -0.099745169 -23.028379 -28.626236 -108.01057
114895000 -27.876867 -107.43155 -0.10330866 -23.238729 -0.10183446 -23.223545 -28.510307 -108.1662
115894000 -27.754187 -107.78549 -0.10463007 -23.439064 -0.10237537 -23.422226 -28.437996 -108.29229
116893000 -27.677345 -108.44257 -0.10490294 -23.63736 -0.1027239 -23.617588 -28.310204 -108.52089
117892000 -27.595251 -108.93565 -0.10532407 -23.82935 -0.10272814 -23.819298 -28.235949 -108.80005
118891000 -27.546324 -109.39371 -0.10596807 -24.030499 -0.10357773 -24.016954 -28.138483 -108.94165
119890000 -27.45027 -109.81673 -0.1067838 -24.226967 -0.1043063 -24.218544 -28.132084 -109.11899
120889000 -27.400835 -110.30938 -0.10781064 -24.433844 -0.10485229 -24.419111 -28.048206 -109.10065
121888000 -27.361139 -110.66921 -0.10818589 -24.62813 -0.10553572 -24.613165 -27.989935 -109.43123
122887000 -27.318354 -110.895 -0.10928049 -24.829182 -0.10588982 -24.81802 -27.93862 -109.48131
123886000 -27.26643 -111.34612 -0.11036793 -25.033314 -0.10639726 -25.011835 -27.924496 -109.64362
124885000 -27.234007 -111.85736 -0.11016507 -25.228483 -0.10747974 -25.220888 -27.899117 -109.73154
125884000 -27.175507 -112.04346 -0.11052991 -25.430447 -0.10749991 -25.416723 -27.866335 -109.92867
126883000 -27.158344 -112.48299 -0.11180943 -25.633657 -0.10870608 -25.620453 -27.825968 -110.0066
127882000 -27.103336 -112.71985 -0.11217386 -25.83069 -0.1087366 -25.816071 -27.785524 -110.18204
128881000 -27.074181 -113.09364 -0.11185352 -26.034714 -0.10924545 -26.018286 -27.738537 -110.27341
129880000 -27.020531 -113.46765 -0.11224558 -26.237595 -0.10917298 -26.215458 -27.696802 -110.31144
130879000 -26.954226 -113.58189 -0.11247457 -26.435541 -0.11027341 -26.418192 -27.612204 -110.32996
131878000 -26.891518 -113.81232 -0.11288077 -26.636534 -0.11004029 -26.616182 -27.548517 -110.26717
132877000 -26.816412 -113.89532 -0.11289219 -26.840418 -0.1103451 -26.819181 -27.460102 -110.27523
133876000 -26.733637 -114.11117 -0.11325751 -27.04155 -0.11015473 -27.017948 -27.364912 -110.20091
134875000 -26.634935 -114.22742 -0.1133327 -27.23671 -0.11091787 -27.219885 -27.251915 -110.06863
135874000 -26.543335 -114.28773 -0.11291424 -27.438478 -0.11081111 -27.421227 -27.147413 -110.05936
136873000 -26.438274 -114.21086 -0.11459976 -27.637245 -0.11072268 -27.626009 -27.061609 -110.06745
137872000 -26.352787 -114.38457 -0.11382588 -27.842859 -0.11090963 -27.830397 -26.953428 -110.02283
138871000 -26.281525 -114.58632 -0.1146609 -28.041172 -0.11125141 -28.025181 -26.854792 -110.22593
139870000 -26.181841 -114.86465 -0.11560055 -28.243294 -0.11266743 -28.226267 -26.774492 -110.40907
140869000 -26.096607 -115.35064 -0.11725626 -28.437815 -0.11399382 -28.417191 -26.666162 -110.55804
141868000 -26.00703 -115.8648 -0.11746344 -28.631897 -0.11499952 -28.618196 -26.592943 -110.92414
142867000 -25.924654 -116.15404 -0.11599481 -28.830942 -0.11382907 -28.810383 -26.514719 -111.15408
143866000 -25.859917 -116.64641 -0.11787755 -29.024483 -0.115201 -29.009073 -26.446766 -111.71645
144865000 -25.806408 -117.20831 -0.11911269 -29.22411 -0.11624128 -29.21011 -26.38924 -112.01867
145864000 -25.749256 -117.52223 -0.11932155 -29.422291 -0.11771212 -29.412216 -26.359972 -112.28217
146863000 -25.704336 -117.9164 -0.12032741 -29.622694 -0.11772276 -29.609724 -26.305605 -112.65769
147862000 -25.662912 -118.33497 -0.1211131 -29.821426 -0.11835714 -29.808619 -26.271273 -113.01797
148861000 -25.634809 -118.83112 -0.12192716 -30.017651 -0.11852288 -30.002007 -26.259111 -113.24265
149860000 -25.621183 -119.03892 -0.12241225 -30.21496 -0.11959082 -30.208616 -26.223642 -113.44028
150859000 -25.605583 -119.45898 -0.12309153 -30.417871 -0.12040565 -30.403221 -26.213779 -113.71227
151858000 -25.588198 -119.75996 -0.1228303 -30.617313 -0.12020525 -30.598858 -26.209684 -114.02654
152857000 -25.570349 -120.12108 -0.12348515 -30.812729 -0.12044398 -30.801285 -26.194771 -114.18245
153856000 -25.560919 -120.33057 -0.12329899 -31.012403 -0.11981114 -30.999163 -26.212349 -114.46674
154855000 -25.554255 -120.50912 -0.12358262 -31.209795 -0.12049028 -31.201534 -26.203743 -114.6909
155854000 -25.565632 -120.74335 -0.1236255 -31.411566 -0.1216391 -31.397608 -26.194235 -114.9752
156853000 -25.552193 -121.45927 -0.12182599 -31.600031 -0.11972386 -31.590212 -26.193968 -115.26655
157852000 -25.555595 -121.66956 -0.1231605 -31.801689 -0.12158266 -31.787397 -26.183443 -115.61267
158851000 -25.55505 -121.91428 -0.12399572 -31.996407 -0.12212683 -31.987877 -26.166283 -115.88435
159850000 -25.536339 -122.03935 -0.12424584 -32.196285 -0.12231267 -32.187164 -26.167768 -116.03086
160849000 -25.515915 -122.13309 -0.12465501 -32.394161 -0.12343214 -32.38916 -26.143318 -116.32345
161848000 -25.494251 -122.24835 -0.12524165 -32.595196 -0.12272193 -32.588905 -26.098083 -116.43294
162847000 -25.447882 -122.4767 -0.12485507 -32.791611 -0.1235946 -32.787598 -26.067766 -116.68306
163846000 -25.410118 -122.71182 -0.12566796 -32.990772 -0.12353522 -32.985146 -25.984547 -116.69027
164845000 -25.346746 -122.69994 -0.12606314 -33.193062 -0.12396643 -33.185883 -25.916716 -116.79736
165844000 -25.286301 -122.80654 -0.12570207 -33.39053 -0.12485588 -33.382744 -25.83493 -116.96928
166843000 -25.227016 -122.91854 -0.12525843 -33.58688 -0.12472986 -33.58654 -25.759399 -117.14631
167842000 -25.166973 -123.03957 -0.12616122 -33.790806 -0.12490836 -33.784218 -25.679918 -117.10168
168841000 -25.087318 -123.26669 -0.12631097 -33.988754 -0.12501065 -33.980736 -25.596596 -117.18631
169840000 -25.023737 -123.52577 -0.12612177 -34.181454 -0.12590592 -34.178768 -25.510857 -117.38829
170839000 -24.968729 -123.84733 -0.1275008 -34.380791 -0.12620838 -34.379833 -25.426687 -117.5938
171838000 -24.910013 -124.24837 -0.12753439 -34.582474 -0.1273995 -34.571907 -25.358715 -117.85866
172837000 -24.841995 -124.62566 -0.12885199 -34.776241 -0.12781456 -34.770573 -25.285957 -118.10336
173836000 -24.772661 -125.07471 -0.13011932 -34.973801 -0.12920666 -34.972927 -25.248896 -118.33721
174835000 -24.719444 -125.53401 -0.13029377 -35.168884 -0.12970804 -35.172283 -25.198271 -118.73008
175834000 -24.670622 -125.96817 -0.13148548 -35.370899 -0.13060267 -35.36327 -25.140743 -119.0118
176833000 -24.618252 -126.29585 -0.13253553 -35.564777 -0.13134754 -35.564026 -25.087984 -119.21784
177832000 -24.572529 -126.8281 -0.13311523 -35.764103 -0.13105619 -35.762497 -25.063257 -119.40982
178831000 -24.534773 -127.22179 -0.13347104 -35.961082 -0.13259344 -35.956146 -25.028328 -119.62697
179830000 -24.499792 -127.64737 -0.13375321 -36.154987 -0.13239035 -36.155544 -25.000908 -119.77467
180829000 -24.462921 -127.85548 -0.13461716 -36.348877 -0.13292359 -36.353378 -24.967707 -120.00571
181828000 -24.433491 -128.25455 -0.13438621 -36.55233 -0.13329193 -36.548077 -24.952974 -120.11871
182827000 -24.41338 -128.61311 -0.13485588 -36.744312 -0.1336208 -36.748703 -24.939907 -120.20061
183826000 -24.364916 -128.93573 -0.13539262 -36.946125 -0.13355193 -36.9454 -24.926497 -120.34076
184825000 -24.378096 -129.26114 -0.13498671 -37.144535 -0.13419211 -37.138824 -24.912733 -120.4278
185824000 -24.348488 -129.62885 -0.13514106 -37.331318 -0.13472557 -37.336357 -24.90871 -120.49763
186823000 -24.330297 -130.00259 -0.13533068 -37.536564 -0.13538782 -37.528954 -24.905605 -120.50426
187822000 -24.312902 -130.33829 -0.13605124 -37.729424 -0.13626064 -37.729412 -24.86916 -120.55495
188821000 -24.292618 -130.55537 -0.13567999 -37.92416 -0.13616395 -37.931004 -24.851934 -120.66143
189820000 -24.275938 -130.79956 -0.13626546 -38.127674 -0.13593265 -38.126801 -24.841381 -120.81968
190819000 -24.248384 -131.05202 -0.13788979 -38.326748 -0.13683471 -38.325783 -24.807552 -120.77701
191818000 -24.213902 -131.22614 -0.13905926 -38.518902 -0.13857925 -38.522324 -24.774014 -120.65214
192817000 -24.134556 -131.5334 -0.13952836 -38.706535 -0.13890451 -38.707287 -24.700687 -120.77696
193816000 -24.099199 -131.88438 -0.13893792 -38.900162 -0.13702759 -38.89616 -24.645145 -121.04687
194815000 -24.043859 -132.32352 -0.13877141 -39.093853 -0.13797103 -39.100697 -24.577221 -121.1515
195814000 -23.99568 -132.58105 -0.13905767 -39.292683 -0.13813937 -39.295971 -24.528406 -121.27264
196813000 -23.939663 -132.93225 -0.13878076 -39.48962 -0.13789888 -39.490124 -24.446575 -121.44548
197812000 -23.880442 -133.16199 -0.13844429 -39.685814 -0.13820325 -39.686562 -24.376486 -121.5547
198811000 -23.831049 -133.37181 -0.13880749 -39.881828 -0.13771798 -39.886242 -24.297701 -121.74788
199810000 -23.758455 -133.75597 -0.1390042 -40.079296 -0.13786307 -40.075146 -24.221304 -121.87374
200809000 -23.701502 -134.0334 -0.13977404 -40.275459 -0.13822542 -40.272785 -24.137789 -122.08749
201808000 -23.643654 -134.27042 -0.14014563 -40.478188 -0.13960429 -40.478168 -24.072273 -122.17028
202807000 -23.585789 -134.62036 -0.14083545 -40.674442 -0.14083251 -40.676655 -24.015448 -122.38158
203806000 -23.53474 -135.10521 -0.14267522 -40.876415 -0.14052716 -40.877445 -23.952122 -122.59647
