!Keysight Technologies,E5080B,MY59205177,A.15.75.32
!Date: Friday, February 23, 2024 03:28:23
!Correction: S11(Cdelta 2-Port  ) 
!S21(Cdelta 2-Port  ) 
!S12(Cdelta 2-Port  ) 
!S22(Cdelta 2-Port  ) 
!S2P File: Measurements: S11, S21, S12, S22:
# Hz S  dB   R 50
10000000 -45.972878 -1.2109215 -0.015795054 -2.0559919 -0.019284049 -2.1095283 -46.118977 -158.88759
10999000 -45.220348 -3.2603629 -0.016727848 -2.2715714 -0.019280409 -2.3249638 -46.029381 -152.47124
11998000 -44.276958 -6.4190407 -0.017412629 -2.4978225 -0.018781736 -2.542201 -46.283531 -148.38327
12997000 -43.485462 -12.145113 -0.016650669 -2.6805298 -0.01846041 -2.7100279 -45.865337 -142.15184
13996000 -43.228973 -15.676341 -0.016207902 -2.861685 -0.01886077 -2.8838353 -45.701191 -136.9473
14995000 -42.824207 -20.12027 -0.018235289 -3.0681536 -0.018806955 -3.0931995 -45.363544 -133.20108
15994000 -42.713852 -24.210821 -0.018968927 -3.2903059 -0.021198418 -3.3124762 -45.335423 -130.17378
16993000 -42.683582 -28.962564 -0.018644989 -3.4864252 -0.020627737 -3.4937067 -44.45916 -129.34186
17992000 -42.707092 -34.267632 -0.018930187 -3.6878591 -0.020976795 -3.6880329 -43.878483 -129.65253
18991000 -42.979336 -39.246471 -0.019921646 -3.899451 -0.022528127 -3.896553 -43.246189 -128.42012
19990000 -42.809307 -45.214291 -0.022273913 -4.1074438 -0.024613397 -4.1026878 -42.572369 -129.21727
20989000 -42.665779 -48.294716 -0.023994895 -4.3135071 -0.026093109 -4.3029537 -42.039665 -128.38928
21988000 -42.511814 -53.714386 -0.024598818 -4.5101342 -0.026901787 -4.4946547 -41.791611 -127.60902
22987000 -42.19738 -58.561333 -0.026022797 -4.7081985 -0.027893243 -4.7035718 -41.525185 -127.3042
23986000 -42.148064 -62.819244 -0.025553033 -4.9056897 -0.027201597 -4.9042954 -41.403381 -127.4155
24985000 -41.775841 -65.590858 -0.026803331 -5.1149521 -0.027603025 -5.1116548 -41.187607 -124.52308
25984000 -41.440434 -67.611992 -0.028426575 -5.3205166 -0.027977133 -5.3196917 -40.867992 -123.02504
26983000 -41.101952 -69.616478 -0.028955804 -5.5224695 -0.029374855 -5.5388575 -40.781387 -122.21268
27982000 -40.969971 -70.229652 -0.030573335 -5.7216144 -0.030440647 -5.7538676 -40.465164 -120.68264
28981000 -40.869591 -72.066315 -0.027953165 -5.9195876 -0.029550774 -5.9478154 -40.291592 -119.99087
29980000 -40.525375 -73.461624 -0.028893523 -6.1154356 -0.030515462 -6.1206307 -40.013474 -119.09944
30979000 -40.135807 -72.270973 -0.025343426 -6.4661341 -0.025209596 -6.4609499 -39.519005 -119.42497
31978000 -39.943268 -73.339806 -0.025800928 -6.663846 -0.026313169 -6.6532168 -39.245811 -118.74844
32977000 -39.719231 -74.824394 -0.024515774 -6.8787899 -0.027072137 -6.8706379 -39.01907 -118.76023
33976000 -39.546722 -75.940216 -0.025925662 -7.0776711 -0.027274534 -7.0726194 -38.743229 -118.10263
34975000 -39.264267 -76.853233 -0.02625327 -7.277957 -0.028040703 -7.2769136 -38.50581 -117.80108
35974000 -39.062836 -77.54261 -0.02544185 -7.4671087 -0.02789194 -7.4747219 -38.236103 -116.84254
36973000 -38.828712 -78.172646 -0.025883477 -7.6751204 -0.028870853 -7.6778569 -37.937263 -116.00777
37972000 -38.669987 -77.860771 -0.024985686 -7.8837118 -0.028507611 -7.8937216 -37.749424 -115.08575
38971000 -38.34177 -77.333626 -0.026361872 -8.086235 -0.028618611 -8.0982523 -37.559811 -113.53631
39970000 -38.004883 -77.756767 -0.024853949 -8.2841558 -0.027859895 -8.3003798 -37.298649 -112.89558
40969000 -37.700718 -77.360008 -0.025434557 -8.4810495 -0.02850735 -8.4950676 -37.063129 -111.41913
41968000 -37.356613 -77.338417 -0.025648596 -8.6836205 -0.028265813 -8.6983166 -36.857986 -110.18193
42967000 -37.079617 -77.518784 -0.024952361 -8.8948669 -0.028560504 -8.9154444 -36.655334 -108.24453
43966000 -36.782642 -78.244965 -0.027090371 -9.0948715 -0.029625054 -9.1159477 -36.376801 -107.42795
44965000 -36.536228 -78.934906 -0.026777025 -9.2980919 -0.030718541 -9.3182125 -36.169399 -107.30083
45964000 -36.298134 -79.992493 -0.02833043 -9.4970541 -0.031403184 -9.5195503 -35.934769 -106.85202
46963000 -36.11076 -81.964973 -0.028593598 -9.695056 -0.032166954 -9.715147 -35.747814 -107.15778
47962000 -35.953815 -83.353226 -0.030073363 -9.8941708 -0.032959551 -9.9152184 -35.543262 -107.19491
48961000 -35.731937 -84.935066 -0.032096282 -10.096012 -0.034486465 -10.114719 -35.292091 -107.3772
49960000 -35.505436 -86.095619 -0.033900995 -10.292599 -0.035914473 -10.319427 -35.161301 -107.40569
50959000 -35.287621 -87.432045 -0.033724114 -10.507664 -0.037212666 -10.519651 -34.993523 -107.6637
51958000 -35.093273 -88.497093 -0.03655269 -10.708302 -0.038262364 -10.715698 -34.80917 -108.04431
52957000 -34.854679 -89.59314 -0.037556794 -10.910834 -0.039486811 -10.914681 -34.650562 -107.81927
53956000 -34.690788 -90.283623 -0.038545199 -11.109155 -0.040415298 -11.111975 -34.517418 -107.76431
54955000 -34.51223 -90.823318 -0.039704937 -11.314122 -0.041402005 -11.310323 -34.36245 -107.66518
55954000 -34.355682 -91.55378 -0.040876746 -11.513859 -0.04214558 -11.509733 -34.252121 -107.32809
56953000 -34.25161 -91.64489 -0.040800184 -11.711492 -0.040768303 -11.700631 -34.19244 -107.59386
57952000 -34.076309 -92.196541 -0.041723985 -11.911474 -0.041740716 -11.900353 -34.079258 -107.64394
58951000 -33.962997 -92.560043 -0.042431805 -12.117399 -0.043161698 -12.091051 -33.940857 -107.72849
59950000 -33.821758 -92.859474 -0.043481719 -12.319089 -0.043395698 -12.292588 -33.878609 -107.93747
60949000 -33.714191 -93.421249 -0.044088095 -12.517405 -0.04394532 -12.498189 -33.786217 -108.24982
61948000 -33.657169 -93.767982 -0.04476073 -12.716343 -0.043879945 -12.702632 -33.690842 -108.32066
62947000 -33.578598 -93.966957 -0.04478113 -12.927649 -0.044887576 -12.911098 -33.547913 -108.5955
63946000 -33.496914 -94.657791 -0.045906432 -13.128273 -0.045841552 -13.107748 -33.447472 -108.7078
64945000 -33.38868 -94.918625 -0.046328951 -13.330701 -0.046526752 -13.315684 -33.346378 -109.20092
65944000 -33.281582 -95.178505 -0.047176734 -13.529855 -0.047092471 -13.514457 -33.249069 -109.62492
66943000 -33.142502 -95.578903 -0.044759158 -13.734361 -0.045359176 -13.716887 -33.139069 -109.95817
67942000 -33.077091 -95.537804 -0.046934158 -13.931899 -0.046917934 -13.919249 -33.018963 -110.25655
68941000 -32.969147 -95.569534 -0.046354592 -14.124429 -0.046585623 -14.116403 -32.913555 -110.17351
69940000 -32.873882 -95.577339 -0.047007166 -14.325975 -0.047402315 -14.31346 -32.765709 -110.37162
70939000 -32.767967 -95.510658 -0.047272775 -14.52131 -0.046910871 -14.514423 -32.61459 -110.37155
71938000 -32.61475 -95.137703 -0.047353115 -14.716119 -0.046886794 -14.711044 -32.496178 -110.20584
72937000 -32.459492 -94.932419 -0.046256479 -14.91587 -0.046953522 -14.910932 -32.348186 -109.94693
73936000 -32.332855 -94.543503 -0.046389129 -15.11658 -0.045599833 -15.110826 -32.240036 -109.68934
74935000 -32.184486 -94.716316 -0.045898844 -15.312516 -0.045075376 -15.306712 -32.08186 -109.34563
75934000 -32.059875 -95.030357 -0.046520211 -15.520638 -0.046000872 -15.517994 -32.003525 -109.22584
76933000 -31.93491 -95.349319 -0.047219913 -15.714903 -0.046730842 -15.710294 -31.814722 -109.62537
77932000 -31.834377 -96.1278 -0.04831915 -15.911574 -0.048230939 -15.907089 -31.711288 -109.58983
78931000 -31.75828 -96.859718 -0.047328256 -16.11146 -0.047542851 -16.106989 -31.604061 -109.45139
79930000 -31.635139 -97.753448 -0.049272567 -16.305281 -0.050029799 -16.308878 -31.515469 -109.71472
80929000 -31.52652 -98.541855 -0.051577136 -16.503744 -0.051826786 -16.501291 -31.424557 -109.9826
81928000 -31.428246 -99.318726 -0.05175291 -16.695345 -0.052534416 -16.692577 -31.283297 -109.94037
82927000 -31.324493 -100.02012 -0.053196564 -16.895962 -0.053774685 -16.891829 -31.176085 -110.30389
83926000 -31.214449 -100.72899 -0.054598495 -17.09305 -0.054468744 -17.095316 -31.049925 -110.40771
84925000 -31.110199 -101.14381 -0.055720579 -17.293316 -0.055100251 -17.29224 -30.954475 -110.50134
85924000 -30.999809 -101.59095 -0.056867339 -17.492315 -0.056111541 -17.496008 -30.868818 -110.40915
86923000 -30.901165 -102.06802 -0.057249222 -17.690149 -0.056417305 -17.68845 -30.758951 -110.31961
87922000 -30.783674 -102.41994 -0.057101816 -17.898926 -0.05599511 -17.892103 -30.673222 -110.30713
88921000 -30.715422 -102.66488 -0.058514453 -18.098709 -0.057403192 -18.097595 -30.572973 -110.29061
89920000 -30.598515 -103.21378 -0.058311384 -18.296196 -0.058102291 -18.288464 -30.524666 -110.45999
90919000 -30.507591 -103.45375 -0.060727593 -18.496576 -0.058883626 -18.493694 -30.432013 -110.58247
91918000 -30.407852 -103.80266 -0.060769856 -18.696363 -0.059125036 -18.692541 -30.363853 -110.60011
92917000 -30.313499 -104.18579 -0.061895896 -18.893517 -0.060501322 -18.889889 -30.302534 -110.70053
93916000 -30.227104 -104.45965 -0.061238457 -19.086479 -0.060087916 -19.084309 -30.209581 -111.30464
94915000 -30.14609 -105.11629 -0.062516667 -19.289917 -0.061474223 -19.284904 -30.147152 -111.16928
95914000 -30.075062 -105.32487 -0.063848324 -19.485811 -0.062594138 -19.48041 -30.0632 -111.48972
96913000 -29.987835 -105.5329 -0.064476728 -19.68589 -0.06273412 -19.684868 -29.995075 -111.78923
97912000 -29.906706 -105.95894 -0.066026859 -19.88249 -0.063481614 -19.882483 -29.91077 -112.0116
98911000 -29.808527 -106.16178 -0.066343315 -20.082699 -0.06472528 -20.080709 -29.86808 -112.25488
99910000 -29.737291 -106.28548 -0.066762045 -20.283075 -0.064989083 -20.282814 -29.757393 -112.55716
100909000 -29.645052 -106.52464 -0.065844722 -20.495644 -0.064391077 -20.485083 -29.667212 -112.75228
101908000 -29.553009 -106.76397 -0.067484997 -20.693287 -0.065886252 -20.6896 -29.562054 -112.56268
102907000 -29.416668 -106.77137 -0.067997709 -20.891003 -0.066330962 -20.895073 -29.48781 -112.50033
103906000 -29.316692 -106.83473 -0.068151534 -21.099995 -0.065494671 -21.093809 -29.339149 -112.48244
104905000 -29.16884 -106.70796 -0.068901017 -21.297318 -0.066006623 -21.302208 -29.215769 -112.22263
105904000 -29.030245 -106.80172 -0.069379173 -21.498146 -0.066344097 -21.498447 -29.096432 -112.03992
106903000 -28.913773 -106.89405 -0.069323413 -21.705032 -0.066573568 -21.705 -28.976166 -111.99009
107902000 -28.754292 -107.18858 -0.070012063 -21.909735 -0.067080654 -21.899004 -28.83288 -111.91901
108901000 -28.64567 -107.47278 -0.071145765 -22.108786 -0.068597265 -22.102228 -28.705175 -111.83941
109900000 -28.514498 -107.96449 -0.071366809 -22.307213 -0.069651417 -22.302128 -28.550476 -111.89307
110899000 -28.389221 -108.51309 -0.073469609 -22.507015 -0.070695832 -22.499376 -28.424702 -112.1803
111898000 -28.303104 -109.20821 -0.074815162 -22.711489 -0.071252599 -22.703293 -28.299892 -112.29564
112897000 -28.178183 -109.69594 -0.076244637 -22.905252 -0.072839111 -22.896622 -28.165344 -112.46985
113896000 -28.069077 -110.33074 -0.07727588 -23.109657 -0.074299537 -23.099117 -28.059853 -112.57246
114895000 -27.965654 -110.98282 -0.077923894 -23.308605 -0.075483352 -23.293541 -27.949158 -112.71358
115894000 -27.84724 -111.31882 -0.079645187 -23.510662 -0.076386899 -23.495306 -27.881496 -112.86946
116893000 -27.773998 -111.8124 -0.080491595 -23.709373 -0.078080177 -23.688953 -27.759117 -112.9099
117892000 -27.687111 -112.32372 -0.079930209 -23.901594 -0.077854842 -23.890673 -27.684416 -113.12834
118891000 -27.628607 -112.74893 -0.081294373 -24.106983 -0.07887724 -24.090349 -27.585207 -113.24071
119890000 -27.543779 -113.13781 -0.082771368 -24.308935 -0.079849787 -24.291262 -27.569534 -113.38435
120889000 -27.49588 -113.60346 -0.082550012 -24.506016 -0.079617769 -24.492252 -27.490118 -113.32294
121888000 -27.446888 -113.92242 -0.083053157 -24.703779 -0.080329679 -24.690941 -27.432919 -113.57547
122887000 -27.412762 -114.10062 -0.083697021 -24.904375 -0.080592588 -24.893999 -27.391628 -113.54012
123886000 -27.356413 -114.5394 -0.084786519 -25.107426 -0.081470035 -25.089552 -27.376543 -113.74109
124885000 -27.323523 -115.06174 -0.084686212 -25.309479 -0.08128541 -25.293247 -27.342964 -113.76736
125884000 -27.274176 -115.24421 -0.085139714 -25.507538 -0.082151912 -25.492977 -27.31567 -113.9341
126883000 -27.252928 -115.62923 -0.085593 -25.711634 -0.082759231 -25.695749 -27.276541 -113.92632
127882000 -27.201792 -115.93215 -0.086333089 -25.911442 -0.082625203 -25.895796 -27.23521 -114.05358
128881000 -27.171976 -116.25143 -0.086757191 -26.11401 -0.083258711 -26.096996 -27.194096 -114.19936
129880000 -27.120689 -116.6181 -0.087416388 -26.315365 -0.08387436 -26.297075 -27.161242 -114.09821
130879000 -27.062223 -116.73583 -0.086691171 -26.514942 -0.084991358 -26.500193 -27.083651 -114.13036
131878000 -26.98982 -116.96978 -0.087027088 -26.716068 -0.08462023 -26.698633 -27.025585 -114.01924
132877000 -26.92598 -117.01236 -0.087385751 -26.918442 -0.084983967 -26.902603 -26.944027 -113.98736
133876000 -26.841263 -117.24581 -0.087234147 -27.12793 -0.084408015 -27.10276 -26.859167 -113.88638
134875000 -26.742096 -117.33871 -0.087327383 -27.320532 -0.085261941 -27.30673 -26.75374 -113.73706
135874000 -26.660622 -117.38712 -0.088363901 -27.522167 -0.085316852 -27.504812 -26.653484 -113.67329
136873000 -26.548521 -117.30306 -0.088546455 -27.726614 -0.08539632 -27.70677 -26.566023 -113.65812
137872000 -26.465891 -117.42085 -0.088192977 -27.927158 -0.085587457 -27.912428 -26.469759 -113.55415
138871000 -26.393274 -117.63936 -0.089050822 -28.128979 -0.086313814 -28.105227 -26.362383 -113.72787
139870000 -26.295553 -117.91183 -0.089824274 -28.322458 -0.086749792 -28.309364 -26.282627 -113.87862
140869000 -26.215477 -118.49794 -0.090885177 -28.524939 -0.088037916 -28.501602 -26.183111 -114.1149
141868000 -26.129757 -118.87707 -0.091533639 -28.722776 -0.089168936 -28.707163 -26.135942 -114.37095
142867000 -26.049017 -119.08143 -0.090028025 -28.920643 -0.088499166 -28.905989 -26.057144 -114.49738
143866000 -25.981329 -119.58769 -0.092551067 -29.118681 -0.089986011 -29.103064 -25.981979 -114.95855
144865000 -25.917843 -120.08806 -0.093407393 -29.314852 -0.09116935 -29.301744 -25.920778 -115.28754
145864000 -25.861637 -120.40853 -0.09404856 -29.518429 -0.092463538 -29.507278 -25.888916 -115.49165
146863000 -25.822302 -120.75999 -0.095234066 -29.717682 -0.09280017 -29.706249 -25.838434 -115.78672
147862000 -25.7819 -121.12814 -0.096278027 -29.91613 -0.093604706 -29.901627 -25.805616 -116.12122
148861000 -25.751869 -121.5623 -0.097249188 -30.117702 -0.095174529 -30.101601 -25.784981 -116.20708
149860000 -25.717684 -121.73333 -0.097829491 -30.310703 -0.09548147 -30.296148 -25.738478 -116.35927
150859000 -25.69902 -122.21132 -0.097645223 -30.505964 -0.095333554 -30.490282 -25.714594 -116.70848
151858000 -25.681717 -122.57738 -0.097183533 -30.707859 -0.095525131 -30.695065 -25.708275 -117.01741
152857000 -25.668293 -122.85491 -0.097528212 -30.903799 -0.095298357 -30.895397 -25.693851 -117.15501
153856000 -25.664286 -123.08713 -0.097444557 -31.103804 -0.094327644 -31.091347 -25.712622 -117.5354
154855000 -25.662975 -123.22667 -0.098278813 -31.306059 -0.094566531 -31.293171 -25.700264 -117.75497
155854000 -25.681059 -123.50295 -0.09782552 -31.506853 -0.095713541 -31.491739 -25.693375 -118.02556
156853000 -25.668612 -124.2152 -0.096344993 -31.690945 -0.095453687 -31.685381 -25.694481 -118.33735
157852000 -25.676218 -124.39243 -0.09741649 -31.895239 -0.096675836 -31.887043 -25.677143 -118.67696
158851000 -25.675121 -124.65587 -0.097810693 -32.094528 -0.097073942 -32.083721 -25.668146 -118.93437
159850000 -25.664944 -124.74913 -0.09873426 -32.292496 -0.09678065 -32.284847 -25.662903 -119.12055
160849000 -25.651758 -124.82706 -0.098901361 -32.49054 -0.097640462 -32.488316 -25.641117 -119.42661
161848000 -25.63002 -124.8852 -0.099333577 -32.694828 -0.097025767 -32.688148 -25.599377 -119.52811
162847000 -25.587873 -125.08804 -0.099456199 -32.891197 -0.097676463 -32.889557 -25.574034 -119.77509
163846000 -25.553391 -125.32877 -0.09979073 -33.091148 -0.097872384 -33.085758 -25.495052 -119.78326
164845000 -25.491089 -125.28715 -0.10033163 -33.293995 -0.098461777 -33.285942 -25.434221 -119.91257
165844000 -25.445511 -125.3279 -0.099509433 -33.490967 -0.098441392 -33.485386 -25.351118 -120.06466
166843000 -25.379904 -125.39159 -0.099726625 -33.692165 -0.099482954 -33.690193 -25.281334 -120.21967
167842000 -25.318777 -125.47572 -0.10102549 -33.892662 -0.099172816 -33.889965 -25.20756 -120.11378
168841000 -25.240194 -125.64751 -0.10106046 -34.091232 -0.0991752 -34.085083 -25.135473 -120.1846
169840000 -25.172617 -125.90376 -0.10056423 -34.285969 -0.10010064 -34.28125 -25.046577 -120.40466
170839000 -25.118317 -126.11673 -0.10238491 -34.485188 -0.10100933 -34.479927 -24.962736 -120.55224
171838000 -25.059273 -126.51904 -0.10214612 -34.686214 -0.10191397 -34.679909 -24.899942 -120.81259
172837000 -24.990555 -126.85641 -0.10369411 -34.884697 -0.10275757 -34.879299 -24.834312 -121.00361
173836000 -24.922846 -127.26994 -0.10484062 -35.082237 -0.1031883 -35.081261 -24.790813 -121.23286
174835000 -24.871454 -127.67121 -0.1054002 -35.279175 -0.10484911 -35.277748 -24.746473 -121.55461
175834000 -24.814051 -128.04697 -0.1067249 -35.482395 -0.10519598 -35.476631 -24.68955 -121.79276
176833000 -24.768433 -128.3898 -0.10766018 -35.679771 -0.10585056 -35.676716 -24.636513 -121.96516
177832000 -24.719955 -128.80002 -0.10804337 -35.879559 -0.10673021 -35.878544 -24.617035 -122.04622
178831000 -24.678028 -129.06766 -0.10956135 -36.078472 -0.10833955 -36.074535 -24.577276 -122.17453
179830000 -24.614494 -129.4063 -0.11180703 -36.259804 -0.11024871 -36.264828 -24.516518 -122.22264
180829000 -24.554556 -129.78949 -0.1101295 -36.450615 -0.10954224 -36.455189 -24.467648 -122.50153
181828000 -24.533688 -130.21974 -0.10958736 -36.652653 -0.10816625 -36.652683 -24.449488 -122.72173
182827000 -24.506893 -130.58209 -0.10956294 -36.848297 -0.10915413 -36.852081 -24.436081 -122.83208
183826000 -24.465403 -130.93666 -0.10989002 -37.047215 -0.10931288 -37.048145 -24.427761 -122.99212
184825000 -24.476412 -131.25058 -0.11000126 -37.242905 -0.10933517 -37.245987 -24.412291 -123.11068
185824000 -24.439539 -131.60747 -0.10984541 -37.442963 -0.10939994 -37.444759 -24.405336 -123.17891
186823000 -24.423416 -131.9949 -0.11065205 -37.643688 -0.1095279 -37.639793 -24.395903 -123.18917
187822000 -24.397896 -132.36026 -0.11143892 -37.836353 -0.10988896 -37.839035 -24.355089 -123.28777
188821000 -24.376783 -132.59787 -0.11042741 -38.032097 -0.11051901 -38.038925 -24.337934 -123.403
189820000 -24.354225 -132.88127 -0.1108629 -38.234505 -0.11022136 -38.235954 -24.316645 -123.59477
190819000 -24.318792 -133.19232 -0.11190452 -38.433285 -0.1111189 -38.432659 -24.281912 -123.63054
191818000 -24.290915 -133.46222 -0.11188035 -38.630466 -0.11178818 -38.629177 -24.251677 -123.69395
192817000 -24.24015 -133.75171 -0.11239646 -38.824768 -0.11176135 -38.827686 -24.203194 -123.79337
193816000 -24.210983 -134.0285 -0.11272588 -39.02187 -0.11158314 -39.023037 -24.152927 -123.92907
194815000 -24.145594 -134.40099 -0.1125362 -39.217495 -0.11312307 -39.216732 -24.082624 -123.99568
195814000 -24.095032 -134.59567 -0.11360214 -39.416878 -0.11266903 -39.419117 -24.031111 -124.09351
196813000 -24.035761 -134.94286 -0.1135745 -39.612236 -0.11262812 -39.612877 -23.951008 -124.27833
197812000 -23.975916 -135.15736 -0.11373235 -39.8106 -0.11305585 -39.805397 -23.876736 -124.32868
198811000 -23.920755 -135.31123 -0.11408418 -40.006912 -0.11333855 -40.009037 -23.806534 -124.53257
199810000 -23.850506 -135.66548 -0.11481266 -40.203094 -0.11341401 -40.200787 -23.729177 -124.62891
200809000 -23.790787 -135.92555 -0.11473159 -40.398907 -0.11380834 -40.40345 -23.646975 -124.7896
201808000 -23.733097 -136.14555 -0.11543334 -40.600468 -0.11425373 -40.602283 -23.580128 -124.88927
202807000 -23.676872 -136.47157 -0.11648722 -40.798805 -0.11512578 -40.803925 -23.52236 -125.06556
