!Keysight Technologies,E5080B,MY59205177,A.15.75.32
!Date: Friday, February 23, 2024 02:50:13
!Correction: S11(Cdelta 2-Port  ) 
!S21(Cdelta 2-Port  ) 
!S12(Cdelta 2-Port  ) 
!S22(Cdelta 2-Port  ) 
!S2P File: Measurements: S11, S21, S12, S22:
# Hz S  dB   R 50
10000000 -42.173679 -3.3547938 -0.041823566 -2.0479009 -0.045574199 -2.1023202 -51.778084 -134.31163
10999000 -41.651798 -4.8088083 -0.042569041 -2.2658155 -0.045336157 -2.3199322 -50.882614 -124.42582
11998000 -40.947483 -6.9123135 -0.043124311 -2.48791 -0.044917133 -2.5345864 -50.671253 -116.23654
12997000 -40.454266 -10.67728 -0.042835686 -2.6725185 -0.044964995 -2.7025177 -49.563805 -109.90707
13996000 -40.293774 -13.768281 -0.042102974 -2.8472893 -0.044633619 -2.8688822 -48.65694 -104.66512
14995000 -40.006458 -16.90411 -0.04477093 -3.055166 -0.044625513 -3.0814571 -47.950016 -102.12287
15994000 -39.936172 -20.03175 -0.044702668 -3.2750854 -0.046458986 -3.3024056 -47.521641 -98.847527
16993000 -39.936981 -23.401608 -0.044211786 -3.471498 -0.046386775 -3.4831505 -46.618374 -101.80557
17992000 -40.085949 -27.091022 -0.045331188 -3.6746662 -0.047192961 -3.6731896 -45.977821 -103.97579
18991000 -40.357735 -30.688782 -0.04595666 -3.8832276 -0.047712442 -3.8832669 -45.224392 -104.61324
19990000 -40.278458 -35.051632 -0.048731957 -4.0918765 -0.050174609 -4.0869765 -44.543747 -107.76137
20989000 -40.265507 -37.714657 -0.050698899 -4.2957325 -0.052177574 -4.2860775 -43.938351 -108.5314
21988000 -40.265331 -41.763611 -0.051353958 -4.4911213 -0.052459221 -4.4837141 -43.621185 -108.43118
22987000 -40.175518 -45.628792 -0.053153329 -4.6916175 -0.053605646 -4.6834693 -43.284233 -108.48586
23986000 -40.245281 -49.025002 -0.052442189 -4.8834 -0.052623499 -4.888566 -43.140686 -108.68403
24985000 -39.995766 -51.839161 -0.053085718 -5.0990205 -0.053466223 -5.0920801 -42.816654 -106.31539
25984000 -39.855686 -54.022411 -0.054519072 -5.3025193 -0.053308725 -5.3032088 -42.373478 -105.66853
26983000 -39.601189 -55.867504 -0.055424038 -5.4976678 -0.054553408 -5.5205684 -42.208977 -104.78242
27982000 -39.490788 -57.058907 -0.056227446 -5.7012439 -0.056704734 -5.7338243 -41.826202 -103.42726
28981000 -39.532154 -58.396706 -0.054178316 -5.8987031 -0.056171853 -5.9231071 -41.602692 -103.19726
29980000 -39.213318 -60.240505 -0.054968383 -6.0921288 -0.056628417 -6.0989289 -41.178684 -102.83475
30979000 -38.82436 -59.611267 -0.051953055 -6.4486394 -0.050935138 -6.4363327 -40.717319 -104.10725
31978000 -38.670364 -60.827679 -0.051336933 -6.6411328 -0.052332412 -6.6336794 -40.360645 -103.70633
32977000 -38.533558 -62.362129 -0.051214349 -6.8544149 -0.052908845 -6.8490429 -40.132446 -104.328
33976000 -38.429329 -63.587082 -0.051970869 -7.0542135 -0.05295863 -7.0461326 -39.798088 -103.98972
34975000 -38.190716 -64.67131 -0.052611709 -7.2532716 -0.053886596 -7.251523 -39.553936 -104.00579
35974000 -38.003223 -65.683365 -0.051735621 -7.4477305 -0.054111216 -7.4479108 -39.21212 -103.53069
36973000 -37.808273 -66.45192 -0.05150117 -7.6472268 -0.054423396 -7.6514573 -38.865807 -102.85645
37972000 -37.650173 -66.511696 -0.051070027 -7.8588958 -0.05478514 -7.8672562 -38.587898 -102.25975
38971000 -37.333408 -66.512581 -0.052768398 -8.0588989 -0.05485566 -8.0701714 -38.380997 -100.81334
39970000 -37.024998 -67.256676 -0.05046241 -8.2550936 -0.053887907 -8.2671289 -38.077343 -100.66387
40969000 -36.752327 -67.339867 -0.05102288 -8.4479322 -0.053929843 -8.4643278 -37.777874 -99.456009
41968000 -36.437412 -67.722565 -0.051540986 -8.6543102 -0.053788837 -8.6680508 -37.538097 -98.338425
42967000 -36.198246 -68.146744 -0.050823305 -8.8623466 -0.054302558 -8.8838387 -37.259125 -96.717415
43966000 -35.944431 -69.163193 -0.051820233 -9.0668697 -0.056084268 -9.0835323 -36.975956 -96.232452
44965000 -35.737408 -70.037018 -0.053156734 -9.2716932 -0.056330767 -9.2901554 -36.734371 -96.243904
45964000 -35.529705 -71.433449 -0.054076094 -9.4662838 -0.057428636 -9.4832745 -36.480785 -96.349655
46963000 -35.392429 -73.262672 -0.053769182 -9.6673422 -0.057331324 -9.678648 -36.316963 -96.812035
47962000 -35.272209 -74.730522 -0.055834115 -9.8647995 -0.058744561 -9.8801527 -36.115303 -97.051727
48961000 -35.098705 -76.468269 -0.058471166 -10.063317 -0.060549095 -10.084177 -35.877274 -97.554626
49960000 -34.913754 -77.911377 -0.059446495 -10.261068 -0.061465818 -10.281034 -35.739269 -97.768021
50959000 -34.722893 -79.36116 -0.059840418 -10.475266 -0.062672138 -10.484003 -35.547684 -98.421204
51958000 -34.549877 -80.484741 -0.062095985 -10.671161 -0.063960232 -10.682398 -35.400108 -99.092491
52957000 -34.372879 -81.792564 -0.063486606 -10.872373 -0.065596111 -10.876701 -35.231388 -99.012299
53956000 -34.227486 -82.675293 -0.065088674 -11.076589 -0.065859444 -11.075006 -35.091393 -99.071907
54955000 -34.090672 -83.18399 -0.065320708 -11.275098 -0.066481046 -11.269817 -34.946095 -99.238113
55954000 -33.943962 -84.13839 -0.066662155 -11.47571 -0.066771768 -11.47531 -34.822952 -99.04348
56953000 -33.816048 -84.303131 -0.066478677 -11.674888 -0.06615486 -11.663949 -34.745274 -99.314514
57952000 -33.660255 -84.988617 -0.067962997 -11.873216 -0.067760535 -11.863569 -34.643471 -99.527954
58951000 -33.571434 -85.371696 -0.068532832 -12.08012 -0.068788454 -12.053474 -34.491524 -99.747711
59950000 -33.44421 -85.970222 -0.069197692 -12.277075 -0.069431253 -12.252248 -34.429115 -100.04244
60949000 -33.334782 -86.522781 -0.069390222 -12.479766 -0.069443882 -12.457123 -34.337032 -100.42454
61948000 -33.284443 -86.8946 -0.070392475 -12.677664 -0.069707185 -12.658338 -34.256123 -100.53107
62947000 -33.205383 -87.189514 -0.070226468 -12.892566 -0.070571646 -12.868996 -34.109699 -100.91142
63946000 -33.143925 -87.833191 -0.071770757 -13.08586 -0.07165049 -13.066322 -34.00761 -101.13124
64945000 -33.03159 -88.088356 -0.071888134 -13.291747 -0.071470492 -13.26861 -33.899494 -101.61339
65944000 -32.933762 -88.501686 -0.072630629 -13.488321 -0.072373733 -13.471424 -33.809097 -102.15497
66943000 -32.806416 -88.881783 -0.070503764 -13.690865 -0.070735298 -13.668447 -33.710243 -102.45939
67942000 -32.737324 -88.867989 -0.072519548 -13.885199 -0.072431371 -13.873051 -33.585072 -102.88094
68941000 -32.629017 -89.06546 -0.072777249 -14.077596 -0.071834974 -14.068546 -33.497131 -102.87962
69940000 -32.542419 -89.070374 -0.072540611 -14.27715 -0.072405577 -14.269017 -33.337173 -103.29524
70939000 -32.430599 -89.076057 -0.072619841 -14.475941 -0.072347149 -14.467242 -33.204563 -103.2289
71938000 -32.269592 -88.830528 -0.072484016 -14.670657 -0.071843922 -14.661003 -33.061382 -103.18981
72937000 -32.115173 -88.665977 -0.071064726 -14.869596 -0.07209605 -14.863158 -32.915257 -102.93893
73936000 -31.968624 -88.434143 -0.072045781 -15.067336 -0.071715757 -15.058171 -32.792252 -102.73691
74935000 -31.849117 -88.844536 -0.071409434 -15.262012 -0.070678204 -15.257689 -32.632141 -102.45425
75934000 -31.729967 -89.061607 -0.07204657 -15.473664 -0.071012095 -15.469453 -32.543724 -102.39389
76933000 -31.60313 -89.521042 -0.072212912 -15.664957 -0.072016306 -15.652074 -32.379349 -102.93625
77932000 -31.511311 -90.40519 -0.07367155 -15.863997 -0.073752902 -15.858695 -32.285294 -102.97025
78931000 -31.445738 -91.195724 -0.072606944 -16.061779 -0.07277409 -16.057501 -32.165749 -102.90383
79930000 -31.33951 -92.018753 -0.075526282 -16.252886 -0.075853966 -16.248167 -32.078556 -103.24369
80929000 -31.226881 -92.973595 -0.076620854 -16.449625 -0.077085897 -16.446852 -31.967432 -103.67965
81928000 -31.158102 -93.89254 -0.077046633 -16.646328 -0.077578664 -16.640247 -31.855091 -103.79407
82927000 -31.080341 -94.614304 -0.079199113 -16.840696 -0.079043843 -16.838701 -31.751619 -104.17342
83926000 -30.971125 -95.427719 -0.08014141 -17.038254 -0.080169357 -17.036823 -31.634747 -104.47296
84925000 -30.874523 -95.952782 -0.081721939 -17.238785 -0.080258489 -17.232786 -31.540588 -104.61272
85924000 -30.789165 -96.429817 -0.0819939 -17.439262 -0.081364796 -17.436344 -31.44948 -104.65276
86923000 -30.685841 -97.003151 -0.082208633 -17.640678 -0.08182323 -17.628601 -31.344255 -104.63533
87922000 -30.586777 -97.468559 -0.081866227 -17.845707 -0.081763878 -17.832577 -31.269003 -104.72926
88921000 -30.514715 -97.763191 -0.082897484 -18.03993 -0.082606733 -18.030806 -31.162207 -104.72598
89920000 -30.406952 -98.412956 -0.083978869 -18.243784 -0.083509125 -18.235916 -31.111725 -104.99684
90919000 -30.317589 -98.747665 -0.085048646 -18.436888 -0.084301122 -18.433119 -31.024258 -105.20773
91918000 -30.233061 -99.169746 -0.085655048 -18.633446 -0.084324874 -18.631104 -30.965384 -105.26428
92917000 -30.141438 -99.482391 -0.086799443 -18.833982 -0.08585491 -18.829807 -30.896469 -105.41028
93916000 -30.05641 -99.980034 -0.086434491 -19.029827 -0.085646071 -19.023882 -30.806887 -106.09597
94915000 -29.99309 -100.61358 -0.088002779 -19.230719 -0.086713351 -19.223627 -30.745363 -106.02527
95914000 -29.930931 -100.87098 -0.089135639 -19.422625 -0.088264041 -19.419962 -30.656122 -106.27895
96913000 -29.845146 -101.15648 -0.089883469 -19.624395 -0.088941969 -19.6203 -30.595125 -106.71947
97912000 -29.776972 -101.62898 -0.090887554 -19.819641 -0.089346498 -19.819687 -30.514011 -106.95892
98911000 -29.672424 -101.81599 -0.091455646 -20.016878 -0.090411521 -20.016636 -30.47263 -107.15642
99910000 -29.601143 -102.00398 -0.092383154 -20.219538 -0.090856105 -20.220877 -30.368753 -107.50048
100909000 -29.522144 -102.33987 -0.091657102 -20.425543 -0.090234704 -20.419676 -30.275547 -107.73584
101908000 -29.427908 -102.56017 -0.092845127 -20.623211 -0.091390617 -20.626648 -30.15778 -107.50264
102907000 -29.294943 -102.66357 -0.093014121 -20.827785 -0.091110922 -20.824017 -30.076382 -107.42524
103906000 -29.189772 -102.75325 -0.093766317 -21.031315 -0.090689838 -21.029142 -29.92709 -107.46732
104905000 -29.049549 -102.67203 -0.094091676 -21.232122 -0.091521211 -21.230001 -29.787867 -107.16355
105904000 -28.909525 -102.87468 -0.094072364 -21.435242 -0.091520682 -21.424938 -29.668797 -107.09581
106903000 -28.801788 -102.97147 -0.094246425 -21.638456 -0.092463538 -21.629194 -29.539391 -106.98429
107902000 -28.637701 -103.33646 -0.0956413 -21.836153 -0.092628017 -21.831244 -29.39887 -106.97829
108901000 -28.525747 -103.68126 -0.096415922 -22.039745 -0.094184794 -22.036362 -29.257435 -106.98917
109900000 -28.405453 -104.18819 -0.097568184 -22.239708 -0.094775803 -22.231937 -29.103525 -107.1102
110899000 -28.286745 -104.87515 -0.098464161 -22.439636 -0.096064188 -22.427294 -28.976755 -107.45569
111898000 -28.205404 -105.59836 -0.10010038 -22.638035 -0.09678939 -22.630802 -28.856892 -107.60795
112897000 -28.080769 -106.20348 -0.10150853 -22.837997 -0.098034158 -22.825993 -28.723902 -107.88221
113896000 -27.982754 -106.79402 -0.10230381 -23.036804 -0.099405617 -23.026268 -28.609776 -108.12637
114895000 -27.879759 -107.48217 -0.10346453 -23.235973 -0.10019892 -23.221281 -28.498369 -108.20036
115894000 -27.754532 -107.89811 -0.10494325 -23.440094 -0.10175814 -23.420504 -28.434164 -108.41059
116893000 -27.679077 -108.50278 -0.10535988 -23.633865 -0.10262159 -23.615879 -28.295019 -108.64199
117892000 -27.60088 -109.01847 -0.1052705 -23.829332 -0.10345154 -23.817436 -28.226322 -108.87
118891000 -27.538504 -109.45583 -0.10581289 -24.030283 -0.10398866 -24.014744 -28.127956 -109.02122
119890000 -27.45343 -109.86895 -0.10673312 -24.228493 -0.10447998 -24.213255 -28.118195 -109.19997
120889000 -27.402567 -110.38821 -0.10772095 -24.43037 -0.10416207 -24.413158 -28.035156 -109.18381
121888000 -27.358011 -110.75698 -0.10849083 -24.629129 -0.10458631 -24.612732 -27.978647 -109.53298
122887000 -27.316292 -110.99222 -0.10995931 -24.828791 -0.10585427 -24.816353 -27.93116 -109.57763
123886000 -27.265652 -111.41934 -0.10965108 -25.035566 -0.10623889 -25.014528 -27.915842 -109.7711
124885000 -27.2325 -111.92377 -0.10996728 -25.23118 -0.10691167 -25.214481 -27.891716 -109.853
125884000 -27.179382 -112.11067 -0.11136721 -25.427265 -0.10673577 -25.412117 -27.8624 -110.00756
126883000 -27.154825 -112.5237 -0.11142431 -25.629837 -0.10785098 -25.61624 -27.815369 -110.05531
127882000 -27.107582 -112.81801 -0.11126097 -25.832912 -0.10844518 -25.812567 -27.77562 -110.24811
128881000 -27.08062 -113.16204 -0.111968 -26.031733 -0.10810282 -26.016438 -27.73366 -110.3724
129880000 -27.018854 -113.48759 -0.11226311 -26.234491 -0.10848446 -26.211264 -27.690454 -110.41159
130879000 -26.955856 -113.62828 -0.11286403 -26.434711 -0.10905194 -26.414206 -27.607721 -110.46778
131878000 -26.890007 -113.89402 -0.11293948 -26.634438 -0.10917033 -26.615732 -27.542492 -110.31632
132877000 -26.821646 -113.97308 -0.11200492 -26.835388 -0.11013295 -26.817995 -27.448978 -110.3698
133876000 -26.732258 -114.17834 -0.11268178 -27.038507 -0.10980824 -27.019287 -27.359301 -110.2897
134875000 -26.636702 -114.29623 -0.11286934 -27.2376 -0.11075774 -27.218657 -27.246407 -110.11414
135874000 -26.554003 -114.3508 -0.11300112 -27.438662 -0.10993595 -27.421829 -27.142958 -110.146
136873000 -26.440424 -114.25701 -0.11419952 -27.640646 -0.11055964 -27.622869 -27.059259 -110.13722
137872000 -26.359634 -114.45309 -0.11352508 -27.844519 -0.1099856 -27.827814 -26.947063 -110.10735
138871000 -26.284323 -114.67257 -0.11418676 -28.037378 -0.11054769 -28.024113 -26.845795 -110.34459
139870000 -26.186455 -114.9284 -0.11467525 -28.243408 -0.11158074 -28.221804 -26.763765 -110.45905
140869000 -26.10087 -115.38625 -0.11667655 -28.435555 -0.11300856 -28.416178 -26.659056 -110.658
141868000 -26.008038 -115.94012 -0.11706851 -28.629324 -0.11390241 -28.61273 -26.589354 -111.02921
142867000 -25.930243 -116.22277 -0.1152741 -28.825994 -0.11254417 -28.809444 -26.50691 -111.25668
143866000 -25.864698 -116.73139 -0.11774084 -29.023804 -0.11421121 -29.007927 -26.436478 -111.7838
144865000 -25.808025 -117.28059 -0.11897168 -29.221579 -0.11572549 -29.20455 -26.37528 -112.09486
145864000 -25.754354 -117.62673 -0.11899429 -29.422529 -0.11695975 -29.409889 -26.350182 -112.36866
146863000 -25.701796 -118.02354 -0.11974488 -29.625479 -0.11696347 -29.608103 -26.299952 -112.71793
147862000 -25.666494 -118.39934 -0.12017944 -29.819979 -0.11732142 -29.80407 -26.267826 -113.07347
148861000 -25.638105 -118.91633 -0.12106679 -30.017673 -0.11866387 -30.001125 -26.24316 -113.31459
149860000 -25.622149 -119.09712 -0.12204377 -30.216736 -0.1189597 -30.204763 -26.21829 -113.53239
150859000 -25.603788 -119.52346 -0.1221673 -30.419615 -0.11893975 -30.401682 -26.208864 -113.74769
151858000 -25.591095 -119.8493 -0.12188429 -30.613943 -0.11953121 -30.596918 -26.20253 -114.0639
152857000 -25.56912 -120.16781 -0.12212151 -30.813761 -0.12032475 -30.798014 -26.183945 -114.24905
153856000 -25.561211 -120.37038 -0.12248627 -31.014189 -0.11930744 -30.996 -26.201048 -114.52625
154855000 -25.556379 -120.57613 -0.12304014 -31.215765 -0.12001657 -31.199915 -26.188244 -114.75286
155854000 -25.569473 -120.77385 -0.12285826 -31.410412 -0.11965787 -31.396713 -26.187155 -115.01349
156853000 -25.555082 -121.48898 -0.12101568 -31.597136 -0.11924492 -31.587849 -26.177565 -115.33213
157852000 -25.558304 -121.71301 -0.12186592 -31.798147 -0.1212744 -31.787598 -26.17091 -115.65035
158851000 -25.551485 -121.98613 -0.12272805 -31.997459 -0.12121186 -31.984779 -26.163168 -115.91102
159850000 -25.538071 -122.10149 -0.12393472 -32.192486 -0.12164283 -32.185043 -26.162703 -116.06074
160849000 -25.520447 -122.20524 -0.12387426 -32.392502 -0.12243249 -32.389179 -26.127031 -116.37973
161848000 -25.497591 -122.33006 -0.12427967 -32.594173 -0.12230682 -32.586052 -26.091515 -116.48048
162847000 -25.453995 -122.55766 -0.12465367 -32.791958 -0.12348435 -32.788208 -26.065123 -116.78323
163846000 -25.411018 -122.74879 -0.12461105 -32.992271 -0.12340552 -32.983589 -25.977182 -116.73042
164845000 -25.351448 -122.75981 -0.12494939 -33.191563 -0.12358396 -33.183533 -25.910864 -116.85715
165844000 -25.296862 -122.8502 -0.12538153 -33.392914 -0.12405486 -33.383842 -25.823418 -116.99468
166843000 -25.228876 -122.95277 -0.12515187 -33.590511 -0.12421041 -33.584286 -25.757441 -117.20363
167842000 -25.171665 -123.11643 -0.12512682 -33.78569 -0.1238471 -33.781139 -25.67592 -117.14283
168841000 -25.09127 -123.29671 -0.12621477 -33.980927 -0.1246217 -33.979633 -25.594538 -117.23186
169840000 -25.028183 -123.56588 -0.12625901 -34.18026 -0.12512256 -34.180058 -25.50214 -117.44875
170839000 -24.96656 -123.84185 -0.1273963 -34.378166 -0.12551875 -34.378098 -25.421669 -117.6923
171838000 -24.908518 -124.27 -0.12731101 -34.575844 -0.12693943 -34.57547 -25.351856 -117.92233
172837000 -24.84071 -124.68072 -0.12875919 -34.775551 -0.12771432 -34.766136 -25.285629 -118.18849
173836000 -24.770323 -125.10897 -0.12959389 -34.97308 -0.12838005 -34.971691 -25.243326 -118.42245
174835000 -24.72508 -125.57465 -0.12992461 -35.170368 -0.12949148 -35.168797 -25.198786 -118.75861
175834000 -24.672752 -125.96831 -0.13143931 -35.369083 -0.13029537 -35.361408 -25.135557 -119.07312
176833000 -24.621115 -126.37667 -0.1319759 -35.565163 -0.13075793 -35.562542 -25.078497 -119.27629
177832000 -24.575167 -126.87187 -0.13234231 -35.761314 -0.13175523 -35.764908 -25.056671 -119.47881
178831000 -24.539492 -127.242 -0.13278854 -35.955093 -0.13147987 -35.956322 -25.018915 -119.73483
179830000 -24.502552 -127.66615 -0.1333317 -36.15234 -0.132001 -36.157104 -24.988724 -119.85781
180829000 -24.459496 -127.92577 -0.13365284 -36.354233 -0.13280161 -36.35408 -24.965008 -120.02166
181828000 -24.439833 -128.311 -0.13388002 -36.551807 -0.13244532 -36.547207 -24.94397 -120.16606
182827000 -24.414467 -128.6443 -0.13370782 -36.742298 -0.13310082 -36.749153 -24.931742 -120.25922
183826000 -24.376486 -128.95418 -0.13569601 -36.941849 -0.1333373 -36.93782 -24.924158 -120.39234
184825000 -24.379343 -129.30467 -0.13556729 -37.138432 -0.13476135 -37.136375 -24.903755 -120.54474
185824000 -24.347893 -129.68237 -0.1350006 -37.333942 -0.13391793 -37.335575 -24.901091 -120.53604
186823000 -24.337418 -130.03491 -0.13513973 -37.533009 -0.13486576 -37.532715 -24.899136 -120.53466
187822000 -24.318232 -130.33708 -0.13560681 -37.725246 -0.13520409 -37.730999 -24.862968 -120.61198
188821000 -24.295874 -130.58511 -0.13607314 -37.926441 -0.13481475 -37.928616 -24.845167 -120.72047
189820000 -24.280779 -130.87546 -0.1357099 -38.12653 -0.13559613 -38.123093 -24.839344 -120.89279
190819000 -24.251768 -131.09981 -0.13700461 -38.325989 -0.13644229 -38.322037 -24.800262 -120.85535
191818000 -24.213203 -131.28908 -0.13812868 -38.52132 -0.13781017 -38.518631 -24.768229 -120.73889
192817000 -24.14419 -131.5538 -0.1385846 -38.703545 -0.13821232 -38.705513 -24.69669 -120.81004
193816000 -24.106356 -131.92542 -0.1382591 -38.898418 -0.13746709 -38.897141 -24.635736 -121.06486
194815000 -24.048555 -132.37802 -0.13749647 -39.094925 -0.13800576 -39.097301 -24.571283 -121.19186
195814000 -23.994621 -132.59538 -0.13834354 -39.292564 -0.13804103 -39.29356 -24.520962 -121.32552
196813000 -23.938578 -132.98529 -0.13834621 -39.485359 -0.13733083 -39.491558 -24.436674 -121.50214
197812000 -23.879492 -133.21571 -0.1386589 -39.685482 -0.13806535 -39.681629 -24.366516 -121.57732
198811000 -23.829508 -133.37169 -0.13842586 -39.883915 -0.13774765 -39.882378 -24.29479 -121.82455
199810000 -23.7623 -133.77028 -0.13874415 -40.077362 -0.13793896 -40.071877 -24.212978 -121.91463
200809000 -23.701693 -134.04645 -0.13921669 -40.272896 -0.13793094 -40.274231 -24.13612 -122.11738
201808000 -23.646334 -134.28279 -0.14019081 -40.472904 -0.13900635 -40.476753 -24.066795 -122.2027
202807000 -23.585438 -134.67822 -0.14074935 -40.672001 -0.13961846 -40.677299 -24.009884 -122.45087
203806000 -23.536083 -135.15385 -0.14200036 -40.876106 -0.14033091 -40.876869 -23.943895 -122.66102
