!Keysight Technologies,E5080B,MY59205177,A.15.75.32
!Date: Friday, February 23, 2024 03:28:29
!Correction: S11(Cdelta 2-Port  ) 
!S21(Cdelta 2-Port  ) 
!S12(Cdelta 2-Port  ) 
!S22(Cdelta 2-Port  ) 
!S2P File: Measurements: S11, S21, S12, S22:
# Hz S  dB   R 50
10000000 -46.007782 -1.4085549 -0.0158678 -2.0539892 -0.019171465 -2.1087046 -46.128025 -158.63589
10999000 -45.185051 -3.2559295 -0.017106738 -2.2727902 -0.018661886 -2.3237841 -46.002663 -152.7849
11998000 -44.274754 -6.2903767 -0.017181065 -2.4973388 -0.017812373 -2.540504 -46.26088 -148.21628
12997000 -43.531212 -12.042261 -0.016662104 -2.6830261 -0.017273065 -2.7127769 -45.903835 -142.65579
13996000 -43.278374 -15.780712 -0.015374455 -2.861619 -0.01833641 -2.8796775 -45.689442 -137.47224
14995000 -42.889019 -20.040201 -0.017618215 -3.0706189 -0.017760647 -3.0925782 -45.382103 -133.78395
15994000 -42.753414 -24.330584 -0.019279629 -3.2878163 -0.020176241 -3.3104436 -45.285069 -129.83725
16993000 -42.696728 -28.935762 -0.018327052 -3.4865823 -0.019623898 -3.4955146 -44.443733 -129.65028
17992000 -42.747032 -34.267036 -0.018553218 -3.6849709 -0.020433454 -3.6883337 -43.871315 -129.55713
18991000 -43.018536 -39.351734 -0.01989512 -3.8974559 -0.021236656 -3.8942606 -43.277096 -128.28528
19990000 -42.799454 -45.292065 -0.022315023 -4.1074376 -0.02310374 -4.1040654 -42.592499 -129.26071
20989000 -42.668346 -48.396336 -0.024490003 -4.3112898 -0.024639169 -4.2973876 -42.061264 -128.3615
21988000 -42.463135 -53.873589 -0.024883108 -4.5077262 -0.025911862 -4.4984345 -41.785885 -127.66838
22987000 -42.20927 -58.486328 -0.026692897 -4.7085333 -0.026616063 -4.7016706 -41.53735 -127.26506
23986000 -42.132347 -62.569672 -0.025952484 -4.904685 -0.025636617 -4.904398 -41.401154 -126.98335
24985000 -41.746246 -65.357262 -0.026671018 -5.110991 -0.026004568 -5.110652 -41.22226 -124.46529
25984000 -41.385605 -67.717476 -0.02803419 -5.3220663 -0.026865061 -5.3203139 -40.877796 -123.00786
26983000 -41.127773 -69.509605 -0.028876845 -5.5186052 -0.028099846 -5.5358577 -40.755199 -122.26916
27982000 -40.948559 -70.442406 -0.030458374 -5.7239718 -0.029382674 -5.7535067 -40.485085 -120.68264
28981000 -40.902992 -72.111786 -0.027744744 -5.9191895 -0.029922966 -5.9435902 -40.257984 -120.13909
29980000 -40.526802 -73.31842 -0.02787683 -6.115736 -0.03008379 -6.1231284 -39.996349 -119.26013
30979000 -40.117512 -72.179619 -0.025866549 -6.4688578 -0.024775326 -6.4584494 -39.490311 -119.39309
31978000 -39.912327 -73.264038 -0.025430392 -6.6627021 -0.025322856 -6.6520033 -39.256126 -118.5202
32977000 -39.736332 -74.761948 -0.025009898 -6.8769464 -0.026661383 -6.8717294 -39.00069 -118.74641
33976000 -39.555935 -76.081741 -0.025441067 -7.0769539 -0.027312305 -7.0722113 -38.698551 -118.1427
34975000 -39.261169 -76.888443 -0.025955871 -7.2794552 -0.027671799 -7.2750034 -38.489014 -117.71809
35974000 -39.03714 -77.327759 -0.025426747 -7.4698887 -0.027847651 -7.4752116 -38.218185 -116.82288
36973000 -38.833023 -78.188713 -0.025669167 -7.6724753 -0.02924064 -7.6783032 -37.952007 -115.9133
37972000 -38.664921 -78.046677 -0.025037756 -7.8819513 -0.027917992 -7.8909178 -37.739117 -115.14832
38971000 -38.32634 -77.402443 -0.026546523 -8.0849371 -0.028366126 -8.0955133 -37.566692 -113.56117
39970000 -37.982449 -77.915039 -0.02439082 -8.2808714 -0.026632212 -8.2957153 -37.276356 -113.12063
40969000 -37.686012 -77.471779 -0.025517881 -8.4752779 -0.027292248 -8.4958906 -37.050064 -111.47315
41968000 -37.356136 -77.395897 -0.025028905 -8.6810045 -0.027479023 -8.6979017 -36.857143 -110.17377
42967000 -37.075871 -77.541718 -0.025202306 -8.8955126 -0.028605323 -8.9144049 -36.639221 -108.20588
43966000 -36.784912 -78.252617 -0.02642672 -9.0891008 -0.029642517 -9.1151037 -36.383213 -107.55035
44965000 -36.532066 -78.966751 -0.026315775 -9.299221 -0.029096786 -9.3199148 -36.160786 -107.30314
45964000 -36.317677 -80.068436 -0.027598595 -9.4974279 -0.030210733 -9.5161448 -35.912781 -106.98861
46963000 -36.110466 -82.084259 -0.028137624 -9.6929321 -0.031355731 -9.712738 -35.737129 -107.21243
47962000 -35.947823 -83.47506 -0.02978717 -9.8980579 -0.032725852 -9.9136877 -35.540512 -107.12872
48961000 -35.731258 -84.962578 -0.031482972 -10.093458 -0.034087796 -10.113283 -35.310764 -107.25304
49960000 -35.51049 -86.26712 -0.033035714 -10.294693 -0.035390399 -10.315727 -35.164837 -107.40965
50959000 -35.27565 -87.442162 -0.033562373 -10.507976 -0.036638312 -10.515156 -34.989563 -107.68181
51958000 -35.073231 -88.496651 -0.035338987 -10.707923 -0.038012192 -10.718236 -34.806152 -108.12835
52957000 -34.843689 -89.594238 -0.03695472 -10.909524 -0.038752571 -10.916184 -34.65189 -107.84777
53956000 -34.68541 -90.274597 -0.03919895 -11.111933 -0.040350504 -11.109432 -34.513882 -107.78546
54955000 -34.529209 -90.755447 -0.039271828 -11.31146 -0.041307922 -11.306978 -34.363529 -107.65121
55954000 -34.356869 -91.650902 -0.040185641 -11.513672 -0.041380838 -11.506279 -34.266121 -107.37
56953000 -34.230858 -91.677002 -0.03986508 -11.712643 -0.040583305 -11.703106 -34.178154 -107.55479
57952000 -34.060741 -92.190567 -0.041845519 -11.910029 -0.041637477 -11.902301 -34.093941 -107.54593
58951000 -33.948898 -92.560921 -0.042205699 -12.11299 -0.042291958 -12.092721 -33.925228 -107.67874
59950000 -33.835541 -92.867798 -0.043418705 -12.312382 -0.042729288 -12.294507 -33.859264 -107.95586
60949000 -33.710423 -93.517166 -0.04359258 -12.518197 -0.043500282 -12.497982 -33.762897 -108.20348
61948000 -33.636955 -93.826126 -0.044393279 -12.719184 -0.043675989 -12.701311 -33.688606 -108.3298
62947000 -33.563126 -94.003593 -0.043124311 -12.926646 -0.04443486 -12.906875 -33.549126 -108.49818
63946000 -33.48439 -94.665672 -0.045453608 -13.128006 -0.045633581 -13.108314 -33.435215 -108.71378
64945000 -33.386909 -94.822952 -0.045801528 -13.331626 -0.046036717 -13.310369 -33.331802 -109.23163
65944000 -33.277355 -95.168358 -0.046250984 -13.529533 -0.04666857 -13.512692 -33.234592 -109.73916
66943000 -33.145546 -95.64003 -0.044532146 -13.732801 -0.045013383 -13.715693 -33.133911 -109.89127
67942000 -33.078846 -95.577782 -0.046455063 -13.926156 -0.046618331 -13.916386 -33.004864 -110.2823
68941000 -32.967373 -95.562759 -0.046221685 -14.122706 -0.046214618 -14.114592 -32.896801 -110.15659
69940000 -32.875031 -95.608192 -0.046015263 -14.321627 -0.046881039 -14.313141 -32.751629 -110.50182
70939000 -32.765774 -95.519035 -0.046783436 -14.517959 -0.047424037 -14.512306 -32.629795 -110.32957
71938000 -32.619644 -95.120247 -0.04660682 -14.719965 -0.046342034 -14.711317 -32.499809 -110.23623
72937000 -32.450504 -94.968956 -0.045961894 -14.913014 -0.045872945 -14.908538 -32.346142 -109.89794
73936000 -32.320038 -94.578461 -0.046147905 -15.114519 -0.045402598 -15.105708 -32.235523 -109.68306
74935000 -32.193409 -94.811432 -0.045872945 -15.308909 -0.044760466 -15.309121 -32.071739 -109.33598
75934000 -32.058815 -94.998756 -0.045433987 -15.521245 -0.045841027 -15.512893 -31.98337 -109.23726
76933000 -31.924446 -95.351524 -0.046418432 -15.715156 -0.04675518 -15.707514 -31.812004 -109.61066
77932000 -31.812613 -96.155266 -0.047647536 -15.911235 -0.048272558 -15.905115 -31.706491 -109.5723
78931000 -31.755152 -96.868782 -0.046300173 -16.111034 -0.04717752 -16.107998 -31.604218 -109.4387
79930000 -31.628323 -97.761971 -0.049676303 -16.304653 -0.049605869 -16.302078 -31.504787 -109.73515
80929000 -31.525791 -98.605782 -0.051212251 -16.501348 -0.051244993 -16.499481 -31.399151 -110.04035
81928000 -31.422365 -99.320335 -0.051064525 -16.695082 -0.052213989 -16.690723 -31.267675 -109.99114
82927000 -31.32152 -100.08739 -0.052905437 -16.890627 -0.053291429 -16.8908 -31.169941 -110.3008
83926000 -31.198196 -100.75271 -0.05464568 -17.095219 -0.054584343 -17.091402 -31.051004 -110.43744
84925000 -31.094322 -101.13509 -0.055404637 -17.290565 -0.055211149 -17.29003 -30.950983 -110.47416
85924000 -31.006687 -101.55421 -0.055665776 -17.494188 -0.056394491 -17.491631 -30.860464 -110.43336
86923000 -30.899937 -102.05898 -0.056715488 -17.688345 -0.056685064 -17.687834 -30.74518 -110.29749
87922000 -30.782616 -102.40902 -0.056619499 -17.896082 -0.056513552 -17.889044 -30.671259 -110.36844
88921000 -30.717402 -102.70829 -0.057413947 -18.089531 -0.056923989 -18.095892 -30.573221 -110.29445
89920000 -30.606956 -103.231 -0.058581624 -18.292942 -0.057336308 -18.293011 -30.521912 -110.4616
90919000 -30.494534 -103.44598 -0.059135005 -18.494438 -0.058392454 -18.488054 -30.432516 -110.61584
91918000 -30.401983 -103.8276 -0.059805248 -18.695398 -0.059290357 -18.685516 -30.360186 -110.64576
92917000 -30.318113 -104.16988 -0.061124519 -18.893873 -0.060175844 -18.888412 -30.300621 -110.75448
93916000 -30.224735 -104.45273 -0.059867714 -19.085579 -0.059598707 -19.0828 -30.209377 -111.32285
94915000 -30.141563 -105.16924 -0.061939485 -19.288719 -0.060774058 -19.287228 -30.147755 -111.18598
95914000 -30.079506 -105.33876 -0.062774561 -19.48345 -0.062089682 -19.479141 -30.052855 -111.45285
96913000 -29.988718 -105.53729 -0.063848324 -19.686613 -0.062572606 -19.683172 -29.985935 -111.76647
97912000 -29.915737 -106.02518 -0.065204822 -19.879782 -0.063697539 -19.883516 -29.911051 -112.08839
98911000 -29.796936 -106.13465 -0.065984018 -20.080772 -0.064292297 -20.082476 -29.872313 -112.25694
99910000 -29.737265 -106.28837 -0.066251054 -20.280859 -0.064794645 -20.285967 -29.763241 -112.54206
100909000 -29.638762 -106.59649 -0.065762199 -20.494436 -0.063710146 -20.48661 -29.673531 -112.76929
101908000 -29.55179 -106.79889 -0.067246802 -20.691315 -0.065702282 -20.688704 -29.553514 -112.55109
102907000 -29.420813 -106.77888 -0.067161627 -20.893471 -0.066264987 -20.887594 -29.487158 -112.58862
103906000 -29.319077 -106.8545 -0.068649068 -21.095772 -0.065380096 -21.090092 -29.337851 -112.50696
104905000 -29.169287 -106.77032 -0.068066865 -21.294949 -0.065879941 -21.29517 -29.210365 -112.21282
105904000 -29.031738 -106.82988 -0.0687043 -21.497389 -0.066610105 -21.495909 -29.100948 -112.07348
106903000 -28.914963 -106.94563 -0.068529151 -21.704386 -0.065807141 -21.699183 -28.96397 -111.96554
107902000 -28.752184 -107.23851 -0.070164911 -21.905378 -0.066913985 -21.896561 -28.831493 -111.94204
108901000 -28.639927 -107.48562 -0.070837647 -22.109478 -0.067882799 -22.099463 -28.699976 -111.85892
109900000 -28.512072 -107.90756 -0.071993671 -22.308958 -0.069941036 -22.29895 -28.54351 -111.93778
110899000 -28.391676 -108.5964 -0.073137105 -22.505056 -0.069983654 -22.498339 -28.414379 -112.21867
111898000 -28.301596 -109.2306 -0.07451494 -22.706528 -0.071578383 -22.702454 -28.308468 -112.30291
112897000 -28.17555 -109.76884 -0.076437481 -22.909613 -0.072619051 -22.896536 -28.167336 -112.49101
113896000 -28.074343 -110.35562 -0.077142552 -23.108402 -0.073959067 -23.099363 -28.051985 -112.66016
114895000 -27.967329 -111.03152 -0.077950776 -23.30781 -0.075397216 -23.293619 -27.940145 -112.67889
115894000 -27.842995 -111.3428 -0.079261594 -23.506655 -0.07624042 -23.495247 -27.876633 -112.87344
116893000 -27.7679 -111.81892 -0.080025658 -23.707678 -0.077905178 -23.690861 -27.755877 -112.94149
117892000 -27.682341 -112.3389 -0.079840563 -23.905949 -0.078410953 -23.889038 -27.679239 -113.1396
118891000 -27.624611 -112.78643 -0.080544859 -24.102644 -0.078624979 -24.086338 -27.580339 -113.263
119890000 -27.535826 -113.10928 -0.081374295 -24.303968 -0.078820303 -24.288908 -27.569252 -113.39413
120889000 -27.488096 -113.60511 -0.082775325 -24.507065 -0.078925744 -24.491695 -27.493345 -113.3326
121888000 -27.456511 -113.9674 -0.082251899 -24.701651 -0.080163293 -24.684706 -27.434717 -113.59282
122887000 -27.412699 -114.13237 -0.083329424 -24.907686 -0.080219984 -24.892323 -27.382288 -113.59393
123886000 -27.354914 -114.57516 -0.084015816 -25.104841 -0.081259295 -25.088703 -27.368992 -113.76326
124885000 -27.318901 -115.08443 -0.084966019 -25.307709 -0.081304133 -25.294483 -27.341707 -113.80406
125884000 -27.269529 -115.31197 -0.085482121 -25.507519 -0.081788935 -25.490427 -27.313305 -113.95756
126883000 -27.251587 -115.6873 -0.086042635 -25.708225 -0.083071627 -25.696262 -27.272587 -113.94319
127882000 -27.202478 -115.93692 -0.085958146 -25.909988 -0.083245777 -25.891865 -27.233429 -114.08485
128881000 -27.17053 -116.27547 -0.085974254 -26.114002 -0.083586976 -26.094738 -27.190271 -114.20593
129880000 -27.111864 -116.59238 -0.086817138 -26.313116 -0.08400473 -26.295506 -27.153185 -114.14433
130879000 -27.055765 -116.74931 -0.086441882 -26.512842 -0.084132731 -26.499857 -27.076162 -114.16733
131878000 -26.990477 -117.02461 -0.087177895 -26.716724 -0.083757184 -26.696812 -27.020287 -114.05431
132877000 -26.923559 -117.06279 -0.086806573 -26.919588 -0.084942788 -26.900585 -26.936386 -114.01283
133876000 -26.837173 -117.26307 -0.087681577 -27.120438 -0.084716834 -27.10248 -26.847998 -113.87746
134875000 -26.734226 -117.35646 -0.087249994 -27.318235 -0.086146407 -27.306465 -26.741446 -113.73512
135874000 -26.653477 -117.38933 -0.087250523 -27.518942 -0.085278578 -27.503317 -26.65243 -113.68745
136873000 -26.545382 -117.32124 -0.088358879 -27.726683 -0.085636035 -27.705456 -26.570057 -113.62626
137872000 -26.462578 -117.49966 -0.087863304 -27.924793 -0.085566334 -27.912315 -26.464626 -113.58311
138871000 -26.393732 -117.67628 -0.088520564 -28.12772 -0.08591643 -28.110264 -26.364958 -113.75304
139870000 -26.287134 -117.97449 -0.088723198 -28.328484 -0.087330021 -28.308981 -26.282665 -113.89229
140869000 -26.206465 -118.53093 -0.089830086 -28.524477 -0.087532073 -28.504482 -26.180401 -114.11199
141868000 -26.126404 -118.88738 -0.090879098 -28.720512 -0.088976316 -28.704092 -26.131775 -114.38181
142867000 -26.049288 -119.10028 -0.090044677 -28.917625 -0.088082291 -28.903353 -26.056513 -114.49816
143866000 -25.974846 -119.60238 -0.090981394 -29.114567 -0.089234196 -29.104414 -25.982887 -114.98957
144865000 -25.917725 -120.11997 -0.093019933 -29.3155 -0.091210589 -29.301651 -25.916874 -115.25919
145864000 -25.862734 -120.4115 -0.093675323 -29.516666 -0.092315987 -29.505844 -25.886587 -115.50533
146863000 -25.813972 -120.81171 -0.094420232 -29.715715 -0.092524096 -29.699514 -25.839508 -115.78014
147862000 -25.781883 -121.11205 -0.09511473 -29.916092 -0.093440451 -29.90085 -25.804958 -116.12308
148861000 -25.744591 -121.57587 -0.096621044 -30.112972 -0.094366267 -30.099298 -25.784222 -116.25361
149860000 -25.71594 -121.72519 -0.098027535 -30.302711 -0.095099382 -30.294083 -25.736067 -116.36203
150859000 -25.688534 -122.23188 -0.097549386 -30.505243 -0.095067106 -30.48749 -25.713396 -116.73299
151858000 -25.681898 -122.56362 -0.096468329 -30.706469 -0.094951481 -30.688248 -25.704166 -117.03474
152857000 -25.666496 -122.90964 -0.097287573 -30.900175 -0.094917618 -30.89673 -25.692322 -117.20012
153856000 -25.662142 -123.09344 -0.097315103 -31.106516 -0.094433725 -31.090902 -25.705832 -117.54858
154855000 -25.661192 -123.26887 -0.097926922 -31.305941 -0.095052287 -31.290005 -25.696566 -117.80067
155854000 -25.682201 -123.5388 -0.097763836 -31.502476 -0.09573736 -31.487856 -25.690199 -118.0263
156853000 -25.669319 -124.21322 -0.095100708 -31.691166 -0.094621032 -31.682461 -25.693317 -118.32591
157852000 -25.675133 -124.39512 -0.096815065 -31.892612 -0.096452445 -31.884642 -25.67654 -118.644
158851000 -25.670155 -124.63969 -0.097624049 -32.09267 -0.096469387 -32.084297 -25.663795 -118.97591
159850000 -25.665468 -124.73057 -0.098526388 -32.291576 -0.09703318 -32.28215 -25.662594 -119.11668
160849000 -25.649105 -124.831 -0.098668851 -32.490467 -0.09741199 -32.486004 -25.635471 -119.4183
161848000 -25.630621 -124.92493 -0.098936319 -32.692951 -0.09794043 -32.683765 -25.59054 -119.5523
162847000 -25.590508 -125.0798 -0.099079326 -32.892673 -0.098262131 -32.88567 -25.566822 -119.80349
163846000 -25.548138 -125.30495 -0.099521883 -33.092567 -0.098077312 -33.083908 -25.490669 -119.81106
164845000 -25.486315 -125.27179 -0.099761859 -33.289356 -0.098204143 -33.284645 -25.432129 -119.9297
165844000 -25.43622 -125.34296 -0.099912308 -33.488304 -0.09799391 -33.482239 -25.353708 -120.069
166843000 -25.375456 -125.39416 -0.099847674 -33.69096 -0.098550752 -33.688461 -25.287163 -120.23092
167842000 -25.31665 -125.49065 -0.1003168 -33.889652 -0.099432625 -33.884472 -25.207777 -120.13188
168841000 -25.235605 -125.67542 -0.10100324 -34.086563 -0.099293843 -34.084957 -25.127377 -120.21557
169840000 -25.17333 -125.89445 -0.10063206 -34.28606 -0.099816948 -34.283749 -25.049429 -120.38451
170839000 -25.116608 -126.17129 -0.10205018 -34.485832 -0.10014065 -34.475677 -24.959896 -120.56373
171838000 -25.056665 -126.56735 -0.10154774 -34.685371 -0.10155119 -34.680771 -24.897764 -120.81031
172837000 -24.987078 -126.85991 -0.10303323 -34.88184 -0.10204568 -34.876606 -24.832415 -121.02515
173836000 -24.91658 -127.3153 -0.10388818 -35.081894 -0.10389613 -35.077435 -24.788822 -121.2198
174835000 -24.863749 -127.72397 -0.10425592 -35.278744 -0.10416074 -35.278458 -24.742849 -121.54329
175834000 -24.813553 -128.03188 -0.10547923 -35.476959 -0.10550496 -35.472717 -24.678993 -121.82533
176833000 -24.762337 -128.40446 -0.10673074 -35.676331 -0.10587231 -35.674335 -24.63629 -121.94963
177832000 -24.721577 -128.85254 -0.10744764 -35.875233 -0.10657845 -35.876419 -24.617275 -122.07965
178831000 -24.677288 -129.09431 -0.10885949 -36.074718 -0.10882764 -36.071144 -24.570562 -122.16991
179830000 -24.607613 -129.41382 -0.11077499 -36.259846 -0.10977267 -36.264622 -24.516499 -122.2183
180829000 -24.547533 -129.76886 -0.10926721 -36.453991 -0.10903707 -36.449898 -24.463587 -122.52682
181828000 -24.525757 -130.21356 -0.10855851 -36.64991 -0.10876898 -36.646572 -24.450409 -122.73115
182827000 -24.504784 -130.58064 -0.10863362 -36.850246 -0.1083637 -36.849583 -24.432217 -122.8477
183826000 -24.463491 -130.94173 -0.10934632 -37.046333 -0.10821136 -37.046761 -24.429968 -122.99706
184825000 -24.46434 -131.25826 -0.10921094 -37.245453 -0.10914882 -37.242161 -24.409971 -123.12878
185824000 -24.437614 -131.61885 -0.10918918 -37.44096 -0.10923908 -37.443867 -24.396082 -123.19241
186823000 -24.419931 -132.00996 -0.10943923 -37.640991 -0.10905326 -37.639091 -24.396484 -123.1843
187822000 -24.393866 -132.343 -0.1098125 -37.838837 -0.11007852 -37.836479 -24.354795 -123.30057
188821000 -24.373774 -132.59859 -0.11005622 -38.03149 -0.11009764 -38.037201 -24.329912 -123.44209
189820000 -24.350552 -132.85963 -0.10978382 -38.232807 -0.11044334 -38.231945 -24.315725 -123.61262
190819000 -24.318907 -133.18732 -0.11124584 -38.431824 -0.11057717 -38.428596 -24.27865 -123.64896
191818000 -24.286022 -133.49075 -0.11103657 -38.628925 -0.11067648 -38.628239 -24.247747 -123.69991
192817000 -24.242706 -133.79424 -0.11207823 -38.823921 -0.11123415 -38.827896 -24.20455 -123.80692
193816000 -24.205214 -134.03621 -0.11191036 -39.021648 -0.11134516 -39.018658 -24.152195 -123.95236
194815000 -24.144947 -134.40324 -0.11231358 -39.218311 -0.1121983 -39.219112 -24.083921 -124.01411
195814000 -24.089947 -134.59428 -0.1134637 -39.415562 -0.1121813 -39.415539 -24.027901 -124.10596
196813000 -24.035025 -134.93227 -0.11378336 -39.60907 -0.11191514 -39.611118 -23.950085 -124.27795
197812000 -23.97439 -135.17674 -0.11327797 -39.805878 -0.11313821 -39.806168 -23.877373 -124.40179
198811000 -23.919798 -135.30911 -0.11359204 -40.00412 -0.11257392 -40.001678 -23.801153 -124.55492
199810000 -23.847643 -135.69742 -0.11368106 -40.199535 -0.11246075 -40.195896 -23.723955 -124.65695
200809000 -23.788727 -135.93671 -0.11439645 -40.396973 -0.11297561 -40.39859 -23.646376 -124.83508
201808000 -23.727081 -136.13402 -0.11457744 -40.593784 -0.11437731 -40.597996 -23.572365 -124.89075
202807000 -23.672443 -136.48917 -0.11520419 -40.799297 -0.11521801 -40.798965 -23.519915 -125.07795
