!Keysight Technologies,E5080B,MY59205177,A.15.75.32
!Date: Friday, February 23, 2024 02:50:19
!Correction: S11(Cdelta 2-Port  ) 
!S21(Cdelta 2-Port  ) 
!S12(Cdelta 2-Port  ) 
!S22(Cdelta 2-Port  ) 
!S2P File: Measurements: S11, S21, S12, S22:
# Hz S  dB   R 50
10000000 -42.190662 -3.7003224 -0.041909292 -2.0489891 -0.044938058 -2.102391 -51.673401 -134.9704
10999000 -41.69088 -4.9399095 -0.04267282 -2.2664227 -0.043952901 -2.3214898 -50.813351 -124.51632
11998000 -41.048862 -6.8990097 -0.043210063 -2.4889808 -0.04438857 -2.5334871 -50.570415 -117.44266
12997000 -40.505276 -10.921428 -0.042702362 -2.6677537 -0.0441234 -2.7012007 -49.399605 -110.74995
13996000 -40.310413 -13.492564 -0.041456886 -2.8454709 -0.044624206 -2.8689358 -48.539989 -105.59193
14995000 -40.100735 -16.950951 -0.043764371 -3.0568912 -0.043809343 -3.0837162 -47.950897 -102.51189
15994000 -39.985424 -20.035997 -0.044515669 -3.2762365 -0.046626966 -3.300493 -47.522476 -99.272171
16993000 -40.006859 -23.578028 -0.043920476 -3.4723814 -0.045956399 -3.4796991 -46.603428 -101.73556
17992000 -40.132778 -27.437624 -0.044388309 -3.6716323 -0.046632722 -3.6759417 -45.957352 -104.31757
18991000 -40.394058 -31.041225 -0.045749467 -3.8861284 -0.047402315 -3.8822641 -45.111229 -105.33867
19990000 -40.36705 -35.369568 -0.047830742 -4.092339 -0.049315244 -4.0866714 -44.521244 -108.00124
20989000 -40.306561 -37.726501 -0.050136901 -4.2984676 -0.051061906 -4.2838473 -43.867622 -109.13789
21988000 -40.297626 -41.823502 -0.050806019 -4.4944453 -0.051923189 -4.477201 -43.545002 -108.62765
22987000 -40.193066 -45.878605 -0.05203741 -4.6909947 -0.052553803 -4.6865878 -43.252323 -108.79131
23986000 -40.251041 -49.405407 -0.051272236 -4.8886743 -0.051688991 -4.8849998 -43.142239 -108.83533
24985000 -40.03381 -51.727554 -0.05219277 -5.0925112 -0.052049723 -5.0911837 -42.761124 -106.38916
25984000 -39.841515 -53.979504 -0.05286587 -5.3028913 -0.05296649 -5.3023658 -42.35508 -105.64902
26983000 -39.604351 -56.002831 -0.05426586 -5.4984899 -0.053078383 -5.5183544 -42.174721 -104.7998
27982000 -39.520622 -56.901203 -0.05499696 -5.7005286 -0.055700649 -5.7331662 -41.82238 -103.68562
28981000 -39.538479 -58.336624 -0.052880019 -5.8990088 -0.055569813 -5.924469 -41.505669 -103.3101
29980000 -39.212009 -60.045887 -0.054003231 -6.0938334 -0.055671282 -6.0998235 -41.193707 -103.08433
30979000 -38.85218 -59.732212 -0.051743217 -6.4479818 -0.050689735 -6.4308248 -40.65625 -104.27593
31978000 -38.697575 -60.929886 -0.050763328 -6.6417608 -0.051232159 -6.6343775 -40.359558 -103.94129
32977000 -38.550385 -62.610943 -0.051115863 -6.8555803 -0.051676419 -6.8475523 -40.133461 -104.45399
33976000 -38.464355 -63.760464 -0.051550679 -7.0510745 -0.052180715 -7.0487847 -39.770603 -104.25948
34975000 -38.195969 -64.943069 -0.051298428 -7.252995 -0.053198136 -7.2515607 -39.514214 -104.25984
35974000 -38.001728 -65.725616 -0.05111691 -7.4493451 -0.052389003 -7.4480305 -39.169468 -103.71703
36973000 -37.838772 -66.68219 -0.051196538 -7.6498642 -0.053737994 -7.6484561 -38.866943 -103.10194
37972000 -37.669003 -66.887604 -0.051235564 -7.8541746 -0.053475395 -7.8628225 -38.615952 -102.68977
38971000 -37.340992 -66.748863 -0.051775962 -8.0592556 -0.054336634 -8.0683212 -38.366959 -101.0518
39970000 -37.050488 -67.406982 -0.050303187 -8.2524605 -0.053125288 -8.2677774 -38.054306 -100.82352
40969000 -36.755657 -67.507133 -0.050887734 -8.4485378 -0.052913822 -8.4673252 -37.780205 -99.507339
41968000 -36.452118 -67.76619 -0.050813876 -8.6533213 -0.053285141 -8.6723413 -37.542908 -98.585983
42967000 -36.206524 -68.245552 -0.051135246 -8.8659945 -0.053482734 -8.8817844 -37.256424 -96.827286
43966000 -35.955921 -69.225906 -0.05242385 -9.0672922 -0.055000894 -9.0802526 -36.948452 -96.392075
44965000 -35.74469 -70.316879 -0.052325074 -9.2653818 -0.054628905 -9.2860756 -36.733162 -96.504425
45964000 -35.548492 -71.390022 -0.053863533 -9.4708033 -0.055718742 -9.4913378 -36.488979 -96.480423
46963000 -35.399742 -73.423927 -0.053889479 -9.6637478 -0.056523252 -9.6811657 -36.312225 -96.933006
47962000 -35.281284 -74.985374 -0.055360064 -9.8665657 -0.057994206 -9.8826866 -36.097317 -97.307945
48961000 -35.121815 -76.556625 -0.05749736 -10.060122 -0.059753809 -10.080419 -35.863583 -97.715027
49960000 -34.92754 -78.074287 -0.058581885 -10.260584 -0.061069127 -10.281032 -35.724422 -97.936592
50959000 -34.737091 -79.482719 -0.059616815 -10.474174 -0.061712097 -10.482198 -35.552513 -98.602486
51958000 -34.557362 -80.750298 -0.061333761 -10.672362 -0.063266233 -10.677828 -35.37936 -99.185219
52957000 -34.38549 -81.930298 -0.062816061 -10.872722 -0.064540572 -10.879439 -35.200413 -99.168976
53956000 -34.230747 -82.719666 -0.064060055 -11.075571 -0.065437116 -11.07278 -35.072178 -99.226501
54955000 -34.080322 -83.401192 -0.065246075 -11.277434 -0.066406131 -11.26802 -34.915882 -99.333511
55954000 -33.935139 -84.263191 -0.066769406 -11.477226 -0.066431627 -11.474292 -34.794365 -99.145309
56953000 -33.818504 -84.405457 -0.065736972 -11.676152 -0.065744855 -11.66293 -34.726086 -99.429329
57952000 -33.66787 -85.111382 -0.066872716 -11.870545 -0.066911355 -11.863336 -34.636913 -99.663795
58951000 -33.571556 -85.536324 -0.067940384 -12.075385 -0.067523643 -12.055295 -34.473396 -99.879471
59950000 -33.451374 -85.960098 -0.068723492 -12.27436 -0.06823568 -12.257399 -34.407639 -100.20087
60949000 -33.341282 -86.675537 -0.069203213 -12.480801 -0.06952884 -12.454227 -34.325886 -100.50886
61948000 -33.286701 -87.009598 -0.069435462 -12.675731 -0.069497541 -12.657384 -34.236187 -100.71072
62947000 -33.203438 -87.21875 -0.069334984 -12.887708 -0.069181383 -12.864268 -34.110504 -101.05285
63946000 -33.142727 -88.062294 -0.070824757 -13.087173 -0.071224444 -13.062827 -33.995541 -101.28297
64945000 -33.047924 -88.176483 -0.071202345 -13.289263 -0.071785495 -13.267836 -33.892677 -101.84682
65944000 -32.946831 -88.61615 -0.071760759 -13.486555 -0.0721379 -13.469481 -33.800735 -102.3407
66943000 -32.808723 -89.027557 -0.070254356 -13.689539 -0.07072714 -13.669397 -33.708542 -102.64284
67942000 -32.747215 -89.002396 -0.072240815 -13.886111 -0.071964458 -13.871647 -33.596966 -103.06515
68941000 -32.64769 -89.206657 -0.071628384 -14.078196 -0.071207605 -14.066071 -33.472519 -103.01188
69940000 -32.534458 -89.220634 -0.07273671 -14.280064 -0.072287925 -14.26975 -33.33276 -103.42979
70939000 -32.42918 -89.239304 -0.072317928 -14.474301 -0.071933143 -14.466242 -33.192875 -103.34422
71938000 -32.282543 -88.920837 -0.071837083 -14.669008 -0.071521543 -14.660956 -33.066734 -103.25608
72937000 -32.126499 -88.823807 -0.071136825 -14.871887 -0.071024463 -14.862845 -32.910942 -103.077
73936000 -31.976164 -88.573532 -0.070625052 -15.066118 -0.07030724 -15.060755 -32.78233 -102.88438
74935000 -31.85224 -88.81588 -0.070883431 -15.263875 -0.069944724 -15.259752 -32.620361 -102.57405
75934000 -31.735283 -89.207069 -0.071218923 -15.47355 -0.069904737 -15.467631 -32.537609 -102.56235
76933000 -31.61401 -89.671707 -0.071957879 -15.6636 -0.07137391 -15.655781 -32.359272 -103.10271
77932000 -31.5226 -90.449577 -0.073039703 -15.862942 -0.073541746 -15.853542 -32.267937 -103.10874
78931000 -31.458834 -91.216812 -0.072416894 -16.063051 -0.072319247 -16.053295 -32.160492 -102.95966
79930000 -31.352716 -92.077293 -0.074882314 -16.254234 -0.074943416 -16.254059 -32.069756 -103.37553
80929000 -31.240393 -93.072342 -0.076378994 -16.450832 -0.075829208 -16.444901 -31.96413 -103.83735
81928000 -31.167147 -93.929382 -0.076433793 -16.642485 -0.076512828 -16.636236 -31.832769 -103.91038
82927000 -31.079119 -94.72506 -0.077504873 -16.843237 -0.078504257 -16.836901 -31.746044 -104.33526
83926000 -30.979792 -95.503632 -0.079606958 -17.036293 -0.078958698 -17.036526 -31.62101 -104.5922
84925000 -30.874723 -95.980469 -0.080245301 -17.236486 -0.07903409 -17.233742 -31.527956 -104.7142
85924000 -30.786797 -96.523613 -0.081368752 -17.440769 -0.080999248 -17.437281 -31.433226 -104.75102
86923000 -30.6894 -97.145615 -0.081363477 -17.634775 -0.080579408 -17.631399 -31.339603 -104.73409
87922000 -30.591442 -97.538536 -0.081473202 -17.840324 -0.08081042 -17.834661 -31.248453 -104.90935
88921000 -30.51709 -97.841705 -0.082529433 -18.037268 -0.081670761 -18.034052 -31.16127 -104.84617
89920000 -30.431179 -98.442337 -0.083639756 -18.240402 -0.08308772 -18.228264 -31.113194 -105.06641
90919000 -30.323486 -98.818489 -0.084189214 -18.4405 -0.08336769 -18.433123 -31.011831 -105.26306
91918000 -30.230886 -99.22644 -0.085081905 -18.638735 -0.083980717 -18.630659 -30.955488 -105.36706
92917000 -30.150557 -99.606766 -0.085072406 -18.833315 -0.084929064 -18.830454 -30.88603 -105.47613
93916000 -30.063835 -100.05264 -0.085161366 -19.027153 -0.084942259 -19.021988 -30.808043 -106.19975
94915000 -29.99563 -100.68946 -0.087045051 -19.228872 -0.085655048 -19.223856 -30.739254 -106.10316
95914000 -29.928774 -100.91083 -0.087752365 -19.421844 -0.086788088 -19.420967 -30.656044 -106.39912
96913000 -29.852154 -101.18555 -0.088979483 -19.62458 -0.088105537 -19.619907 -30.595821 -106.7682
97912000 -29.778589 -101.71899 -0.090573274 -19.819359 -0.088234454 -19.817291 -30.507013 -107.03699
98911000 -29.674648 -101.88519 -0.090787902 -20.020245 -0.089649066 -20.017349 -30.461208 -107.30151
99910000 -29.611931 -102.11016 -0.091549762 -20.220507 -0.090218581 -20.219793 -30.360235 -107.58633
100909000 -29.514038 -102.38457 -0.090649396 -20.428661 -0.089155458 -20.421181 -30.267553 -107.82507
101908000 -29.432314 -102.6619 -0.091596827 -20.625689 -0.090790816 -20.623783 -30.145132 -107.59295
102907000 -29.294931 -102.71799 -0.092309117 -20.824381 -0.090777859 -20.826689 -30.074821 -107.57979
103906000 -29.199936 -102.83866 -0.092310436 -21.032158 -0.08984568 -21.026003 -29.913414 -107.55238
104905000 -29.052708 -102.78333 -0.093447328 -21.228739 -0.090716533 -21.228731 -29.778824 -107.23531
105904000 -28.911993 -102.9758 -0.094290078 -21.43215 -0.090853721 -21.427057 -29.662596 -107.09012
106903000 -28.79406 -103.07943 -0.093266159 -21.637756 -0.091386385 -21.631895 -29.529812 -107.09425
107902000 -28.635765 -103.47437 -0.094100669 -21.83856 -0.091968819 -21.829063 -29.387869 -107.08901
108901000 -28.526501 -103.74834 -0.095612459 -22.039192 -0.093400516 -22.02643 -29.244757 -107.03358
109900000 -28.405052 -104.27494 -0.096352927 -22.237259 -0.094433725 -22.229086 -29.100332 -107.23061
110899000 -28.291363 -104.9397 -0.098021179 -22.437508 -0.094876871 -22.424633 -28.969212 -107.53012
111898000 -28.205877 -105.63465 -0.098934732 -22.636312 -0.09600623 -22.630823 -28.851538 -107.71203
112897000 -28.087498 -106.24371 -0.10086706 -22.8375 -0.097111799 -22.827047 -28.713758 -107.95601
113896000 -27.982841 -106.86551 -0.10143434 -23.033796 -0.098614305 -23.025333 -28.606297 -108.15829
114895000 -27.889523 -107.59328 -0.10293383 -23.23579 -0.099984884 -23.222918 -28.490345 -108.26559
115894000 -27.754246 -107.95943 -0.10459665 -23.434654 -0.10141923 -23.420961 -28.420824 -108.49773
116893000 -27.683775 -108.56086 -0.10453646 -23.632799 -0.10227704 -23.613609 -28.286007 -108.71239
117892000 -27.601215 -109.0975 -0.10422596 -23.828167 -0.10191264 -23.811876 -28.215374 -108.94952
118891000 -27.548559 -109.5315 -0.10511483 -24.027998 -0.10293807 -24.015997 -28.117025 -109.12952
119890000 -27.456438 -109.93679 -0.10671906 -24.231236 -0.10398468 -24.215393 -28.106211 -109.30994
120889000 -27.401995 -110.44566 -0.10726084 -24.431973 -0.10427237 -24.41415 -28.030231 -109.29831
121888000 -27.365505 -110.80602 -0.10737175 -24.625109 -0.10504933 -24.616224 -27.969324 -109.59857
122887000 -27.321222 -111.03886 -0.10810282 -24.83005 -0.10513392 -24.815254 -27.926311 -109.63996
123886000 -27.271082 -111.45586 -0.10861557 -25.031702 -0.1061068 -25.01358 -27.913832 -109.81182
124885000 -27.237514 -112.01999 -0.10881437 -25.22702 -0.10561874 -25.216911 -27.880308 -109.90738
125884000 -27.178228 -112.21449 -0.10966462 -25.427067 -0.10601183 -25.415102 -27.849018 -110.06192
126883000 -27.160206 -112.56636 -0.11027925 -25.631027 -0.10671508 -25.61611 -27.808306 -110.13459
127882000 -27.111055 -112.89281 -0.10986851 -25.828907 -0.10743543 -25.810774 -27.763023 -110.29096
128881000 -27.07534 -113.23799 -0.11120786 -26.032211 -0.10787221 -26.013296 -27.729357 -110.43604
129880000 -27.023321 -113.54491 -0.111402 -26.233465 -0.10790936 -26.21043 -27.67495 -110.4569
130879000 -26.953098 -113.74784 -0.11117918 -26.432316 -0.1089654 -26.414604 -27.603706 -110.47967
131878000 -26.893972 -113.92589 -0.1118907 -26.63792 -0.10900442 -26.617161 -27.533413 -110.38715
132877000 -26.820347 -114.05904 -0.11184369 -26.834824 -0.10972143 -26.817913 -27.444359 -110.41431
133876000 -26.734625 -114.21296 -0.11195445 -27.036037 -0.10898637 -27.019936 -27.354389 -110.32481
134875000 -26.644096 -114.30639 -0.11233377 -27.242468 -0.10978993 -27.218077 -27.240932 -110.22296
135874000 -26.555283 -114.41573 -0.11282737 -27.433231 -0.10972966 -27.421618 -27.142942 -110.20472
136873000 -26.443998 -114.33881 -0.11328036 -27.639576 -0.10937127 -27.620111 -27.045938 -110.22364
137872000 -26.363136 -114.51412 -0.11263742 -27.833103 -0.10954224 -27.825413 -26.935797 -110.18816
138871000 -26.294662 -114.70538 -0.1134443 -28.040768 -0.11040033 -28.02471 -26.843758 -110.36833
139870000 -26.18709 -114.98942 -0.11439379 -28.240696 -0.11146946 -28.221443 -26.758894 -110.57984
140869000 -26.099697 -115.46677 -0.11570343 -28.434202 -0.11291504 -28.415983 -26.656693 -110.73058
141868000 -26.010225 -115.99739 -0.11605702 -28.630018 -0.11377911 -28.612322 -26.578552 -111.08898
142867000 -25.927721 -116.22781 -0.11456946 -28.824963 -0.1127482 -28.81221 -26.503372 -111.27831
143866000 -25.860174 -116.79267 -0.11649998 -29.023026 -0.11365528 -29.004765 -26.434502 -111.79594
144865000 -25.808275 -117.31184 -0.11799406 -29.220612 -0.11507341 -29.205889 -26.37196 -112.16058
145864000 -25.75676 -117.65832 -0.11865615 -29.420637 -0.11659385 -29.409836 -26.341505 -112.4581
146863000 -25.710323 -118.07498 -0.11918878 -29.625048 -0.11686534 -29.607447 -26.299871 -112.76448
147862000 -25.670996 -118.45984 -0.12052409 -29.817034 -0.11741211 -29.806061 -26.264654 -113.14832
148861000 -25.641737 -118.96433 -0.12048602 -30.015789 -0.11809221 -30.002596 -26.239193 -113.3883
149860000 -25.623226 -119.16374 -0.12159278 -30.213379 -0.11848377 -30.204712 -26.201099 -113.59753
150859000 -25.606447 -119.55875 -0.12130369 -30.414232 -0.11857156 -30.397055 -26.198223 -113.86074
151858000 -25.5938 -119.86444 -0.12103165 -30.616034 -0.11901025 -30.59664 -26.199366 -114.1168
152857000 -25.569761 -120.22314 -0.12154433 -30.811144 -0.11950274 -30.799458 -26.174194 -114.2665
153856000 -25.565947 -120.4415 -0.12149855 -31.009865 -0.11866919 -30.99477 -26.194141 -114.57152
154855000 -25.55657 -120.58314 -0.12237418 -31.209393 -0.11947959 -31.197466 -26.18751 -114.80761
155854000 -25.568369 -120.84959 -0.12187257 -31.409803 -0.11957299 -31.392958 -26.182791 -115.07817
156853000 -25.557121 -121.56676 -0.11999822 -31.595215 -0.11900972 -31.588734 -26.180294 -115.38733
157852000 -25.564884 -121.76972 -0.12159918 -31.796867 -0.1205475 -31.786646 -26.169699 -115.73747
158851000 -25.555477 -122.01314 -0.12207731 -31.995541 -0.12076122 -31.983574 -26.150509 -115.9522
159850000 -25.539463 -122.13905 -0.12269557 -32.192822 -0.12090176 -32.184856 -26.153202 -116.16835
160849000 -25.52626 -122.28233 -0.12278503 -32.393158 -0.12185048 -32.386806 -26.122004 -116.4238
161848000 -25.499325 -122.39826 -0.12342842 -32.592037 -0.12195963 -32.586155 -26.078739 -116.56252
162847000 -25.450788 -122.58131 -0.12336504 -32.791248 -0.12209888 -32.782253 -26.049616 -116.82497
163846000 -25.415871 -122.80652 -0.12392621 -32.98901 -0.12239175 -32.981544 -25.969202 -116.78861
164845000 -25.357033 -122.84639 -0.12388971 -33.190643 -0.12328354 -33.181225 -25.903736 -116.9206
165844000 -25.300457 -122.91274 -0.12402822 -33.386936 -0.12327502 -33.379997 -25.825274 -117.07368
166843000 -25.231863 -122.98738 -0.12465527 -33.584126 -0.1234942 -33.583584 -25.750212 -117.23973
167842000 -25.174801 -123.16234 -0.1240751 -33.787766 -0.12281912 -33.775486 -25.670982 -117.21333
168841000 -25.094234 -123.36665 -0.12445761 -33.98177 -0.123821 -33.981831 -25.591978 -117.3065
169840000 -25.029205 -123.63472 -0.12445921 -34.177906 -0.12465794 -34.178204 -25.501476 -117.52773
170839000 -24.970573 -123.931 -0.12612523 -34.37616 -0.12478421 -34.37463 -25.414734 -117.74113
171838000 -24.913763 -124.36874 -0.12567464 -34.580898 -0.12554194 -34.570473 -25.343571 -117.96442
172837000 -24.849396 -124.74239 -0.12694477 -34.773548 -0.12675819 -34.768848 -25.279076 -118.22988
173836000 -24.782013 -125.18027 -0.12882639 -34.972286 -0.12750293 -34.968334 -25.23728 -118.46373
174835000 -24.728628 -125.63158 -0.12924239 -35.168201 -0.12829445 -35.166866 -25.19231 -118.82356
175834000 -24.672907 -126.01061 -0.1294488 -35.364895 -0.12915012 -35.3601 -25.127094 -119.13103
176833000 -24.626963 -126.44357 -0.13054852 -35.565361 -0.13038632 -35.562229 -25.072857 -119.3232
177832000 -24.578091 -126.90414 -0.13111594 -35.76133 -0.13027322 -35.757721 -25.052298 -119.5288
178831000 -24.535812 -127.28053 -0.13166851 -35.957191 -0.13079314 -35.955097 -25.012714 -119.75867
179830000 -24.50428 -127.73099 -0.13265349 -36.157352 -0.13127497 -36.156792 -24.986101 -119.90163
180829000 -24.466948 -127.98415 -0.13296469 -36.349983 -0.13186197 -36.349087 -24.960678 -120.08904
181828000 -24.439983 -128.30544 -0.13258943 -36.552433 -0.13166985 -36.545479 -24.938377 -120.22461
182827000 -24.422461 -128.70726 -0.13279894 -36.740799 -0.13269085 -36.744843 -24.92312 -120.29539
183826000 -24.378214 -129.03474 -0.13410588 -36.938965 -0.13295829 -36.93792 -24.919403 -120.42579
184825000 -24.380083 -129.32906 -0.13318142 -37.134308 -0.13316834 -37.137497 -24.90451 -120.53845
185824000 -24.35729 -129.71489 -0.13334425 -37.333458 -0.13411628 -37.330986 -24.893852 -120.58874
186823000 -24.34219 -130.06061 -0.13411896 -37.534428 -0.13366939 -37.529102 -24.895231 -120.57854
187822000 -24.316128 -130.39551 -0.13492504 -37.72715 -0.13415633 -37.72506 -24.85512 -120.65805
188821000 -24.299973 -130.62134 -0.13460702 -37.924088 -0.13418517 -37.926758 -24.838007 -120.80464
189820000 -24.280291 -130.89481 -0.135187 -38.124355 -0.13470474 -38.124107 -24.833118 -120.9188
190819000 -24.252256 -131.16135 -0.13659562 -38.323883 -0.13588163 -38.323399 -24.79636 -120.87347
191818000 -24.219225 -131.31241 -0.13776046 -38.517632 -0.13708878 -38.518459 -24.760067 -120.7795
192817000 -24.144882 -131.60036 -0.13837133 -38.705303 -0.13753362 -38.705585 -24.687799 -120.83229
193816000 -24.108114 -131.96648 -0.13756835 -38.897911 -0.13659695 -38.896061 -24.629433 -121.15591
194815000 -24.050335 -132.44493 -0.13721274 -39.0919 -0.13691351 -39.096935 -24.566233 -121.26257
195814000 -23.995378 -132.65987 -0.13808806 -39.291832 -0.13670996 -39.29007 -24.510773 -121.37608
196813000 -23.94437 -133.00058 -0.13730732 -39.485935 -0.13670407 -39.485111 -24.430637 -121.5458
197812000 -23.885393 -133.24437 -0.13744624 -39.683544 -0.13687879 -39.684238 -24.358831 -121.69113
198811000 -23.834641 -133.43173 -0.13758412 -39.882481 -0.13702545 -39.878284 -24.287676 -121.85979
199810000 -23.762558 -133.81606 -0.13827191 -40.074005 -0.13678154 -40.0681 -24.204296 -121.98112
200809000 -23.705261 -134.10252 -0.13797985 -40.27523 -0.13678448 -40.273922 -24.124777 -122.18597
201808000 -23.648792 -134.36499 -0.13912822 -40.474087 -0.13813029 -40.473576 -24.056227 -122.24301
202807000 -23.590479 -134.729 -0.13968796 -40.674156 -0.13925919 -40.676762 -24.00293 -122.4894
203806000 -23.538725 -135.18317 -0.14098279 -40.869347 -0.13965482 -40.874832 -23.939991 -122.65494
204805000 -23.489038 -135.54375 -0.14248665 -41.075592 -0.14104187 -41.073441 -23.876535 -122.87003
