!Keysight Technologies,E5080B,MY59205177,A.15.75.32
!Date: Friday, February 23, 2024 03:28:34
!Correction: S11(Cdelta 2-Port  ) 
!S21(Cdelta 2-Port  ) 
!S12(Cdelta 2-Port  ) 
!S22(Cdelta 2-Port  ) 
!S2P File: Measurements: S11, S21, S12, S22:
# Hz S  dB   R 50
10000000 -46.013096 -1.4337677 -0.01636458 -2.0560498 -0.019721672 -2.1096792 -46.071709 -158.80579
10999000 -45.225681 -3.3856828 -0.017121552 -2.2694502 -0.018817354 -2.3286436 -45.991039 -152.12706
11998000 -44.260757 -6.519762 -0.016663663 -2.498302 -0.019159246 -2.5385284 -46.277233 -147.82861
12997000 -43.515205 -12.103829 -0.017228883 -2.6821146 -0.018640568 -2.7107008 -45.932339 -141.72531
13996000 -43.247711 -15.869739 -0.01634899 -2.8594928 -0.018595854 -2.8790817 -45.689537 -137.0318
14995000 -42.867405 -20.163628 -0.018581815 -3.0725861 -0.018326793 -3.0924187 -45.431858 -133.36862
15994000 -42.702744 -24.400324 -0.019370895 -3.289536 -0.02107694 -3.3118024 -45.316265 -129.78308
16993000 -42.640163 -29.051632 -0.018598193 -3.4874325 -0.020849342 -3.4966073 -44.478481 -129.52103
17992000 -42.7048 -34.344402 -0.019896161 -3.687109 -0.021028558 -3.6871474 -43.896046 -129.55322
18991000 -42.975815 -39.678074 -0.020340085 -3.8976612 -0.021774115 -3.8970737 -43.245274 -128.85902
19990000 -42.810249 -45.238113 -0.022581469 -4.1075983 -0.024735494 -4.1016555 -42.587791 -129.18823
20989000 -42.694191 -48.529282 -0.024768816 -4.3116341 -0.025988683 -4.3020072 -42.029446 -128.49144
21988000 -42.49548 -53.710541 -0.025330668 -4.5079865 -0.026515791 -4.5003233 -41.779922 -127.79223
22987000 -42.190121 -58.532516 -0.027424579 -4.7085748 -0.027547797 -4.7023253 -41.533504 -127.10976
23986000 -42.154591 -62.631409 -0.026505895 -4.9056845 -0.026776765 -4.9040909 -41.442448 -127.17696
24985000 -41.768684 -65.44796 -0.027658774 -5.1134744 -0.026795257 -5.1126256 -41.178997 -124.58161
25984000 -41.428429 -67.902039 -0.028778084 -5.3161917 -0.027749695 -5.321197 -40.885418 -123.16547
26983000 -41.091152 -69.674126 -0.028658219 -5.5196943 -0.02907203 -5.5416932 -40.750629 -122.49457
27982000 -40.931782 -70.569878 -0.030410148 -5.7194333 -0.029857283 -5.7537503 -40.500118 -120.50613
28981000 -40.916565 -72.013786 -0.028908897 -5.9178104 -0.029988389 -5.9443398 -40.239902 -120.08925
29980000 -40.490051 -73.529991 -0.028735088 -6.1118755 -0.030163031 -6.1209111 -40.020168 -119.17522
30979000 -40.109501 -72.322937 -0.025862904 -6.4650903 -0.024711283 -6.4615879 -39.495026 -119.49963
31978000 -39.928249 -73.370186 -0.025268959 -6.6623673 -0.026397029 -6.6499448 -39.247948 -118.89141
32977000 -39.713604 -74.935921 -0.025761086 -6.8754139 -0.026600696 -6.8723955 -39.004303 -118.88763
33976000 -39.565987 -76.128189 -0.026315253 -7.0705724 -0.027358152 -7.0725455 -38.713943 -118.1742
34975000 -39.259201 -76.774223 -0.026695762 -7.2755876 -0.028731963 -7.2763195 -38.472473 -118.00387
35974000 -39.045116 -77.406715 -0.02523355 -7.4726992 -0.027693423 -7.4745393 -38.223858 -116.81488
36973000 -38.822906 -78.220016 -0.02625249 -7.6719017 -0.028630339 -7.675386 -37.951427 -115.94579
37972000 -38.631615 -77.874489 -0.025568916 -7.8813419 -0.029652942 -7.8911848 -37.70195 -115.03803
38971000 -38.31662 -77.369301 -0.026204571 -8.0816889 -0.029202592 -8.0960112 -37.548546 -113.53118
39970000 -37.985664 -77.742989 -0.024930492 -8.2796116 -0.028273109 -8.2965317 -37.286407 -112.80785
40969000 -37.679924 -77.391327 -0.026030088 -8.4765329 -0.027958896 -8.4940386 -37.036953 -111.43073
41968000 -37.338394 -77.303574 -0.025633493 -8.6818018 -0.027777309 -8.7010059 -36.834347 -110.13311
42967000 -37.065674 -77.339096 -0.025551209 -8.8933029 -0.029640172 -8.9103079 -36.650906 -108.12428
43966000 -36.778244 -78.039055 -0.02701327 -9.0902281 -0.030126538 -9.1147184 -36.362598 -107.48137
44965000 -36.537167 -78.984505 -0.027970619 -9.295351 -0.030493826 -9.3212318 -36.15308 -107.25806
45964000 -36.299892 -80.096001 -0.028715545 -9.4990244 -0.031326789 -9.5207586 -35.922676 -106.87666
46963000 -36.107052 -82.015434 -0.029159071 -9.6881762 -0.03162821 -9.7152338 -35.726059 -107.17654
47962000 -35.936653 -83.427811 -0.029975617 -9.8965454 -0.033401422 -9.9137478 -35.545906 -107.12495
48961000 -35.733486 -84.863167 -0.032533374 -10.094356 -0.033984218 -10.114712 -35.305237 -107.2974
49960000 -35.494373 -86.125275 -0.03401944 -10.289827 -0.035637554 -10.317402 -35.157829 -107.42813
50959000 -35.274361 -87.570419 -0.034501862 -10.505616 -0.037276894 -10.518703 -34.984169 -107.66226
51958000 -35.060074 -88.580185 -0.036853686 -10.703958 -0.038140148 -10.718469 -34.809837 -108.13203
52957000 -34.857952 -89.593857 -0.03793646 -10.905262 -0.039121374 -10.916788 -34.656372 -107.79988
53956000 -34.688789 -90.307442 -0.03951633 -11.108151 -0.039828245 -11.108487 -34.514656 -107.76121
54955000 -34.522713 -90.811577 -0.040385254 -11.308028 -0.04134059 -11.307262 -34.368153 -107.76778
55954000 -34.352974 -91.64756 -0.041774429 -11.513811 -0.041353397 -11.507979 -34.247948 -107.35938
56953000 -34.230011 -91.647209 -0.040752888 -11.710715 -0.040278915 -11.700828 -34.18573 -107.5988
57952000 -34.066944 -92.16642 -0.042301629 -11.907888 -0.041767374 -11.903247 -34.08831 -107.64207
58951000 -33.95261 -92.558548 -0.042971108 -12.114078 -0.042318355 -12.092174 -33.945126 -107.74335
59950000 -33.831406 -92.941086 -0.044064298 -12.312346 -0.043276995 -12.290361 -33.861023 -107.98506
60949000 -33.707596 -93.440125 -0.044099864 -12.51769 -0.043913156 -12.492875 -33.773548 -108.32433
61948000 -33.657879 -93.796333 -0.044793159 -12.713263 -0.043334778 -12.694845 -33.686035 -108.28653
62947000 -33.565884 -93.989822 -0.044438522 -12.928379 -0.044612177 -12.907346 -33.538162 -108.64041
63946000 -33.482491 -94.772888 -0.045917679 -13.12627 -0.04540417 -13.111694 -33.432713 -108.7682
64945000 -33.375294 -94.877251 -0.046843357 -13.328982 -0.046222467 -13.310513 -33.317181 -109.28485
65944000 -33.273163 -95.22171 -0.046642143 -13.531976 -0.046923168 -13.512935 -33.231686 -109.72539
66943000 -33.138741 -95.610291 -0.045169014 -13.730922 -0.045310784 -13.715341 -33.115177 -109.91396
67942000 -33.071968 -95.521545 -0.047677632 -13.927034 -0.047326423 -13.915657 -33.005512 -110.23541
68941000 -32.952187 -95.63723 -0.046316132 -14.121683 -0.046340726 -14.110102 -32.892376 -110.19848
69940000 -32.871426 -95.60675 -0.047261786 -14.322133 -0.04644224 -14.315049 -32.736439 -110.43857
70939000 -32.759762 -95.558006 -0.047548085 -14.518201 -0.04658667 -14.510375 -32.621449 -110.3885
71938000 -32.609844 -95.117058 -0.047381118 -14.714682 -0.046658888 -14.708076 -32.475792 -110.2761
72937000 -32.447826 -94.942375 -0.046991203 -14.915842 -0.046884704 -14.907512 -32.346012 -109.81327
73936000 -32.307106 -94.501465 -0.046507653 -15.114106 -0.045418553 -15.109087 -32.230129 -109.72683
74935000 -32.186146 -94.840073 -0.046872403 -15.308648 -0.045044512 -15.305363 -32.065887 -109.36365
75934000 -32.062908 -95.045036 -0.046223514 -15.522723 -0.044707898 -15.513614 -31.974695 -109.27296
76933000 -31.933374 -95.411377 -0.047171239 -15.711475 -0.046280287 -15.70725 -31.808826 -109.5676
77932000 -31.817099 -96.230682 -0.047808234 -15.910424 -0.048020497 -15.907376 -31.70982 -109.59604
78931000 -31.744553 -96.969139 -0.047233522 -16.109329 -0.04746617 -16.103262 -31.600786 -109.43681
79930000 -31.624231 -97.822929 -0.049799368 -16.303114 -0.050130352 -16.30566 -31.498762 -109.72509
80929000 -31.514364 -98.59864 -0.051565349 -16.50144 -0.05107474 -16.500103 -31.397867 -109.97585
81928000 -31.414799 -99.287086 -0.051649176 -16.693489 -0.051995493 -16.690763 -31.274824 -109.97767
82927000 -31.315506 -100.11002 -0.052898362 -16.894859 -0.053257886 -16.888988 -31.165245 -110.23137
83926000 -31.198584 -100.79233 -0.054612651 -17.092407 -0.054364678 -17.092768 -31.043903 -110.47739
84925000 -31.087744 -101.23696 -0.055082161 -17.29118 -0.054672681 -17.286354 -30.944754 -110.55666
85924000 -30.999397 -101.62804 -0.056322899 -17.491716 -0.056154281 -17.490208 -30.853226 -110.50814
86923000 -30.886799 -102.11082 -0.056563903 -17.692215 -0.056200698 -17.686365 -30.755028 -110.30199
87922000 -30.77817 -102.45663 -0.056706831 -17.898472 -0.056780528 -17.887447 -30.672014 -110.36644
88921000 -30.709707 -102.6823 -0.057401095 -18.098505 -0.057141423 -18.093372 -30.567669 -110.33396
89920000 -30.604496 -103.21085 -0.058366742 -18.297676 -0.057387717 -18.288589 -30.52272 -110.43719
90919000 -30.489754 -103.49049 -0.059764571 -18.494978 -0.058574539 -18.490557 -30.424019 -110.65189
91918000 -30.397915 -103.91485 -0.060014952 -18.692322 -0.058509994 -18.688698 -30.350248 -110.67862
92917000 -30.303988 -104.1481 -0.061560601 -18.894646 -0.060393699 -18.887091 -30.295248 -110.76105
93916000 -30.224693 -104.54224 -0.060557231 -19.085243 -0.060192116 -19.080666 -30.204702 -111.37507
94915000 -30.142469 -105.16365 -0.062429745 -19.288324 -0.061454266 -19.282833 -30.138823 -111.24566
95914000 -30.073803 -105.33117 -0.063163005 -19.481508 -0.062357791 -19.479843 -30.049446 -111.46888
96913000 -29.98485 -105.57487 -0.064768635 -19.684134 -0.063557006 -19.680321 -29.981752 -111.85468
97912000 -29.91025 -105.9915 -0.065357231 -19.879488 -0.062992021 -19.881964 -29.895054 -112.08434
98911000 -29.800018 -106.20422 -0.065940127 -20.08238 -0.064964123 -20.078753 -29.863579 -112.29463
99910000 -29.733086 -106.35937 -0.066956043 -20.280531 -0.065124936 -20.279724 -29.753469 -112.57338
100909000 -29.637463 -106.60302 -0.066648483 -20.48962 -0.064853504 -20.482424 -29.657431 -112.73387
101908000 -29.545965 -106.81255 -0.067172669 -20.690916 -0.065867588 -20.689716 -29.556274 -112.53678
102907000 -29.40864 -106.83321 -0.0679956 -20.891123 -0.065715946 -20.890186 -29.472595 -112.54839
103906000 -29.31064 -106.87154 -0.068281956 -21.096664 -0.065511487 -21.096613 -29.332081 -112.49057
104905000 -29.171021 -106.7858 -0.068657748 -21.295273 -0.066589601 -21.293348 -29.204252 -112.18916
105904000 -29.026951 -106.84998 -0.069004372 -21.49321 -0.066148289 -21.49041 -29.08853 -112.0806
106903000 -28.91449 -106.89395 -0.069445193 -21.704062 -0.066952631 -21.697956 -28.959484 -111.97298
107902000 -28.748398 -107.24931 -0.069924466 -21.902386 -0.067669824 -21.898434 -28.828135 -111.85287
108901000 -28.638008 -107.48086 -0.07110709 -22.103849 -0.069217153 -22.10018 -28.696348 -111.8686
109900000 -28.502855 -107.97045 -0.071580492 -22.307526 -0.070467457 -22.298269 -28.552971 -111.93882
110899000 -28.389597 -108.59191 -0.073376149 -22.50737 -0.070443518 -22.499649 -28.421417 -112.17485
111898000 -28.298571 -109.26291 -0.074449368 -22.707279 -0.072205283 -22.701244 -28.29829 -112.34489
112897000 -28.170837 -109.85278 -0.076238051 -22.908293 -0.073181599 -22.895828 -28.166861 -112.47698
113896000 -28.067654 -110.37241 -0.076760754 -23.109526 -0.074474655 -23.098391 -28.051445 -112.58923
114895000 -27.961414 -111.04482 -0.07830473 -23.306683 -0.076164022 -23.29215 -27.937641 -112.65576
115894000 -27.835926 -111.41008 -0.078515857 -23.509237 -0.077554151 -23.494932 -27.875914 -112.90286
116893000 -27.763071 -111.85121 -0.080072328 -23.704458 -0.078512691 -23.688677 -27.751299 -112.95973
117892000 -27.683899 -112.38818 -0.081371918 -23.90447 -0.078934185 -23.888226 -27.673687 -113.14331
118891000 -27.621914 -112.79324 -0.081135072 -24.102686 -0.078947887 -24.087502 -27.580767 -113.27832
119890000 -27.536718 -113.15086 -0.081875458 -24.306213 -0.079821579 -24.290339 -27.565889 -113.42463
120889000 -27.484653 -113.63861 -0.08213345 -24.504734 -0.079594836 -24.489157 -27.488424 -113.32086
121888000 -27.448555 -113.96382 -0.082971096 -24.700686 -0.081017971 -24.690567 -27.427471 -113.61101
122887000 -27.40864 -114.16049 -0.084153056 -24.902849 -0.080626346 -24.888876 -27.386391 -113.63474
123886000 -27.354673 -114.59034 -0.084707864 -25.106892 -0.081424408 -25.091356 -27.367821 -113.75705
124885000 -27.317141 -115.102 -0.085667722 -25.306688 -0.081390381 -25.294062 -27.344219 -113.82673
125884000 -27.266632 -115.33308 -0.086031549 -25.503889 -0.081785768 -25.489996 -27.308949 -113.96443
126883000 -27.247484 -115.69154 -0.086631753 -25.708885 -0.082973212 -25.695011 -27.271887 -114.0094
127882000 -27.196236 -116.03553 -0.086599268 -25.910126 -0.083742939 -25.892361 -27.229561 -114.10208
128881000 -27.166296 -116.28777 -0.087101564 -26.112421 -0.083279818 -26.093573 -27.188545 -114.20735
129880000 -27.115656 -116.67011 -0.087841913 -26.314497 -0.083416238 -26.292929 -27.147942 -114.15342
130879000 -27.052727 -116.78712 -0.087406881 -26.508879 -0.084524415 -26.495071 -27.078398 -114.18687
131878000 -26.982981 -116.99854 -0.087556906 -26.716908 -0.084508047 -26.694284 -27.007036 -114.04916
132877000 -26.918545 -117.09224 -0.087028936 -26.915453 -0.084971301 -26.898834 -26.931238 -114.05126
133876000 -26.833826 -117.25388 -0.087930135 -27.119335 -0.084624715 -27.09676 -26.844269 -113.92104
134875000 -26.734669 -117.38665 -0.088574454 -27.318176 -0.085629962 -27.301901 -26.740088 -113.72808
135874000 -26.65275 -117.43616 -0.088652134 -27.515886 -0.085025147 -27.501574 -26.643457 -113.69395
136873000 -26.540758 -117.36021 -0.089130886 -27.720232 -0.085039407 -27.707172 -26.563965 -113.644
137872000 -26.456255 -117.48293 -0.088992171 -27.924019 -0.086100198 -27.907583 -26.462797 -113.59731
138871000 -26.383286 -117.68113 -0.089583792 -28.1238 -0.085527793 -28.106668 -26.359093 -113.77183
139870000 -26.288031 -117.96767 -0.090179726 -28.320723 -0.086981662 -28.309666 -26.281542 -113.92307
140869000 -26.206497 -118.54037 -0.090872489 -28.522251 -0.087493517 -28.502449 -26.179148 -114.15379
141868000 -26.125374 -118.88868 -0.091741443 -28.720949 -0.089583531 -28.707375 -26.13122 -114.37941
142867000 -26.043972 -119.12714 -0.09050931 -28.917095 -0.088808537 -28.901573 -26.049109 -114.48912
143866000 -25.973156 -119.62431 -0.092541814 -29.114962 -0.09017814 -29.097321 -25.974588 -114.93341
144865000 -25.91643 -120.13409 -0.094137706 -29.315193 -0.091392204 -29.297386 -25.915405 -115.25625
145864000 -25.859793 -120.43922 -0.094753578 -29.516766 -0.092795148 -29.505875 -25.888842 -115.51939
146863000 -25.810389 -120.82375 -0.095092237 -29.715366 -0.09290833 -29.707245 -25.837666 -115.78996
147862000 -25.779966 -121.13728 -0.096505381 -29.911253 -0.093852282 -29.895954 -25.808849 -116.10374
148861000 -25.743963 -121.60204 -0.09726163 -30.113646 -0.095125318 -30.09967 -25.789721 -116.26358
149860000 -25.711542 -121.76308 -0.098849721 -30.30975 -0.09552063 -30.292763 -25.731411 -116.37536
150859000 -25.686279 -122.23743 -0.097848028 -30.503052 -0.095711164 -30.489866 -25.712343 -116.70853
151858000 -25.681932 -122.58595 -0.097520269 -30.703238 -0.095831566 -30.688726 -25.698561 -117.08074
152857000 -25.666073 -122.91833 -0.097721472 -30.90164 -0.095972359 -30.885969 -25.684248 -117.24129
153856000 -25.658541 -123.1413 -0.097801432 -31.102701 -0.094858348 -31.087139 -25.704369 -117.52943
154855000 -25.661175 -123.28313 -0.098313496 -31.301846 -0.095089331 -31.288237 -25.698446 -117.80678
155854000 -25.678671 -123.52624 -0.09823247 -31.502268 -0.095625684 -31.488966 -25.685753 -118.08147
156853000 -25.664026 -124.24143 -0.095906459 -31.692574 -0.095570117 -31.681587 -25.685991 -118.3676
157852000 -25.671497 -124.40701 -0.0973977 -31.888672 -0.097183004 -31.883528 -25.677156 -118.73056
158851000 -25.669163 -124.64227 -0.098046333 -32.092236 -0.097030528 -32.079044 -25.661058 -119.00149
159850000 -25.660427 -124.72276 -0.098963596 -32.290611 -0.09700644 -32.280235 -25.661144 -119.18814
160849000 -25.647581 -124.8522 -0.098824032 -32.488415 -0.098364867 -32.484161 -25.628475 -119.46482
161848000 -25.627092 -124.94084 -0.09926445 -32.691299 -0.098088965 -32.686821 -25.592661 -119.56467
162847000 -25.589382 -125.15936 -0.09965352 -32.886971 -0.09867733 -32.886219 -25.562634 -119.81478
163846000 -25.550596 -125.31663 -0.099906743 -33.093952 -0.098635226 -33.083569 -25.490992 -119.82829
164845000 -25.491045 -125.29964 -0.099567175 -33.289719 -0.098700099 -33.283356 -25.42802 -119.93678
165844000 -25.434078 -125.3081 -0.10004872 -33.48872 -0.099335164 -33.483875 -25.345427 -120.05771
166843000 -25.375753 -125.41612 -0.10011812 -33.690067 -0.099217303 -33.685585 -25.280426 -120.2033
167842000 -25.314941 -125.5089 -0.1005086 -33.888569 -0.099961311 -33.88382 -25.198544 -120.13251
168841000 -25.239342 -125.6637 -0.10105649 -34.087376 -0.10049191 -34.084373 -25.122686 -120.18954
169840000 -25.173397 -125.90501 -0.10114446 -34.28204 -0.10007469 -34.282314 -25.042656 -120.42699
170839000 -25.114658 -126.1655 -0.10222297 -34.48407 -0.10024183 -34.477692 -24.957867 -120.5752
171838000 -25.054117 -126.52835 -0.10229082 -34.686882 -0.10183711 -34.677559 -24.89492 -120.80761
172837000 -24.97753 -126.90718 -0.10343006 -34.880306 -0.10296458 -34.877167 -24.829182 -121.00384
173836000 -24.917292 -127.28339 -0.10481384 -35.084 -0.10385 -35.07769 -24.786991 -121.25101
174835000 -24.864611 -127.70802 -0.10491487 -35.278511 -0.10484168 -35.277561 -24.742237 -121.55681
175834000 -24.806438 -128.07315 -0.10613385 -35.477047 -0.10504641 -35.473721 -24.678951 -121.84685
176833000 -24.761972 -128.41428 -0.10734681 -35.678875 -0.10567709 -35.675362 -24.629913 -121.98919
177832000 -24.717325 -128.85004 -0.10799799 -35.877106 -0.10768592 -35.873234 -24.609926 -122.10287
178831000 -24.6742 -129.07643 -0.10945038 -36.073425 -0.1088855 -36.07019 -24.576729 -122.1917
179830000 -24.599144 -129.40858 -0.11099833 -36.257717 -0.11017995 -36.260635 -24.516567 -122.19174
180829000 -24.548195 -129.82718 -0.11092291 -36.448208 -0.10907556 -36.448856 -24.463037 -122.56074
181828000 -24.51897 -130.25125 -0.1093665 -36.648895 -0.10801551 -36.649174 -24.446091 -122.75522
182827000 -24.50421 -130.62639 -0.10882951 -36.849174 -0.10882924 -36.847473 -24.429085 -122.88757
183826000 -24.459202 -130.94853 -0.11111279 -37.0471 -0.10918944 -37.048592 -24.420238 -123.04227
184825000 -24.460714 -131.29892 -0.10993382 -37.244884 -0.10915573 -37.243481 -24.400961 -123.1507
185824000 -24.437563 -131.67326 -0.10981356 -37.439213 -0.1090607 -37.442394 -24.395458 -123.21034
186823000 -24.417736 -132.02672 -0.11084802 -37.643742 -0.10936968 -37.638622 -24.394594 -123.23158
187822000 -24.396652 -132.35976 -0.11116829 -37.832123 -0.10977081 -37.831905 -24.350142 -123.32645
188821000 -24.368877 -132.60413 -0.11101533 -38.032051 -0.11018711 -38.035023 -24.327076 -123.44865
189820000 -24.347607 -132.93428 -0.1114923 -38.234009 -0.10988577 -38.230186 -24.312914 -123.62864
190819000 -24.318581 -133.19275 -0.1114089 -38.429806 -0.11031748 -38.426411 -24.27187 -123.66562
191818000 -24.289598 -133.48975 -0.11164794 -38.626244 -0.11117519 -38.629173 -24.244814 -123.72287
192817000 -24.237514 -133.77559 -0.11238026 -38.825352 -0.11128063 -38.827374 -24.197609 -123.82697
193816000 -24.207088 -134.03232 -0.11241878 -39.019459 -0.11125859 -39.021534 -24.147657 -123.96385
194815000 -24.144842 -134.43388 -0.1126058 -39.214123 -0.11194754 -39.217026 -24.077793 -124.04013
195814000 -24.086678 -134.65018 -0.11384422 -39.415112 -0.1123529 -39.415783 -24.025475 -124.13789
196813000 -24.037077 -134.95741 -0.11326788 -39.610332 -0.11209205 -39.609314 -23.947044 -124.30019
197812000 -23.973234 -135.17429 -0.11329179 -39.809814 -0.11313343 -39.801983 -23.872866 -124.38457
198811000 -23.920685 -135.32487 -0.11302344 -40.005112 -0.11254045 -40.004528 -23.803072 -124.54537
199810000 -23.851471 -135.69614 -0.11362977 -40.197418 -0.11306594 -40.197014 -23.721491 -124.64278
200809000 -23.787998 -135.9814 -0.11421812 -40.392647 -0.11303672 -40.396091 -23.642721 -124.83418
201808000 -23.72942 -136.17361 -0.11506092 -40.596767 -0.11442914 -40.599483 -23.573124 -124.88981
202807000 -23.67201 -136.51486 -0.11570369 -40.798088 -0.11546125 -40.800892 -23.518639 -125.10496
