!Keysight Technologies,E5080B,MY59205177,A.15.75.32
!Date: Friday, February 23, 2024 02:50:25
!Correction: S11(Cdelta 2-Port  ) 
!S21(Cdelta 2-Port  ) 
!S12(Cdelta 2-Port  ) 
!S22(Cdelta 2-Port  ) 
!S2P File: Measurements: S11, S21, S12, S22:
# Hz S  dB   R 50
10000000 -42.251198 -3.6485155 -0.041454535 -2.0479684 -0.044978861 -2.1034176 -51.421612 -135.46419
10999000 -41.761162 -4.8552909 -0.042740792 -2.2658894 -0.044421259 -2.320914 -50.686104 -125.26491
11998000 -41.097588 -7.0038695 -0.042596228 -2.491303 -0.044116337 -2.5317945 -50.608807 -117.69765
12997000 -40.545403 -10.83751 -0.042051483 -2.6709442 -0.04358029 -2.6961894 -49.325886 -112.08206
13996000 -40.364132 -13.737509 -0.041353397 -2.8477097 -0.043757573 -2.8682697 -48.511753 -105.41811
14995000 -40.082352 -16.967735 -0.042746019 -3.0600433 -0.043876287 -3.0809267 -47.890194 -103.26326
15994000 -40.053894 -20.203316 -0.044214141 -3.2766993 -0.045821931 -3.2968993 -47.474194 -100.0808
16993000 -40.026672 -23.36742 -0.043500282 -3.473696 -0.045334063 -3.4828737 -46.633984 -102.54068
17992000 -40.141422 -27.384533 -0.043776136 -3.6749756 -0.045631226 -3.6756225 -46.024979 -105.07202
18991000 -40.42046 -30.990984 -0.044948258 -3.8808701 -0.046854351 -3.8821356 -45.144211 -105.70062
19990000 -40.396812 -35.50386 -0.047655389 -4.0942168 -0.049273092 -4.0877671 -44.520416 -108.65117
20989000 -40.332779 -37.947662 -0.050049439 -4.2964869 -0.050769351 -4.2857494 -43.812714 -109.23312
21988000 -40.346283 -42.137794 -0.050375205 -4.4924316 -0.051163796 -4.4805903 -43.511204 -109.07584
22987000 -40.212559 -45.952282 -0.051557228 -4.6950593 -0.052342627 -4.6833415 -43.22855 -109.51802
23986000 -40.330944 -49.311138 -0.051361818 -4.8852081 -0.051004808 -4.8827486 -43.074512 -108.95246
24985000 -40.036503 -51.980965 -0.052444287 -5.0928984 -0.051864244 -5.0902743 -42.741291 -107.05756
25984000 -39.843445 -54.196026 -0.053436611 -5.3025088 -0.052516077 -5.302834 -42.343834 -106.16632
26983000 -39.666958 -56.176567 -0.053679552 -5.501965 -0.053454168 -5.5174856 -42.159576 -105.0828
27982000 -39.577301 -57.12672 -0.055368979 -5.7018991 -0.054987259 -5.7294917 -41.843212 -104.14767
28981000 -39.55389 -58.758049 -0.053901013 -5.9014301 -0.055332012 -5.9213443 -41.525009 -103.66886
29980000 -39.240803 -60.225182 -0.053672735 -6.0903821 -0.054982018 -6.1013293 -41.143044 -103.2354
30979000 -38.85796 -59.984848 -0.050415795 -6.448133 -0.050065674 -6.4328251 -40.636257 -104.71806
31978000 -38.708942 -61.196564 -0.050972071 -6.6401439 -0.050567165 -6.6294999 -40.373154 -104.16127
32977000 -38.581291 -62.854671 -0.050742377 -6.8510618 -0.051340599 -6.8491116 -40.088509 -104.61611
33976000 -38.485054 -64.047157 -0.051038858 -7.0533953 -0.052518956 -7.0470543 -39.752037 -104.57193
34975000 -38.228565 -65.099007 -0.051432803 -7.2519007 -0.052996624 -7.2517204 -39.510456 -104.64647
35974000 -38.040791 -65.858246 -0.050353467 -7.4471216 -0.052440617 -7.4518929 -39.170845 -103.86678
36973000 -37.845585 -66.862427 -0.051101197 -7.6458831 -0.053925913 -7.6503215 -38.843678 -103.27935
37972000 -37.666473 -66.980858 -0.050780874 -7.854425 -0.053929582 -7.8659902 -38.57336 -102.72806
38971000 -37.363773 -66.868805 -0.052075922 -8.0616932 -0.053364541 -8.0691605 -38.345432 -101.2166
39970000 -37.046177 -67.458412 -0.050461888 -8.253582 -0.052586816 -8.2701883 -38.042179 -101.02314
40969000 -36.783813 -67.620148 -0.050327543 -8.4462576 -0.052422013 -8.4642706 -37.754715 -99.723045
41968000 -36.444897 -68.060188 -0.051079456 -8.6549568 -0.052690316 -8.6660223 -37.536022 -98.755531
42967000 -36.224411 -68.45166 -0.050783232 -8.8654051 -0.052487779 -8.8827276 -37.248753 -97.137589
43966000 -35.970303 -69.447563 -0.051450878 -9.065568 -0.054342136 -9.0828362 -36.949039 -96.67337
44965000 -35.754089 -70.43734 -0.05267407 -9.2660704 -0.053951859 -9.2870083 -36.72617 -96.667252
45964000 -35.557613 -71.622276 -0.053282518 -9.4649687 -0.056037329 -9.4856062 -36.463295 -96.732101
46963000 -35.413719 -73.577438 -0.053789627 -9.6627016 -0.056371413 -9.6797075 -36.303577 -97.116882
47962000 -35.293015 -75.056374 -0.055146918 -9.8635359 -0.057313748 -9.8798523 -36.085972 -97.493469
48961000 -35.130985 -76.665482 -0.05757999 -10.059135 -0.059338115 -10.081904 -35.861843 -97.794876
49960000 -34.930183 -78.116264 -0.059114538 -10.259835 -0.060631257 -10.282063 -35.742275 -98.140579
50959000 -34.743073 -79.59481 -0.059191164 -10.473557 -0.061600771 -10.484478 -35.550007 -98.633942
51958000 -34.574501 -80.789528 -0.06122192 -10.672153 -0.062745146 -10.68027 -35.383472 -99.37104
52957000 -34.383022 -82.005409 -0.062975742 -10.868891 -0.063972838 -10.878149 -35.206123 -99.300949
53956000 -34.250748 -82.856483 -0.063887723 -11.075124 -0.06453637 -11.074042 -35.067822 -99.401443
54955000 -34.091381 -83.518318 -0.064642519 -11.27727 -0.065663911 -11.269242 -34.927029 -99.512344
55954000 -33.935432 -84.419357 -0.065980598 -11.477219 -0.066190861 -11.472525 -34.803959 -99.255249
56953000 -33.826599 -84.576981 -0.065470755 -11.673703 -0.065797418 -11.66 -34.734127 -99.641563
57952000 -33.677814 -85.243752 -0.066945001 -11.867634 -0.066534139 -11.863179 -34.631523 -99.838127
58951000 -33.582367 -85.68705 -0.068070017 -12.074826 -0.067100108 -12.054178 -34.465385 -99.994583
59950000 -33.465515 -86.12104 -0.068062395 -12.278193 -0.067878067 -12.249821 -34.410515 -100.34946
60949000 -33.364136 -86.80014 -0.06894362 -12.475331 -0.068448417 -12.452211 -34.310204 -100.72147
61948000 -33.302715 -87.119415 -0.069269493 -12.678201 -0.068253033 -12.657488 -34.233677 -100.78257
62947000 -33.206627 -87.457314 -0.069327883 -12.887525 -0.069630109 -12.868084 -34.076077 -101.17609
63946000 -33.150135 -88.191696 -0.070753448 -13.084861 -0.070286982 -13.066145 -33.989239 -101.33743
64945000 -33.049633 -88.332024 -0.070814759 -13.286925 -0.071311548 -13.268556 -33.88839 -101.97411
65944000 -32.951061 -88.632347 -0.071823396 -13.486681 -0.07136523 -13.469503 -33.796127 -102.46477
66943000 -32.814434 -89.178139 -0.069477022 -13.687242 -0.069835551 -13.669098 -33.6968 -102.80116
67942000 -32.746006 -89.194618 -0.07142549 -13.884592 -0.071850762 -13.874099 -33.576977 -103.15975
68941000 -32.636028 -89.21579 -0.070930794 -14.080507 -0.070675574 -14.065162 -33.456593 -103.21591
69940000 -32.547485 -89.287971 -0.071206287 -14.278633 -0.071694441 -14.268057 -33.313789 -103.53474
70939000 -32.441025 -89.331688 -0.071466282 -14.468057 -0.071262866 -14.466898 -33.182201 -103.41914
71938000 -32.285984 -88.996895 -0.071201555 -14.668991 -0.071344174 -14.659208 -33.041878 -103.42191
72937000 -32.122044 -88.8787 -0.071491539 -14.869006 -0.071581014 -14.860576 -32.896233 -103.10425
73936000 -31.982147 -88.617737 -0.071045779 -15.065969 -0.070211478 -15.057518 -32.782475 -102.9668
74935000 -31.854418 -88.924484 -0.071089722 -15.264732 -0.070146494 -15.258183 -32.61639 -102.67899
75934000 -31.731333 -89.317886 -0.070485085 -15.472062 -0.069815032 -15.468145 -32.52713 -102.74831
76933000 -31.620361 -89.731194 -0.071413912 -15.662886 -0.071271814 -15.658164 -32.363327 -103.17795
77932000 -31.525522 -90.541367 -0.073126309 -15.863324 -0.072996527 -15.857293 -32.261623 -103.23212
78931000 -31.461372 -91.313477 -0.071964987 -16.059971 -0.072064735 -16.05521 -32.160404 -103.11275
79930000 -31.361919 -92.208221 -0.074363261 -16.253471 -0.074788563 -16.250618 -32.069191 -103.48404
80929000 -31.241632 -93.129829 -0.07598041 -16.447926 -0.075968556 -16.445633 -31.95632 -103.84435
81928000 -31.170242 -94.046181 -0.076042317 -16.63938 -0.076773927 -16.637165 -31.829504 -104.09543
82927000 -31.083887 -94.813858 -0.077776045 -16.841089 -0.077815309 -16.838367 -31.739243 -104.40725
83926000 -30.982679 -95.546005 -0.079420827 -17.038139 -0.078723826 -17.038275 -31.618868 -104.67986
84925000 -30.885645 -96.068932 -0.080128223 -17.236471 -0.07907258 -17.231936 -31.52986 -104.88853
85924000 -30.787903 -96.616653 -0.081340529 -17.43692 -0.080283538 -17.432775 -31.434439 -104.86434
86923000 -30.695446 -97.166565 -0.081513554 -17.634857 -0.081001885 -17.630817 -31.339062 -104.7981
87922000 -30.589283 -97.603477 -0.08070071 -17.839552 -0.080635309 -17.832523 -31.244972 -104.90548
88921000 -30.519011 -97.999863 -0.082265086 -18.042547 -0.081830353 -18.034752 -31.152491 -104.94224
89920000 -30.430082 -98.583527 -0.082720973 -18.242193 -0.082247935 -18.229231 -31.103575 -105.20927
90919000 -30.332762 -98.889046 -0.083424687 -18.43331 -0.083633155 -18.428192 -31.017311 -105.39314
91918000 -30.234219 -99.336937 -0.08430323 -18.634027 -0.08340463 -18.633762 -30.942039 -105.44446
92917000 -30.159716 -99.703705 -0.085798405 -18.833151 -0.084816612 -18.827019 -30.873669 -105.61608
93916000 -30.066126 -100.11275 -0.085044682 -19.02495 -0.084371857 -19.019106 -30.798235 -106.27486
94915000 -30.001411 -100.82858 -0.087058254 -19.225365 -0.08534009 -19.221981 -30.732977 -106.15837
95914000 -29.935619 -101.03214 -0.087840065 -19.422138 -0.086665817 -19.419302 -30.640724 -106.51473
96913000 -29.851343 -101.27467 -0.089059547 -19.621323 -0.087818138 -19.618668 -30.569893 -106.8282
97912000 -29.776546 -101.81937 -0.090301834 -19.816069 -0.088013873 -19.818024 -30.494898 -107.17558
98911000 -29.681637 -102.02345 -0.090874076 -20.018375 -0.089382961 -20.016199 -30.45956 -107.32635
99910000 -29.605131 -102.14468 -0.091114096 -20.217302 -0.089724645 -20.217098 -30.345152 -107.63945
100909000 -29.517345 -102.44685 -0.090682968 -20.42638 -0.088733502 -20.415602 -30.259291 -107.93705
101908000 -29.42905 -102.73395 -0.091473624 -20.623535 -0.089934476 -20.62224 -30.139091 -107.70915
102907000 -29.300827 -102.79718 -0.092371516 -20.826378 -0.090443231 -20.822844 -30.065958 -107.63012
103906000 -29.198137 -102.90903 -0.092351422 -21.02951 -0.089829028 -21.029219 -29.912806 -107.66063
104905000 -29.051464 -102.84659 -0.09340369 -21.227596 -0.090589136 -21.225761 -29.767284 -107.36465
105904000 -28.910299 -103.01353 -0.093119904 -21.430321 -0.090305008 -21.424616 -29.65069 -107.21149
106903000 -28.808733 -103.08883 -0.093317732 -21.639479 -0.090898134 -21.63385 -29.519485 -107.16705
107902000 -28.636246 -103.55582 -0.094274737 -21.835672 -0.092596285 -21.826443 -29.374834 -107.13098
108901000 -28.535032 -103.81674 -0.095745295 -22.036674 -0.092930548 -22.028185 -29.235622 -107.13133
109900000 -28.405581 -104.36787 -0.095827065 -22.237091 -0.09358196 -22.225922 -29.083591 -107.29927
110899000 -28.28907 -104.96667 -0.098182961 -22.435015 -0.094972119 -22.426649 -28.963472 -107.64999
111898000 -28.206213 -105.72778 -0.098909043 -22.636307 -0.095764086 -22.631773 -28.841236 -107.81239
112897000 -28.084612 -106.30038 -0.10056397 -22.835808 -0.096699394 -22.82461 -28.707247 -108.08997
113896000 -27.98171 -106.9258 -0.10152389 -23.03863 -0.098335207 -23.025381 -28.595886 -108.22872
114895000 -27.888548 -107.62897 -0.1030547 -23.235647 -0.099914692 -23.222216 -28.491693 -108.39207
115894000 -27.761084 -108.01624 -0.10445452 -23.435911 -0.10097807 -23.419891 -28.408943 -108.56339
116893000 -27.682692 -108.65359 -0.1050419 -23.628374 -0.10145235 -23.611708 -28.278135 -108.74365
117892000 -27.602428 -109.15934 -0.10471863 -23.825205 -0.10249702 -23.817965 -28.205206 -109.04565
118891000 -27.546669 -109.58234 -0.10537473 -24.027498 -0.10190522 -24.013592 -28.110523 -109.22508
119890000 -27.456308 -110.00312 -0.10593332 -24.232618 -0.1031374 -24.216812 -28.101723 -109.38529
120889000 -27.401552 -110.53064 -0.10714224 -24.431614 -0.10353133 -24.416025 -28.028366 -109.35905
121888000 -27.371248 -110.89968 -0.10751557 -24.625412 -0.10369782 -24.609816 -27.969398 -109.68936
122887000 -27.324692 -111.08405 -0.10799109 -24.829807 -0.10525831 -24.812483 -27.920158 -109.71366
123886000 -27.271841 -111.56356 -0.10865326 -25.027752 -0.10518325 -25.012638 -27.912203 -109.89112
124885000 -27.240656 -112.05419 -0.10956666 -25.225704 -0.10509574 -25.21348 -27.877913 -109.95168
125884000 -27.178007 -112.27208 -0.10985046 -25.427025 -0.10603172 -25.410454 -27.844383 -110.1198
126883000 -27.157291 -112.68538 -0.110275 -25.628929 -0.10690982 -25.617773 -27.798483 -110.16899
127882000 -27.11305 -112.96606 -0.11010879 -25.829052 -0.10697933 -25.812315 -27.756266 -110.36536
128881000 -27.084757 -113.29839 -0.11075243 -26.030804 -0.10759782 -26.01396 -27.71821 -110.54121
129880000 -27.025801 -113.58408 -0.11223868 -26.233599 -0.10740837 -26.213747 -27.67008 -110.48477
130879000 -26.960922 -113.77718 -0.11147849 -26.431141 -0.10829417 -26.41415 -27.591471 -110.59116
131878000 -26.902178 -114.0402 -0.11155498 -26.633556 -0.10841306 -26.614849 -27.524961 -110.44186
132877000 -26.827183 -114.06671 -0.11118662 -26.837729 -0.10913369 -26.817543 -27.441093 -110.45303
133876000 -26.733257 -114.28169 -0.11207876 -27.034128 -0.10867742 -27.018768 -27.351242 -110.38577
134875000 -26.638958 -114.44942 -0.11211941 -27.235298 -0.10903893 -27.217684 -27.236967 -110.27499
135874000 -26.564444 -114.44597 -0.11246288 -27.432234 -0.10925367 -27.413338 -27.125713 -110.26221
136873000 -26.442133 -114.40081 -0.11259943 -27.638784 -0.10858054 -27.620632 -27.04138 -110.24491
137872000 -26.362309 -114.54849 -0.11249715 -27.839844 -0.10986453 -27.824244 -26.934893 -110.21738
138871000 -26.28772 -114.72219 -0.11343235 -28.040047 -0.11108357 -28.024956 -26.833477 -110.39194
139870000 -26.18993 -115.01527 -0.11427659 -28.239616 -0.11142112 -28.218834 -26.752481 -110.61362
140869000 -26.105104 -115.49908 -0.11592914 -28.43326 -0.11243313 -28.411356 -26.643053 -110.76857
141868000 -26.010107 -116.01863 -0.11613891 -28.626625 -0.11316372 -28.611406 -26.574495 -111.13544
142867000 -25.931215 -116.32246 -0.11418092 -28.826954 -0.11213003 -28.809059 -26.499054 -111.33578
143866000 -25.865591 -116.81633 -0.11610886 -29.020971 -0.11318126 -29.005037 -26.426071 -111.90461
144865000 -25.81472 -117.37042 -0.11749668 -29.220966 -0.11436561 -29.206129 -26.365391 -112.21901
145864000 -25.756432 -117.6943 -0.11800576 -29.42227 -0.11607829 -29.40756 -26.330376 -112.48636
146863000 -25.707115 -118.11345 -0.11927924 -29.622223 -0.1161328 -29.605749 -26.284111 -112.83206
147862000 -25.669806 -118.48419 -0.11958283 -29.815741 -0.11698873 -29.803879 -26.257042 -113.16644
148861000 -25.6423 -119.00339 -0.12058237 -30.012569 -0.11793368 -30.001713 -26.232979 -113.4439
149860000 -25.627815 -119.21119 -0.12142295 -30.212318 -0.1179382 -30.204332 -26.200905 -113.62049
150859000 -25.610584 -119.66395 -0.12156856 -30.413559 -0.11876868 -30.396589 -26.191628 -113.89102
151858000 -25.592615 -119.92966 -0.12096138 -30.613901 -0.11844945 -30.597086 -26.181377 -114.15838
152857000 -25.574526 -120.2646 -0.12188455 -30.807756 -0.11803342 -30.794022 -26.171078 -114.32814
153856000 -25.566504 -120.4949 -0.12148391 -31.007605 -0.119031 -30.995504 -26.189545 -114.62764
154855000 -25.560886 -120.67512 -0.12203817 -31.206619 -0.11888787 -31.197655 -26.185524 -114.86394
155854000 -25.572588 -120.91846 -0.12265136 -31.408028 -0.1191361 -31.394394 -26.173948 -115.13126
156853000 -25.554995 -121.61961 -0.11996708 -31.594833 -0.11878997 -31.586405 -26.170479 -115.42714
157852000 -25.561632 -121.86347 -0.12142028 -31.796543 -0.12051211 -31.782797 -26.161131 -115.78956
158851000 -25.564547 -122.08265 -0.12194845 -31.993511 -0.12107903 -31.984737 -26.1439 -116.06197
159850000 -25.542303 -122.22118 -0.12264284 -32.192379 -0.12097149 -32.182663 -26.144245 -116.23038
160849000 -25.524881 -122.30387 -0.12265136 -32.392662 -0.12169794 -32.386139 -26.116508 -116.48174
161848000 -25.503035 -122.41274 -0.12320098 -32.591145 -0.12130263 -32.585796 -26.074001 -116.59285
162847000 -25.459717 -122.63833 -0.12298288 -32.787964 -0.12194686 -32.78421 -26.04722 -116.85027
163846000 -25.41584 -122.84772 -0.1236002 -32.989746 -0.12198094 -32.978046 -25.967365 -116.86309
164845000 -25.352848 -122.87487 -0.12397388 -33.187969 -0.12264337 -33.183434 -25.898243 -116.96628
165844000 -25.301443 -122.94736 -0.12430657 -33.387142 -0.12245885 -33.381107 -25.812878 -117.11662
166843000 -25.236467 -123.0684 -0.12440673 -33.586788 -0.12276267 -33.577518 -25.744286 -117.29608
167842000 -25.174816 -123.21857 -0.12442618 -33.783279 -0.12267373 -33.780613 -25.662798 -117.23845
168841000 -25.097635 -123.40961 -0.12516998 -33.983246 -0.1234998 -33.978882 -25.580225 -117.28811
169840000 -25.031944 -123.69645 -0.12480632 -34.175541 -0.1244006 -34.174728 -25.489342 -117.54214
170839000 -24.973349 -123.9919 -0.12561761 -34.374409 -0.12474985 -34.374214 -25.409044 -117.75765
171838000 -24.914831 -124.39055 -0.12573938 -34.575752 -0.1256144 -34.572189 -25.343493 -118.00855
172837000 -24.842352 -124.78462 -0.12716359 -34.770077 -0.12650687 -34.765778 -25.272657 -118.25743
173836000 -24.782434 -125.22795 -0.12857948 -34.971024 -0.12721477 -34.967121 -25.225697 -118.4977
174835000 -24.725542 -125.65923 -0.12911332 -35.165592 -0.12770766 -35.166744 -25.183922 -118.85901
175834000 -24.672741 -126.07327 -0.12916239 -35.362907 -0.12860827 -35.360832 -25.119671 -119.19633
176833000 -24.628222 -126.47967 -0.13024576 -35.563538 -0.12940614 -35.558578 -25.071289 -119.33983
177832000 -24.583736 -126.95173 -0.13079554 -35.758389 -0.12989955 -35.756176 -25.042191 -119.55154
178831000 -24.544632 -127.3533 -0.13173442 -35.951965 -0.13056852 -35.951233 -25.008841 -119.82616
179830000 -24.506596 -127.79328 -0.13186356 -36.151661 -0.13092759 -36.155231 -24.982773 -119.94798
180829000 -24.468752 -128.04732 -0.13303596 -36.350155 -0.1313422 -36.348885 -24.951586 -120.11755
181828000 -24.440657 -128.38501 -0.13220808 -36.547722 -0.1315818 -36.545677 -24.930328 -120.26186
182827000 -24.416945 -128.74594 -0.13219446 -36.744507 -0.13247041 -36.744198 -24.922775 -120.36929
183826000 -24.37705 -129.06947 -0.13350761 -36.942963 -0.13260385 -36.938423 -24.909201 -120.4818
184825000 -24.384727 -129.4052 -0.13380073 -37.132992 -0.13238715 -37.12986 -24.894833 -120.61566
185824000 -24.352449 -129.74615 -0.13372171 -37.331871 -0.13285899 -37.330238 -24.888617 -120.65798
186823000 -24.339655 -130.10632 -0.1338146 -37.530251 -0.13286461 -37.529083 -24.884766 -120.66142
187822000 -24.321018 -130.39935 -0.1351926 -37.726185 -0.13311924 -37.725883 -24.849813 -120.69417
188821000 -24.297617 -130.65161 -0.13435817 -37.922455 -0.13422735 -37.92836 -24.837479 -120.81348
189820000 -24.283167 -130.95276 -0.13484493 -38.121941 -0.13410267 -38.121372 -24.82509 -120.96909
190819000 -24.252365 -131.18237 -0.13596363 -38.3228 -0.13503852 -38.321018 -24.793173 -120.91081
191818000 -24.217649 -131.36061 -0.13689642 -38.516571 -0.13656089 -38.517845 -24.756231 -120.81027
192817000 -24.14477 -131.63977 -0.13764611 -38.702393 -0.13716224 -38.707695 -24.678957 -120.88885
193816000 -24.108955 -132.00914 -0.13727392 -38.896912 -0.1359054 -38.894955 -24.62298 -121.16636
194815000 -24.052814 -132.45602 -0.13677032 -39.091167 -0.1363456 -39.093002 -24.561874 -121.27606
195814000 -23.998337 -132.69778 -0.13794109 -39.288712 -0.13606994 -39.291935 -24.503191 -121.42283
196813000 -23.946774 -133.03699 -0.13686542 -39.480865 -0.1360507 -39.484837 -24.425625 -121.60004
197812000 -23.887436 -133.28604 -0.13787323 -39.683434 -0.13668591 -39.679073 -24.353024 -121.70095
198811000 -23.836277 -133.4541 -0.13712911 -39.877052 -0.13664237 -39.881222 -24.279377 -121.88452
199810000 -23.76144 -133.86607 -0.1377324 -40.070919 -0.13567732 -40.07085 -24.200888 -121.99085
200809000 -23.707834 -134.13498 -0.13792613 -40.271004 -0.13678528 -40.271076 -24.122168 -122.2276
201808000 -23.649857 -134.39246 -0.13894941 -40.471607 -0.13803944 -40.474594 -24.04973 -122.27196
202807000 -23.590672 -134.75549 -0.13935114 -40.669994 -0.13848518 -40.675705 -23.999599 -122.53003
203806000 -23.540895 -135.21581 -0.14129324 -40.871525 -0.13928165 -40.873337 -23.937187 -122.70107
