!Keysight Technologies,E5080B,MY59205177,A.15.75.32
!Date: Friday, February 23, 2024 03:28:41
!Correction: S11(Cdelta 2-Port  ) 
!S21(Cdelta 2-Port  ) 
!S12(Cdelta 2-Port  ) 
!S22(Cdelta 2-Port  ) 
!S2P File: Measurements: S11, S21, S12, S22:
# Hz S  dB   R 50
10000000 -46.044594 -1.1320744 -0.015772192 -2.0542817 -0.018659806 -2.1071863 -46.046024 -158.48291
10999000 -45.175247 -3.2839801 -0.01666938 -2.2725558 -0.018893789 -2.3252985 -46.009953 -152.09627
11998000 -44.255013 -6.6455636 -0.017362988 -2.4968765 -0.01845989 -2.5396531 -46.265736 -147.97491
12997000 -43.498619 -12.032413 -0.017270725 -2.6756341 -0.0180918 -2.7107272 -45.876762 -141.74518
13996000 -43.264259 -16.066881 -0.015995108 -2.8572814 -0.018383982 -2.8816619 -45.679852 -136.62242
14995000 -42.872261 -20.163113 -0.018009659 -3.0700393 -0.018005241 -3.0959556 -45.365227 -133.14832
15994000 -42.709011 -24.37982 -0.019347232 -3.2921419 -0.020636842 -3.3107729 -45.290123 -129.64778
16993000 -42.660408 -29.103296 -0.018940588 -3.4858501 -0.019745855 -3.4936888 -44.478039 -129.69568
17992000 -42.710987 -34.618111 -0.018956447 -3.6830275 -0.020790039 -3.6875026 -43.897243 -129.69202
18991000 -42.977192 -39.46283 -0.020157257 -3.9002793 -0.021182289 -3.8950853 -43.285858 -128.29659
19990000 -42.773289 -45.412884 -0.022490136 -4.105464 -0.023728361 -4.1004114 -42.612171 -128.89845
20989000 -42.628979 -48.656017 -0.024358541 -4.3091216 -0.02581447 -4.2990193 -42.078632 -128.64127
21988000 -42.423111 -53.914772 -0.024864623 -4.5077906 -0.02650876 -4.4986033 -41.767666 -127.91814
22987000 -42.138721 -58.671799 -0.026889546 -4.7076411 -0.027514452 -4.7028265 -41.508121 -127.3716
23986000 -42.139568 -62.85791 -0.026993735 -4.9065537 -0.026816616 -4.9063072 -41.390514 -127.12601
24985000 -41.752922 -65.758011 -0.027081514 -5.1155429 -0.026288688 -5.1119709 -41.20771 -124.6991
25984000 -41.366711 -67.601463 -0.028167065 -5.3221602 -0.026950495 -5.3186946 -40.918365 -123.00777
26983000 -41.116669 -69.562401 -0.029412124 -5.520246 -0.028459406 -5.5349927 -40.769997 -122.54018
27982000 -40.954693 -70.484169 -0.030116633 -5.7177172 -0.030331163 -5.7508569 -40.482769 -120.92196
28981000 -40.893139 -72.100487 -0.02826868 -5.9208789 -0.029858066 -5.9420228 -40.273899 -119.95197
29980000 -40.504028 -73.469704 -0.028580569 -6.112546 -0.030286327 -6.1186943 -39.956989 -118.9788
30979000 -40.116505 -72.4244 -0.025804574 -6.4659157 -0.024494948 -6.4572058 -39.488884 -119.5162
31978000 -39.936161 -73.46965 -0.025893372 -6.6615758 -0.026275147 -6.6512046 -39.239098 -118.84928
32977000 -39.730324 -75.033997 -0.025348112 -6.871767 -0.026433231 -6.8684592 -39.019005 -118.82303
33976000 -39.541401 -76.078766 -0.026694981 -7.0733604 -0.026848912 -7.0719976 -38.686035 -118.11467
34975000 -39.273762 -77.015144 -0.026376976 -7.2719259 -0.028160291 -7.2740216 -38.473579 -117.73514
35974000 -39.053562 -77.606583 -0.025496269 -7.4671607 -0.027575932 -7.4750719 -38.18272 -116.79111
36973000 -38.842747 -78.280136 -0.026106652 -7.671308 -0.028940691 -7.6794114 -37.920876 -115.96279
37972000 -38.632206 -77.901978 -0.025846239 -7.8852348 -0.028488329 -7.8936405 -37.71204 -115.19727
38971000 -38.295383 -77.42765 -0.026297282 -8.0873585 -0.027719473 -8.0956678 -37.52655 -113.57719
39970000 -37.970253 -78.039665 -0.025343165 -8.2792244 -0.027148198 -8.2971716 -37.283855 -112.86614
40969000 -37.697239 -77.329712 -0.025172623 -8.4736681 -0.027225822 -8.4939728 -37.055977 -111.42014
41968000 -37.347557 -77.459061 -0.025200482 -8.677537 -0.028458364 -8.6961279 -36.82814 -110.11929
42967000 -37.0676 -77.432602 -0.025490541 -8.8945694 -0.028848441 -8.9106569 -36.63028 -108.17497
43966000 -36.765175 -78.242828 -0.026626742 -9.0940819 -0.029710803 -9.1137238 -36.361191 -107.42371
44965000 -36.527367 -79.12056 -0.02667753 -9.2940617 -0.029201809 -9.3179426 -36.137489 -107.36969
45964000 -36.300152 -80.148651 -0.027841918 -9.4984236 -0.030640071 -9.5179482 -35.906197 -106.96738
46963000 -36.097675 -82.119324 -0.028304115 -9.6910324 -0.031880364 -9.7114792 -35.752205 -107.06537
47962000 -35.943172 -83.471367 -0.030021492 -9.8947716 -0.033202913 -9.9155531 -35.537735 -107.15047
48961000 -35.727203 -84.940613 -0.032828353 -10.088897 -0.033860296 -10.116052 -35.284229 -107.30967
49960000 -35.480801 -86.304276 -0.033387337 -10.292261 -0.035250779 -10.316917 -35.167896 -107.41514
50959000 -35.267902 -87.571823 -0.034591358 -10.506145 -0.036765449 -10.514792 -34.975742 -107.66623
51958000 -35.075302 -88.625038 -0.036391888 -10.704113 -0.038092621 -10.71748 -34.806553 -108.12324
52957000 -34.844975 -89.666489 -0.037668027 -10.90401 -0.039337393 -10.911942 -34.65023 -107.82978
53956000 -34.686211 -90.323692 -0.03934079 -11.109855 -0.040092632 -11.109885 -34.506844 -107.80627
54955000 -34.520679 -90.854271 -0.04036827 -11.309919 -0.040939458 -11.305215 -34.361778 -107.64698
55954000 -34.338863 -91.681633 -0.04147492 -11.51328 -0.040726759 -11.509438 -34.248413 -107.35404
56953000 -34.231491 -91.690048 -0.040327251 -11.709855 -0.041096773 -11.70252 -34.173027 -107.60969
57952000 -34.077423 -92.221878 -0.042181913 -11.907301 -0.041136492 -11.895701 -34.074062 -107.65922
58951000 -33.947594 -92.5728 -0.042950455 -12.11133 -0.042518068 -12.092921 -33.930256 -107.80046
59950000 -33.821148 -92.98394 -0.042964835 -12.312386 -0.043038819 -12.28911 -33.864861 -108.08033
60949000 -33.711563 -93.613846 -0.043717042 -12.515057 -0.043609574 -12.498094 -33.76297 -108.26362
61948000 -33.644638 -93.928894 -0.044875022 -12.715658 -0.043323535 -12.696911 -33.677071 -108.35543
62947000 -33.558594 -94.037209 -0.044807546 -12.923928 -0.045009986 -12.906438 -33.536926 -108.6732
63946000 -33.486362 -94.747261 -0.045735601 -13.127476 -0.045691393 -13.10676 -33.438332 -108.72538
64945000 -33.37899 -94.925919 -0.046407182 -13.329304 -0.04587242 -13.312246 -33.318634 -109.24911
65944000 -33.267029 -95.241707 -0.047054529 -13.528334 -0.046129592 -13.511363 -33.229877 -109.63767
66943000 -33.13187 -95.640724 -0.044809636 -13.730101 -0.044685666 -13.712851 -33.121162 -109.89741
67942000 -33.071594 -95.537582 -0.046988849 -13.929416 -0.046978381 -13.917542 -32.993107 -110.28091
68941000 -32.946888 -95.721146 -0.047191653 -14.122988 -0.045529991 -14.112704 -32.890045 -110.20415
69940000 -32.864628 -95.780991 -0.047012661 -14.318858 -0.047205258 -14.313131 -32.736755 -110.4333
70939000 -32.754562 -95.606895 -0.046994604 -14.518179 -0.046939392 -14.511572 -32.617332 -110.38682
71938000 -32.607033 -95.183861 -0.047712442 -14.714932 -0.046806201 -14.705869 -32.476662 -110.22343
72937000 -32.440048 -95.017014 -0.046958756 -14.917079 -0.045728803 -14.912506 -32.338627 -109.91014
73936000 -32.296497 -94.530975 -0.045947503 -15.113607 -0.045485258 -15.107706 -32.219505 -109.74245
74935000 -32.182415 -94.820496 -0.045998517 -15.313826 -0.044611912 -15.306611 -32.064934 -109.36985
75934000 -32.054474 -95.093468 -0.046427067 -15.519954 -0.044540778 -15.51345 -31.973562 -109.32832
76933000 -31.922943 -95.450867 -0.047319882 -15.710023 -0.046393316 -15.707099 -31.787319 -109.62151
77932000 -31.814693 -96.185326 -0.048930131 -15.907327 -0.048223611 -15.900655 -31.691284 -109.59219
78931000 -31.73702 -96.921387 -0.046877638 -16.110552 -0.047137484 -16.106424 -31.597214 -109.51656
79930000 -31.634254 -97.863426 -0.049630743 -16.303772 -0.049587019 -16.302025 -31.488686 -109.73253
80929000 -31.513895 -98.628639 -0.051362339 -16.501156 -0.050890613 -16.501316 -31.400276 -109.9907
81928000 -31.411884 -99.344383 -0.05185036 -16.691748 -0.051812898 -16.689888 -31.267811 -109.95016
82927000 -31.308615 -100.10255 -0.053254742 -16.891989 -0.053222507 -16.889244 -31.159096 -110.29127
83926000 -31.18593 -100.77707 -0.054505702 -17.090515 -0.054221302 -17.09268 -31.028088 -110.47678
84925000 -31.093948 -101.2215 -0.055812873 -17.28512 -0.053988289 -17.286493 -30.934206 -110.4686
85924000 -30.991278 -101.62502 -0.056401044 -17.491917 -0.055548053 -17.489479 -30.85412 -110.47385
86923000 -30.887022 -102.12061 -0.056074303 -17.689402 -0.056033134 -17.684587 -30.74868 -110.32722
87922000 -30.780342 -102.46769 -0.056841638 -17.893177 -0.054964453 -17.889034 -30.657011 -110.35232
88921000 -30.702915 -102.72885 -0.057985809 -18.091976 -0.05669608 -18.090483 -30.565027 -110.34348
89920000 -30.597855 -103.26968 -0.058257863 -18.294483 -0.057098147 -18.285753 -30.510887 -110.4712
90919000 -30.494753 -103.5035 -0.059730977 -18.488279 -0.057506803 -18.486687 -30.418808 -110.62865
91918000 -30.396534 -103.90944 -0.060063768 -18.688326 -0.058704678 -18.687538 -30.348135 -110.72824
92917000 -30.311436 -104.20737 -0.061120581 -18.890961 -0.059900783 -18.891325 -30.290478 -110.75131
93916000 -30.217636 -104.49548 -0.060478747 -19.084469 -0.059740689 -19.080811 -30.202169 -111.32534
94915000 -30.136089 -105.18436 -0.06273412 -19.285591 -0.060084768 -19.282127 -30.136707 -111.21555
95914000 -30.064299 -105.40873 -0.06356515 -19.483746 -0.061805308 -19.476189 -30.04558 -111.51305
96913000 -29.976431 -105.58311 -0.064254723 -19.683283 -0.062977582 -19.6812 -29.983189 -111.88239
97912000 -29.904852 -106.05228 -0.06599427 -19.878958 -0.062711529 -19.88026 -29.896461 -112.07419
98911000 -29.800852 -106.19299 -0.06595064 -20.082027 -0.064201131 -20.079617 -29.853512 -112.32222
99910000 -29.732498 -106.33719 -0.06668476 -20.280201 -0.064675361 -20.280018 -29.74696 -112.62257
100909000 -29.632284 -106.65733 -0.065964304 -20.488796 -0.063269384 -20.481443 -29.661375 -112.85075
101908000 -29.542953 -106.85099 -0.0678147 -20.688841 -0.064737633 -20.687984 -29.561308 -112.55859
102907000 -29.407774 -106.7892 -0.067889377 -20.892521 -0.065732241 -20.888508 -29.478836 -112.53795
103906000 -29.312788 -106.89474 -0.068739273 -21.094477 -0.064566582 -21.09127 -29.334883 -112.51691
104905000 -29.166336 -106.76602 -0.068662219 -21.296257 -0.065278135 -21.294811 -29.197001 -112.24308
105904000 -29.020741 -106.84473 -0.069694556 -21.497309 -0.065765619 -21.490854 -29.088671 -112.03446
106903000 -28.909735 -106.96667 -0.069349982 -21.702229 -0.065690719 -21.695974 -28.961117 -111.95187
107902000 -28.744478 -107.2718 -0.070365906 -21.905436 -0.067237861 -21.896084 -28.82884 -111.90274
108901000 -28.636343 -107.5097 -0.070483245 -22.107559 -0.067956164 -22.102861 -28.691221 -111.84484
109900000 -28.507467 -107.95431 -0.07195577 -22.305456 -0.069265813 -22.296856 -28.536242 -111.96483
110899000 -28.392632 -108.56173 -0.073354557 -22.504435 -0.069654308 -22.496958 -28.413242 -112.21816
111898000 -28.296259 -109.23244 -0.074763276 -22.70697 -0.071297601 -22.702881 -28.298061 -112.33099
112897000 -28.17454 -109.79716 -0.076142155 -22.904432 -0.071950249 -22.895535 -28.163309 -112.47591
113896000 -28.074043 -110.36506 -0.077422656 -23.105162 -0.073450655 -23.093897 -28.051304 -112.64761
114895000 -27.968534 -111.06367 -0.078286543 -23.305201 -0.074907862 -23.292938 -27.937206 -112.71561
115894000 -27.844069 -111.41356 -0.079053596 -23.508831 -0.076131359 -23.491875 -27.870161 -112.9291
116893000 -27.766121 -111.87392 -0.080052026 -23.708101 -0.077290639 -23.688139 -27.745117 -112.96148
117892000 -27.685781 -112.33568 -0.080074169 -23.902178 -0.077253483 -23.887331 -27.665928 -113.19218
118891000 -27.625467 -112.82455 -0.080559365 -24.099558 -0.077837713 -24.089258 -27.569447 -113.29399
119890000 -27.538534 -113.17378 -0.081343696 -24.302599 -0.078893587 -24.288488 -27.557903 -113.42933
120889000 -27.487206 -113.6277 -0.082296215 -24.507599 -0.078539051 -24.491575 -27.481899 -113.34767
121888000 -27.445692 -114.05241 -0.083413072 -24.697636 -0.079289012 -24.68668 -27.426991 -113.6262
122887000 -27.402042 -114.19699 -0.083666407 -24.90473 -0.079914123 -24.894337 -27.374222 -113.59214
123886000 -27.353384 -114.60033 -0.084513329 -25.10733 -0.080493964 -25.089109 -27.360647 -113.75439
124885000 -27.314316 -115.10345 -0.084907681 -25.307148 -0.080364488 -25.292107 -27.339794 -113.8025
125884000 -27.266779 -115.29733 -0.085651875 -25.502535 -0.080943599 -25.492119 -27.307577 -113.96255
126883000 -27.247841 -115.71004 -0.085946001 -25.706511 -0.082262978 -25.695398 -27.267523 -113.98197
127882000 -27.194708 -115.98611 -0.086334147 -25.906641 -0.082498036 -25.892138 -27.227985 -114.11488
128881000 -27.16935 -116.32267 -0.086676642 -26.109262 -0.082400158 -26.091555 -27.189034 -114.18465
129880000 -27.117788 -116.66908 -0.087265842 -26.310442 -0.082472444 -26.294596 -27.147478 -114.12663
130879000 -27.052332 -116.79568 -0.08708889 -26.511856 -0.083445795 -26.495546 -27.073023 -114.18703
131878000 -26.984529 -117.02797 -0.087701648 -26.714399 -0.084138013 -26.698866 -27.014488 -114.05613
132877000 -26.91655 -117.10194 -0.087273233 -26.916771 -0.083826326 -26.894773 -26.930962 -114.02637
133876000 -26.831932 -117.29073 -0.087669954 -27.117733 -0.084051184 -27.099773 -26.846357 -113.9361
134875000 -26.732128 -117.41779 -0.088063009 -27.319511 -0.084869407 -27.296902 -26.742109 -113.75977
135874000 -26.653107 -117.44659 -0.087951533 -27.516293 -0.085256137 -27.502577 -26.643547 -113.70823
136873000 -26.54307 -117.35229 -0.088077806 -27.724016 -0.08419212 -27.703764 -26.56296 -113.66634
137872000 -26.463091 -117.50678 -0.088155992 -27.926298 -0.085511684 -27.908083 -26.460808 -113.63566
138871000 -26.383825 -117.68405 -0.088664815 -28.123829 -0.084907949 -28.106506 -26.361973 -113.76692
139870000 -26.285637 -117.9622 -0.08921808 -28.32559 -0.08634524 -28.307148 -26.27306 -113.9366
140869000 -26.206408 -118.55781 -0.090603672 -28.52161 -0.086961061 -28.50317 -26.178133 -114.12868
141868000 -26.127617 -118.93966 -0.091693588 -28.719511 -0.088487007 -28.705439 -26.127445 -114.40292
142867000 -26.0485 -119.13585 -0.089924164 -28.918032 -0.087762401 -28.899446 -26.04567 -114.52506
143866000 -25.977198 -119.61702 -0.092288226 -29.111469 -0.089518256 -29.09812 -25.972445 -114.9711
144865000 -25.919821 -120.14173 -0.093943015 -29.314011 -0.090470195 -29.29694 -25.913511 -115.29208
145864000 -25.862774 -120.46413 -0.094333462 -29.51413 -0.091610573 -29.502203 -25.883759 -115.54568
146863000 -25.812849 -120.85307 -0.095478825 -29.713293 -0.091892935 -29.701283 -25.830511 -115.82923
147862000 -25.778599 -121.1458 -0.096222982 -29.913671 -0.092564814 -29.898819 -25.80344 -116.11796
148861000 -25.740944 -121.61055 -0.096915647 -30.113573 -0.094017081 -30.09726 -25.775028 -116.27539
149860000 -25.711496 -121.74072 -0.098524272 -30.304304 -0.094388753 -30.29052 -25.727198 -116.36204
150859000 -25.689362 -122.24446 -0.097650521 -30.503185 -0.093860745 -30.489084 -25.707737 -116.72479
151858000 -25.677931 -122.5771 -0.097290479 -30.700996 -0.094117068 -30.686432 -25.693304 -117.05019
152857000 -25.66003 -122.91261 -0.097271688 -30.899328 -0.094466001 -30.889757 -25.682135 -117.25748
153856000 -25.659817 -123.10271 -0.097238064 -31.101923 -0.093708657 -31.090891 -25.704803 -117.54247
154855000 -25.661278 -123.31269 -0.097959228 -31.299898 -0.093913384 -31.289562 -25.693861 -117.81284
155854000 -25.675531 -123.533 -0.098208643 -31.499319 -0.094609916 -31.48929 -25.685057 -118.05099
156853000 -25.658714 -124.2328 -0.095939539 -31.691128 -0.094111517 -31.6817 -25.68335 -118.39079
157852000 -25.664461 -124.46938 -0.097482145 -31.888399 -0.095454216 -31.882534 -25.673777 -118.73241
158851000 -25.670303 -124.66083 -0.09810061 -32.08876 -0.095612988 -32.080879 -25.659994 -119.00581
159850000 -25.657276 -124.78371 -0.098293371 -32.288776 -0.096001469 -32.279266 -25.657581 -119.16669
160849000 -25.635324 -124.87343 -0.098231681 -32.488079 -0.096955352 -32.48481 -25.62429 -119.44962
161848000 -25.623722 -124.93741 -0.098937906 -32.688496 -0.096990563 -32.682514 -25.588976 -119.56436
162847000 -25.578218 -125.16342 -0.099104218 -32.888546 -0.097593598 -32.882519 -25.563576 -119.82001
163846000 -25.538757 -125.39467 -0.099248029 -33.087811 -0.097973786 -33.080986 -25.481939 -119.85955
164845000 -25.484806 -125.33184 -0.099941447 -33.292126 -0.097769126 -33.282829 -25.41898 -119.9373
165844000 -25.432369 -125.36624 -0.099994421 -33.486599 -0.097837962 -33.482269 -25.344385 -120.08008
166843000 -25.367746 -125.40656 -0.099626772 -33.688927 -0.09830264 -33.684479 -25.278028 -120.24951
167842000 -25.308575 -125.50577 -0.0999825 -33.888988 -0.098466277 -33.881531 -25.198063 -120.1592
168841000 -25.231747 -125.68919 -0.10090812 -34.087219 -0.099117726 -34.080517 -25.123495 -120.23167
169840000 -25.166109 -125.93546 -0.10026912 -34.281906 -0.099164866 -34.281834 -25.032555 -120.42992
170839000 -25.105524 -126.17919 -0.10116062 -34.480442 -0.1002225 -34.479416 -24.954285 -120.59058
171838000 -25.049776 -126.57428 -0.10136756 -34.682941 -0.10083791 -34.67836 -24.888447 -120.83061
172837000 -24.981415 -126.91926 -0.10302501 -34.881531 -0.10168103 -34.872875 -24.82445 -121.05418
173836000 -24.912739 -127.32417 -0.10438293 -35.079784 -0.10257944 -35.075672 -24.780928 -121.27195
174835000 -24.858303 -127.71145 -0.10496923 -35.276852 -0.10358329 -35.276016 -24.736717 -121.5798
175834000 -24.81069 -128.07774 -0.10589936 -35.47644 -0.10474144 -35.471813 -24.67395 -121.86598
176833000 -24.757656 -128.40869 -0.10723855 -35.673824 -0.10477644 -35.67395 -24.625237 -121.99569
177832000 -24.707439 -128.83145 -0.10760684 -35.872234 -0.10615826 -35.87339 -24.604475 -122.11324
178831000 -24.664034 -129.10936 -0.1091674 -36.074783 -0.10775757 -36.068684 -24.56715 -122.2034
179830000 -24.601753 -129.44614 -0.11067064 -36.258461 -0.10909387 -36.263226 -24.506584 -122.22473
180829000 -24.550213 -129.79706 -0.10986267 -36.449261 -0.10801843 -36.44997 -24.460722 -122.57072
181828000 -24.529427 -130.23087 -0.10891815 -36.65189 -0.10733301 -36.646046 -24.443342 -122.75317
182827000 -24.499022 -130.64156 -0.10914033 -36.847645 -0.10770901 -36.846146 -24.42543 -122.88285
183826000 -24.45949 -130.98764 -0.11057983 -37.042809 -0.10780454 -37.041855 -24.42206 -123.04406
184825000 -24.466618 -131.30081 -0.10970046 -37.241745 -0.10797571 -37.243999 -24.397785 -123.15549
185824000 -24.436735 -131.68297 -0.1094841 -37.438267 -0.10891072 -37.440651 -24.390259 -123.21436
186823000 -24.419088 -132.04927 -0.11010401 -37.639984 -0.10849481 -37.638905 -24.389343 -123.23241
187822000 -24.389555 -132.39899 -0.11056522 -37.832928 -0.10928155 -37.833435 -24.3508 -123.32262
188821000 -24.370655 -132.6501 -0.1102896 -38.026936 -0.10884915 -38.03474 -24.325989 -123.45905
189820000 -24.348909 -132.95404 -0.11067223 -38.226891 -0.10897575 -38.228882 -24.312134 -123.67497
190819000 -24.315222 -133.25417 -0.11125381 -38.426998 -0.10969409 -38.425663 -24.27206 -123.69347
191818000 -24.283735 -133.53856 -0.11172762 -38.622227 -0.11005038 -38.625134 -24.245317 -123.77271
192817000 -24.232967 -133.8084 -0.11228171 -38.821285 -0.1108767 -38.823563 -24.198978 -123.8173
193816000 -24.200403 -134.07555 -0.11236724 -39.018982 -0.1101903 -39.01775 -24.14727 -123.98534
194815000 -24.14093 -134.43529 -0.11251176 -39.214283 -0.11204716 -39.214249 -24.076391 -124.03393
195814000 -24.085367 -134.62627 -0.11394732 -39.412014 -0.11198792 -39.415165 -24.020826 -124.11667
196813000 -24.028282 -134.97295 -0.11277769 -39.602921 -0.11092716 -39.61063 -23.941647 -124.29012
197812000 -23.970612 -135.19383 -0.11374669 -39.80468 -0.11225037 -39.803391 -23.87195 -124.39114
198811000 -23.91725 -135.36549 -0.11338212 -40.00037 -0.1115332 -40.006393 -23.798895 -124.56381
199810000 -23.841515 -135.70306 -0.11393031 -40.195118 -0.11118422 -40.197025 -23.720592 -124.66141
200809000 -23.782949 -135.976 -0.11441213 -40.389183 -0.11208859 -40.396038 -23.642336 -124.83585
201808000 -23.723528 -136.15717 -0.11549342 -40.593029 -0.11314327 -40.597683 -23.574152 -124.90669
202807000 -23.666834 -136.51804 -0.11582094 -40.795029 -0.11393696 -40.800346 -23.516035 -125.07949
