!Keysight Technologies,E5080B,MY59205177,A.15.75.32
!Date: Friday, February 23, 2024 02:50:31
!Correction: S11(Cdelta 2-Port  ) 
!S21(Cdelta 2-Port  ) 
!S12(Cdelta 2-Port  ) 
!S22(Cdelta 2-Port  ) 
!S2P File: Measurements: S11, S21, S12, S22:
# Hz S  dB   R 50
10000000 -42.307529 -3.5260057 -0.040458933 -2.0510931 -0.044224862 -2.1033485 -51.287251 -136.13841
10999000 -41.753403 -4.7050548 -0.041710656 -2.2670441 -0.043639123 -2.3194256 -50.67767 -126.08311
11998000 -41.100834 -7.0602942 -0.042164661 -2.4902723 -0.042957515 -2.5335469 -50.478043 -119.02242
12997000 -40.577888 -10.832457 -0.041594617 -2.6680083 -0.042271566 -2.7037637 -49.294868 -112.86954
13996000 -40.383007 -13.730545 -0.040567368 -2.846272 -0.043046664 -2.8692803 -48.542835 -106.75565
14995000 -40.150146 -17.104883 -0.042687461 -3.0567369 -0.04276615 -3.0793741 -47.849648 -103.67715
15994000 -40.064228 -20.430208 -0.044343065 -3.2763915 -0.045288291 -3.3014247 -47.495468 -100.13229
16993000 -40.079494 -23.585306 -0.043467861 -3.471863 -0.044707112 -3.482444 -46.571419 -103.2737
17992000 -40.168129 -27.389997 -0.043713644 -3.6729062 -0.044927333 -3.6759262 -45.95726 -104.88569
18991000 -40.453438 -31.105255 -0.044957936 -3.8872981 -0.046208601 -3.8804274 -45.11171 -106.19982
19990000 -40.391201 -35.317814 -0.047172286 -4.0930471 -0.048608135 -4.0886073 -44.485416 -108.59114
20989000 -40.363472 -38.200424 -0.049352683 -4.2940841 -0.050849494 -4.2855196 -43.826748 -109.56631
21988000 -40.391094 -42.417671 -0.049620271 -4.4946141 -0.050722994 -4.4806104 -43.472118 -109.70741
22987000 -40.241505 -46.34473 -0.050974689 -4.6923327 -0.051871844 -4.6844697 -43.195137 -109.51301
23986000 -40.320435 -49.641567 -0.050620854 -4.8850732 -0.050600689 -4.8879075 -43.068657 -109.92943
24985000 -40.08149 -52.520973 -0.051721737 -5.097384 -0.051309429 -5.0901518 -42.763233 -107.26123
25984000 -39.906158 -54.331436 -0.052898623 -5.300858 -0.052098453 -5.3010306 -42.342869 -106.27227
26983000 -39.707233 -56.438713 -0.054236505 -5.5006356 -0.052814513 -5.5180101 -42.14172 -105.65005
27982000 -39.553268 -57.448933 -0.055058043 -5.6983771 -0.054638602 -5.7341399 -41.766422 -104.54134
28981000 -39.605671 -58.813114 -0.051956985 -5.8968296 -0.054569401 -5.9237041 -41.511234 -104.0371
29980000 -39.247036 -60.685474 -0.05303698 -6.0902133 -0.05526175 -6.0968294 -41.167892 -103.49
30979000 -38.895279 -60.298763 -0.050185606 -6.4443836 -0.048855521 -6.4350824 -40.641693 -104.97787
31978000 -38.751705 -61.503319 -0.049831837 -6.6393771 -0.050346397 -6.631741 -40.327621 -104.60503
32977000 -38.626141 -62.914005 -0.049206331 -6.8493323 -0.050564546 -6.847589 -40.072281 -105.04239
33976000 -38.456085 -64.188652 -0.050369442 -7.0492845 -0.051232159 -7.0475965 -39.722637 -104.9344
34975000 -38.234734 -65.428062 -0.05051636 -7.2512927 -0.052119151 -7.2516427 -39.471531 -104.68622
35974000 -38.058159 -66.170815 -0.049942337 -7.450027 -0.051715713 -7.4466505 -39.147629 -104.13551
36973000 -37.852066 -66.992081 -0.05043282 -7.6458421 -0.052483063 -7.6514955 -38.810947 -103.42332
37972000 -37.685413 -67.028206 -0.049768995 -7.8547516 -0.052613545 -7.8663411 -38.571133 -102.83193
38971000 -37.401867 -66.980621 -0.051127911 -8.0582495 -0.05326103 -8.0740957 -38.339668 -101.57957
39970000 -37.079399 -67.772804 -0.049179103 -8.2555962 -0.051943887 -8.2664928 -38.029602 -101.41403
40969000 -36.805702 -67.886848 -0.050068293 -8.4483671 -0.051564038 -8.4630241 -37.726707 -100.09007
41968000 -36.470497 -68.12011 -0.049984761 -8.6491861 -0.052096095 -8.6694355 -37.492874 -98.907234
42967000 -36.231281 -68.571724 -0.049918249 -8.8650379 -0.05250638 -8.8808374 -37.231739 -97.169136
43966000 -35.958454 -69.424782 -0.050654639 -9.0637512 -0.053843614 -9.0842152 -36.941063 -96.819511
44965000 -35.767097 -70.585297 -0.051467117 -9.2642584 -0.053541176 -9.283494 -36.709164 -96.781258
45964000 -35.57164 -71.759552 -0.051895421 -9.4658089 -0.054820269 -9.4847364 -36.47134 -96.807823
46963000 -35.432911 -73.783409 -0.052567951 -9.660676 -0.055807631 -9.684659 -36.294891 -97.233337
47962000 -35.318745 -75.286819 -0.053832084 -9.8608208 -0.056733057 -9.880847 -36.081684 -97.549286
48961000 -35.132648 -76.928635 -0.055828869 -10.061513 -0.058390617 -10.080935 -35.867802 -98.018204
49960000 -34.940639 -78.272743 -0.057144571 -10.256852 -0.059346776 -10.280234 -35.721409 -98.308044
50959000 -34.751152 -79.649307 -0.058514453 -10.472865 -0.060652256 -10.482463 -35.538361 -98.788864
51958000 -34.5849 -80.936432 -0.060499746 -10.669559 -0.061910599 -10.67771 -35.373928 -99.540398
52957000 -34.401516 -82.049072 -0.061964165 -10.870623 -0.063270956 -10.874219 -35.19508 -99.488747
53956000 -34.243401 -82.992912 -0.062733591 -11.067653 -0.064401329 -11.075514 -35.070568 -99.571136
54955000 -34.108025 -83.67643 -0.063815482 -11.274961 -0.065093666 -11.269242 -34.908745 -99.639641
55954000 -33.953766 -84.544762 -0.064401329 -11.473262 -0.06569308 -11.470023 -34.790001 -99.422806
56953000 -33.836979 -84.707802 -0.065077901 -11.673833 -0.064093947 -11.659494 -34.724277 -99.720398
57952000 -33.693966 -85.369522 -0.0661107 -11.868843 -0.065362751 -11.857785 -34.615051 -99.925125
58951000 -33.573479 -85.864304 -0.067523643 -12.076286 -0.066527568 -12.05398 -34.458843 -100.20047
59950000 -33.467316 -86.280472 -0.067292549 -12.274351 -0.06772057 -12.254399 -34.398235 -100.44387
60949000 -33.366718 -86.884567 -0.06773372 -12.478816 -0.067774996 -12.454325 -34.295551 -100.87247
61948000 -33.305763 -87.225449 -0.068449736 -12.672689 -0.068361111 -12.659398 -34.212421 -101.09838
62947000 -33.221504 -87.437073 -0.068148114 -12.886887 -0.068993591 -12.865136 -34.083035 -101.42719
63946000 -33.157829 -88.20723 -0.069739535 -13.082778 -0.07002943 -13.065929 -33.970055 -101.56582
64945000 -33.043137 -88.467567 -0.070483766 -13.2848 -0.069820821 -13.267591 -33.861095 -102.12057
65944000 -32.950249 -88.840607 -0.07081791 -13.48442 -0.070257515 -13.467579 -33.779987 -102.62141
66943000 -32.818558 -89.316063 -0.06894993 -13.686007 -0.068971761 -13.669556 -33.665764 -102.86967
67942000 -32.755432 -89.249763 -0.071974456 -13.881019 -0.070296973 -13.870985 -33.548431 -103.25835
68941000 -32.64362 -89.439064 -0.07110972 -14.077209 -0.069338933 -14.068222 -33.446293 -103.29651
69940000 -32.546661 -89.40979 -0.070984207 -14.278229 -0.071101822 -14.265485 -33.293343 -103.68024
70939000 -32.437748 -89.445526 -0.070625052 -14.470916 -0.070753716 -14.468344 -33.170387 -103.5812
71938000 -32.297539 -89.132874 -0.070968948 -14.666084 -0.070486136 -14.65976 -33.049698 -103.54692
72937000 -32.132072 -89.077888 -0.07090053 -14.870589 -0.07042747 -14.861037 -32.886887 -103.27681
73936000 -31.986423 -88.797676 -0.07032907 -15.06916 -0.070070997 -15.059932 -32.764603 -103.15292
74935000 -31.859247 -89.149406 -0.069715075 -15.264172 -0.068990961 -15.255499 -32.594688 -102.85963
75934000 -31.747627 -89.43499 -0.069936827 -15.472144 -0.06896966 -15.460564 -32.521152 -102.7793
76933000 -31.617214 -89.842453 -0.07117445 -15.666771 -0.070826858 -15.654757 -32.335434 -103.31991
77932000 -31.540873 -90.666901 -0.07235346 -15.858207 -0.071641542 -15.85146 -32.251125 -103.3362
78931000 -31.471603 -91.449608 -0.071450487 -16.05879 -0.071020514 -16.056955 -32.150455 -103.25098
79930000 -31.368071 -92.287056 -0.073196337 -16.252403 -0.074064657 -16.250141 -32.059628 -103.54916
80929000 -31.252819 -93.216721 -0.075436994 -16.447119 -0.075145163 -16.444958 -31.955412 -104.02423
81928000 -31.171745 -94.158859 -0.07513199 -16.639452 -0.075489141 -16.636501 -31.831511 -104.14279
82927000 -31.094627 -94.9077 -0.076977074 -16.837221 -0.076919898 -16.837271 -31.731264 -104.54058
83926000 -30.983128 -95.668114 -0.078523502 -17.03483 -0.077857479 -17.034483 -31.614697 -104.80534
84925000 -30.880512 -96.219215 -0.079787828 -17.232714 -0.078782871 -17.231359 -31.511869 -104.94673
85924000 -30.791502 -96.678696 -0.08041802 -17.436853 -0.079718485 -17.430763 -31.431845 -104.9382
86923000 -30.699751 -97.325401 -0.080596283 -17.635981 -0.080501877 -17.628586 -31.331467 -104.89369
87922000 -30.600321 -97.746483 -0.080366865 -17.837759 -0.079971336 -17.830509 -31.248434 -105.03506
88921000 -30.521948 -98.031929 -0.081681579 -18.041121 -0.081165932 -18.033007 -31.149578 -105.09054
89920000 -30.428698 -98.665779 -0.082099415 -18.238401 -0.081717715 -18.231762 -31.089001 -105.34307
90919000 -30.342344 -98.995316 -0.082383275 -18.43292 -0.082619928 -18.425642 -31.008266 -105.5352
91918000 -30.242022 -99.433815 -0.084266283 -18.631845 -0.082141623 -18.627617 -30.938999 -105.58284
92917000 -30.153845 -99.77993 -0.084451035 -18.831509 -0.083940074 -18.828617 -30.870871 -105.73302
93916000 -30.071156 -100.17346 -0.084173113 -19.027124 -0.083792552 -19.020109 -30.779577 -106.42254
94915000 -30.006395 -100.85446 -0.086070098 -19.226002 -0.085369915 -19.219994 -30.715782 -106.27271
95914000 -29.934877 -101.14351 -0.086625412 -19.418221 -0.086059801 -19.418909 -30.625341 -106.61914
96913000 -29.860563 -101.39391 -0.08861699 -19.618668 -0.086717837 -19.620899 -30.565319 -106.97533
97912000 -29.78455 -101.88107 -0.089361295 -19.81848 -0.087356962 -19.818268 -30.478363 -107.23136
98911000 -29.680202 -102.08157 -0.089810528 -20.017551 -0.088638127 -20.015779 -30.448582 -107.49201
99910000 -29.618608 -102.26095 -0.090424202 -20.21767 -0.088566005 -20.215113 -30.338387 -107.80362
100909000 -29.526253 -102.54495 -0.089408599 -20.425837 -0.087996177 -20.420809 -30.243238 -107.99448
101908000 -29.445332 -102.79443 -0.091065191 -20.625051 -0.089524865 -20.621777 -30.124773 -107.7785
102907000 -29.300045 -102.89169 -0.091562986 -20.82501 -0.089883201 -20.822887 -30.056557 -107.78867
103906000 -29.2041 -103.00303 -0.091631725 -21.03306 -0.088859797 -21.026964 -29.901033 -107.71149
104905000 -29.060144 -102.95032 -0.092251733 -21.227629 -0.089324303 -21.226368 -29.759699 -107.42881
105904000 -28.917002 -103.0738 -0.092236139 -21.431042 -0.089978077 -21.423281 -29.64357 -107.32523
106903000 -28.806303 -103.21695 -0.092843279 -21.631516 -0.090094894 -21.6299 -29.508749 -107.2308
107902000 -28.645378 -103.60547 -0.093487531 -21.836708 -0.090713896 -21.827827 -29.369192 -107.26941
108901000 -28.536716 -103.89934 -0.094624996 -22.036623 -0.091336153 -22.03051 -29.235857 -107.25786
109900000 -28.407627 -104.38226 -0.095314234 -22.239336 -0.09332408 -22.227673 -29.078016 -107.40313
110899000 -28.294863 -105.0804 -0.097080298 -22.43788 -0.093703896 -22.422153 -28.954144 -107.68147
111898000 -28.212538 -105.81005 -0.098278277 -22.636873 -0.095605046 -22.627119 -28.840073 -107.88184
112897000 -28.088078 -106.3844 -0.099474743 -22.834827 -0.096022107 -22.82057 -28.7033 -108.13
113896000 -27.992197 -106.99567 -0.10051734 -23.034639 -0.097715117 -23.024782 -28.596107 -108.30988
114895000 -27.89131 -107.6933 -0.10186812 -23.232437 -0.099534601 -23.21842 -28.47793 -108.40459
115894000 -27.763351 -108.07817 -0.10289672 -23.435314 -0.10018329 -23.418884 -28.408859 -108.63965
116893000 -27.687258 -108.67967 -0.10312495 -23.627983 -0.10117254 -23.612236 -28.274055 -108.81024
117892000 -27.612095 -109.26694 -0.10379353 -23.827267 -0.10132436 -23.81197 -28.209894 -109.09855
118891000 -27.54653 -109.62907 -0.10408066 -24.022434 -0.10168765 -24.014584 -28.107857 -109.32192
119890000 -27.45619 -110.04729 -0.10463325 -24.227276 -0.10307007 -24.213106 -28.095257 -109.42909
120889000 -27.406799 -110.61698 -0.10613359 -24.425716 -0.1028999 -24.40979 -28.020126 -109.45292
121888000 -27.364489 -110.92475 -0.10580918 -24.626076 -0.10345578 -24.612846 -27.961515 -109.78387
122887000 -27.328135 -111.14854 -0.10685225 -24.825045 -0.1037535 -24.812376 -27.914061 -109.78606
123886000 -27.274445 -111.63585 -0.10776951 -25.028498 -0.10511244 -25.011391 -27.896498 -109.99432
124885000 -27.239164 -112.16492 -0.10814343 -25.227781 -0.10476504 -25.212328 -27.871187 -110.06895
125884000 -27.183306 -112.3652 -0.10896992 -25.425098 -0.10506789 -25.409857 -27.838232 -110.25178
126883000 -27.1618 -112.71632 -0.10896885 -25.629311 -0.10663629 -25.614937 -27.794867 -110.29443
127882000 -27.109358 -113.02029 -0.10942437 -25.824997 -0.10665937 -25.809799 -27.751478 -110.46767
128881000 -27.081738 -113.36604 -0.10943393 -26.028305 -0.10664266 -26.011036 -27.71093 -110.56294
129880000 -27.029966 -113.67089 -0.11060186 -26.232828 -0.10697641 -26.208612 -27.666006 -110.59604
130879000 -26.961464 -113.86277 -0.11090352 -26.426464 -0.10771485 -26.414305 -27.579151 -110.63606
131878000 -26.894758 -114.11645 -0.11094415 -26.636799 -0.10790591 -26.613426 -27.521849 -110.55865
132877000 -26.826857 -114.15471 -0.10994285 -26.835464 -0.10841253 -26.815453 -27.427723 -110.53639
133876000 -26.739817 -114.34958 -0.11110216 -27.035055 -0.10779206 -27.0168 -27.340454 -110.47711
134875000 -26.646385 -114.47299 -0.11148699 -27.234802 -0.10999542 -27.213263 -27.228136 -110.36523
135874000 -26.55451 -114.53355 -0.11103869 -27.435627 -0.10875545 -27.419285 -27.124779 -110.34965
136873000 -26.440372 -114.49741 -0.11178977 -27.631153 -0.10815935 -27.619448 -27.034721 -110.34836
137872000 -26.3636 -114.59869 -0.11199749 -27.838409 -0.10877084 -27.82506 -26.923439 -110.2845
138871000 -26.291842 -114.85724 -0.11242782 -28.033804 -0.10871775 -28.022425 -26.822262 -110.50236
139870000 -26.192783 -115.08153 -0.11263768 -28.238558 -0.11138421 -28.218519 -26.746914 -110.6713
140869000 -26.108109 -115.58341 -0.11503195 -28.432673 -0.11181314 -28.413702 -26.633577 -110.80091
141868000 -26.015074 -116.11604 -0.11493466 -28.623604 -0.11250193 -28.60956 -26.566307 -111.19634
142867000 -25.935402 -116.37975 -0.11355484 -28.82295 -0.11151142 -28.807188 -26.491573 -111.3981
143866000 -25.868275 -116.90636 -0.1155939 -29.019911 -0.1129618 -29.003948 -26.422297 -111.89565
144865000 -25.810486 -117.44302 -0.11705256 -29.218761 -0.11419845 -29.20343 -26.362261 -112.26906
145864000 -25.764034 -117.77219 -0.11757488 -29.420723 -0.1156399 -29.40836 -26.337284 -112.55482
146863000 -25.70961 -118.20446 -0.1186104 -29.618061 -0.11607032 -29.60663 -26.284575 -112.87943
147862000 -25.671045 -118.59042 -0.11913423 -29.817352 -0.11579435 -29.800764 -26.24806 -113.23583
148861000 -25.64642 -119.05752 -0.11926381 -30.013409 -0.11662789 -29.999971 -26.227526 -113.49621
149860000 -25.624849 -119.28242 -0.11965893 -30.207472 -0.11715707 -30.201588 -26.195948 -113.65369
150859000 -25.609222 -119.66434 -0.12059328 -30.415123 -0.11777037 -30.400633 -26.188725 -113.95926
151858000 -25.591534 -119.98443 -0.12012515 -30.611441 -0.11801906 -30.599316 -26.183001 -114.25323
152857000 -25.574804 -120.31992 -0.12017465 -30.809546 -0.11784803 -30.796104 -26.163237 -114.39023
153856000 -25.565683 -120.5366 -0.12042002 -31.007286 -0.11663506 -30.994904 -26.18364 -114.693
154855000 -25.563848 -120.73787 -0.12088525 -31.206072 -0.11773738 -31.191227 -26.178499 -114.9589
155854000 -25.577084 -120.98844 -0.12144637 -31.407038 -0.11845158 -31.393629 -26.165136 -115.20755
156853000 -25.560556 -121.69083 -0.11887483 -31.595253 -0.11772913 -31.58497 -26.163952 -115.4715
157852000 -25.565762 -121.89765 -0.12054591 -31.796631 -0.11914807 -31.783718 -26.154207 -115.8288
158851000 -25.562353 -122.13406 -0.12105986 -31.989748 -0.12017385 -31.982569 -26.140553 -116.10569
159850000 -25.546984 -122.22832 -0.12191597 -32.190022 -0.11981913 -32.182972 -26.138626 -116.27765
160849000 -25.52804 -122.34676 -0.12202832 -32.389809 -0.12103324 -32.385513 -26.107468 -116.53893
161848000 -25.50075 -122.49547 -0.12270276 -32.586876 -0.12064332 -32.580311 -26.067698 -116.66776
162847000 -25.459383 -122.70942 -0.12253314 -32.786697 -0.12083921 -32.781872 -26.036875 -116.88705
163846000 -25.41778 -122.92747 -0.12243462 -32.987415 -0.12123129 -32.981762 -25.954863 -116.93002
164845000 -25.356771 -122.93178 -0.12264417 -33.189404 -0.12200037 -33.179333 -25.8873 -117.02357
165844000 -25.303816 -123.00917 -0.12279941 -33.388439 -0.12204909 -33.380661 -25.809616 -117.16761
166843000 -25.233059 -123.11808 -0.12345292 -33.583282 -0.12149376 -33.580032 -25.734056 -117.37952
167842000 -25.177378 -123.25831 -0.12361804 -33.785427 -0.12278476 -33.780945 -25.655731 -117.29625
168841000 -25.103048 -123.48552 -0.12455484 -33.981682 -0.12298848 -33.977211 -25.576788 -117.38852
169840000 -25.03088 -123.74799 -0.12412091 -34.17308 -0.12367717 -34.172604 -25.483873 -117.59459
170839000 -24.974516 -124.02341 -0.12505622 -34.372005 -0.12348009 -34.373993 -25.401291 -117.81903
171838000 -24.912138 -124.43339 -0.12505914 -34.575485 -0.1244006 -34.56918 -25.332899 -118.09972
172837000 -24.849623 -124.81022 -0.12648901 -34.768391 -0.12566796 -34.762756 -25.266035 -118.30723
173836000 -24.785736 -125.28832 -0.12813315 -34.970791 -0.12689039 -34.965878 -25.220539 -118.54768
174835000 -24.730776 -125.69481 -0.12853149 -35.162144 -0.1271508 -35.166092 -25.177832 -118.9194
175834000 -24.677593 -126.10595 -0.12938747 -35.365391 -0.12796946 -35.358711 -25.111696 -119.223
176833000 -24.628296 -126.50393 -0.13022761 -35.561493 -0.12868561 -35.559414 -25.060673 -119.4196
177832000 -24.58444 -127.01387 -0.13093507 -35.757477 -0.12909839 -35.757099 -25.04039 -119.59927
178831000 -24.543066 -127.38584 -0.13091372 -35.955853 -0.12992354 -35.952782 -25.005327 -119.84692
179830000 -24.510284 -127.84173 -0.13144092 -36.150845 -0.13011932 -36.14975 -24.979706 -119.99731
180829000 -24.469713 -128.06409 -0.13165757 -36.347588 -0.13065763 -36.347553 -24.949287 -120.19209
181828000 -24.447039 -128.42061 -0.13195083 -36.545025 -0.1310626 -36.545769 -24.92786 -120.34158
182827000 -24.420519 -128.79794 -0.13223183 -36.740719 -0.13103057 -36.741085 -24.91469 -120.41637
183826000 -24.382948 -129.09746 -0.13348305 -36.938835 -0.13083902 -36.936905 -24.902002 -120.53675
184825000 -24.380932 -129.4297 -0.13283497 -37.135883 -0.13224837 -37.13485 -24.890247 -120.67049
185824000 -24.357552 -129.8131 -0.13328606 -37.328438 -0.13216618 -37.3311 -24.88129 -120.73877
186823000 -24.340643 -130.14203 -0.13379166 -37.530529 -0.13245599 -37.530499 -24.880199 -120.72394
187822000 -24.322004 -130.44328 -0.13371049 -37.722675 -0.13262467 -37.725449 -24.842876 -120.7712
188821000 -24.29921 -130.68486 -0.1334884 -37.921772 -0.1328686 -37.925732 -24.82703 -120.88461
189820000 -24.282175 -130.98166 -0.1346492 -38.121017 -0.13335599 -38.122623 -24.818193 -121.04267
190819000 -24.254993 -131.26173 -0.13531838 -38.321026 -0.13435978 -38.319679 -24.782146 -120.9457
191818000 -24.217636 -131.41197 -0.13677353 -38.517532 -0.1353531 -38.517097 -24.748196 -120.85154
192817000 -24.147833 -131.6972 -0.13766401 -38.698494 -0.13606513 -38.704048 -24.674618 -120.97126
193816000 -24.108345 -132.03587 -0.1368542 -38.895477 -0.13478057 -38.889919 -24.61355 -121.22765
194815000 -24.05233 -132.51105 -0.13617598 -39.088776 -0.13512237 -39.094322 -24.55098 -121.36618
195814000 -23.995987 -132.7254 -0.13716918 -39.285995 -0.13526204 -39.284389 -24.501226 -121.4769
196813000 -23.947756 -133.08662 -0.13629939 -39.484341 -0.13475814 -39.483063 -24.418932 -121.65949
197812000 -23.888744 -133.33325 -0.13674842 -39.682205 -0.13573794 -39.680611 -24.348404 -121.7676
198811000 -23.833208 -133.49696 -0.1372643 -39.878376 -0.13546607 -39.883076 -24.274431 -121.95879
199810000 -23.764025 -133.88629 -0.13710961 -40.071289 -0.13527992 -40.071297 -24.197798 -122.05481
200809000 -23.709167 -134.16928 -0.13750663 -40.270611 -0.13576652 -40.268013 -24.116419 -122.25812
201808000 -23.64819 -134.43767 -0.13865088 -40.471153 -0.13716412 -40.472275 -24.04834 -122.34937
202807000 -23.593086 -134.81068 -0.13906114 -40.669853 -0.13733883 -40.674099 -23.992043 -122.59814
203806000 -23.543381 -135.25604 -0.14055523 -40.869682 -0.13798386 -40.871513 -23.927074 -122.75224
204805000 -23.49288 -135.64188 -0.14145584 -41.071384 -0.13902558 -41.070713 -23.871098 -122.96986
