!Keysight Technologies,E5080B,MY59205177,A.15.75.32
!Date: Friday, February 23, 2024 03:28:47
!Correction: S11(Cdelta 2-Port  ) 
!S21(Cdelta 2-Port  ) 
!S12(Cdelta 2-Port  ) 
!S22(Cdelta 2-Port  ) 
!S2P File: Measurements: S11, S21, S12, S22:
# Hz S  dB   R 50
10000000 -46.012325 -1.301293 -0.015736081 -2.0515721 -0.019026386 -2.1051314 -46.096855 -158.68686
10999000 -45.197086 -3.3764992 -0.017081009 -2.2706552 -0.018229051 -2.3240228 -46.019619 -152.54617
11998000 -44.308907 -6.7552209 -0.01695575 -2.4948883 -0.018085042 -2.5428114 -46.28418 -148.13788
12997000 -43.53413 -11.917511 -0.016656388 -2.6750011 -0.01817992 -2.7115557 -45.940472 -142.14302
13996000 -43.237389 -15.718251 -0.015972504 -2.8590295 -0.017864099 -2.8780441 -45.705715 -137.01419
14995000 -42.826572 -20.015823 -0.018249067 -3.0668511 -0.017729977 -3.0913594 -45.400814 -133.35648
15994000 -42.708797 -24.615473 -0.019299131 -3.2874455 -0.020479487 -3.310657 -45.330288 -130.09106
16993000 -42.668957 -28.966173 -0.018636148 -3.4867632 -0.019888358 -3.4942753 -44.422829 -129.47418
17992000 -42.744392 -34.387604 -0.018803574 -3.6859944 -0.020212911 -3.6870668 -43.846626 -129.49553
18991000 -43.007275 -39.50404 -0.01978174 -3.8947015 -0.020591585 -3.8954427 -43.212551 -128.61804
19990000 -42.784401 -45.561932 -0.021472339 -4.1060896 -0.023287473 -4.1010375 -42.5504 -129.19681
20989000 -42.65892 -48.500214 -0.024533996 -4.3135304 -0.025760045 -4.3007426 -42.013798 -128.39252
21988000 -42.504543 -53.832806 -0.024852388 -4.5077891 -0.026025921 -4.4938602 -41.738731 -127.69109
22987000 -42.174751 -58.869511 -0.02651553 -4.7067218 -0.027001809 -4.7005682 -41.540188 -127.34261
23986000 -42.133167 -62.799389 -0.025952484 -4.9050994 -0.026487403 -4.9029145 -41.357876 -126.86753
24985000 -41.76416 -65.282654 -0.027001809 -5.116807 -0.026243895 -5.1092701 -41.191212 -124.57971
25984000 -41.3978 -67.778412 -0.028230378 -5.3159728 -0.027623866 -5.3176665 -40.844715 -122.90797
26983000 -41.147743 -69.842857 -0.029020691 -5.5190339 -0.028043309 -5.5377612 -40.758102 -122.20811
27982000 -40.955349 -70.408081 -0.030914851 -5.7191281 -0.029945644 -5.7520556 -40.508057 -120.77165
28981000 -40.888863 -72.096756 -0.029132228 -5.9157743 -0.029554423 -5.9425902 -40.213669 -119.9271
29980000 -40.517914 -73.590782 -0.028732482 -6.1107049 -0.029886736 -6.1197667 -40.006832 -119.21199
30979000 -40.10667 -72.381126 -0.025900664 -6.4665284 -0.024400972 -6.4575958 -39.479015 -119.56734
31978000 -39.890594 -73.623482 -0.025317129 -6.6630149 -0.026072536 -6.6525011 -39.227615 -118.87502
32977000 -39.710793 -75.157791 -0.024938302 -6.8745294 -0.026540533 -6.8686204 -38.993412 -118.78341
33976000 -39.537441 -76.204002 -0.025688175 -7.0745893 -0.026731445 -7.0686345 -38.688599 -118.0802
34975000 -39.248783 -76.995918 -0.025712913 -7.2772403 -0.02781222 -7.2747331 -38.460682 -117.84361
35974000 -39.039757 -77.539276 -0.025239278 -7.4693089 -0.027537636 -7.4747567 -38.197422 -116.78963
36973000 -38.812969 -78.154373 -0.025948318 -7.6713409 -0.029142912 -7.6816049 -37.915627 -115.7878
37972000 -38.625977 -78.102219 -0.025256202 -7.8799362 -0.028605845 -7.8914557 -37.705799 -115.18927
38971000 -38.290573 -77.509361 -0.026905956 -8.0847273 -0.027783822 -8.0943403 -37.543694 -113.47769
39970000 -37.975441 -77.904869 -0.025023177 -8.2818365 -0.027420932 -8.2969942 -37.270702 -112.97673
40969000 -37.658253 -77.577415 -0.026037641 -8.4758682 -0.027399572 -8.4957819 -37.022717 -111.50023
41968000 -37.352177 -77.465836 -0.02532468 -8.6806774 -0.027754644 -8.69736 -36.84029 -110.26521
42967000 -37.059978 -77.592049 -0.025202306 -8.8885031 -0.028120689 -8.9096107 -36.627899 -108.24879
43966000 -36.747646 -78.308311 -0.026358746 -9.0944614 -0.029823661 -9.1082993 -36.364609 -107.54209
44965000 -36.535519 -79.114258 -0.026881993 -9.2947617 -0.028960494 -9.3166609 -36.131218 -107.25735
45964000 -36.275066 -80.064789 -0.028749421 -9.4931707 -0.030988632 -9.5194969 -35.894886 -106.95137
46963000 -36.09103 -82.07724 -0.028701475 -9.690197 -0.031921044 -9.7131386 -35.720501 -107.22677
47962000 -35.932659 -83.492714 -0.030044431 -9.894392 -0.032790795 -9.9099255 -35.513882 -107.30041
48961000 -35.717697 -84.79071 -0.032587882 -10.089225 -0.0346305 -10.111855 -35.286343 -107.25887
49960000 -35.485146 -86.169502 -0.034050226 -10.290164 -0.035547249 -10.313615 -35.154984 -107.37563
50959000 -35.271885 -87.592445 -0.034192938 -10.505106 -0.036467068 -10.51547 -34.971748 -107.66419
51958000 -35.074879 -88.530922 -0.036348816 -10.705272 -0.03775759 -10.714886 -34.801079 -108.08649
52957000 -34.859818 -89.695091 -0.037900165 -10.907433 -0.0392747 -10.912441 -34.63467 -107.83789
53956000 -34.696564 -90.312057 -0.039201826 -11.107796 -0.039673068 -11.110308 -34.508846 -107.81149
54955000 -34.518013 -90.880959 -0.040579125 -11.309347 -0.040439077 -11.305862 -34.352936 -107.72294
55954000 -34.368584 -91.750153 -0.04148851 -11.505811 -0.040929008 -11.50742 -34.249706 -107.4075
56953000 -34.236061 -91.686043 -0.041057572 -11.705925 -0.040354162 -11.698976 -34.167847 -107.59267
57952000 -34.056534 -92.277588 -0.042225301 -11.905379 -0.041357316 -11.896315 -34.06691 -107.74846
58951000 -33.952099 -92.593994 -0.042671252 -12.111433 -0.042567994 -12.094886 -33.916142 -107.78236
59950000 -33.825813 -93.030266 -0.04376803 -12.308195 -0.043152545 -12.292038 -33.847996 -108.00559
60949000 -33.705132 -93.52153 -0.043638337 -12.514937 -0.043646183 -12.492532 -33.758778 -108.28649
61948000 -33.632713 -93.868454 -0.044395894 -12.713396 -0.043633368 -12.696892 -33.670303 -108.33459
62947000 -33.545437 -94.138313 -0.044622898 -12.926151 -0.044532146 -12.90931 -33.538227 -108.67303
63946000 -33.474411 -94.865639 -0.046129327 -13.122231 -0.045746852 -13.10752 -33.422943 -108.81431
64945000 -33.365059 -94.987671 -0.046879992 -13.328912 -0.046299387 -13.30983 -33.306137 -109.31671
65944000 -33.271267 -95.222656 -0.046880778 -13.525608 -0.046318747 -13.512067 -33.214851 -109.73123
66943000 -33.115593 -95.687225 -0.044800743 -13.731999 -0.044906147 -13.71129 -33.109497 -109.95583
67942000 -33.06102 -95.593224 -0.047144547 -13.925012 -0.046670925 -13.915977 -32.995422 -110.26984
68941000 -32.953114 -95.683578 -0.047056098 -14.119774 -0.045573413 -14.114632 -32.891098 -110.2188
69940000 -32.850292 -95.643532 -0.046677988 -14.320964 -0.046821117 -14.312143 -32.741325 -110.49557
70939000 -32.734669 -95.608658 -0.046596352 -14.516546 -0.046306189 -14.510141 -32.611938 -110.44147
71938000 -32.599983 -95.233322 -0.046641879 -14.715501 -0.046527278 -14.706622 -32.484108 -110.2659
72937000 -32.443043 -95.008339 -0.046235025 -14.913232 -0.046518382 -14.904098 -32.337303 -109.95753
73936000 -32.310322 -94.601257 -0.04568956 -15.11118 -0.046438839 -15.107038 -32.215214 -109.75563
74935000 -32.175949 -94.814079 -0.046501637 -15.308249 -0.045113564 -15.309977 -32.061859 -109.4259
75934000 -32.047112 -95.139862 -0.045729324 -15.514177 -0.044913732 -15.514246 -31.967234 -109.32095
76933000 -31.910742 -95.408112 -0.047436859 -15.708363 -0.047094829 -15.705334 -31.799158 -109.62328
77932000 -31.811689 -96.165985 -0.048822533 -15.907787 -0.047839377 -15.900305 -31.689583 -109.5461
78931000 -31.732536 -96.953865 -0.04710111 -16.106438 -0.046954308 -16.10428 -31.585665 -109.53566
79930000 -31.623755 -97.828934 -0.049363159 -16.301847 -0.049329121 -16.301443 -31.492725 -109.812
80929000 -31.514294 -98.638939 -0.051210418 -16.498133 -0.050747089 -16.496416 -31.383757 -110.01989
81928000 -31.415632 -99.325592 -0.052087713 -16.692621 -0.051769152 -16.690346 -31.247766 -110.02341
82927000 -31.319204 -100.15271 -0.053093843 -16.890663 -0.053101968 -16.88999 -31.148266 -110.28471
83926000 -31.196215 -100.8308 -0.055260438 -17.089193 -0.054267958 -17.092865 -31.03664 -110.48469
84925000 -31.094318 -101.22361 -0.056074042 -17.28903 -0.054083433 -17.285982 -30.936396 -110.52742
85924000 -30.991997 -101.64639 -0.056634974 -17.493032 -0.055096582 -17.491827 -30.851505 -110.51387
86923000 -30.886383 -102.1113 -0.056237672 -17.688749 -0.056530859 -17.686213 -30.739309 -110.37486
87922000 -30.774525 -102.57738 -0.056492571 -17.893909 -0.056303494 -17.886728 -30.654137 -110.38993
88921000 -30.706343 -102.8149 -0.057646357 -18.091217 -0.056596946 -18.089645 -30.563488 -110.32056
89920000 -30.595011 -103.30029 -0.058174435 -18.291489 -0.057304829 -18.287287 -30.504768 -110.49668
90919000 -30.486158 -103.55754 -0.058948699 -18.489944 -0.057889532 -18.486584 -30.411446 -110.63882
91918000 -30.395958 -103.87282 -0.059625737 -18.691393 -0.058305349 -18.68598 -30.350019 -110.62884
92917000 -30.312082 -104.23312 -0.061003756 -18.893332 -0.060135685 -18.888161 -30.281727 -110.7849
93916000 -30.214603 -104.56879 -0.060486883 -19.083191 -0.060360629 -19.080322 -30.193514 -111.38406
94915000 -30.129412 -105.18769 -0.062248811 -19.284683 -0.060730219 -19.279005 -30.134565 -111.24567
95914000 -30.064314 -105.4084 -0.062724404 -19.480892 -0.061831567 -19.475994 -30.048759 -111.51708
96913000 -29.978983 -105.59025 -0.064573675 -19.679892 -0.062583633 -19.681162 -29.975273 -111.84327
97912000 -29.909018 -106.08578 -0.065753795 -19.87434 -0.06313438 -19.881037 -29.900143 -112.10276
98911000 -29.7931 -106.23463 -0.065999262 -20.081711 -0.064424179 -20.077593 -29.855322 -112.35567
99910000 -29.723009 -106.36514 -0.066583298 -20.279989 -0.064985931 -20.277628 -29.748138 -112.61317
100909000 -29.631069 -106.61904 -0.06569282 -20.483652 -0.064277843 -20.478069 -29.663282 -112.80531
101908000 -29.546431 -106.88022 -0.067355119 -20.688957 -0.065459453 -20.687899 -29.551186 -112.57726
102907000 -29.408392 -106.8826 -0.067409016 -20.890205 -0.065367743 -20.888474 -29.468832 -112.56422
103906000 -29.312269 -106.91328 -0.068228312 -21.09828 -0.065322809 -21.088638 -29.327003 -112.52402
104905000 -29.165564 -106.78362 -0.069498852 -21.291597 -0.065461032 -21.293835 -29.199064 -112.17195
105904000 -29.025749 -106.86222 -0.069349982 -21.49777 -0.066195861 -21.490709 -29.080631 -112.11992
106903000 -28.915854 -106.96139 -0.069165334 -21.704266 -0.066703163 -21.695185 -28.959496 -112.00581
107902000 -28.73951 -107.28876 -0.070012063 -21.903055 -0.066922136 -21.895605 -28.817471 -111.93853
108901000 -28.628735 -107.48129 -0.070909478 -22.101234 -0.068793453 -22.0952 -28.691441 -111.89422
109900000 -28.51091 -107.9935 -0.071282074 -22.309681 -0.069244243 -22.295307 -28.543669 -111.96227
110899000 -28.389372 -108.63412 -0.073171332 -22.501757 -0.070463508 -22.494743 -28.412416 -112.21777
111898000 -28.298698 -109.26696 -0.074363261 -22.703997 -0.071393386 -22.699387 -28.290955 -112.33749
112897000 -28.173674 -109.84846 -0.075970136 -22.90542 -0.072801992 -22.896141 -28.15984 -112.51278
113896000 -28.060127 -110.3993 -0.077007636 -23.104448 -0.073744215 -23.093451 -28.047585 -112.60522
114895000 -27.964254 -111.08897 -0.077845089 -23.302498 -0.075199939 -23.290598 -27.936409 -112.72927
115894000 -27.843817 -111.442 -0.078955531 -23.503214 -0.076565526 -23.491322 -27.868618 -112.94788
116893000 -27.764994 -111.90736 -0.08051084 -23.699858 -0.077427924 -23.685398 -27.746069 -112.97731
117892000 -27.684996 -112.37821 -0.079743005 -23.901709 -0.077715956 -23.884666 -27.660971 -113.15825
118891000 -27.62396 -112.81913 -0.080760315 -24.101694 -0.077814788 -24.085136 -27.575644 -113.3022
119890000 -27.53709 -113.20135 -0.080863953 -24.298573 -0.078779444 -24.286947 -27.56156 -113.43587
120889000 -27.483053 -113.68584 -0.082977697 -24.49682 -0.079252101 -24.487406 -27.485746 -113.36329
121888000 -27.441473 -114.06298 -0.08277005 -24.700401 -0.079526283 -24.687611 -27.423258 -113.61523
122887000 -27.409779 -114.21777 -0.083000384 -24.905449 -0.080393232 -24.887932 -27.373152 -113.65218
123886000 -27.349697 -114.6564 -0.084351003 -25.107126 -0.081160918 -25.085657 -27.364365 -113.75563
124885000 -27.310446 -115.11491 -0.084820837 -25.303629 -0.081489027 -25.29166 -27.335175 -113.82063
125884000 -27.263445 -115.34015 -0.085733458 -25.504158 -0.081695296 -25.488127 -27.30488 -114.00272
126883000 -27.24431 -115.73827 -0.085238978 -25.707262 -0.083005667 -25.691484 -27.263828 -114.00856
127882000 -27.194176 -116.01862 -0.085951544 -25.905626 -0.083038121 -25.890406 -27.223986 -114.13152
128881000 -27.160917 -116.31477 -0.086292423 -26.10861 -0.083017275 -26.08909 -27.18796 -114.23962
129880000 -27.102373 -116.68375 -0.087723307 -26.311785 -0.083236277 -26.291 -27.148966 -114.15363
130879000 -27.047169 -116.82744 -0.087178417 -26.509897 -0.084179714 -26.493509 -27.067783 -114.21759
131878000 -26.984266 -117.06146 -0.087209582 -26.71052 -0.084325135 -26.696285 -27.011784 -114.08192
132877000 -26.918386 -117.13936 -0.087073304 -26.916798 -0.084815554 -26.901693 -26.924934 -114.02814
133876000 -26.829336 -117.28487 -0.088030517 -27.117296 -0.084683314 -27.098925 -26.838766 -113.94378
134875000 -26.732462 -117.37881 -0.087972403 -27.316801 -0.08536464 -27.298689 -26.736643 -113.76784
135874000 -26.655136 -117.43546 -0.087948367 -27.517914 -0.085902169 -27.500471 -26.641613 -113.74428
136873000 -26.537897 -117.37287 -0.088299178 -27.72262 -0.08471103 -27.704559 -26.562593 -113.67638
137872000 -26.459829 -117.51237 -0.087966062 -27.919411 -0.08519014 -27.912432 -26.453907 -113.63354
138871000 -26.386395 -117.70396 -0.088852137 -28.118916 -0.085567921 -28.107428 -26.359064 -113.77708
139870000 -26.284864 -117.98403 -0.089198001 -28.321609 -0.08604449 -28.302778 -26.271631 -113.95699
140869000 -26.204403 -118.53904 -0.090790287 -28.519663 -0.087391295 -28.499166 -26.174868 -114.15039
141868000 -26.120049 -118.95224 -0.091495305 -28.71665 -0.088934302 -28.702419 -26.126715 -114.42897
142867000 -26.046318 -119.11841 -0.090386935 -28.915722 -0.087811798 -28.899456 -26.038153 -114.52266
143866000 -25.970846 -119.67081 -0.092145704 -29.112429 -0.089489982 -29.096159 -25.972124 -114.9969
144865000 -25.915058 -120.16244 -0.093786947 -29.312225 -0.090606578 -29.299252 -25.914461 -115.29474
145864000 -25.863787 -120.47632 -0.094697751 -29.514269 -0.091846667 -29.504055 -25.880894 -115.54062
146863000 -25.810972 -120.82913 -0.095277987 -29.711369 -0.092641242 -29.700514 -25.830729 -115.8228
147862000 -25.776022 -121.17443 -0.095856711 -29.915352 -0.093291812 -29.89926 -25.802011 -116.13666
148861000 -25.745476 -121.62842 -0.096999295 -30.106915 -0.094955981 -30.09477 -25.777451 -116.33916
149860000 -25.71339 -121.75598 -0.097615577 -30.300003 -0.095479615 -30.295967 -25.729248 -116.40051
150859000 -25.687288 -122.25367 -0.097857028 -30.499786 -0.094817601 -30.483879 -25.709156 -116.7723
151858000 -25.679213 -122.62963 -0.096481033 -30.695927 -0.094887719 -30.684881 -25.696001 -117.09466
152857000 -25.662359 -122.94093 -0.097754039 -30.897686 -0.095110498 -30.889271 -25.684395 -117.23924
153856000 -25.660959 -123.1845 -0.097185649 -31.098972 -0.094468385 -31.087965 -25.698145 -117.57069
154855000 -25.65872 -123.31413 -0.09713906 -31.300135 -0.09447632 -31.287458 -25.691641 -117.81728
155854000 -25.672018 -123.59804 -0.097889856 -31.497763 -0.09508007 -31.484762 -25.682341 -118.10332
156853000 -25.658916 -124.26667 -0.095838979 -31.686604 -0.094348803 -31.681351 -25.677217 -118.41279
157852000 -25.667618 -124.45625 -0.096629255 -31.89068 -0.0964453 -31.882105 -25.667532 -118.73243
158851000 -25.662998 -124.68375 -0.098323822 -32.089031 -0.096194662 -32.078293 -25.657904 -119.03071
159850000 -25.652988 -124.79533 -0.098141655 -32.287266 -0.096088804 -32.282246 -25.657516 -119.17077
160849000 -25.63801 -124.86099 -0.098289669 -32.487747 -0.096999563 -32.485126 -25.627222 -119.46716
161848000 -25.621101 -125.0045 -0.099020004 -32.688301 -0.096707068 -32.682972 -25.581728 -119.61455
162847000 -25.585033 -125.12594 -0.098827213 -32.888489 -0.097822607 -32.884308 -25.556547 -119.84609
163846000 -25.539871 -125.36469 -0.099348933 -33.089828 -0.097570837 -33.08107 -25.483328 -119.8422
164845000 -25.478294 -125.34551 -0.099687427 -33.289089 -0.097989671 -33.279942 -25.416273 -119.96374
165844000 -25.430819 -125.35446 -0.099691138 -33.488773 -0.098600797 -33.480793 -25.34404 -120.09851
166843000 -25.368305 -125.40924 -0.099668354 -33.689297 -0.098330975 -33.684258 -25.2784 -120.27727
167842000 -25.305199 -125.5545 -0.10070067 -33.888866 -0.09910237 -33.887062 -25.196377 -120.17723
168841000 -25.23418 -125.72107 -0.10068822 -34.088169 -0.099685833 -34.085751 -25.122757 -120.24593
169840000 -25.165142 -125.90736 -0.10138558 -34.277412 -0.10027283 -34.279724 -25.034363 -120.42921
170839000 -25.107054 -126.19419 -0.10155596 -34.480202 -0.10014886 -34.476196 -24.950735 -120.62975
171838000 -25.044384 -126.57485 -0.10153344 -34.680401 -0.10089381 -34.675205 -24.884058 -120.85081
172837000 -24.977947 -126.91315 -0.10318698 -34.878559 -0.10189012 -34.875961 -24.818638 -121.07389
173836000 -24.912441 -127.33373 -0.10494298 -35.07991 -0.10322806 -35.076691 -24.775282 -121.26564
174835000 -24.857372 -127.72205 -0.10508778 -35.274494 -0.10373467 -35.275314 -24.729748 -121.59402
175834000 -24.805513 -128.09961 -0.10572616 -35.47541 -0.10506763 -35.472439 -24.671526 -121.84282
176833000 -24.74902 -128.43909 -0.10617922 -35.673309 -0.10581794 -35.671917 -24.624475 -121.99816
177832000 -24.708977 -128.87979 -0.10689231 -35.872952 -0.1064214 -35.872868 -24.608 -122.13908
178831000 -24.665619 -129.11731 -0.10893913 -36.068542 -0.10845818 -36.069031 -24.564257 -122.22823
179830000 -24.60346 -129.44937 -0.11096115 -36.254757 -0.10936543 -36.258244 -24.503548 -122.22812
180829000 -24.542799 -129.82909 -0.10965161 -36.44783 -0.10836317 -36.449417 -24.452831 -122.55865
181828000 -24.521551 -130.28242 -0.10871112 -36.65099 -0.10782178 -36.644913 -24.44116 -122.78986
182827000 -24.498093 -130.62779 -0.10835574 -36.846272 -0.10808318 -36.84362 -24.423939 -122.88831
183826000 -24.45532 -130.98219 -0.10964551 -37.043034 -0.10844332 -37.03941 -24.41725 -123.03239
184825000 -24.46117 -131.33286 -0.11001613 -37.241375 -0.10895027 -37.245033 -24.395418 -123.20312
185824000 -24.436701 -131.68973 -0.10924465 -37.435844 -0.10916581 -37.437351 -24.388506 -123.23161
186823000 -24.417374 -132.03827 -0.10911591 -37.638222 -0.10944109 -37.634296 -24.382677 -123.25107
187822000 -24.387341 -132.37978 -0.11024632 -37.830307 -0.11010534 -37.832687 -24.350241 -123.33214
188821000 -24.370924 -132.65598 -0.11018871 -38.026432 -0.11007534 -38.03548 -24.323854 -123.44738
189820000 -24.346931 -132.92191 -0.1103605 -38.229942 -0.110198 -38.227341 -24.307175 -123.67283
190819000 -24.311462 -133.24133 -0.11099302 -38.429096 -0.11064781 -38.424847 -24.267126 -123.7086
191818000 -24.28533 -133.54276 -0.11125646 -38.624443 -0.11056575 -38.62529 -24.243227 -123.75064
192817000 -24.23373 -133.83041 -0.11212791 -38.819401 -0.11113881 -38.822891 -24.196638 -123.85179
193816000 -24.201183 -134.09032 -0.112677 -39.02103 -0.1103905 -39.017685 -24.14463 -123.97994
194815000 -24.139977 -134.47371 -0.11168326 -39.208698 -0.11199749 -39.213608 -24.075254 -124.04364
195814000 -24.081995 -134.66753 -0.11374297 -39.410564 -0.11279203 -39.410095 -24.020552 -124.14619
196813000 -24.032022 -135.00261 -0.11297933 -39.607288 -0.11265123 -39.605824 -23.942175 -124.30992
197812000 -23.968178 -135.21582 -0.11294293 -39.804253 -0.1128194 -39.803032 -23.869543 -124.39493
198811000 -23.917526 -135.36926 -0.11298864 -40.000561 -0.11241347 -39.999046 -23.7999 -124.60947
199810000 -23.845751 -135.70709 -0.11346078 -40.195518 -0.11268364 -40.196865 -23.720928 -124.6568
200809000 -23.788689 -135.99156 -0.11452508 -40.391205 -0.1125811 -40.394543 -23.641663 -124.87067
201808000 -23.72648 -136.19127 -0.11555722 -40.592381 -0.11375201 -40.592476 -23.571224 -124.91711
202807000 -23.668133 -136.54619 -0.11556546 -40.7934 -0.11432708 -40.79697 -23.518364 -125.12506
