!Keysight Technologies,E5080B,MY59205177,A.15.75.32
!Date: Friday, February 23, 2024 02:50:38
!Correction: S11(Cdelta 2-Port  ) 
!S21(Cdelta 2-Port  ) 
!S12(Cdelta 2-Port  ) 
!S22(Cdelta 2-Port  ) 
!S2P File: Measurements: S11, S21, S12, S22:
# Hz S  dB   R 50
10000000 -42.383968 -3.3151307 -0.040544376 -2.0484335 -0.044003371 -2.1014571 -51.216709 -136.80249
10999000 -41.819698 -4.92904 -0.041939091 -2.2677457 -0.043216862 -2.3198743 -50.524151 -126.9861
11998000 -41.163834 -7.0883675 -0.042396516 -2.4901824 -0.043456618 -2.5334718 -50.397785 -119.79976
12997000 -40.67765 -11.073174 -0.041394163 -2.669539 -0.043039341 -2.7002347 -49.25499 -112.66586
13996000 -40.436054 -13.812853 -0.040209416 -2.8467968 -0.043171894 -2.8692462 -48.450123 -107.70525
14995000 -40.186752 -17.12512 -0.043371379 -3.0563436 -0.042740528 -3.0804546 -47.818684 -104.43731
15994000 -40.105858 -20.492849 -0.043683313 -3.2747703 -0.045213219 -3.2999406 -47.394157 -100.90458
16993000 -40.112438 -23.601809 -0.043234117 -3.4730954 -0.044071622 -3.4830501 -46.509148 -103.85944
17992000 -40.22496 -27.734426 -0.043578722 -3.6728079 -0.045217667 -3.6800189 -45.892025 -105.95058
18991000 -40.509499 -31.492018 -0.043983757 -3.8833489 -0.046332877 -3.8820469 -45.159031 -106.71402
19990000 -40.477654 -35.44524 -0.046204153 -4.0924702 -0.048258685 -4.0863872 -44.417633 -109.4819
20989000 -40.408489 -38.187592 -0.0492744 -4.2940087 -0.05015916 -4.2848849 -43.740189 -110.16858
21988000 -40.3922 -42.465805 -0.050094478 -4.4931922 -0.050528146 -4.4821224 -43.440983 -109.911
22987000 -40.292702 -46.478241 -0.051045932 -4.6947393 -0.052019857 -4.6830263 -43.197632 -109.92942
23986000 -40.332924 -50.139076 -0.051235303 -4.8869762 -0.051099099 -4.8849049 -43.038494 -110.44518
24985000 -40.104408 -52.469574 -0.051731952 -5.0951967 -0.051424682 -5.0918465 -42.707241 -107.82938
25984000 -39.927505 -54.767628 -0.05318949 -5.3007822 -0.051916115 -5.3002324 -42.283325 -106.77434
26983000 -39.712353 -56.685104 -0.053593326 -5.5003409 -0.052806653 -5.5154042 -42.101566 -105.8211
27982000 -39.620564 -57.714531 -0.054352883 -5.7016997 -0.054023411 -5.7318001 -41.746052 -104.68408
28981000 -39.614326 -58.973042 -0.052373022 -5.8950825 -0.053736947 -5.9190512 -41.470749 -104.30736
29980000 -39.276241 -61.070183 -0.052684288 -6.0875535 -0.055290587 -6.0949783 -41.15514 -103.9855
30979000 -38.921318 -60.514915 -0.050256837 -6.445498 -0.048628554 -6.4357762 -40.626961 -105.26061
31978000 -38.77512 -61.543667 -0.049246125 -6.6402435 -0.05006253 -6.6303682 -40.306797 -104.94974
32977000 -38.65815 -63.333607 -0.049731288 -6.8523502 -0.050991189 -6.8451509 -40.092232 -105.28859
33976000 -38.495262 -64.404785 -0.049818482 -7.0527077 -0.050738972 -7.0469017 -39.728649 -105.10615
34975000 -38.252926 -65.70134 -0.050325446 -7.2507429 -0.052303854 -7.2515717 -39.475548 -105.0018
35974000 -38.062191 -66.385628 -0.049127001 -7.4477606 -0.051733002 -7.4485803 -39.132881 -104.43987
36973000 -37.864368 -67.383987 -0.050353207 -7.6462464 -0.052625597 -7.652318 -38.821312 -103.81191
37972000 -37.705654 -67.341995 -0.049431231 -7.8541961 -0.052512668 -7.8665638 -38.556137 -103.19301
38971000 -37.380287 -67.246384 -0.05131755 -8.0556231 -0.053219888 -8.0716505 -38.324696 -101.73424
39970000 -37.073593 -67.976219 -0.04964881 -8.2530241 -0.051248662 -8.2664251 -38.024639 -101.60169
40969000 -36.814827 -68.004074 -0.049718458 -8.4479599 -0.050919425 -8.46134 -37.733185 -100.31828
41968000 -36.484932 -68.347946 -0.04995098 -8.6540861 -0.051493313 -8.669488 -37.506737 -99.182861
42967000 -36.238976 -68.848328 -0.049737573 -8.862031 -0.051210418 -8.88416 -37.248066 -97.601593
43966000 -35.986153 -69.718819 -0.049855929 -9.0658903 -0.052641578 -9.0800877 -36.941525 -97.150986
44965000 -35.759895 -70.613007 -0.051161963 -9.2678614 -0.053079955 -9.2828064 -36.697212 -97.048943
45964000 -35.571247 -71.979507 -0.052185431 -9.4645605 -0.055049129 -9.4834394 -36.452057 -96.99192
46963000 -35.435406 -73.988319 -0.052246477 -9.6587763 -0.055145606 -9.6778069 -36.270988 -97.489227
47962000 -35.308556 -75.398598 -0.054588273 -9.8647785 -0.056066699 -9.87852 -36.054317 -97.807053
48961000 -35.141411 -77.004135 -0.056152448 -10.058456 -0.057575267 -10.080938 -35.832211 -98.244339
49960000 -34.958641 -78.435783 -0.057011854 -10.256537 -0.059122149 -10.282185 -35.698212 -98.546387
50959000 -34.772919 -79.84034 -0.058233466 -10.470074 -0.060211539 -10.480879 -35.52063 -99.116402
51958000 -34.598362 -81.066216 -0.060063768 -10.668575 -0.061837081 -10.679344 -35.345512 -99.725288
52957000 -34.405441 -82.341461 -0.061599459 -10.869782 -0.062957093 -10.878572 -35.188683 -99.682449
53956000 -34.26532 -83.187637 -0.063643426 -11.072277 -0.063834399 -11.075926 -35.042004 -99.705513
54955000 -34.097107 -83.796814 -0.064202443 -11.273899 -0.064564742 -11.269794 -34.880154 -99.844528
55954000 -33.967857 -84.758217 -0.064758651 -11.475591 -0.065170921 -11.46726 -34.777481 -99.56501
56953000 -33.840603 -84.913536 -0.064846143 -11.67435 -0.06430123 -11.660832 -34.708111 -99.984596
57952000 -33.702316 -85.58934 -0.06615039 -11.8683 -0.064731322 -11.857266 -34.613491 -100.15528
58951000 -33.595627 -85.991287 -0.066467114 -12.073302 -0.066119902 -12.054838 -34.45158 -100.32124
59950000 -33.473103 -86.44416 -0.067700066 -12.271225 -0.067070663 -12.252019 -34.380131 -100.64663
60949000 -33.365719 -87.141716 -0.067913562 -12.478219 -0.067388773 -12.454682 -34.290649 -100.91078
61948000 -33.312141 -87.399544 -0.068391092 -12.6721 -0.067786828 -12.655656 -34.199478 -101.17095
62947000 -33.224003 -87.662041 -0.068088949 -12.885757 -0.069082491 -12.866027 -34.077404 -101.49512
63946000 -33.156368 -88.450462 -0.069174282 -13.084676 -0.069114313 -13.064621 -33.966507 -101.63423
64945000 -33.045216 -88.658714 -0.069728486 -13.28842 -0.070219897 -13.267811 -33.859955 -102.3196
65944000 -32.959904 -88.955132 -0.070930004 -13.485707 -0.069921575 -13.467519 -33.776226 -102.76623
66943000 -32.817322 -89.451538 -0.068407923 -13.688966 -0.068395294 -13.669273 -33.672024 -103.09628
67942000 -32.767815 -89.457329 -0.070683464 -13.881256 -0.070580065 -13.872468 -33.549911 -103.38475
68941000 -32.650738 -89.54554 -0.070211999 -14.074974 -0.069601439 -14.063561 -33.442017 -103.43005
69940000 -32.552273 -89.588837 -0.070441678 -14.274671 -0.070380636 -14.264021 -33.295727 -103.80442
70939000 -32.455906 -89.555382 -0.070503242 -14.467598 -0.070092037 -14.46295 -33.15889 -103.73746
71938000 -32.293003 -89.220009 -0.07071688 -14.668356 -0.070087828 -14.656363 -33.026463 -103.68719
72937000 -32.137859 -89.149307 -0.070069417 -14.873516 -0.069847651 -14.856532 -32.881199 -103.3763
73936000 -31.991495 -88.90329 -0.070007332 -15.064837 -0.069402583 -15.056976 -32.7565 -103.26889
74935000 -31.873846 -89.196312 -0.069406003 -15.263791 -0.068157054 -15.255907 -32.601974 -103.00204
75934000 -31.759161 -89.547729 -0.069569871 -15.469688 -0.068428434 -15.465726 -32.514736 -103.02582
76933000 -31.619041 -89.920952 -0.071234182 -15.664521 -0.070365906 -15.65612 -32.336815 -103.46664
77932000 -31.536465 -90.810036 -0.072459012 -15.861898 -0.071164981 -15.852702 -32.241177 -103.44653
78931000 -31.476816 -91.609604 -0.070648998 -16.057413 -0.070822649 -16.053555 -32.133858 -103.38628
79930000 -31.37483 -92.409828 -0.074039906 -16.251257 -0.073366933 -16.249846 -32.037704 -103.74397
80929000 -31.256714 -93.380951 -0.07499741 -16.446892 -0.074670844 -16.4405 -31.94029 -104.07843
81928000 -31.178432 -94.250366 -0.075514697 -16.636059 -0.074892849 -16.634592 -31.823437 -104.2602
82927000 -31.09836 -95.01329 -0.077095121 -16.838053 -0.076479107 -16.83675 -31.729328 -104.66251
83926000 -30.990183 -95.777138 -0.078516647 -17.036959 -0.077132538 -17.034676 -31.602308 -104.98413
84925000 -30.887232 -96.337685 -0.079217039 -17.235224 -0.078258611 -17.22876 -31.501318 -105.03082
85924000 -30.811909 -96.79892 -0.080651663 -17.436203 -0.078961067 -17.430582 -31.408173 -105.09603
86923000 -30.703623 -97.424202 -0.080694385 -17.633717 -0.0796763 -17.631136 -31.323608 -105.05427
87922000 -30.594915 -97.868149 -0.080830462 -17.840956 -0.079028293 -17.82905 -31.237484 -105.16611
88921000 -30.53231 -98.153679 -0.081830613 -18.03936 -0.079934686 -18.032801 -31.134045 -105.16316
89920000 -30.433466 -98.745323 -0.081847757 -18.236874 -0.080459423 -18.228249 -31.083818 -105.409
90919000 -30.345249 -99.065041 -0.083402254 -18.432022 -0.081361629 -18.425667 -31.00572 -105.66167
91918000 -30.250124 -99.562149 -0.084227219 -18.631908 -0.081849873 -18.62591 -30.9289 -105.67561
92917000 -30.157265 -99.918694 -0.084943585 -18.83074 -0.083658487 -18.825769 -30.856934 -105.81973
93916000 -30.079967 -100.3334 -0.083684616 -19.02224 -0.083317287 -19.020212 -30.774679 -106.51311
94915000 -30.007729 -100.9942 -0.086214796 -19.225893 -0.084251761 -19.217075 -30.714947 -106.35775
95914000 -29.93618 -101.23871 -0.08667057 -19.420492 -0.084968396 -19.415699 -30.623207 -106.66286
96913000 -29.860754 -101.47553 -0.087902404 -19.62027 -0.085977159 -19.616102 -30.557682 -107.04675
97912000 -29.784746 -101.9867 -0.089493684 -19.81535 -0.08633177 -19.815872 -30.477562 -107.3289
98911000 -29.682655 -102.21381 -0.088867724 -20.016579 -0.087551884 -20.012749 -30.440569 -107.58443
99910000 -29.619858 -102.33507 -0.089514561 -20.215446 -0.087952323 -20.212599 -30.329239 -107.89359
100909000 -29.522352 -102.66611 -0.089671262 -20.422836 -0.087012298 -20.416569 -30.24309 -108.15564
101908000 -29.447584 -102.8977 -0.090798743 -20.623793 -0.088686474 -20.624126 -30.12252 -107.89153
102907000 -29.302784 -102.96722 -0.091557167 -20.824001 -0.088304989 -20.819391 -30.04571 -107.87579
103906000 -29.213617 -103.11294 -0.091950573 -21.027136 -0.088193774 -21.022804 -29.887783 -107.85551
104905000 -29.060297 -103.01907 -0.092660546 -21.227041 -0.088990584 -21.225975 -29.755659 -107.55793
105904000 -28.923742 -103.15268 -0.092815243 -21.430803 -0.088832319 -21.423538 -29.641737 -107.35692
106903000 -28.806643 -103.30908 -0.092437625 -21.636377 -0.089658312 -21.629478 -29.507484 -107.37484
107902000 -28.649519 -103.65561 -0.093224898 -21.833162 -0.090038337 -21.826124 -29.360739 -107.37617
108901000 -28.539314 -104.00822 -0.094409652 -22.037567 -0.090805352 -22.028511 -29.223322 -107.35203
109900000 -28.417265 -104.51839 -0.094808079 -22.238049 -0.092389233 -22.227289 -29.072607 -107.51617
110899000 -28.299929 -105.15511 -0.096459858 -22.431288 -0.093130745 -22.424461 -28.943535 -107.82249
111898000 -28.216816 -105.85966 -0.098019332 -22.633862 -0.094293512 -22.626392 -28.825106 -107.98135
112897000 -28.096104 -106.4674 -0.09959472 -22.832224 -0.094985083 -22.82052 -28.685608 -108.24768
113896000 -27.994509 -107.09454 -0.10058914 -23.035002 -0.09694159 -23.020985 -28.571253 -108.44549
114895000 -27.901123 -107.77276 -0.1014921 -23.235214 -0.098039716 -23.217352 -28.468719 -108.58276
115894000 -27.774855 -108.172 -0.10285325 -23.432577 -0.099534333 -23.420862 -28.394617 -108.79139
116893000 -27.68924 -108.78771 -0.1031488 -23.631508 -0.10038303 -23.613081 -28.262575 -108.96862
117892000 -27.615351 -109.29949 -0.1035878 -23.823792 -0.10087156 -23.813118 -28.198915 -109.18625
118891000 -27.551189 -109.74382 -0.10424267 -24.027048 -0.10136756 -24.015461 -28.091213 -109.37749
119890000 -27.463943 -110.16364 -0.1049284 -24.227409 -0.10185885 -24.209936 -28.088943 -109.51657
120889000 -27.409143 -110.71527 -0.10598902 -24.427839 -0.10220309 -24.409349 -28.004215 -109.52459
121888000 -27.375193 -111.02223 -0.10578584 -24.621496 -0.10256593 -24.610035 -27.953074 -109.83337
122887000 -27.330658 -111.23739 -0.10649038 -24.824814 -0.10307565 -24.814171 -27.900663 -109.89429
123886000 -27.272205 -111.72047 -0.10750654 -25.030046 -0.10353611 -25.008457 -27.895973 -110.06345
124885000 -27.244139 -112.2147 -0.10769733 -25.227152 -0.10373282 -25.213779 -27.855131 -110.09928
125884000 -27.185575 -112.46155 -0.10843217 -25.423346 -0.10399582 -25.412207 -27.826853 -110.32928
126883000 -27.165232 -112.81153 -0.10873634 -25.62792 -0.10483532 -25.610094 -27.782692 -110.35134
127882000 -27.119715 -113.10311 -0.10941348 -25.825819 -0.10547976 -25.808899 -27.746195 -110.53318
128881000 -27.084217 -113.4303 -0.10941932 -26.026051 -0.10586806 -26.012209 -27.704491 -110.68745
129880000 -27.028713 -113.76414 -0.11062284 -26.229292 -0.10602828 -26.207148 -27.657446 -110.63484
130879000 -26.964911 -113.93475 -0.11011994 -26.429089 -0.10691618 -26.409164 -27.575886 -110.72771
131878000 -26.896713 -114.16916 -0.11017782 -26.628025 -0.10804842 -26.610596 -27.508144 -110.60204
132877000 -26.829716 -114.25451 -0.10950932 -26.829067 -0.10767265 -26.814802 -27.421158 -110.61383
133876000 -26.739872 -114.4313 -0.11092955 -27.032042 -0.10803542 -27.012787 -27.328915 -110.56854
134875000 -26.646767 -114.55132 -0.11107242 -27.233555 -0.10901132 -27.212179 -27.216444 -110.46503
135874000 -26.558069 -114.58194 -0.11066187 -27.431559 -0.10859434 -27.414978 -27.116007 -110.42493
136873000 -26.453329 -114.51583 -0.11096328 -27.638403 -0.10772042 -27.617315 -27.030787 -110.44997
137872000 -26.36467 -114.66694 -0.11148433 -27.837656 -0.10844916 -27.824434 -26.918924 -110.393
138871000 -26.296947 -114.92119 -0.11271977 -28.038427 -0.10798897 -28.018955 -26.822027 -110.54929
139870000 -26.197029 -115.18512 -0.11293019 -28.238106 -0.10949711 -28.217594 -26.73304 -110.79862
140869000 -26.107012 -115.65009 -0.11473372 -28.431438 -0.11125194 -28.410776 -26.626104 -110.93116
141868000 -26.01161 -116.16589 -0.11452056 -28.623981 -0.112087 -28.607317 -26.556896 -111.29478
142867000 -25.940962 -116.42561 -0.11371773 -28.823671 -0.11076092 -28.804403 -26.478235 -111.48254
143866000 -25.874123 -116.95226 -0.11485519 -29.01923 -0.11254682 -29.003504 -26.413288 -112.03515
144865000 -25.817648 -117.49884 -0.11629818 -29.219263 -0.11403608 -29.203344 -26.354603 -112.39369
145864000 -25.764757 -117.83403 -0.11674595 -29.420771 -0.11473027 -29.406713 -26.320898 -112.60818
146863000 -25.716692 -118.21295 -0.11782064 -29.618965 -0.11574038 -29.60288 -26.271685 -112.96549
147862000 -25.676508 -118.62894 -0.1186777 -29.813776 -0.11635613 -29.800631 -26.240892 -113.30899
148861000 -25.64501 -119.12949 -0.11872373 -30.014791 -0.11627531 -30.000578 -26.215897 -113.56614
149860000 -25.629915 -119.3653 -0.11953919 -30.21229 -0.11666857 -30.199747 -26.186672 -113.75622
150859000 -25.61554 -119.74055 -0.11993967 -30.414085 -0.11680897 -30.399807 -26.181938 -114.03472
151858000 -25.597332 -120.0635 -0.11950514 -30.609838 -0.11731052 -30.594624 -26.170765 -114.28809
152857000 -25.58625 -120.39973 -0.12046047 -30.809052 -0.1174403 -30.78997 -26.155386 -114.4271
153856000 -25.570158 -120.6436 -0.12041603 -31.007122 -0.11752594 -30.993021 -26.176266 -114.73788
154855000 -25.569292 -120.79255 -0.12097123 -31.205479 -0.11769137 -31.190073 -26.16872 -115.00328
155854000 -25.580238 -121.02993 -0.12075377 -31.404373 -0.11829942 -31.393171 -26.155823 -115.23503
156853000 -25.563396 -121.74496 -0.11825579 -31.592669 -0.11778367 -31.583704 -26.153303 -115.56243
157852000 -25.570356 -121.96595 -0.11942691 -31.791735 -0.1188767 -31.779474 -26.145374 -115.89077
158851000 -25.56761 -122.20409 -0.12054857 -31.990046 -0.1195062 -31.980612 -26.133352 -116.16633
159850000 -25.548449 -122.33384 -0.12105188 -32.188202 -0.11965202 -32.181736 -26.132231 -116.30174
160849000 -25.529003 -122.44449 -0.12136251 -32.388008 -0.12056214 -32.381283 -26.106808 -116.61869
161848000 -25.50877 -122.55491 -0.122064 -32.590919 -0.11998703 -32.582321 -26.064352 -116.69408
162847000 -25.465599 -122.76836 -0.12238003 -32.786541 -0.12124193 -32.781406 -26.032862 -116.97293
163846000 -25.421566 -122.99321 -0.12180629 -32.987282 -0.12026007 -32.979431 -25.950146 -117.00882
164845000 -25.360586 -123.00501 -0.12278876 -33.184566 -0.12120041 -33.178726 -25.884317 -117.11079
165844000 -25.310268 -123.10498 -0.12243275 -33.383156 -0.12230229 -33.377842 -25.798616 -117.24483
166843000 -25.242395 -123.15013 -0.12274083 -33.58017 -0.12178393 -33.578213 -25.734356 -117.40027
167842000 -25.183722 -123.31519 -0.12278051 -33.783134 -0.12232732 -33.776558 -25.651621 -117.35784
168841000 -25.103321 -123.52531 -0.12332935 -33.979603 -0.12202087 -33.971828 -25.567656 -117.45688
169840000 -25.038029 -123.77531 -0.12343694 -34.178303 -0.12293761 -34.169476 -25.47954 -117.6639
170839000 -24.976055 -124.07163 -0.1244965 -34.370884 -0.12342842 -34.367302 -25.388464 -117.85643
171838000 -24.9195 -124.5147 -0.12459027 -34.571644 -0.12394352 -34.565479 -25.326845 -118.14102
172837000 -24.8521 -124.86829 -0.12618306 -34.768661 -0.12528242 -34.762447 -25.25503 -118.38966
173836000 -24.788124 -125.27711 -0.12738883 -34.969883 -0.12625742 -34.968353 -25.213755 -118.63887
174835000 -24.731958 -125.76993 -0.12759463 -35.160255 -0.12697062 -35.164543 -25.168295 -118.99131
175834000 -24.686337 -126.17768 -0.12806277 -35.360676 -0.12760475 -35.358627 -25.107052 -119.30152
176833000 -24.637018 -126.5675 -0.12965736 -35.558788 -0.12825392 -35.557541 -25.053444 -119.52036
177832000 -24.585529 -127.07671 -0.12991287 -35.757244 -0.12874 -35.756668 -25.031727 -119.67266
178831000 -24.54656 -127.442 -0.13006784 -35.954494 -0.1296995 -35.945713 -24.991972 -119.92844
179830000 -24.513905 -127.87532 -0.13085744 -36.147549 -0.12947175 -36.153812 -24.966909 -120.05756
180829000 -24.471533 -128.10957 -0.13161676 -36.34866 -0.1300265 -36.349884 -24.937086 -120.24625
181828000 -24.448513 -128.49141 -0.13131285 -36.54707 -0.13082223 -36.544811 -24.92009 -120.3652
182827000 -24.427395 -128.8297 -0.13168585 -36.742001 -0.130612 -36.739765 -24.904232 -120.5029
183826000 -24.386274 -129.15488 -0.13233644 -36.931606 -0.13046929 -36.936981 -24.899012 -120.58868
184825000 -24.390879 -129.48273 -0.13294227 -37.131538 -0.13123654 -37.134617 -24.882807 -120.73597
185824000 -24.360161 -129.86118 -0.13213256 -37.326073 -0.13197778 -37.32798 -24.876146 -120.78596
186823000 -24.342882 -130.22003 -0.13268578 -37.527908 -0.13165517 -37.524025 -24.873327 -120.74164
187822000 -24.325907 -130.54057 -0.13334852 -37.721828 -0.13272661 -37.722775 -24.835714 -120.8223
188821000 -24.305944 -130.78317 -0.13321239 -37.919384 -0.13290864 -37.922367 -24.820385 -120.91723
189820000 -24.28776 -131.04048 -0.13363922 -38.122726 -0.13290597 -38.118389 -24.813879 -121.08781
190819000 -24.258394 -131.29852 -0.13484146 -38.318466 -0.13382047 -38.319714 -24.772051 -121.0637
191818000 -24.219875 -131.48569 -0.13620937 -38.513454 -0.13517632 -38.514812 -24.742424 -120.95673
192817000 -24.149145 -131.73434 -0.13663355 -38.697929 -0.13589205 -38.700829 -24.669611 -121.01713
193816000 -24.112917 -132.08595 -0.13616876 -38.893166 -0.13458939 -38.890369 -24.612778 -121.27257
194815000 -24.052517 -132.54492 -0.13518539 -39.089531 -0.13472103 -39.091579 -24.543056 -121.40806
195814000 -24.00206 -132.79778 -0.13646686 -39.285881 -0.1344583 -39.287857 -24.491913 -121.5164
196813000 -23.948097 -133.13928 -0.13627133 -39.484127 -0.13453867 -39.484764 -24.409134 -121.71523
197812000 -23.890327 -133.35645 -0.1362569 -39.677937 -0.13539316 -39.680157 -24.336655 -121.81144
198811000 -23.843103 -133.54915 -0.13625744 -39.875233 -0.13492717 -39.879417 -24.267965 -122.0004
199810000 -23.771637 -133.95796 -0.13640435 -40.070339 -0.13497551 -40.066223 -24.189857 -122.10555
200809000 -23.712164 -134.23082 -0.13684273 -40.270424 -0.13579644 -40.266273 -24.108814 -122.34412
201808000 -23.653622 -134.46844 -0.13757557 -40.468239 -0.13696374 -40.469002 -24.040621 -122.40977
202807000 -23.59725 -134.86377 -0.13844563 -40.668495 -0.13761431 -40.670776 -23.983175 -122.64339
203806000 -23.548849 -135.30832 -0.13974357 -40.870926 -0.13760495 -40.869518 -23.919052 -122.80688
