!Keysight Technologies,E5080B,MY59205177,A.15.75.32
!Date: Friday, February 23, 2024 03:28:53
!Correction: S11(Cdelta 2-Port  ) 
!S21(Cdelta 2-Port  ) 
!S12(Cdelta 2-Port  ) 
!S22(Cdelta 2-Port  ) 
!S2P File: Measurements: S11, S21, S12, S22:
# Hz S  dB   R 50
10000000 -46.02467 -1.4046638 -0.014936751 -2.0550339 -0.019180305 -2.1082563 -46.000278 -158.58363
10999000 -45.193226 -3.3067746 -0.01693522 -2.2723174 -0.018529302 -2.3275814 -46.004684 -152.27039
11998000 -44.206501 -6.5825028 -0.017395735 -2.4947681 -0.018790575 -2.5425196 -46.228531 -148.07448
12997000 -43.536179 -11.764132 -0.016181398 -2.6766248 -0.01833667 -2.7116971 -45.867508 -141.92931
13996000 -43.295429 -16.201572 -0.01545057 -2.8600051 -0.018473409 -2.8775694 -45.675804 -136.89191
14995000 -42.843552 -20.291267 -0.017828748 -3.066999 -0.018431555 -3.0918903 -45.413891 -133.22095
15994000 -42.725277 -24.456818 -0.019551869 -3.2885742 -0.021113617 -3.3124506 -45.278992 -129.96552
16993000 -42.72163 -29.285692 -0.017943116 -3.4846334 -0.02008678 -3.49752 -44.453087 -129.55583
17992000 -42.737667 -34.253326 -0.018956447 -3.6849568 -0.020776512 -3.6886117 -43.913261 -129.68462
18991000 -42.979622 -39.79121 -0.019240107 -3.8952458 -0.021728067 -3.8932993 -43.202854 -128.50612
19990000 -42.73563 -45.193127 -0.022234363 -4.1066771 -0.024014417 -4.1026959 -42.570999 -129.38106
20989000 -42.65781 -48.53968 -0.024634484 -4.3092046 -0.025754577 -4.2992063 -42.020542 -128.45534
21988000 -42.493244 -53.897972 -0.024825832 -4.5065985 -0.026057692 -4.495985 -41.736973 -127.84142
22987000 -42.223976 -58.537579 -0.026511364 -4.7113891 -0.02767753 -4.6980925 -41.521973 -127.30362
23986000 -42.127518 -62.965328 -0.026047276 -4.9019113 -0.02671686 -4.8996887 -41.395237 -127.11764
24985000 -41.694313 -65.571182 -0.02698566 -5.1158972 -0.026977325 -5.1074634 -41.177345 -124.55827
25984000 -41.403778 -67.73111 -0.028181655 -5.3200612 -0.027540764 -5.3165712 -40.841518 -122.94273
26983000 -41.088337 -69.573776 -0.028808834 -5.5185375 -0.028067539 -5.5367599 -40.743488 -122.28603
27982000 -40.906715 -70.401489 -0.030120542 -5.7176714 -0.029584657 -5.7514887 -40.487122 -120.34552
28981000 -40.862274 -72.186691 -0.028118605 -5.9177828 -0.028763231 -5.9414921 -40.246593 -119.81866
29980000 -40.482258 -73.550201 -0.02776272 -6.1095977 -0.030606965 -6.1158295 -40.016273 -119.01942
30979000 -40.092648 -72.472916 -0.025634535 -6.4686189 -0.024963817 -6.4587984 -39.47279 -119.46705
31978000 -39.900368 -73.494308 -0.02526922 -6.6602464 -0.025793377 -6.653429 -39.200191 -118.78593
32977000 -39.720703 -75.121391 -0.025845457 -6.8698907 -0.026950495 -6.8677053 -38.975986 -118.81438
33976000 -39.538006 -76.040672 -0.025620213 -7.0746861 -0.026957789 -7.0703521 -38.696114 -118.15292
34975000 -39.258438 -77.057426 -0.026057953 -7.2754331 -0.028448723 -7.2726498 -38.448444 -117.93986
35974000 -39.032223 -77.52301 -0.025564751 -7.4703326 -0.02744568 -7.4758677 -38.191223 -116.75838
36973000 -38.800045 -78.404655 -0.025857436 -7.6739378 -0.028410161 -7.6732883 -37.912037 -115.81572
37972000 -38.647156 -78.096016 -0.025378836 -7.8826685 -0.028646233 -7.8910251 -37.687599 -115.10487
38971000 -38.304642 -77.505661 -0.026422031 -8.0845451 -0.028587865 -8.0959549 -37.518074 -113.62387
39970000 -37.976074 -77.994751 -0.024948977 -8.2780638 -0.027832801 -8.2941008 -37.263268 -113.03445
40969000 -37.674992 -77.559021 -0.025183558 -8.4686184 -0.026597051 -8.4938316 -37.023293 -111.52036
41968000 -37.322903 -77.574394 -0.025625421 -8.6814947 -0.027358152 -8.6967239 -36.834332 -110.30272
42967000 -37.062996 -77.56852 -0.025168978 -8.8966923 -0.028265292 -8.9102945 -36.639317 -108.27531
43966000 -36.761604 -78.307587 -0.026103005 -9.0961647 -0.028852351 -9.1096468 -36.344261 -107.51596
44965000 -36.513023 -79.182442 -0.026986962 -9.2926817 -0.029602639 -9.3132706 -36.134247 -107.23779
45964000 -36.299088 -80.128105 -0.027829675 -9.4954624 -0.031090572 -9.5158939 -35.898483 -106.98467
46963000 -36.095272 -82.213821 -0.028002406 -9.6907225 -0.031375807 -9.7111273 -35.707489 -107.25482
47962000 -35.947853 -83.584076 -0.029190343 -9.89538 -0.032863565 -9.909461 -35.520164 -107.23862
48961000 -35.724731 -84.907509 -0.031753894 -10.091806 -0.034124579 -10.11277 -35.287464 -107.40039
49960000 -35.471958 -86.105461 -0.033806816 -10.28951 -0.035369262 -10.313188 -35.158401 -107.40494
50959000 -35.27103 -87.59288 -0.034191113 -10.503156 -0.036284603 -10.515834 -34.973026 -107.63812
51958000 -35.069584 -88.643974 -0.036046285 -10.708276 -0.038000178 -10.713276 -34.796631 -108.14954
52957000 -34.850437 -89.667038 -0.037384987 -10.902675 -0.038921818 -10.912431 -34.627007 -107.9075
53956000 -34.677006 -90.32003 -0.038712613 -11.104074 -0.039839216 -11.105787 -34.495071 -107.76987
54955000 -34.506943 -90.889214 -0.039449196 -11.309492 -0.040672667 -11.303061 -34.350891 -107.7326
55954000 -34.332458 -91.724861 -0.040832061 -11.512316 -0.041588865 -11.505028 -34.241264 -107.41511
56953000 -34.232746 -91.765091 -0.040132605 -11.707706 -0.040991198 -11.694838 -34.162407 -107.60292
57952000 -34.052498 -92.267586 -0.040892683 -11.906526 -0.041281268 -11.901093 -34.070675 -107.71524
58951000 -33.932373 -92.629105 -0.042670731 -12.112182 -0.042124666 -12.090371 -33.906818 -107.77806
59950000 -33.821217 -93.035965 -0.043902695 -12.315263 -0.043233071 -12.290833 -33.843967 -108.14512
60949000 -33.697014 -93.597977 -0.044418383 -12.515134 -0.043616112 -12.494245 -33.757442 -108.36169
61948000 -33.624241 -93.928871 -0.044915304 -12.713387 -0.044094373 -12.696702 -33.664066 -108.42184
62947000 -33.552738 -94.084824 -0.044644605 -12.923285 -0.044106662 -12.904422 -33.518951 -108.71784
63946000 -33.484463 -94.852089 -0.045583617 -13.122571 -0.046474949 -13.106483 -33.415234 -108.81762
64945000 -33.375076 -94.961952 -0.04589466 -13.325894 -0.046471022 -13.307184 -33.311291 -109.27022
65944000 -33.273846 -95.253349 -0.046502419 -13.52505 -0.046493787 -13.510391 -33.218391 -109.71545
66943000 -33.125526 -95.723732 -0.044562746 -13.732082 -0.045194648 -13.710354 -33.101402 -110.02414
67942000 -33.065998 -95.603363 -0.047108434 -13.924215 -0.047554627 -13.913531 -32.988171 -110.26412
68941000 -32.953323 -95.760368 -0.046284735 -14.1181 -0.046596877 -14.111049 -32.877853 -110.25294
69940000 -32.849598 -95.720779 -0.046673279 -14.318311 -0.047067612 -14.314702 -32.741516 -110.54202
70939000 -32.746773 -95.700813 -0.047131203 -14.516121 -0.046734244 -14.514014 -32.610786 -110.42191
71938000 -32.598232 -95.181335 -0.046890981 -14.718412 -0.046475995 -14.706948 -32.464245 -110.26775
72937000 -32.441586 -95.031944 -0.046056073 -14.912173 -0.046739217 -14.906345 -32.332848 -109.97521
73936000 -32.30788 -94.649872 -0.046249416 -15.112685 -0.046307236 -15.102371 -32.21125 -109.72631
74935000 -32.174999 -94.863136 -0.04556635 -15.308082 -0.044756282 -15.304458 -32.061108 -109.45368
75934000 -32.049168 -95.113228 -0.046444334 -15.517791 -0.045085836 -15.509944 -31.965694 -109.33207
76933000 -31.915937 -95.419495 -0.046996176 -15.711473 -0.04674942 -15.706202 -31.794046 -109.68537
77932000 -31.814123 -96.289597 -0.048310511 -15.909326 -0.048079126 -15.899138 -31.682983 -109.66809
78931000 -31.744167 -96.977089 -0.0471524 -16.108757 -0.048065517 -16.103951 -31.577965 -109.49712
79930000 -31.630899 -97.920074 -0.049607441 -16.301277 -0.050062269 -16.301931 -31.492847 -109.78649
80929000 -31.5033 -98.692383 -0.051126078 -16.498623 -0.051282451 -16.495504 -31.388058 -110.01014
81928000 -31.401642 -99.482025 -0.051489122 -16.692165 -0.05206256 -16.688972 -31.258945 -110.02747
82927000 -31.305132 -100.09985 -0.053574719 -16.89093 -0.05305611 -16.888359 -31.150604 -110.25956
83926000 -31.191154 -100.78972 -0.055382088 -17.086315 -0.054206625 -17.091024 -31.026699 -110.48148
84925000 -31.079628 -101.2653 -0.054862998 -17.289949 -0.054592993 -17.285633 -30.939222 -110.4865
85924000 -30.98184 -101.65598 -0.056145892 -17.492634 -0.056428056 -17.488876 -30.837877 -110.47724
86923000 -30.875782 -102.14971 -0.056505684 -17.68685 -0.056052275 -17.683025 -30.739408 -110.35866
87922000 -30.769732 -102.51337 -0.056971725 -17.897644 -0.055941883 -17.881977 -30.65234 -110.39516
88921000 -30.694773 -102.81031 -0.058257338 -18.0949 -0.057031002 -18.087465 -30.549053 -110.40481
89920000 -30.588675 -103.28304 -0.058256291 -18.289246 -0.057970595 -18.286222 -30.510647 -110.52618
90919000 -30.487467 -103.52554 -0.058839545 -18.489408 -0.058246318 -18.484756 -30.413343 -110.66398
91918000 -30.390123 -103.89777 -0.060016263 -18.691723 -0.058991995 -18.685148 -30.347708 -110.72217
92917000 -30.297228 -104.22629 -0.061305404 -18.891417 -0.059906293 -18.887968 -30.284723 -110.82848
93916000 -30.207306 -104.5878 -0.061307769 -19.078959 -0.06003936 -19.079464 -30.191389 -111.3661
94915000 -30.129248 -105.16083 -0.062481742 -19.284859 -0.060559593 -19.277166 -30.134844 -111.25768
95914000 -30.067944 -105.4149 -0.06339021 -19.479141 -0.06173389 -19.476166 -30.038868 -111.55198
96913000 -29.988651 -105.63308 -0.064037204 -19.680511 -0.06301304 -19.677774 -29.968143 -111.88647
97912000 -29.903379 -106.11714 -0.06562081 -19.87631 -0.062688425 -19.879116 -29.885136 -112.14233
98911000 -29.794233 -106.25796 -0.065636583 -20.078207 -0.064579196 -20.075508 -29.848215 -112.35585
99910000 -29.724886 -106.411 -0.06654308 -20.276268 -0.065048471 -20.275331 -29.739195 -112.66831
100909000 -29.636057 -106.66994 -0.065941438 -20.489731 -0.06388142 -20.481363 -29.655449 -112.83608
101908000 -29.548 -106.86937 -0.066877447 -20.687183 -0.065410055 -20.683147 -29.542223 -112.62548
102907000 -29.406719 -106.90329 -0.067552038 -20.885551 -0.065794788 -20.885124 -29.469646 -112.60454
103906000 -29.312395 -106.94227 -0.067609884 -21.093132 -0.065265521 -21.093672 -29.315809 -112.52249
104905000 -29.168474 -106.83035 -0.068710342 -21.293329 -0.06615039 -21.295513 -29.19297 -112.26126
105904000 -29.022036 -106.94837 -0.068739533 -21.494658 -0.065789536 -21.490065 -29.082842 -112.10591
106903000 -28.912951 -106.95891 -0.069189534 -21.70653 -0.066432156 -21.69709 -28.956358 -112.01485
107902000 -28.745672 -107.34815 -0.069176912 -21.902081 -0.066738911 -21.890999 -28.818264 -111.90047
108901000 -28.627602 -107.59045 -0.070660047 -22.100908 -0.067960367 -22.095903 -28.689608 -111.8691
109900000 -28.505537 -108.02168 -0.071212076 -22.305016 -0.069367602 -22.299028 -28.538433 -112.0042
110899000 -28.380545 -108.66444 -0.073284268 -22.501534 -0.070359066 -22.493338 -28.412817 -112.24611
111898000 -28.298424 -109.35197 -0.074169189 -22.703758 -0.071008943 -22.697224 -28.293934 -112.40317
112897000 -28.169802 -109.83028 -0.076041527 -22.901705 -0.07238505 -22.891319 -28.155447 -112.52943
113896000 -28.063002 -110.42609 -0.076974966 -23.104813 -0.073815309 -23.094128 -28.049923 -112.69406
114895000 -27.961573 -111.02501 -0.077378124 -23.30261 -0.075311616 -23.290386 -27.939341 -112.75978
115894000 -27.830416 -111.4861 -0.078789465 -23.506018 -0.075895585 -23.492233 -27.864471 -112.93459
116893000 -27.763102 -111.92145 -0.079811029 -23.700047 -0.077297226 -23.686068 -27.747795 -112.99142
117892000 -27.681242 -112.42616 -0.079903573 -23.895954 -0.077497229 -23.887295 -27.666542 -113.21544
118891000 -27.620756 -112.83913 -0.080156967 -24.097275 -0.078116283 -24.086161 -27.572716 -113.30695
119890000 -27.529762 -113.22208 -0.080756091 -24.299179 -0.078737535 -24.286772 -27.552553 -113.45009
120889000 -27.47777 -113.70797 -0.08205536 -24.499075 -0.078744389 -24.485479 -27.478689 -113.40416
121888000 -27.444204 -114.0149 -0.082278542 -24.694588 -0.078759417 -24.685591 -27.421883 -113.66459
122887000 -27.39913 -114.24544 -0.083654791 -24.900179 -0.07985954 -24.887962 -27.376223 -113.68202
123886000 -27.347956 -114.66001 -0.084017403 -25.102468 -0.080723658 -25.084757 -27.366083 -113.84827
124885000 -27.308008 -115.13531 -0.084203728 -25.299423 -0.081487179 -25.287849 -27.334478 -113.87845
125884000 -27.258524 -115.39009 -0.084975258 -25.498211 -0.081254281 -25.488098 -27.299835 -114.00373
126883000 -27.241842 -115.75036 -0.085462846 -25.702925 -0.08237879 -25.691051 -27.260912 -114.02677
127882000 -27.190725 -116.01132 -0.085756168 -25.909037 -0.082714908 -25.890076 -27.216469 -114.14523
128881000 -27.160927 -116.32654 -0.086362138 -26.105486 -0.082745507 -26.090475 -27.17823 -114.24548
129880000 -27.102123 -116.69471 -0.08699698 -26.312038 -0.082880072 -26.293085 -27.141132 -114.15821
130879000 -27.044132 -116.88087 -0.086642578 -26.51033 -0.084077045 -26.493259 -27.067863 -114.20078
131878000 -26.976976 -117.04816 -0.086850673 -26.712532 -0.083997868 -26.69054 -27.004198 -114.12234
132877000 -26.914902 -117.13457 -0.086819515 -26.91291 -0.084451832 -26.89576 -26.919838 -114.05344
133876000 -26.825148 -117.30961 -0.087516226 -27.115368 -0.083756924 -27.097466 -26.838312 -113.93663
134875000 -26.7323 -117.44938 -0.08787863 -27.316296 -0.085084014 -27.296366 -26.734985 -113.77462
135874000 -26.649586 -117.47934 -0.088211209 -27.516705 -0.085016176 -27.495537 -26.637383 -113.74298
136873000 -26.539579 -117.35768 -0.088376842 -27.721619 -0.084646359 -27.702715 -26.555473 -113.70899
137872000 -26.457445 -117.51753 -0.088024706 -27.921463 -0.085077681 -27.904226 -26.452972 -113.65675
138871000 -26.375504 -117.71648 -0.088471949 -28.119759 -0.085000597 -28.10644 -26.353043 -113.80304
139870000 -26.280571 -117.99293 -0.089148059 -28.320295 -0.086291902 -28.307945 -26.27223 -113.94707
140869000 -26.199854 -118.57973 -0.090196647 -28.518435 -0.087393142 -28.499117 -26.173588 -114.2168
141868000 -26.116163 -118.96975 -0.091102995 -28.71697 -0.088494144 -28.701141 -26.118509 -114.43327
142867000 -26.037624 -119.17045 -0.08982189 -28.914499 -0.087784588 -28.897249 -26.04035 -114.57069
143866000 -25.963577 -119.63518 -0.091545798 -29.11223 -0.089604139 -29.098843 -25.970823 -115.02709
144865000 -25.90624 -120.18159 -0.093364015 -29.310131 -0.090540498 -29.294392 -25.910347 -115.32373
145864000 -25.855045 -120.50007 -0.093511865 -29.514563 -0.092121378 -29.500782 -25.879482 -115.53788
146863000 -25.808229 -120.84476 -0.094959944 -29.71032 -0.092730619 -29.700525 -25.829304 -115.87406
147862000 -25.7694 -121.20773 -0.09602052 -29.910362 -0.092781395 -29.895639 -25.796484 -116.16192
148861000 -25.738373 -121.66531 -0.097072087 -30.111828 -0.094605424 -30.095203 -25.773226 -116.36131
149860000 -25.701962 -121.79991 -0.09770824 -30.302086 -0.095020272 -30.293301 -25.721674 -116.42366
150859000 -25.676405 -122.27608 -0.098018803 -30.501036 -0.095041439 -30.485142 -25.705709 -116.77848
151858000 -25.673595 -122.62074 -0.096652016 -30.700771 -0.094769984 -30.687733 -25.694231 -117.11152
152857000 -25.655411 -122.9875 -0.09734343 -30.898577 -0.094679497 -30.889654 -25.681883 -117.29991
153856000 -25.657526 -123.17844 -0.096676365 -31.100554 -0.094392717 -31.085806 -25.696758 -117.57066
154855000 -25.656111 -123.35638 -0.097066268 -31.298414 -0.093847521 -31.284002 -25.693026 -117.83044
155854000 -25.676271 -123.5655 -0.098297872 -31.498091 -0.095352076 -31.484518 -25.678982 -118.13052
156853000 -25.658035 -124.28033 -0.095833421 -31.687714 -0.094064958 -31.680054 -25.67988 -118.4108
157852000 -25.668314 -124.50584 -0.096801832 -31.88765 -0.095805369 -31.878576 -25.669527 -118.74933
158851000 -25.670151 -124.70145 -0.097347662 -32.08857 -0.095879734 -32.079929 -25.651991 -119.04147
159850000 -25.65616 -124.79603 -0.098402463 -32.287548 -0.096189372 -32.280544 -25.651464 -119.22913
160849000 -25.636896 -124.92631 -0.098393731 -32.484585 -0.096755244 -32.482204 -25.6245 -119.50504
161848000 -25.62163 -124.99197 -0.098722614 -32.689251 -0.096772186 -32.68211 -25.584078 -119.63017
162847000 -25.582056 -125.15158 -0.099212803 -32.883339 -0.097454086 -32.883282 -25.55863 -119.84144
163846000 -25.540255 -125.38934 -0.099482425 -33.085709 -0.097714327 -33.077065 -25.485233 -119.88377
164845000 -25.483606 -125.33279 -0.099674709 -33.285069 -0.098106436 -33.277023 -25.419458 -119.94744
165844000 -25.431614 -125.39223 -0.099838138 -33.488373 -0.098488256 -33.478794 -25.342813 -120.1149
166843000 -25.369337 -125.46269 -0.098779283 -33.684509 -0.09866409 -33.681286 -25.27195 -120.28963
167842000 -25.308182 -125.55148 -0.10029985 -33.886757 -0.099325627 -33.8792 -25.194141 -120.1749
168841000 -25.233162 -125.7111 -0.1003221 -34.083698 -0.1001462 -34.080936 -25.117577 -120.24663
169840000 -25.165869 -125.95611 -0.10075445 -34.281242 -0.099432625 -34.274803 -25.0366 -120.44895
170839000 -25.107105 -126.23257 -0.10128648 -34.479542 -0.10024316 -34.478657 -24.9494 -120.62394
171838000 -25.04628 -126.60118 -0.10117307 -34.678699 -0.10105781 -34.676353 -24.885614 -120.86246
172837000 -24.977945 -126.93453 -0.10342211 -34.877899 -0.10205654 -34.872047 -24.817625 -121.04508
173836000 -24.911188 -127.35791 -0.10461469 -35.075214 -0.10242387 -35.072304 -24.774288 -121.31683
174835000 -24.855822 -127.75 -0.10506338 -35.271999 -0.10384682 -35.27272 -24.728888 -121.61828
175834000 -24.804131 -128.10175 -0.1057312 -35.473877 -0.1047425 -35.467396 -24.671139 -121.84505
176833000 -24.752254 -128.45578 -0.10670951 -35.673321 -0.10545589 -35.669315 -24.61702 -122.01385
177832000 -24.705994 -128.91943 -0.10711703 -35.869167 -0.10622033 -35.87228 -24.604725 -122.13463
178831000 -24.664352 -129.11079 -0.10909149 -36.069958 -0.10808823 -36.065784 -24.566591 -122.2267
179830000 -24.599138 -129.47975 -0.11070622 -36.256165 -0.10850914 -36.256634 -24.505981 -122.25227
180829000 -24.544243 -129.81961 -0.10927571 -36.448376 -0.10834087 -36.446957 -24.454088 -122.57153
181828000 -24.519499 -130.29311 -0.10866573 -36.644753 -0.10741314 -36.642757 -24.437265 -122.81129
182827000 -24.496733 -130.6692 -0.10883508 -36.845573 -0.10811211 -36.844021 -24.422016 -122.92356
183826000 -24.458166 -131.00687 -0.10893461 -37.039749 -0.10831593 -37.036419 -24.416252 -123.03786
184825000 -24.461512 -131.34038 -0.10926536 -37.237995 -0.10832416 -37.243507 -24.391972 -123.18603
185824000 -24.425066 -131.70572 -0.10918599 -37.435619 -0.10885233 -37.437206 -24.388912 -123.24489
186823000 -24.414137 -132.06378 -0.10941561 -37.637516 -0.10837591 -37.631962 -24.379416 -123.26358
187822000 -24.384777 -132.40868 -0.11003046 -37.833027 -0.10919767 -37.83033 -24.34379 -123.37408
188821000 -24.368261 -132.66461 -0.10982949 -38.025101 -0.10951489 -38.029003 -24.326199 -123.49929
189820000 -24.34329 -132.94138 -0.11036661 -38.227249 -0.11002197 -38.226891 -24.308027 -123.70184
190819000 -24.312296 -133.26921 -0.11125779 -38.423485 -0.10984701 -38.423489 -24.265501 -123.72531
191818000 -24.281754 -133.55681 -0.11055592 -38.619991 -0.10997551 -38.622093 -24.235254 -123.74985
192817000 -24.233315 -133.83276 -0.11137225 -38.819862 -0.11090777 -38.820454 -24.192976 -123.86033
193816000 -24.203552 -134.11954 -0.11155657 -39.016754 -0.11052565 -39.013958 -24.14469 -124.00336
194815000 -24.139666 -134.4666 -0.11211091 -39.210899 -0.11153293 -39.211609 -24.076262 -124.06528
195814000 -24.085632 -134.6895 -0.11252663 -39.409843 -0.11163971 -39.408989 -24.017538 -124.16567
196813000 -24.028807 -135.00609 -0.11214252 -39.600903 -0.11141687 -39.606659 -23.931732 -124.32976
197812000 -23.969116 -135.24344 -0.11253779 -39.804462 -0.11203574 -39.799641 -23.869608 -124.41158
198811000 -23.915016 -135.38805 -0.11255373 -39.996849 -0.11211808 -40.000175 -23.797728 -124.57687
199810000 -23.843441 -135.74428 -0.1132623 -40.196335 -0.11155259 -40.19413 -23.71771 -124.66492
200809000 -23.784237 -136.01581 -0.11352933 -40.392376 -0.11208089 -40.388538 -23.637753 -124.87481
201808000 -23.727385 -136.18396 -0.11385458 -40.591946 -0.11309836 -40.597183 -23.57095 -124.93327
202807000 -23.669298 -136.56224 -0.11494131 -40.789452 -0.1140119 -40.796181 -23.517265 -125.14146
