!Keysight Technologies,E5080B,MY59205177,A.15.75.32
!Date: Friday, February 23, 2024 02:50:44
!Correction: S11(Cdelta 2-Port  ) 
!S21(Cdelta 2-Port  ) 
!S12(Cdelta 2-Port  ) 
!S22(Cdelta 2-Port  ) 
!S2P File: Measurements: S11, S21, S12, S22:
# Hz S  dB   R 50
10000000 -42.402416 -3.5941904 -0.039976895 -2.0499544 -0.042583417 -2.0995407 -51.143223 -137.36194
10999000 -41.86541 -4.8615308 -0.040877007 -2.2649086 -0.042782355 -2.3171098 -50.428555 -127.27701
11998000 -41.181934 -6.9358997 -0.041745156 -2.4930069 -0.04232097 -2.5312939 -50.265862 -119.31512
12997000 -40.688732 -10.916465 -0.041284665 -2.6685414 -0.042487223 -2.6998842 -49.27512 -113.24136
13996000 -40.4939 -13.813697 -0.0402392 -2.8479798 -0.042499769 -2.8713057 -48.518616 -108.42164
14995000 -40.21809 -17.251017 -0.042055402 -3.0578306 -0.042107154 -3.0810649 -47.923717 -105.14703
15994000 -40.131721 -20.38624 -0.043260526 -3.2721856 -0.045050003 -3.2986166 -47.437889 -101.37276
16993000 -40.137569 -23.823109 -0.042518068 -3.474371 -0.043323796 -3.4838805 -46.479958 -104.08761
17992000 -40.246216 -27.810644 -0.04279229 -3.6708343 -0.044086527 -3.6767669 -45.915897 -106.27787
18991000 -40.525211 -31.494022 -0.043793917 -3.8829575 -0.045403644 -3.879071 -45.089851 -106.98348
19990000 -40.464531 -35.861694 -0.04615052 -4.0930486 -0.047145594 -4.0863752 -44.379738 -109.69196
20989000 -40.454971 -38.349049 -0.048503429 -4.2966123 -0.04935478 -4.2845535 -43.742847 -110.21776
21988000 -40.417225 -42.587639 -0.049282257 -4.4909973 -0.049944695 -4.4832058 -43.416172 -109.74352
22987000 -40.318924 -46.74366 -0.050986212 -4.6907244 -0.050908163 -4.68398 -43.167702 -109.88212
23986000 -40.364269 -50.007622 -0.050887473 -4.8854303 -0.049928199 -4.8825192 -42.978638 -110.28751
24985000 -40.129601 -52.576653 -0.050933566 -5.0932207 -0.050317068 -5.0917702 -42.655743 -107.83532
25984000 -39.952896 -54.984863 -0.051943362 -5.3016796 -0.050324664 -5.3033152 -42.266891 -106.82382
26983000 -39.701572 -56.848343 -0.05351916 -5.4994378 -0.051855341 -5.517549 -42.102409 -105.90596
27982000 -39.587528 -58.066608 -0.053934298 -5.6978793 -0.052577384 -5.7315197 -41.771957 -104.85152
28981000 -39.643425 -59.151119 -0.052396864 -5.8954587 -0.052629787 -5.9233279 -41.434826 -104.47266
29980000 -39.239216 -61.074978 -0.052252501 -6.0912681 -0.053425863 -6.0979629 -41.110367 -104.05678
30979000 -38.935177 -60.559177 -0.049545385 -6.4498243 -0.048540339 -6.432456 -40.582706 -105.24918
31978000 -38.766239 -61.726421 -0.049697511 -6.6397061 -0.049316816 -6.6252599 -40.303551 -104.90401
32977000 -38.644032 -63.393295 -0.049634408 -6.8483462 -0.049783919 -6.8453736 -40.042267 -105.37502
33976000 -38.524708 -64.512375 -0.049725529 -7.0512018 -0.050343517 -7.0450702 -39.700291 -105.33994
34975000 -38.271591 -65.641449 -0.050261289 -7.251565 -0.051235564 -7.2484035 -39.442623 -105.08279
35974000 -38.088177 -66.487312 -0.049184863 -7.4481149 -0.050992236 -7.4481668 -39.119057 -104.54137
36973000 -37.876389 -67.351891 -0.049315244 -7.6441736 -0.051724095 -7.6493235 -38.817364 -103.85627
37972000 -37.723824 -67.434189 -0.049390387 -7.8564959 -0.051795609 -7.865324 -38.554321 -103.44189
38971000 -37.399685 -67.406342 -0.050630022 -8.0570946 -0.05224805 -8.0685711 -38.318211 -102.01018
39970000 -37.090076 -68.137253 -0.048570443 -8.2527466 -0.050913922 -8.2666178 -38.021404 -101.64513
40969000 -36.823002 -68.322998 -0.048814159 -8.4502277 -0.050575808 -8.4653225 -37.724689 -100.44089
41968000 -36.501904 -68.497467 -0.049227014 -8.6467552 -0.05084347 -8.668931 -37.501816 -99.418259
42967000 -36.246449 -68.929779 -0.048842169 -8.8602409 -0.050884329 -8.8830585 -37.215454 -97.614471
43966000 -35.986633 -69.868881 -0.049589898 -9.0623827 -0.052135393 -9.07656 -36.925732 -97.216934
44965000 -35.790867 -70.863136 -0.050729018 -9.2653694 -0.052842811 -9.2804699 -36.699463 -97.339745
45964000 -35.594173 -72.041939 -0.052040815 -9.4601488 -0.053833395 -9.4821424 -36.449036 -97.144699
46963000 -35.443508 -74.023148 -0.052239403 -9.6595802 -0.054502819 -9.6813478 -36.265919 -97.672058
47962000 -35.322762 -75.527077 -0.05339101 -9.8617125 -0.05538943 -9.8737249 -36.062412 -97.948532
48961000 -35.148918 -77.036079 -0.055956829 -10.05927 -0.057428375 -10.079336 -35.827686 -98.391846
49960000 -34.94487 -78.561363 -0.056796528 -10.255526 -0.058657974 -10.279506 -35.684185 -98.613586
50959000 -34.766315 -79.948273 -0.057995778 -10.470377 -0.059904721 -10.48136 -35.508518 -99.109726
51958000 -34.600174 -81.22821 -0.060350653 -10.671385 -0.061119005 -10.678484 -35.3395 -99.837296
52957000 -34.411186 -82.359459 -0.061925832 -10.869879 -0.062290564 -10.873162 -35.163898 -99.733154
53956000 -34.271881 -83.226501 -0.062825248 -11.068936 -0.063410699 -11.073704 -35.042305 -99.778671
54955000 -34.103333 -83.861191 -0.063925289 -11.271496 -0.064066365 -11.270009 -34.883625 -99.985634
55954000 -33.970192 -84.753273 -0.064968064 -11.472593 -0.063724861 -11.468143 -34.768551 -99.721237
56953000 -33.845909 -84.948105 -0.064078972 -11.670743 -0.063440904 -11.660005 -34.690788 -100.03477
57952000 -33.707878 -85.707886 -0.066165894 -11.868329 -0.064753391 -11.860847 -34.597279 -100.2365
58951000 -33.587276 -86.024323 -0.066992849 -12.072521 -0.065402694 -12.053698 -34.441666 -100.3762
59950000 -33.474831 -86.556015 -0.067841522 -12.275066 -0.065934345 -12.250668 -34.371319 -100.74643
60949000 -33.360031 -87.152542 -0.068139434 -12.472536 -0.066967085 -12.452052 -34.288166 -101.13766
61948000 -33.305683 -87.549278 -0.068585426 -12.673991 -0.066553593 -12.656038 -34.19846 -101.18805
62947000 -33.214287 -87.749207 -0.067744762 -12.884119 -0.067208156 -12.86573 -34.05167 -101.54745
63946000 -33.162785 -88.47612 -0.069015682 -13.082805 -0.068518631 -13.061194 -33.95158 -101.78695
64945000 -33.055523 -88.715149 -0.069885008 -13.284326 -0.069259495 -13.264489 -33.855736 -102.4021
65944000 -32.964165 -89.032272 -0.07052087 -13.485501 -0.06987948 -13.465674 -33.759796 -102.82887
66943000 -32.822468 -89.44841 -0.068724282 -13.685646 -0.068359531 -13.66752 -33.65889 -103.09145
67942000 -32.767269 -89.427528 -0.070761085 -13.881197 -0.069900788 -13.868608 -33.533482 -103.57758
68941000 -32.658615 -89.663918 -0.070115715 -14.077506 -0.069172442 -14.069004 -33.43198 -103.5227
69940000 -32.552437 -89.661507 -0.070778184 -14.27274 -0.07032302 -14.262703 -33.287891 -103.84411
70939000 -32.447853 -89.735252 -0.070294082 -14.470608 -0.069419153 -14.463515 -33.16209 -103.86902
71938000 -32.298042 -89.370598 -0.070625581 -14.666911 -0.069308944 -14.656961 -33.020737 -103.76024
72937000 -32.145592 -89.202675 -0.070481926 -14.869222 -0.068822645 -14.858969 -32.868061 -103.5062
73936000 -31.995861 -88.980545 -0.069865018 -15.059093 -0.06898807 -15.05463 -32.743767 -103.37276
74935000 -31.8773 -89.205215 -0.069144033 -15.257791 -0.06780681 -15.255274 -32.579956 -103.11209
75934000 -31.755016 -89.610092 -0.069944724 -15.470718 -0.068597786 -15.464718 -32.506969 -102.978
76933000 -31.627459 -90.038521 -0.070917107 -15.664879 -0.069278173 -15.654263 -32.337749 -103.54088
77932000 -31.547722 -90.879799 -0.071571805 -15.860772 -0.070891321 -15.85513 -32.235569 -103.49828
78931000 -31.482607 -91.62532 -0.070924737 -16.061588 -0.070517972 -16.051764 -32.127384 -103.39175
79930000 -31.37517 -92.525879 -0.073407739 -16.251251 -0.073285587 -16.248106 -32.03294 -103.78596
80929000 -31.254288 -93.430435 -0.074963436 -16.446199 -0.074207634 -16.442928 -31.941206 -104.20911
81928000 -31.178209 -94.33535 -0.074672423 -16.636469 -0.074866511 -16.634115 -31.809351 -104.35896
82927000 -31.101334 -95.1222 -0.076715171 -16.838243 -0.07576967 -16.835438 -31.705824 -104.757
83926000 -30.992931 -95.863708 -0.077833235 -17.032806 -0.077123314 -17.033791 -31.579176 -105.03368
84925000 -30.894682 -96.31514 -0.078711703 -17.235662 -0.07743109 -17.229156 -31.49869 -105.13584
85924000 -30.812109 -96.859123 -0.080427252 -17.43236 -0.07863684 -17.431616 -31.412289 -105.22215
86923000 -30.708656 -97.478996 -0.080363698 -17.632084 -0.079156935 -17.624643 -31.309465 -105.09003
87922000 -30.603909 -97.833305 -0.080030926 -17.840027 -0.078211166 -17.828306 -31.216848 -105.18517
88921000 -30.541994 -98.172813 -0.080449402 -18.034693 -0.079831593 -18.032461 -31.125711 -105.24628
89920000 -30.432648 -98.836899 -0.081160657 -18.236086 -0.080812 -18.226326 -31.075735 -105.46442
90919000 -30.345263 -99.158607 -0.082344495 -18.432579 -0.081015334 -18.425518 -30.986853 -105.69539
91918000 -30.250355 -99.588692 -0.08322414 -18.632023 -0.081540197 -18.624283 -30.917112 -105.78691
92917000 -30.164652 -99.966454 -0.084383994 -18.830856 -0.083022021 -18.824728 -30.854605 -105.89229
93916000 -30.080435 -100.30471 -0.084092617 -19.025843 -0.082629159 -19.01687 -30.769053 -106.62388
94915000 -30.013996 -101.09081 -0.085830353 -19.225023 -0.083989158 -19.218683 -30.701189 -106.46624
95914000 -29.941202 -101.28017 -0.086755604 -19.420469 -0.084831394 -19.415348 -30.612049 -106.73431
96913000 -29.858276 -101.58514 -0.087284327 -19.618055 -0.085939139 -19.61487 -30.554262 -107.11192
97912000 -29.784206 -102.02759 -0.08897499 -19.813854 -0.086078018 -19.814634 -30.470358 -107.42535
98911000 -29.687399 -102.25574 -0.088751204 -20.015888 -0.087292515 -20.012417 -30.435272 -107.62154
99910000 -29.622114 -102.40289 -0.089583792 -20.215548 -0.087657012 -20.208637 -30.326971 -107.98699
100909000 -29.523724 -102.70664 -0.089227065 -20.419243 -0.086979285 -20.414288 -30.232897 -108.13817
101908000 -29.44512 -102.97096 -0.090121321 -20.623276 -0.088246867 -20.619671 -30.117537 -107.93056
102907000 -29.303741 -103.03237 -0.090849496 -20.822521 -0.088254534 -20.82089 -30.038305 -107.96217
103906000 -29.210033 -103.10573 -0.091533639 -21.027477 -0.087692142 -21.020748 -29.891523 -107.91426
104905000 -29.058552 -103.0893 -0.091818906 -21.225615 -0.088623069 -21.222164 -29.749386 -107.61727
105904000 -28.923765 -103.20325 -0.092468828 -21.4305 -0.08843153 -21.418213 -29.633842 -107.47585
106903000 -28.814308 -103.36268 -0.091438726 -21.630089 -0.089074865 -21.628582 -29.49707 -107.45893
107902000 -28.650648 -103.78645 -0.092747279 -21.836035 -0.089982837 -21.826136 -29.351112 -107.41518
108901000 -28.537348 -104.09148 -0.093520857 -22.033443 -0.091373168 -22.025316 -29.21451 -107.4406
109900000 -28.41433 -104.5513 -0.094891153 -22.235851 -0.09162458 -22.223864 -29.068253 -107.54891
110899000 -28.300648 -105.21253 -0.096718714 -22.431396 -0.092680909 -22.423704 -28.935425 -107.8444
111898000 -28.216702 -105.91901 -0.097919509 -22.63316 -0.093417704 -22.627613 -28.817011 -108.04562
112897000 -28.090694 -106.56006 -0.098475017 -22.829472 -0.095336728 -22.819859 -28.685221 -108.25332
113896000 -27.991318 -107.19308 -0.099600814 -23.034809 -0.096641958 -23.021751 -28.574797 -108.47295
114895000 -27.890463 -107.81078 -0.10084003 -23.232048 -0.098019332 -23.215281 -28.463661 -108.58366
115894000 -27.764097 -108.22108 -0.10226564 -23.432325 -0.099395551 -23.420168 -28.398771 -108.79829
116893000 -27.694798 -108.83077 -0.10269554 -23.624924 -0.100347 -23.610262 -28.263697 -108.94886
117892000 -27.61009 -109.35538 -0.10355572 -23.826513 -0.10058782 -23.810398 -28.186665 -109.23383
118891000 -27.551371 -109.81231 -0.10355467 -24.026676 -0.10108458 -24.013367 -28.088305 -109.39707
119890000 -27.464464 -110.21938 -0.10404646 -24.228821 -0.10174914 -24.209076 -28.080652 -109.57325
120889000 -27.409929 -110.70826 -0.10517052 -24.427483 -0.10196723 -24.410614 -28.001856 -109.56016
121888000 -27.371609 -111.07132 -0.1057694 -24.62221 -0.10276419 -24.611347 -27.940895 -109.88424
122887000 -27.328615 -111.30992 -0.10635615 -24.821302 -0.10317133 -24.811802 -27.896423 -109.9192
123886000 -27.272141 -111.73043 -0.10710217 -25.025661 -0.10306954 -25.007919 -27.876465 -110.10032
124885000 -27.238688 -112.25159 -0.10689337 -25.225645 -0.10382667 -25.210133 -27.853239 -110.18085
125884000 -27.197655 -112.45844 -0.10748027 -25.423599 -0.10390886 -25.404655 -27.82704 -110.33556
126883000 -27.166784 -112.81702 -0.10822251 -25.627665 -0.10490506 -25.609041 -27.780039 -110.39707
127882000 -27.11915 -113.12318 -0.10852852 -25.825798 -0.10533575 -25.808899 -27.739635 -110.57696
128881000 -27.083607 -113.43379 -0.1087743 -26.027197 -0.10571528 -26.009295 -27.691652 -110.71104
129880000 -27.026157 -113.80998 -0.10997444 -26.230156 -0.10547817 -26.210396 -27.649174 -110.66314
130879000 -26.965479 -113.99275 -0.10956985 -26.428324 -0.10687666 -26.41044 -27.571951 -110.78223
131878000 -26.899464 -114.19362 -0.11020491 -26.629305 -0.10692282 -26.610184 -27.508366 -110.67556
132877000 -26.828136 -114.30444 -0.10918121 -26.829937 -0.10653123 -26.815073 -27.417162 -110.69724
133876000 -26.745497 -114.46226 -0.10985019 -27.033558 -0.10719503 -27.012066 -27.326408 -110.60412
134875000 -26.651699 -114.60118 -0.11004507 -27.230389 -0.10798419 -27.210705 -27.211502 -110.51082
135874000 -26.559052 -114.63516 -0.10996091 -27.431084 -0.10776341 -27.417902 -27.113781 -110.4743
136873000 -26.449442 -114.59265 -0.11059628 -27.634031 -0.10762383 -27.609575 -27.02416 -110.45559
137872000 -26.367607 -114.70779 -0.1104752 -27.836721 -0.1076026 -27.817484 -26.913568 -110.44603
138871000 -26.295496 -114.93852 -0.11169017 -28.032419 -0.10753095 -28.020803 -26.816111 -110.59968
139870000 -26.199394 -115.23128 -0.11177118 -28.238153 -0.10879659 -28.21669 -26.736237 -110.82007
140869000 -26.11165 -115.72984 -0.11388328 -28.43165 -0.11058567 -28.411095 -26.625221 -110.96294
141868000 -26.018927 -116.22693 -0.11384953 -28.622717 -0.11070835 -28.605526 -26.55723 -111.3223
142867000 -25.939734 -116.47322 -0.11234413 -28.823753 -0.11018021 -28.803339 -26.48119 -111.52818
143866000 -25.874275 -117.028 -0.11399569 -29.018772 -0.11145884 -29.001524 -26.404606 -112.05052
144865000 -25.81531 -117.53365 -0.11588634 -29.21697 -0.11303194 -29.201517 -26.348299 -112.3731
145864000 -25.75841 -117.88599 -0.11623383 -29.418015 -0.1143005 -29.405064 -26.316759 -112.63953
146863000 -25.716276 -118.28919 -0.11745014 -29.615587 -0.11469678 -29.602785 -26.268753 -113.00885
147862000 -25.674576 -118.65795 -0.11735466 -29.812714 -0.11516538 -29.800177 -26.236504 -113.38334
148861000 -25.646002 -119.16953 -0.117964 -30.010609 -0.11614237 -29.99544 -26.207232 -113.59093
149860000 -25.63765 -119.36833 -0.11939605 -30.206293 -0.11589059 -30.197557 -26.181213 -113.81057
150859000 -25.615187 -119.75562 -0.11955543 -30.410582 -0.11623143 -30.398569 -26.170313 -114.06953
151858000 -25.597227 -120.10753 -0.11929999 -30.608643 -0.11667389 -30.594372 -26.169361 -114.33498
152857000 -25.578514 -120.42688 -0.11974249 -30.806677 -0.11665501 -30.796272 -26.146069 -114.52895
153856000 -25.576208 -120.62632 -0.1195988 -31.004066 -0.11600146 -30.990692 -26.166653 -114.77901
154855000 -25.567097 -120.83408 -0.12012036 -31.204689 -0.11655742 -31.189571 -26.157993 -115.02265
155854000 -25.575321 -121.07967 -0.12058077 -31.403669 -0.11721185 -31.389853 -26.153746 -115.2672
156853000 -25.563635 -121.77099 -0.11775095 -31.589771 -0.116404 -31.581116 -26.146729 -115.56604
157852000 -25.5732 -121.98774 -0.1197212 -31.792288 -0.11759482 -31.782585 -26.139175 -115.94306
158851000 -25.565973 -122.23509 -0.11985531 -31.988819 -0.11840423 -31.98024 -26.125822 -116.19885
159850000 -25.551769 -122.3661 -0.12093636 -32.186943 -0.11839838 -32.179142 -26.128626 -116.36126
160849000 -25.530741 -122.46412 -0.12075058 -32.389194 -0.11922842 -32.38026 -26.097052 -116.68225
161848000 -25.507347 -122.57793 -0.1212233 -32.588734 -0.11943542 -32.577183 -26.058575 -116.7747
162847000 -25.462011 -122.772 -0.12128372 -32.785534 -0.12029121 -32.779743 -26.029884 -117.00543
163846000 -25.422356 -123.02175 -0.12144104 -32.985489 -0.11999369 -32.979916 -25.949154 -117.036
164845000 -25.359829 -123.02331 -0.12198679 -33.182327 -0.12030665 -33.176235 -25.878147 -117.13701
165844000 -25.305178 -123.09875 -0.12177807 -33.382195 -0.12073062 -33.377907 -25.796906 -117.30547
166843000 -25.241144 -123.18521 -0.12194712 -33.584 -0.12089617 -33.577881 -25.726774 -117.47687
167842000 -25.178375 -123.36263 -0.1230918 -33.781357 -0.12069947 -33.773754 -25.638596 -117.41792
168841000 -25.10894 -123.54759 -0.12323134 -33.978065 -0.12137236 -33.974091 -25.563007 -117.51764
169840000 -25.036812 -123.84116 -0.12318501 -34.176044 -0.12148896 -34.17292 -25.475773 -117.74306
170839000 -24.97813 -124.11458 -0.12384976 -34.373398 -0.12216677 -34.372841 -25.386948 -117.90713
171838000 -24.921227 -124.53723 -0.12423278 -34.574078 -0.12304999 -34.566788 -25.324766 -118.21283
172837000 -24.852953 -124.9157 -0.1262289 -34.766914 -0.12371978 -34.765079 -25.251736 -118.45725
173836000 -24.785877 -125.34631 -0.12700394 -34.965969 -0.12525152 -34.963364 -25.211096 -118.65992
174835000 -24.735821 -125.78918 -0.12721238 -35.161884 -0.12557764 -35.162521 -25.162853 -119.03255
175834000 -24.68516 -126.18074 -0.12794866 -35.361778 -0.12671101 -35.355152 -25.101454 -119.36421
176833000 -24.63467 -126.58346 -0.12903813 -35.557549 -0.12692183 -35.553425 -25.045773 -119.51133
177832000 -24.588398 -127.07839 -0.1296387 -35.752174 -0.1272313 -35.756065 -25.023338 -119.69255
178831000 -24.550203 -127.4631 -0.12947547 -35.948757 -0.12829071 -35.947182 -24.987219 -119.97298
179830000 -24.518972 -127.91251 -0.13074858 -36.147049 -0.12823926 -36.147797 -24.958281 -120.10693
180829000 -24.474573 -128.10995 -0.13053678 -36.344448 -0.12879306 -36.346272 -24.930868 -120.28025
181828000 -24.451132 -128.51843 -0.13111594 -36.541882 -0.12890372 -36.53714 -24.910366 -120.41722
182827000 -24.423208 -128.82858 -0.130926 -36.739922 -0.12922239 -36.737621 -24.900196 -120.50235
183826000 -24.38563 -129.1938 -0.13194415 -36.936501 -0.12989128 -36.930775 -24.891771 -120.62594
184825000 -24.388741 -129.5334 -0.13240288 -37.130192 -0.13072485 -37.134659 -24.874428 -120.78426
185824000 -24.361765 -129.88666 -0.13194309 -37.323593 -0.13108768 -37.329964 -24.868113 -120.80415
186823000 -24.344723 -130.25612 -0.13280508 -37.528084 -0.13089639 -37.524094 -24.869434 -120.78587
187822000 -24.324621 -130.57074 -0.13307786 -37.723976 -0.13167359 -37.722107 -24.830173 -120.84997
188821000 -24.305393 -130.79082 -0.13318409 -37.919624 -0.13142811 -37.920208 -24.811138 -120.95801
189820000 -24.289371 -131.06944 -0.13328926 -38.11953 -0.13206424 -38.121635 -24.800259 -121.12508
190819000 -24.260605 -131.29805 -0.13456669 -38.317806 -0.1331259 -38.318439 -24.768366 -121.08537
191818000 -24.224047 -131.48941 -0.13579457 -38.513298 -0.13486469 -38.514465 -24.734203 -120.9615
192817000 -24.151276 -131.76454 -0.13628042 -38.699684 -0.13518487 -38.698784 -24.663857 -121.04163
193816000 -24.115065 -132.14682 -0.13583329 -38.891739 -0.1338608 -38.89246 -24.604811 -121.30397
194815000 -24.057013 -132.59227 -0.13552563 -39.08691 -0.13365044 -39.088158 -24.539379 -121.453
195814000 -23.999399 -132.79823 -0.13568667 -39.285164 -0.13428074 -39.284985 -24.486832 -121.53942
196813000 -23.950418 -133.13785 -0.13590167 -39.479771 -0.13388349 -39.482174 -24.406643 -121.7442
197812000 -23.891016 -133.4028 -0.1357051 -39.677982 -0.13498431 -39.676628 -24.338253 -121.84733
198811000 -23.836718 -133.59927 -0.13597645 -39.873093 -0.1342487 -39.877293 -24.262981 -122.0251
199810000 -23.767702 -133.92876 -0.1360077 -40.070473 -0.13406049 -40.066666 -24.186205 -122.14793
200809000 -23.714178 -134.26932 -0.13705991 -40.266563 -0.13422307 -40.264214 -24.106686 -122.3683
201808000 -23.65173 -134.49361 -0.13752641 -40.466175 -0.13586882 -40.468067 -24.039038 -122.44389
202807000 -23.59935 -134.86435 -0.13812147 -40.666805 -0.13577347 -40.668446 -23.979588 -122.66772
203806000 -23.544586 -135.32922 -0.13896491 -40.865593 -0.13664638 -40.869316 -23.917328 -122.86616
