!Keysight Technologies,E5080B,MY59205177,A.15.75.32
!Date: Friday, February 23, 2024 03:29:00
!Correction: S11(Cdelta 2-Port  ) 
!S21(Cdelta 2-Port  ) 
!S12(Cdelta 2-Port  ) 
!S22(Cdelta 2-Port  ) 
!S2P File: Measurements: S11, S21, S12, S22:
# Hz S  dB   R 50
10000000 -46.055786 -1.5272747 -0.01585611 -2.0524683 -0.018873511 -2.1081495 -46.042767 -158.30341
10999000 -45.222546 -3.618674 -0.016952891 -2.2693651 -0.017994063 -2.3264635 -45.972786 -152.60576
11998000 -44.249916 -6.638586 -0.016987713 -2.4942408 -0.017925441 -2.5382094 -46.205353 -147.62785
12997000 -43.497635 -12.034828 -0.01642954 -2.6813393 -0.017774165 -2.7133775 -45.913433 -142.24382
13996000 -43.23148 -15.933168 -0.015395756 -2.8584096 -0.017949615 -2.8784049 -45.694603 -137.11612
14995000 -42.884205 -20.273813 -0.01818512 -3.0675619 -0.018069964 -3.094409 -45.411453 -133.28435
15994000 -42.695972 -24.758665 -0.019741694 -3.2883155 -0.020410307 -3.3096929 -45.308704 -130.17073
16993000 -42.687073 -29.412079 -0.017412368 -3.4852331 -0.019886799 -3.4929223 -44.439426 -129.59593
17992000 -42.732052 -34.585918 -0.019103864 -3.6868923 -0.019805403 -3.6894112 -43.89167 -129.40231
18991000 -43.008038 -39.545597 -0.019497525 -3.8987079 -0.021070438 -3.8922231 -43.202778 -128.23793
19990000 -42.786522 -45.679611 -0.021612298 -4.1069465 -0.022888266 -4.1012845 -42.547329 -129.09921
20989000 -42.652676 -48.432133 -0.023917587 -4.3091121 -0.025535587 -4.3016562 -42.013134 -128.53946
21988000 -42.491627 -53.987854 -0.025103107 -4.5080738 -0.026260562 -4.4942703 -41.763111 -128.03882
22987000 -42.157543 -58.943707 -0.025861602 -4.7059197 -0.026671018 -4.7023859 -41.514103 -127.29694
23986000 -42.112988 -62.836292 -0.025721246 -4.9017644 -0.025648335 -4.9031839 -41.384674 -127.03502
24985000 -41.729229 -65.45295 -0.026955966 -5.1109309 -0.026111338 -5.1080847 -41.186649 -124.45699
25984000 -41.371685 -67.875198 -0.027823683 -5.3201389 -0.027047131 -5.3185682 -40.842529 -122.83168
26983000 -41.068386 -69.860809 -0.028695742 -5.5192022 -0.028188169 -5.5347939 -40.713638 -122.28621
27982000 -40.884155 -70.808533 -0.030237321 -5.7181978 -0.029871618 -5.749187 -40.476234 -120.57882
28981000 -40.868576 -72.282158 -0.027852079 -5.9165554 -0.029910455 -5.9427023 -40.217052 -119.87589
29980000 -40.476963 -73.682213 -0.027698113 -6.1112041 -0.030173458 -6.1173472 -39.954102 -119.06783
30979000 -40.105656 -72.553741 -0.026162382 -6.466054 -0.023969386 -6.4591155 -39.452976 -119.42952
31978000 -39.885967 -73.537903 -0.024697224 -6.6588907 -0.025781918 -6.650517 -39.228592 -118.93987
32977000 -39.700363 -75.065269 -0.024522282 -6.8742027 -0.026026964 -6.8701849 -38.969273 -118.77453
33976000 -39.556065 -76.273064 -0.025932433 -7.0722275 -0.026842922 -7.0683866 -38.698711 -118.09151
34975000 -39.257149 -76.987518 -0.025739994 -7.2747049 -0.028514646 -7.272923 -38.443069 -117.88252
35974000 -39.022617 -77.680122 -0.024788082 -7.4704723 -0.027957072 -7.47329 -38.189957 -116.92435
36973000 -38.806919 -78.5634 -0.025609538 -7.6697969 -0.028386971 -7.6738601 -37.919109 -115.81295
37972000 -38.630711 -78.104988 -0.024948716 -7.8802209 -0.028989941 -7.8917131 -37.68763 -115.23071
38971000 -38.306301 -77.475807 -0.026435835 -8.0814962 -0.028564675 -8.094182 -37.508018 -113.53181
39970000 -37.961971 -77.905449 -0.024630059 -8.2798185 -0.028027937 -8.2937374 -37.251511 -112.96529
40969000 -37.681984 -77.607658 -0.024868008 -8.4744406 -0.027087245 -8.4924803 -37.022533 -111.4804
41968000 -37.334496 -77.485268 -0.02559131 -8.6782837 -0.02839583 -8.6979618 -36.825066 -110.14926
42967000 -37.059277 -77.66259 -0.02577671 -8.8889713 -0.028209535 -8.9125776 -36.625175 -108.32414
43966000 -36.753151 -78.385315 -0.026442347 -9.0913916 -0.029601859 -9.1114254 -36.370846 -107.52045
44965000 -36.533943 -79.080902 -0.02667675 -9.2937202 -0.029618017 -9.3137131 -36.128471 -107.31638
45964000 -36.293247 -80.252037 -0.028030021 -9.4931679 -0.030708114 -9.5144558 -35.90868 -106.96251
46963000 -36.102997 -82.115471 -0.028162116 -9.6883354 -0.032031611 -9.7116108 -35.717979 -107.19254
47962000 -35.927284 -83.623062 -0.030149737 -9.8928633 -0.033071447 -9.9089441 -35.510593 -107.14604
48961000 -35.715855 -84.925552 -0.031754676 -10.090405 -0.034503687 -10.110763 -35.284832 -107.26093
49960000 -35.49239 -86.26445 -0.033206042 -10.290518 -0.035538375 -10.31512 -35.142994 -107.44494
50959000 -35.266975 -87.681488 -0.033540722 -10.504446 -0.036787897 -10.51476 -34.971111 -107.67364
51958000 -35.053543 -88.704643 -0.035677485 -10.70398 -0.038163912 -10.713448 -34.7882 -108.14424
52957000 -34.84359 -89.745995 -0.037246086 -10.905118 -0.039984211 -10.911853 -34.628551 -107.84136
53956000 -34.668755 -90.529861 -0.038540762 -11.107164 -0.040168397 -11.108245 -34.485439 -107.85519
54955000 -34.497787 -90.840515 -0.039156374 -11.310562 -0.040422615 -11.304045 -34.347439 -107.77959
55954000 -34.333065 -91.648544 -0.040073559 -11.508673 -0.041524574 -11.505908 -34.230495 -107.4008
56953000 -34.230194 -91.776932 -0.040110137 -11.70563 -0.040487152 -11.699069 -34.168831 -107.6336
57952000 -34.055084 -92.297935 -0.040930837 -11.907596 -0.04149818 -11.895351 -34.059399 -107.66723
58951000 -33.923782 -92.641212 -0.042525385 -12.110538 -0.04261113 -12.091724 -33.907272 -107.81818
59950000 -33.811859 -93.019478 -0.042903919 -12.313578 -0.042727198 -12.290335 -33.846691 -108.00879
60949000 -33.690563 -93.547417 -0.043887008 -12.514408 -0.043984283 -12.494244 -33.746609 -108.39494
61948000 -33.630661 -93.945282 -0.044922102 -12.71821 -0.043503679 -12.692787 -33.666065 -108.4665
62947000 -33.538948 -94.135475 -0.04431273 -12.924183 -0.044535287 -12.906947 -33.524769 -108.68848
63946000 -33.476917 -94.858231 -0.045026984 -13.121884 -0.045617886 -13.104969 -33.41478 -108.76314
64945000 -33.347881 -95.109352 -0.046158109 -13.328163 -0.046110231 -13.308962 -33.303864 -109.31847
65944000 -33.261688 -95.331482 -0.047110792 -13.527057 -0.046295986 -13.507123 -33.212742 -109.77673
66943000 -33.11462 -95.719559 -0.044824544 -13.731712 -0.045200665 -13.710814 -33.101894 -109.99001
67942000 -33.068138 -95.598412 -0.046782129 -13.924797 -0.046812221 -13.912525 -32.987263 -110.33367
68941000 -32.955025 -95.77903 -0.045971572 -14.120342 -0.045291428 -14.107427 -32.871063 -110.25468
69940000 -32.851597 -95.722595 -0.046685576 -14.317787 -0.046034884 -14.310361 -32.727264 -110.5089
70939000 -32.751003 -95.663452 -0.046359826 -14.514627 -0.046415031 -14.506463 -32.597256 -110.41244
71938000 -32.60186 -95.302605 -0.046440672 -14.71122 -0.046106305 -14.709965 -32.465996 -110.3203
72937000 -32.433167 -95.054382 -0.046106566 -14.91121 -0.045898583 -14.906966 -32.327602 -109.98547
73936000 -32.297176 -94.652573 -0.045331974 -15.106249 -0.04596477 -15.095914 -32.201138 -109.7842
74935000 -32.172161 -94.945984 -0.045058634 -15.305638 -0.045026723 -15.303438 -32.047676 -109.46436
75934000 -32.044899 -95.181023 -0.045542806 -15.516706 -0.044736404 -15.513004 -31.973318 -109.32639
76933000 -31.905642 -95.493103 -0.046164911 -15.710069 -0.046768263 -15.705395 -31.786186 -109.7175
77932000 -31.812565 -96.266098 -0.047801949 -15.908183 -0.048803948 -15.9034 -31.688993 -109.61383
78931000 -31.740667 -97.024345 -0.047474284 -16.107828 -0.046925001 -16.102936 -31.584423 -109.50782
79930000 -31.629837 -97.965569 -0.049180672 -16.301771 -0.050045248 -16.300077 -31.482462 -109.76575
80929000 -31.505762 -98.678284 -0.050994333 -16.498955 -0.051449567 -16.497272 -31.389257 -110.04606
81928000 -31.407841 -99.354462 -0.051354744 -16.690561 -0.052134868 -16.68634 -31.253036 -110.03785
82927000 -31.302734 -100.13006 -0.052529961 -16.889904 -0.053429272 -16.884813 -31.146648 -110.30726
83926000 -31.182465 -100.8905 -0.05440557 -17.08712 -0.054610819 -17.088717 -31.023256 -110.5187
84925000 -31.071295 -101.28282 -0.055096317 -17.284842 -0.054598495 -17.283321 -30.925888 -110.52987
85924000 -30.980192 -101.69431 -0.056137763 -17.488207 -0.05599485 -17.483809 -30.835056 -110.57926
86923000 -30.871458 -102.2524 -0.055869248 -17.688732 -0.055803958 -17.682539 -30.729742 -110.37879
87922000 -30.767935 -102.53766 -0.05594765 -17.894102 -0.055830181 -17.887943 -30.648663 -110.44453
88921000 -30.692183 -102.81039 -0.057229288 -18.09267 -0.056702111 -18.08802 -30.556448 -110.40357
89920000 -30.581617 -103.32982 -0.057490803 -18.291349 -0.057302207 -18.286449 -30.499334 -110.55087
90919000 -30.49008 -103.57429 -0.05891354 -18.490784 -0.057958525 -18.484535 -30.408035 -110.66291
91918000 -30.391567 -103.90064 -0.059544645 -18.690037 -0.059139207 -18.683216 -30.342606 -110.74426
92917000 -30.305346 -104.25969 -0.060756993 -18.888496 -0.060694519 -18.888153 -30.273598 -110.81226
93916000 -30.211634 -104.6137 -0.059977159 -19.0837 -0.060158782 -19.078316 -30.190454 -111.40788
94915000 -30.131287 -105.22566 -0.061844431 -19.283161 -0.060790069 -19.279631 -30.120026 -111.32279
95914000 -30.062025 -105.4407 -0.062909819 -19.478987 -0.061822902 -19.476721 -30.032639 -111.51331
96913000 -29.9755 -105.62273 -0.063732214 -19.679834 -0.063509986 -19.676128 -29.968966 -111.90446
97912000 -29.903063 -106.08243 -0.065294951 -19.875463 -0.063418835 -19.87784 -29.885801 -112.13645
98911000 -29.790039 -106.26118 -0.065416358 -20.077255 -0.064578146 -20.075327 -29.850422 -112.36552
99910000 -29.717829 -106.48127 -0.066432945 -20.275412 -0.06472449 -20.279793 -29.736485 -112.58928
100909000 -29.630693 -106.67747 -0.064842202 -20.485409 -0.063792892 -20.477989 -29.644102 -112.88384
101908000 -29.541183 -106.96527 -0.066277079 -20.686708 -0.065582708 -20.682894 -29.546642 -112.56232
102907000 -29.405645 -106.88583 -0.067319103 -20.888121 -0.06573461 -20.88936 -29.467365 -112.62074
103906000 -29.309389 -106.95233 -0.067092218 -21.092379 -0.065045319 -21.087877 -29.315336 -112.54545
104905000 -29.15764 -106.85394 -0.068156525 -21.289888 -0.065614767 -21.292469 -29.189072 -112.24432
105904000 -29.020163 -106.9363 -0.068128131 -21.494122 -0.066027388 -21.489197 -29.083296 -112.12418
106903000 -28.905455 -106.99685 -0.068334028 -21.700748 -0.06654755 -21.691626 -28.950895 -112.04653
107902000 -28.73929 -107.33176 -0.069335513 -21.8972 -0.066946842 -21.890244 -28.806408 -111.98026
108901000 -28.627327 -107.61465 -0.070471667 -22.102623 -0.068134964 -22.09338 -28.677744 -111.89989
109900000 -28.496864 -108.06914 -0.070610583 -22.304499 -0.069645628 -22.293913 -28.535013 -112.00002
110899000 -28.380844 -108.64359 -0.072868332 -22.502247 -0.070204109 -22.493999 -28.405567 -112.28952
111898000 -28.294075 -109.34184 -0.073793977 -22.701448 -0.071049988 -22.696861 -28.28644 -112.39283
112897000 -28.165901 -109.88854 -0.075540245 -22.903799 -0.072402947 -22.889725 -28.147593 -112.54072
113896000 -28.057346 -110.44358 -0.076194055 -23.104439 -0.07363864 -23.091003 -28.041845 -112.69592
114895000 -27.955099 -111.04934 -0.077366002 -23.298962 -0.07506457 -23.288891 -27.933092 -112.76651
115894000 -27.83079 -111.44055 -0.078290239 -23.504459 -0.076069713 -23.489376 -27.858974 -112.95919
116893000 -27.756021 -111.94246 -0.07935334 -23.698631 -0.077847727 -23.682032 -27.740894 -113.02732
117892000 -27.6751 -112.4896 -0.079625413 -23.897234 -0.077410273 -23.883295 -27.659786 -113.1621
118891000 -27.619127 -112.86788 -0.080004036 -24.094631 -0.078061469 -24.085896 -27.565952 -113.32043
119890000 -27.526918 -113.20462 -0.080675133 -24.301592 -0.078900702 -24.285862 -27.55057 -113.47118
120889000 -27.477156 -113.73307 -0.082166687 -24.499418 -0.078635789 -24.481426 -27.476423 -113.3898
121888000 -27.440067 -114.07742 -0.082504898 -24.700613 -0.079338573 -24.686275 -27.419012 -113.67992
122887000 -27.396626 -114.21577 -0.08271306 -24.899197 -0.07959035 -24.888151 -27.371065 -113.66055
123886000 -27.346092 -114.69241 -0.083210945 -25.101757 -0.081448145 -25.086714 -27.357887 -113.79237
124885000 -27.315599 -115.14657 -0.083779879 -25.300634 -0.08090958 -25.287218 -27.328676 -113.8867
125884000 -27.263323 -115.39161 -0.084888674 -25.499966 -0.080985531 -25.481714 -27.300035 -113.99268
126883000 -27.232841 -115.73611 -0.085413218 -25.70553 -0.081723779 -25.691816 -27.256281 -114.04943
127882000 -27.191652 -116.04256 -0.085373878 -25.907339 -0.08216352 -25.886909 -27.218601 -114.1724
128881000 -27.164774 -116.35419 -0.085605413 -26.106558 -0.082679555 -26.088318 -27.180294 -114.27814
129880000 -27.108877 -116.70613 -0.086724706 -26.309235 -0.082826771 -26.286024 -27.142979 -114.20477
130879000 -27.049522 -116.86002 -0.086979024 -26.507132 -0.083663769 -26.490751 -27.065754 -114.20632
131878000 -26.975304 -117.071 -0.086897157 -26.708775 -0.084477432 -26.690926 -27.004694 -114.08986
132877000 -26.909388 -117.17599 -0.086332299 -26.913517 -0.084614158 -26.895254 -26.928518 -114.07991
133876000 -26.825394 -117.35433 -0.086578675 -27.114723 -0.083607823 -27.094709 -26.833708 -113.9694
134875000 -26.727997 -117.46707 -0.086847238 -27.314812 -0.084627621 -27.294733 -26.734856 -113.7871
135874000 -26.647671 -117.45188 -0.087229393 -27.518328 -0.084356807 -27.498774 -26.638191 -113.8021
136873000 -26.534311 -117.40871 -0.088062748 -27.716618 -0.085088506 -27.702902 -26.556629 -113.70224
137872000 -26.457747 -117.53284 -0.08733847 -27.918396 -0.084842481 -27.90246 -26.448471 -113.67937
138871000 -26.379988 -117.7346 -0.088165507 -28.120131 -0.085728705 -28.101015 -26.352436 -113.82509
139870000 -26.271908 -118.04633 -0.088720292 -28.320419 -0.086460367 -28.299423 -26.272196 -114.01123
140869000 -26.200768 -118.59472 -0.089859419 -28.520187 -0.086812384 -28.500647 -26.171608 -114.19836
141868000 -26.120113 -118.97829 -0.090501912 -28.716295 -0.088354915 -28.700354 -26.118727 -114.42591
142867000 -26.038343 -119.18026 -0.089027047 -28.913073 -0.088079914 -28.898722 -26.038324 -114.61717
143866000 -25.965904 -119.70226 -0.091095597 -29.110533 -0.089542307 -29.096426 -25.963087 -115.02319
144865000 -25.90814 -120.20066 -0.093149789 -29.311871 -0.090922713 -29.297495 -25.907181 -115.32942
145864000 -25.857599 -120.50551 -0.093370102 -29.51124 -0.092012443 -29.49987 -25.878693 -115.57087
146863000 -25.810415 -120.89047 -0.094349332 -29.710497 -0.092011385 -29.694828 -25.829123 -115.85941
147862000 -25.767426 -121.18864 -0.095788695 -29.906855 -0.092880562 -29.901554 -25.794903 -116.18777
148861000 -25.733986 -121.66365 -0.095749795 -30.108437 -0.094763368 -30.096474 -25.775398 -116.317
149860000 -25.70005 -121.79751 -0.097604454 -30.302149 -0.095197812 -30.286913 -25.71991 -116.44961
150859000 -25.679535 -122.28384 -0.096839942 -30.499292 -0.094596423 -30.48518 -25.705324 -116.78008
151858000 -25.667509 -122.63798 -0.096255004 -30.700083 -0.093683794 -30.682381 -25.691286 -117.11954
152857000 -25.651051 -122.9535 -0.096730359 -30.895477 -0.094356745 -30.884056 -25.675596 -117.28036
153856000 -25.65411 -123.17818 -0.096655719 -31.097258 -0.094508328 -31.085424 -25.694788 -117.62553
154855000 -25.654835 -123.35847 -0.096924119 -31.297112 -0.094685845 -31.283834 -25.680822 -117.83894
155854000 -25.671799 -123.60115 -0.097298689 -31.497448 -0.095566675 -31.482058 -25.677832 -118.13629
156853000 -25.655567 -124.28293 -0.094769984 -31.684196 -0.093925558 -31.680862 -25.673491 -118.41338
157852000 -25.666904 -124.47644 -0.096200489 -31.883986 -0.09576647 -31.87665 -25.664246 -118.80681
158851000 -25.663795 -124.73059 -0.096989237 -32.086205 -0.095975265 -32.076481 -25.651709 -119.00543
159850000 -25.652205 -124.83472 -0.097439259 -32.285606 -0.095871791 -32.274094 -25.64864 -119.1898
160849000 -25.637226 -124.90135 -0.097904421 -32.487862 -0.097089827 -32.478256 -25.620735 -119.50159
161848000 -25.620701 -125.01643 -0.097598366 -32.68652 -0.096706808 -32.680603 -25.577307 -119.61817
162847000 -25.583035 -125.16976 -0.097696856 -32.886028 -0.097417019 -32.882595 -25.557711 -119.84868
163846000 -25.538754 -125.3687 -0.098234057 -33.08654 -0.097609222 -33.080307 -25.47871 -119.8787
164845000 -25.481777 -125.35973 -0.098439537 -33.284084 -0.097670645 -33.277691 -25.417847 -119.96838
165844000 -25.42704 -125.4021 -0.098712809 -33.484276 -0.097902566 -33.476913 -25.334431 -120.1339
166843000 -25.365814 -125.44864 -0.099532217 -33.686642 -0.098231412 -33.681961 -25.26704 -120.29254
167842000 -25.308552 -125.57793 -0.09925624 -33.885723 -0.098083138 -33.877838 -25.191765 -120.21838
168841000 -25.226345 -125.72235 -0.099896677 -34.082508 -0.098861374 -34.079067 -25.116735 -120.28384
169840000 -25.16246 -125.9662 -0.099835753 -34.27951 -0.099543341 -34.275623 -25.027601 -120.47764
170839000 -25.103642 -126.20602 -0.10089434 -34.476627 -0.10000263 -34.47403 -24.945793 -120.64474
171838000 -25.043371 -126.59412 -0.10108246 -34.679417 -0.10105808 -34.669899 -24.883638 -120.87352
172837000 -24.974447 -126.96957 -0.10250656 -34.87521 -0.10190575 -34.87067 -24.817394 -121.10115
173836000 -24.907089 -127.35168 -0.10388394 -35.076534 -0.10281747 -35.073887 -24.773443 -121.30271
174835000 -24.853226 -127.77388 -0.1041215 -35.272881 -0.10364639 -35.272598 -24.727947 -121.62804
175834000 -24.800743 -128.11563 -0.10470591 -35.473415 -0.10473004 -35.467598 -24.671051 -121.90826
176833000 -24.747623 -128.44275 -0.10566966 -35.671848 -0.10561927 -35.667381 -24.625385 -122.02599
177832000 -24.705711 -128.89771 -0.10662992 -35.871838 -0.10609619 -35.871689 -24.604944 -122.14963
178831000 -24.664982 -129.13866 -0.10813865 -36.071419 -0.10793218 -36.063564 -24.562721 -122.24253
179830000 -24.594566 -129.49495 -0.1099017 -36.254223 -0.10884941 -36.255917 -24.499914 -122.2741
180829000 -24.547167 -129.85921 -0.1091828 -36.444004 -0.10876447 -36.444256 -24.455894 -122.61306
181828000 -24.51836 -130.3036 -0.10844996 -36.645542 -0.10732239 -36.639862 -24.435905 -122.79949
182827000 -24.496824 -130.67276 -0.10825171 -36.845043 -0.10771935 -36.840725 -24.420645 -122.95512
183826000 -24.448381 -131.00592 -0.10933491 -37.043999 -0.10799666 -37.03875 -24.41206 -123.09836
184825000 -24.456331 -131.34442 -0.10885127 -37.237293 -0.10864397 -37.238308 -24.392082 -123.19743
185824000 -24.4275 -131.69885 -0.10847782 -37.433151 -0.10876394 -37.435169 -24.391184 -123.27891
186823000 -24.409925 -132.07047 -0.1087857 -37.634666 -0.10836211 -37.631451 -24.380852 -123.26322
187822000 -24.3871 -132.40817 -0.11003763 -37.830811 -0.10946365 -37.831409 -24.341509 -123.3893
188821000 -24.36606 -132.66928 -0.10969276 -38.025806 -0.10946817 -38.030502 -24.318163 -123.48711
189820000 -24.344692 -132.98116 -0.10988418 -38.226715 -0.10927996 -38.227493 -24.303545 -123.66992
190819000 -24.308855 -133.27487 -0.11029438 -38.42355 -0.10930013 -38.423447 -24.266766 -123.71532
191818000 -24.277918 -133.55173 -0.110121 -38.621639 -0.11012578 -38.621197 -24.23587 -123.76672
192817000 -24.233946 -133.84224 -0.11094548 -38.818687 -0.11017251 -38.816944 -24.193615 -123.85865
193816000 -24.201246 -134.07539 -0.11119591 -39.016766 -0.11017995 -39.013813 -24.138269 -124.01514
194815000 -24.138901 -134.51759 -0.11150797 -39.209835 -0.11136959 -39.212143 -24.071672 -124.05458
195814000 -24.081663 -134.6779 -0.11263476 -39.412056 -0.11146946 -39.408211 -24.015553 -124.18992
196813000 -24.024767 -135.03009 -0.11226895 -39.602791 -0.11174754 -39.605873 -23.936874 -124.32886
197812000 -23.966129 -135.22716 -0.11276573 -39.800312 -0.1118073 -39.797119 -23.864742 -124.42384
198811000 -23.916666 -135.3878 -0.11310421 -39.995449 -0.11261749 -39.99678 -23.793766 -124.57705
199810000 -23.843277 -135.76822 -0.11283959 -40.192062 -0.11209311 -40.192818 -23.715845 -124.6605
200809000 -23.786701 -136.00383 -0.1135017 -40.389442 -0.11255373 -40.389172 -23.636597 -124.88152
201808000 -23.72197 -136.22916 -0.11379718 -40.593395 -0.11326628 -40.592365 -23.570372 -124.92449
202807000 -23.668102 -136.57957 -0.11473931 -40.791145 -0.11415753 -40.791672 -23.515955 -125.12205
