!Keysight Technologies,E5080B,MY59205177,A.15.75.32
!Date: Friday, February 23, 2024 02:50:50
!Correction: S11(Cdelta 2-Port  ) 
!S21(Cdelta 2-Port  ) 
!S12(Cdelta 2-Port  ) 
!S22(Cdelta 2-Port  ) 
!S2P File: Measurements: S11, S21, S12, S22:
# Hz S  dB   R 50
10000000 -42.426762 -3.4499021 -0.039713036 -2.049916 -0.043016858 -2.1018882 -51.048862 -137.99088
10999000 -41.897045 -4.9794292 -0.041025694 -2.2620559 -0.043422367 -2.3200357 -50.378151 -127.61042
11998000 -41.239426 -7.1109915 -0.041364633 -2.4871981 -0.042803794 -2.5320311 -50.32616 -120.98777
12997000 -40.718391 -11.148851 -0.040441167 -2.6676891 -0.04216126 -2.7015314 -49.230103 -113.9547
13996000 -40.510181 -13.901497 -0.039780959 -2.8448908 -0.041904066 -2.869545 -48.387867 -108.40417
14995000 -40.252987 -17.265362 -0.041805271 -3.0577183 -0.041910078 -3.0820789 -47.783253 -105.37649
15994000 -40.145191 -20.566793 -0.043105487 -3.2766418 -0.044853576 -3.2986674 -47.436897 -101.98415
16993000 -40.178459 -23.991753 -0.042202298 -3.4719296 -0.044036582 -3.4800882 -46.495045 -104.24377
17992000 -40.280354 -27.736483 -0.042267125 -3.6690235 -0.04444715 -3.6741612 -45.78899 -106.66194
18991000 -40.57785 -31.753536 -0.043279871 -3.8818195 -0.045249317 -3.8814189 -45.076363 -107.31638
19990000 -40.493839 -35.917923 -0.046251249 -4.0889091 -0.047976524 -4.0881562 -44.340588 -110.09136
20989000 -40.440533 -38.495853 -0.04824036 -4.2922554 -0.050131664 -4.2842264 -43.740578 -110.86512
21988000 -40.450588 -42.663696 -0.048209999 -4.4908752 -0.050663806 -4.4803147 -43.433407 -110.49902
22987000 -40.305016 -46.949482 -0.050085053 -4.6873932 -0.051177155 -4.6863155 -43.134499 -110.51933
23986000 -40.399921 -50.218143 -0.049909607 -4.8837824 -0.05051662 -4.8835974 -42.997074 -110.41781
24985000 -40.149418 -53.003838 -0.050509289 -5.0941682 -0.050626878 -5.087163 -42.695793 -108.09427
25984000 -39.982464 -54.882786 -0.051556442 -5.2990308 -0.051606998 -5.3018236 -42.22567 -107.32048
26983000 -39.742565 -57.131729 -0.052774947 -5.5003152 -0.052440878 -5.5150075 -42.106613 -106.741
27982000 -39.585102 -58.087139 -0.05417648 -5.6940117 -0.053230893 -5.735713 -41.736271 -105.44073
28981000 -39.621136 -59.463463 -0.051206492 -5.8970437 -0.053248975 -5.9229512 -41.428566 -104.78396
29980000 -39.265373 -61.069843 -0.052452408 -6.0883932 -0.054166783 -6.0963984 -41.121864 -104.56794
30979000 -38.958961 -60.763275 -0.05013847 -6.4471779 -0.048375688 -6.434907 -40.575184 -105.70197
31978000 -38.795113 -61.884274 -0.048837196 -6.64292 -0.049510565 -6.6280208 -40.277344 -105.25175
32977000 -38.639572 -63.481991 -0.048247691 -6.8485084 -0.049992353 -6.8412938 -40.02396 -105.5797
33976000 -38.528366 -64.559769 -0.049306866 -7.0501533 -0.050989881 -7.0443287 -39.690453 -105.25877
34975000 -38.283855 -65.628014 -0.049411595 -7.249351 -0.051794037 -7.249999 -39.450863 -105.46277
35974000 -38.111824 -66.539139 -0.048754994 -7.4453611 -0.051125292 -7.4461107 -39.086288 -104.78468
36973000 -37.902332 -67.561333 -0.049365252 -7.6439815 -0.051984493 -7.6466966 -38.788364 -104.01532
37972000 -37.761276 -67.506485 -0.048914686 -7.8532815 -0.051974274 -7.8638844 -38.513985 -103.57677
38971000 -37.414154 -67.526474 -0.049734693 -8.0597029 -0.052310403 -8.0668297 -38.310028 -102.09953
39970000 -37.123093 -68.198303 -0.048360769 -8.2524166 -0.051204655 -8.2657166 -38.00494 -101.89249
40969000 -36.840824 -68.325806 -0.048482224 -8.4449549 -0.051637385 -8.4610996 -37.708015 -100.55827
41968000 -36.502373 -68.736755 -0.048694525 -8.6450005 -0.050661974 -8.6683578 -37.464817 -99.44696
42967000 -36.259319 -69.090591 -0.049053699 -8.8610687 -0.051830452 -8.8800402 -37.21991 -97.822662
43966000 -36.00877 -70.03199 -0.049351115 -9.0630798 -0.052856699 -9.0783415 -36.907581 -97.342194
44965000 -35.799286 -70.972939 -0.050162561 -9.2659998 -0.053346198 -9.2838898 -36.679638 -97.297531
45964000 -35.604683 -72.229172 -0.051099364 -9.4663677 -0.054162852 -9.4829597 -36.431728 -97.365097
46963000 -35.436241 -74.122475 -0.052369352 -9.6568651 -0.055173658 -9.6814756 -36.269409 -97.776917
47962000 -35.330921 -75.66555 -0.053243212 -9.8582973 -0.056620289 -9.8756123 -36.041584 -98.087952
48961000 -35.158218 -77.290367 -0.055319689 -10.059758 -0.057892941 -10.079733 -35.832237 -98.576012
49960000 -34.959084 -78.820328 -0.056294315 -10.259279 -0.059310563 -10.280134 -35.680214 -98.779221
50959000 -34.770042 -80.212616 -0.056948908 -10.470119 -0.059908919 -10.482233 -35.517147 -99.18837
51958000 -34.592957 -81.374359 -0.059567738 -10.66978 -0.061724965 -10.678181 -35.331051 -99.995575
52957000 -34.415306 -82.549942 -0.06089035 -10.871272 -0.062377226 -10.877113 -35.167965 -99.881134
53956000 -34.266335 -83.331024 -0.061557449 -11.071248 -0.063590102 -11.071115 -35.01873 -99.927513
54955000 -34.109287 -84.026398 -0.062177911 -11.271712 -0.064541101 -11.267001 -34.860439 -100.12814
55954000 -33.958687 -84.867828 -0.063631602 -11.475551 -0.065544598 -11.466475 -34.747849 -99.923874
56953000 -33.848606 -85.080032 -0.063210286 -11.668518 -0.063722752 -11.659085 -34.699699 -100.1467
57952000 -33.694729 -85.728874 -0.064589702 -11.869547 -0.065279707 -11.857675 -34.594177 -100.36414
58951000 -33.596001 -86.158745 -0.065152526 -12.070409 -0.065910429 -12.050868 -34.42728 -100.56304
59950000 -33.478725 -86.598236 -0.066727348 -12.270991 -0.066321231 -12.250379 -34.356834 -100.92375
60949000 -33.367081 -87.244385 -0.067211047 -12.474995 -0.067158997 -12.452201 -34.28006 -101.1857
61948000 -33.306839 -87.58799 -0.068156004 -12.672979 -0.066852994 -12.654355 -34.193283 -101.41861
62947000 -33.221451 -87.869766 -0.067073554 -12.882605 -0.067528903 -12.864237 -34.04689 -101.69318
63946000 -33.164902 -88.526215 -0.068592526 -13.084647 -0.069236092 -13.063591 -33.944569 -101.9305
64945000 -33.070599 -88.764236 -0.068997011 -13.28313 -0.069749005 -13.266155 -33.852398 -102.47921
65944000 -32.963558 -89.148964 -0.070067309 -13.483396 -0.070022322 -13.464938 -33.753166 -102.92892
66943000 -32.83646 -89.593452 -0.067554928 -13.685898 -0.068468668 -13.665408 -33.64357 -103.21355
67942000 -32.777809 -89.525749 -0.070014961 -13.881024 -0.070245147 -13.867195 -33.530811 -103.67871
68941000 -32.665409 -89.710732 -0.068992279 -14.074704 -0.069183484 -14.064826 -33.42371 -103.64854
69940000 -32.562759 -89.757118 -0.069653258 -14.274637 -0.069726385 -14.262131 -33.280807 -103.99755
70939000 -32.45459 -89.803543 -0.069346033 -14.469771 -0.069705077 -14.462451 -33.144226 -103.98576
71938000 -32.305023 -89.426743 -0.069346033 -14.668393 -0.07043983 -14.658984 -33.00869 -103.88592
72937000 -32.153206 -89.348534 -0.069160603 -14.863827 -0.069319203 -14.856609 -32.860958 -103.5695
73936000 -32.002621 -89.053024 -0.068550453 -15.057837 -0.068733223 -15.054691 -32.744743 -103.50025
74935000 -31.878687 -89.412445 -0.068335868 -15.260698 -0.068008222 -15.256231 -32.577114 -103.27635
75934000 -31.761854 -89.670807 -0.068431064 -15.468694 -0.067695066 -15.459663 -32.492821 -103.15078
76933000 -31.634384 -90.138313 -0.069483072 -15.66281 -0.069183752 -15.652048 -32.316166 -103.61436
77932000 -31.543783 -90.971626 -0.071208395 -15.854592 -0.071425229 -15.850894 -32.228935 -103.61305
78931000 -31.484127 -91.696526 -0.069626167 -16.061876 -0.070527971 -16.048025 -32.122456 -103.51881
79930000 -31.378115 -92.616302 -0.072813839 -16.250288 -0.073049702 -16.244293 -32.026031 -103.88815
80929000 -31.257849 -93.563385 -0.074116267 -16.445229 -0.074394599 -16.440237 -31.919296 -104.31028
81928000 -31.184389 -94.428238 -0.074607901 -16.638483 -0.074588418 -16.634125 -31.806507 -104.40501
82927000 -31.093372 -95.167145 -0.076397173 -16.835234 -0.076451711 -16.833803 -31.69899 -104.82745
83926000 -30.991312 -95.993431 -0.077046633 -17.032501 -0.077306181 -17.03244 -31.578415 -105.07579
84925000 -30.893177 -96.483818 -0.077899121 -17.234825 -0.076866411 -17.228636 -31.484568 -105.24175
85924000 -30.805773 -96.973244 -0.078638427 -17.433744 -0.079181984 -17.432178 -31.400051 -105.2999
86923000 -30.706541 -97.566193 -0.078985058 -17.630199 -0.078799747 -17.626339 -31.29812 -105.15306
87922000 -30.593912 -98.021843 -0.078993492 -17.836531 -0.079591408 -17.82431 -31.216894 -105.3075
88921000 -30.538242 -98.316368 -0.080014847 -18.037542 -0.079968698 -18.028448 -31.120506 -105.30172
89920000 -30.435001 -98.942108 -0.080780879 -18.234043 -0.0805889 -18.225412 -31.067068 -105.55885
90919000 -30.339846 -99.197922 -0.081626184 -18.430101 -0.081342645 -18.429737 -30.97205 -105.8326
91918000 -30.252134 -99.673485 -0.082581669 -18.629 -0.08191397 -18.624247 -30.910627 -105.85661
92917000 -30.167238 -100.05442 -0.083757453 -18.826363 -0.082737595 -18.826593 -30.834854 -105.97758
93916000 -30.081564 -100.44704 -0.082945243 -19.021957 -0.083043657 -19.017288 -30.764893 -106.63442
94915000 -30.017076 -101.08011 -0.084456317 -19.221979 -0.083401203 -19.215389 -30.695549 -106.5238
95914000 -29.947807 -101.3428 -0.085515387 -19.417135 -0.084871255 -19.416967 -30.601789 -106.88471
96913000 -29.859627 -101.58788 -0.086724445 -19.616285 -0.085941777 -19.614149 -30.544771 -107.23469
97912000 -29.786844 -102.11636 -0.0879407 -19.814606 -0.085702837 -19.81382 -30.463476 -107.47723
98911000 -29.687576 -102.34282 -0.088474065 -20.014837 -0.087031052 -20.012846 -30.417892 -107.70695
99910000 -29.619289 -102.48028 -0.088787399 -20.214945 -0.08792723 -20.213331 -30.313423 -107.98809
100909000 -29.534985 -102.82012 -0.088441044 -20.421432 -0.087924853 -20.414341 -30.227158 -108.29015
101908000 -29.440996 -103.02754 -0.08964695 -20.623091 -0.088220455 -20.615191 -30.109449 -108.09408
102907000 -29.314386 -103.08634 -0.089398816 -20.819477 -0.088465877 -20.817789 -30.026903 -108.00903
103906000 -29.211685 -103.23367 -0.089960106 -21.028852 -0.087907948 -21.021854 -29.874084 -108.03008
104905000 -29.070286 -103.13322 -0.090564027 -21.225794 -0.088473804 -21.228502 -29.743685 -107.74166
105904000 -28.921883 -103.27711 -0.090746403 -21.430597 -0.088627294 -21.419672 -29.620529 -107.57904
106903000 -28.81522 -103.45246 -0.090664469 -21.634159 -0.088875383 -21.628519 -29.488855 -107.52283
107902000 -28.649471 -103.82384 -0.091667674 -21.835987 -0.089476511 -21.821547 -29.346394 -107.52011
108901000 -28.539787 -104.08724 -0.09252277 -22.030657 -0.091038495 -22.028656 -29.218325 -107.45901
109900000 -28.41836 -104.60886 -0.09388905 -22.2341 -0.092181928 -22.223114 -29.056101 -107.57632
110899000 -28.299442 -105.33679 -0.094780564 -22.431686 -0.091969348 -22.422367 -28.933393 -107.97784
111898000 -28.21804 -106.00358 -0.096638247 -22.632887 -0.094048291 -22.626638 -28.815834 -108.15401
112897000 -28.10183 -106.58251 -0.098327532 -22.83383 -0.094816543 -22.821541 -28.676552 -108.35805
113896000 -27.99033 -107.23841 -0.098644756 -23.033541 -0.096731424 -23.020763 -28.568556 -108.50708
114895000 -27.895483 -107.85167 -0.10019653 -23.233231 -0.097553626 -23.21702 -28.461834 -108.66071
115894000 -27.766127 -108.27679 -0.10180797 -23.430143 -0.099422038 -23.416513 -28.388121 -108.84289
116893000 -27.689619 -108.90646 -0.10188906 -23.624769 -0.099959195 -23.60891 -28.261124 -109.0311
117892000 -27.608217 -109.39639 -0.10195902 -23.824833 -0.10009535 -23.814291 -28.186562 -109.31229
118891000 -27.554197 -109.8367 -0.10209947 -24.023165 -0.10090017 -24.012123 -28.08449 -109.47002
119890000 -27.463884 -110.26875 -0.1032885 -24.227854 -0.10185434 -24.208941 -28.071804 -109.65376
120889000 -27.411875 -110.79916 -0.10504004 -24.42506 -0.10118367 -24.413933 -27.995815 -109.64201
121888000 -27.373377 -111.12577 -0.1038895 -24.622576 -0.1021281 -24.606934 -27.943111 -109.93325
122887000 -27.329872 -111.33387 -0.10525486 -24.823763 -0.10330335 -24.810032 -27.898611 -110.02115
123886000 -27.277397 -111.78195 -0.10583438 -25.02516 -0.10360556 -25.00835 -27.879314 -110.16964
124885000 -27.242407 -112.28793 -0.10673976 -25.226746 -0.10382747 -25.210032 -27.845058 -110.23087
125884000 -27.190674 -112.54203 -0.10739165 -25.422272 -0.10415994 -25.408596 -27.817181 -110.40089
126883000 -27.172726 -112.89787 -0.10823949 -25.625685 -0.10490055 -25.609428 -27.772381 -110.49088
127882000 -27.114428 -113.20181 -0.10838255 -25.822884 -0.10543918 -25.811588 -27.72459 -110.66666
128881000 -27.086216 -113.52104 -0.10864981 -26.025694 -0.105327 -26.007765 -27.68849 -110.77852
129880000 -27.02973 -113.83369 -0.10953587 -26.229305 -0.10613704 -26.208378 -27.644009 -110.75486
130879000 -26.969259 -113.99131 -0.10876766 -26.428312 -0.10653999 -26.408781 -27.563183 -110.81239
131878000 -26.907143 -114.25639 -0.10886109 -26.628071 -0.10700719 -26.607447 -27.501007 -110.70337
132877000 -26.838696 -114.35437 -0.10869759 -26.827423 -0.10703425 -26.812023 -27.40941 -110.74316
133876000 -26.751036 -114.50157 -0.10969303 -27.032242 -0.10749672 -27.00918 -27.316635 -110.65068
134875000 -26.648335 -114.60204 -0.10970338 -27.228195 -0.10774695 -27.211845 -27.211292 -110.50993
135874000 -26.560911 -114.69389 -0.10962559 -27.429165 -0.10774802 -27.411644 -27.105333 -110.5572
136873000 -26.447845 -114.61527 -0.11088122 -27.633347 -0.10756917 -27.613518 -27.01865 -110.53447
137872000 -26.378132 -114.77377 -0.11049964 -27.833656 -0.1076225 -27.819172 -26.906677 -110.49419
138871000 -26.295208 -115.01591 -0.11044653 -28.032749 -0.10793165 -28.01837 -26.809324 -110.68166
139870000 -26.199802 -115.25894 -0.11204636 -28.235638 -0.10901557 -28.216925 -26.728743 -110.86566
140869000 -26.113459 -115.7478 -0.11342172 -28.429054 -0.11050282 -28.411543 -26.616522 -111.02953
141868000 -26.014582 -116.23967 -0.11361994 -28.62101 -0.11115262 -28.609055 -26.553144 -111.39794
142867000 -25.939718 -116.54556 -0.11242542 -28.820051 -0.109804 -28.80312 -26.472286 -111.56496
143866000 -25.872923 -117.05379 -0.11419447 -29.017878 -0.11148008 -28.999992 -26.398577 -112.0929
144865000 -25.814947 -117.52943 -0.11551468 -29.215004 -0.11346874 -29.199772 -26.340466 -112.45971
145864000 -25.764448 -117.93386 -0.11640825 -29.415897 -0.11429386 -29.402943 -26.314365 -112.71558
146863000 -25.720583 -118.33047 -0.11677068 -29.618166 -0.11444561 -29.601274 -26.26218 -113.03822
147862000 -25.680529 -118.68306 -0.11741424 -29.813072 -0.11509176 -29.79929 -26.229618 -113.42108
148861000 -25.64669 -119.2324 -0.11744562 -30.009706 -0.11550405 -29.998486 -26.203693 -113.67202
149860000 -25.634428 -119.4291 -0.11796746 -30.208717 -0.11609265 -30.199118 -26.175009 -113.84418
150859000 -25.614597 -119.80518 -0.11886898 -30.407682 -0.1167026 -30.394939 -26.172087 -114.10349
151858000 -25.59281 -120.12683 -0.11814168 -30.61025 -0.11658667 -30.594002 -26.158312 -114.40067
152857000 -25.580793 -120.46499 -0.11937369 -30.803993 -0.11719137 -30.791883 -26.146742 -114.56767
153856000 -25.57275 -120.71509 -0.11872292 -31.00491 -0.11634311 -30.990324 -26.167608 -114.86515
154855000 -25.565775 -120.82661 -0.11905602 -31.204218 -0.11621708 -31.192299 -26.15061 -115.05949
155854000 -25.578268 -121.12166 -0.1199253 -31.403292 -0.11730679 -31.390526 -26.141125 -115.35031
156853000 -25.565327 -121.79909 -0.11747115 -31.591572 -0.11683131 -31.579258 -26.140694 -115.66871
157852000 -25.570063 -122.02282 -0.11929388 -31.792007 -0.11870351 -31.780785 -26.137527 -116.01627
158851000 -25.568972 -122.2689 -0.1196105 -31.990114 -0.11834251 -31.978861 -26.121592 -116.25014
159850000 -25.547363 -122.40762 -0.1205342 -32.188148 -0.11855001 -32.181023 -26.122879 -116.41107
160849000 -25.535234 -122.53313 -0.12073487 -32.38562 -0.1196286 -32.380749 -26.087839 -116.69296
161848000 -25.513601 -122.6104 -0.12087408 -32.587833 -0.11971375 -32.578697 -26.04616 -116.80738
162847000 -25.466713 -122.84205 -0.12097415 -32.783329 -0.12006395 -32.779659 -26.017807 -117.04858
163846000 -25.42568 -123.05642 -0.12142348 -32.980938 -0.11998571 -32.976681 -25.936447 -117.13155
164845000 -25.361914 -123.05138 -0.12216677 -33.184345 -0.12074951 -33.175461 -25.86838 -117.17083
165844000 -25.308552 -123.14696 -0.12175198 -33.384224 -0.12099572 -33.38018 -25.790491 -117.32256
166843000 -25.244541 -123.24413 -0.12143146 -33.578407 -0.12108355 -33.576641 -25.713928 -117.51421
167842000 -25.188578 -123.40215 -0.12152756 -33.778976 -0.12106252 -33.775471 -25.633562 -117.45383
168841000 -25.106586 -123.61131 -0.12161727 -33.98003 -0.12231027 -33.973568 -25.552055 -117.51814
169840000 -25.038862 -123.86417 -0.12234436 -34.16927 -0.12182439 -34.173515 -25.469843 -117.7915
170839000 -24.979004 -124.16467 -0.12342549 -34.371666 -0.12273497 -34.366982 -25.384651 -117.94923
171838000 -24.924292 -124.58388 -0.12369155 -34.572556 -0.12336849 -34.562885 -25.316502 -118.23859
172837000 -24.854784 -124.95898 -0.12520702 -34.769279 -0.12398028 -34.762527 -25.252016 -118.47781
173836000 -24.785213 -125.44484 -0.12595496 -34.967197 -0.12521315 -34.962559 -25.200054 -118.72493
174835000 -24.733744 -125.89464 -0.12639999 -35.161167 -0.12588434 -35.161343 -25.159035 -119.07428
175834000 -24.683987 -126.25704 -0.12721211 -35.362701 -0.12734538 -35.355103 -25.093254 -119.38867
176833000 -24.627764 -126.64847 -0.1277082 -35.558079 -0.12755145 -35.55373 -25.047689 -119.55749
177832000 -24.588455 -127.15752 -0.12874587 -35.753613 -0.12818967 -35.755112 -25.018017 -119.7512
178831000 -24.547342 -127.52917 -0.12980352 -35.9519 -0.12835658 -35.947723 -24.986782 -119.99317
179830000 -24.514456 -127.96648 -0.13023375 -36.149994 -0.12858748 -36.1469 -24.958 -120.1346
180829000 -24.473629 -128.18277 -0.13082382 -36.346581 -0.12957388 -36.343975 -24.92576 -120.31463
181828000 -24.448193 -128.52785 -0.13028283 -36.544365 -0.13013586 -36.538845 -24.907972 -120.48185
182827000 -24.421923 -128.89281 -0.130178 -36.736992 -0.1301668 -36.738937 -24.894436 -120.55848
183826000 -24.383013 -129.22546 -0.13110608 -36.936771 -0.12995075 -36.93021 -24.887569 -120.67479
184825000 -24.391691 -129.54143 -0.13118958 -37.132034 -0.13021748 -37.131886 -24.867453 -120.78101
185824000 -24.361799 -129.92035 -0.1312851 -37.325043 -0.13125975 -37.327446 -24.862452 -120.84763
186823000 -24.346737 -130.26221 -0.13159087 -37.528255 -0.13125601 -37.524475 -24.858789 -120.84052
187822000 -24.327312 -130.58495 -0.13196604 -37.719398 -0.13183261 -37.721024 -24.827597 -120.89611
188821000 -24.303114 -130.82303 -0.13183849 -37.915936 -0.13220221 -37.923195 -24.809778 -121.01913
189820000 -24.293316 -131.08217 -0.1322313 -38.117287 -0.1321 -38.116798 -24.800562 -121.16782
190819000 -24.263481 -131.33525 -0.13393794 -38.320709 -0.13305543 -38.314068 -24.76659 -121.12653
191818000 -24.220808 -131.52303 -0.13462944 -38.512749 -0.1340159 -38.511753 -24.731077 -121.01061
192817000 -24.151855 -131.81139 -0.13515282 -38.697903 -0.13498111 -38.696251 -24.658976 -121.08575
193816000 -24.117315 -132.14188 -0.13416061 -38.891743 -0.13398761 -38.888828 -24.601011 -121.33458
194815000 -24.061907 -132.59946 -0.13443694 -39.087437 -0.13463372 -39.089577 -24.536901 -121.51299
195814000 -24.005503 -132.8502 -0.13477096 -39.286488 -0.13401857 -39.286041 -24.482525 -121.60936
196813000 -23.957081 -133.18335 -0.13437846 -39.479008 -0.13426152 -39.483669 -24.401596 -121.78002
197812000 -23.894672 -133.43559 -0.13445723 -39.680256 -0.13438194 -39.675049 -24.329763 -121.87332
198811000 -23.84164 -133.63097 -0.13501075 -39.874943 -0.13423055 -39.873974 -24.263065 -122.0742
199810000 -23.770805 -134.00594 -0.13486682 -40.068821 -0.13367419 -40.064613 -24.181683 -122.1869
200809000 -23.71452 -134.28729 -0.13569254 -40.266705 -0.13492611 -40.267006 -24.099621 -122.38048
201808000 -23.653568 -134.52988 -0.13605632 -40.467655 -0.13558438 -40.471561 -24.034451 -122.49753
202807000 -23.597502 -134.91704 -0.13731961 -40.664223 -0.13595295 -40.666702 -23.97056 -122.71175
203806000 -23.548683 -135.34341 -0.13859849 -40.86504 -0.13649358 -40.86805 -23.913412 -122.92215
