!Keysight Technologies,E5080B,MY59205177,A.15.75.32
!Date: Friday, February 23, 2024 03:29:06
!Correction: S11(Cdelta 2-Port  ) 
!S21(Cdelta 2-Port  ) 
!S12(Cdelta 2-Port  ) 
!S22(Cdelta 2-Port  ) 
!S2P File: Measurements: S11, S21, S12, S22:
# Hz S  dB   R 50
10000000 -46.011402 -1.5804487 -0.016518407 -2.0520289 -0.018674105 -2.1060581 -46.078133 -158.60396
10999000 -45.226814 -3.9131 -0.018270383 -2.2688496 -0.018438835 -2.3243682 -46.040344 -152.43851
11998000 -44.275665 -6.4661179 -0.017986786 -2.4965525 -0.01760002 -2.5407195 -46.212681 -148.50858
12997000 -43.557175 -12.2921 -0.01751451 -2.6765523 -0.018065285 -2.7094514 -45.840282 -142.41432
13996000 -43.19978 -16.08577 -0.01625623 -2.8548973 -0.018170303 -2.8784764 -45.620319 -136.74744
14995000 -42.851227 -20.222111 -0.019236207 -3.0659626 -0.017284499 -3.0918653 -45.345024 -133.51482
15994000 -42.709377 -24.560635 -0.019479323 -3.2887843 -0.020273246 -3.3089051 -45.189842 -129.9053
16993000 -42.726715 -29.134264 -0.019089045 -3.4895411 -0.019742215 -3.4936972 -44.43763 -129.51236
17992000 -42.733105 -34.58284 -0.019249208 -3.6842306 -0.020069877 -3.689095 -43.855633 -129.4411
18991000 -42.965698 -39.892563 -0.020429812 -3.8963189 -0.02136464 -3.8910255 -43.22279 -128.2888
19990000 -42.810284 -45.543839 -0.022540616 -4.1048274 -0.023107123 -4.1021261 -42.529957 -129.24065
20989000 -42.641121 -48.595222 -0.024802662 -4.3121738 -0.024761267 -4.2997885 -42.011509 -128.47025
21988000 -42.491207 -54.066261 -0.024952361 -4.5073051 -0.02538144 -4.4931688 -41.750977 -127.59473
22987000 -42.180069 -58.853413 -0.027049476 -4.7081509 -0.026770514 -4.6996045 -41.489021 -127.04152
23986000 -42.131405 -62.736061 -0.026841359 -4.9001923 -0.025538972 -4.9017301 -41.379959 -127.11295
24985000 -41.690536 -65.633995 -0.027784605 -5.1088319 -0.026105089 -5.1081996 -41.196209 -124.51859
25984000 -41.393181 -67.829086 -0.028794762 -5.3195987 -0.026745509 -5.3170362 -40.843895 -122.88567
26983000 -41.094856 -69.755852 -0.029610459 -5.5170345 -0.027439427 -5.5355473 -40.722992 -122.22725
27982000 -40.877674 -70.694572 -0.031150278 -5.7204905 -0.029950075 -5.7568307 -40.450592 -120.71414
28981000 -40.864101 -72.419281 -0.029109035 -5.9165325 -0.028964143 -5.9390826 -40.24371 -120.01672
29980000 -40.464161 -73.709251 -0.029161938 -6.1128736 -0.029523671 -6.1181064 -39.988358 -119.06312
30979000 -40.091518 -72.417686 -0.026568402 -6.4635653 -0.024480369 -6.4566827 -39.449142 -119.39306
31978000 -39.884071 -73.45929 -0.025485853 -6.6583982 -0.025831657 -6.6511049 -39.192654 -118.76792
32977000 -39.697395 -75.296196 -0.025749369 -6.8732471 -0.025833219 -6.8687439 -38.980972 -118.7168
33976000 -39.533535 -76.352455 -0.026500164 -7.0733447 -0.026675446 -7.0680537 -38.690842 -118.19536
34975000 -39.233788 -77.008469 -0.026942682 -7.2740183 -0.027612664 -7.2735929 -38.472649 -117.8578
35974000 -39.053635 -77.660248 -0.025491843 -7.4693027 -0.027171902 -7.4758 -38.163334 -116.75028
36973000 -38.813423 -78.457375 -0.026321763 -7.6688247 -0.027755426 -7.6745296 -37.902012 -115.95541
37972000 -38.615627 -78.147873 -0.026176965 -7.8812675 -0.0279899 -7.8863049 -37.690804 -115.10221
38971000 -38.305111 -77.735184 -0.026990088 -8.0840015 -0.027141685 -8.0906849 -37.522423 -113.49026
39970000 -37.962543 -78.098694 -0.025288226 -8.2827396 -0.026765045 -8.2907877 -37.255661 -112.97181
40969000 -37.672657 -77.662491 -0.025781138 -8.4742432 -0.026553556 -8.4907513 -37.007553 -111.4193
41968000 -37.326328 -77.66906 -0.025490019 -8.6818466 -0.027650958 -8.6913309 -36.823765 -110.19725
42967000 -37.041302 -77.662521 -0.02531869 -8.8874817 -0.028232463 -8.9076805 -36.616726 -108.40635
43966000 -36.758297 -78.368347 -0.026177486 -9.0876713 -0.029199203 -9.107584 -36.33424 -107.55415
44965000 -36.519154 -79.241768 -0.027328717 -9.2901525 -0.028835934 -9.3141861 -36.119076 -107.21965
45964000 -36.296944 -80.170334 -0.027688732 -9.4945765 -0.030366093 -9.5135574 -35.891781 -107.04615
46963000 -36.111778 -82.08329 -0.028873198 -9.6876993 -0.0308077 -9.7143517 -35.718182 -107.17568
47962000 -35.946899 -83.634819 -0.030154169 -9.8909721 -0.031852722 -9.9091425 -35.503151 -107.32375
48961000 -35.712914 -85.041565 -0.031796135 -10.087224 -0.033701941 -10.108573 -35.276405 -107.46386
49960000 -35.492054 -86.260651 -0.034288429 -10.288966 -0.034733046 -10.31533 -35.142246 -107.51031
50959000 -35.26812 -87.655647 -0.03447368 -10.505191 -0.036066644 -10.512918 -34.942692 -107.77525
51958000 -35.050419 -88.668488 -0.036063515 -10.702357 -0.037100922 -10.711711 -34.777462 -108.16695
52957000 -34.846825 -89.723846 -0.037865173 -10.90616 -0.038173314 -10.910867 -34.617229 -107.85753
53956000 -34.678089 -90.46241 -0.038502891 -11.108397 -0.039313622 -11.105748 -34.484787 -107.82404
54955000 -34.5023 -90.833939 -0.039925691 -11.306231 -0.040099163 -11.30355 -34.33316 -107.83871
55954000 -34.345264 -91.786743 -0.040145669 -11.506587 -0.040645231 -11.505713 -34.22636 -107.44891
56953000 -34.214153 -91.776054 -0.039714344 -11.708485 -0.040364351 -11.694182 -34.154018 -107.66083
57952000 -34.058807 -92.346855 -0.040929269 -11.906601 -0.040786073 -11.89361 -34.057262 -107.6953
58951000 -33.937458 -92.652588 -0.042381614 -12.113435 -0.04178201 -12.087107 -33.911255 -107.74948
59950000 -33.806885 -93.045807 -0.043101303 -12.306947 -0.042688247 -12.288307 -33.835022 -108.09398
60949000 -33.681065 -93.588654 -0.043402493 -12.513258 -0.042469967 -12.491283 -33.743832 -108.36481
61948000 -33.632423 -93.871124 -0.04429207 -12.714448 -0.04332798 -12.692728 -33.658768 -108.46754
62947000 -33.542976 -94.073135 -0.044282917 -12.92512 -0.043701876 -12.906792 -33.519485 -108.62802
63946000 -33.459785 -94.945763 -0.045808852 -13.125795 -0.044917393 -13.107344 -33.414192 -108.9212
64945000 -33.361355 -95.080757 -0.046680342 -13.32467 -0.04585908 -13.305429 -33.295238 -109.30726
65944000 -33.253139 -95.368141 -0.046834461 -13.527007 -0.046143457 -13.509354 -33.201374 -109.8212
66943000 -33.112045 -95.724548 -0.044911377 -13.727576 -0.044245783 -13.710507 -33.095669 -109.97836
67942000 -33.061295 -95.638855 -0.046973672 -13.925171 -0.046142671 -13.913666 -32.987839 -110.28197
68941000 -32.94759 -95.838356 -0.046410583 -14.117966 -0.045039803 -14.109397 -32.862427 -110.23238
69940000 -32.847996 -95.750595 -0.047028098 -14.316861 -0.046561815 -14.308888 -32.740692 -110.5476
70939000 -32.737335 -95.651619 -0.047174118 -14.517248 -0.045419864 -14.507044 -32.601841 -110.45981
71938000 -32.6022 -95.262169 -0.047153708 -14.71342 -0.045582831 -14.705551 -32.468075 -110.32132
72937000 -32.436504 -95.04467 -0.046271656 -14.912457 -0.045464333 -14.903021 -32.319183 -110.01559
73936000 -32.294128 -94.679535 -0.046411369 -15.112847 -0.045092639 -15.102077 -32.210571 -109.81793
74935000 -32.170101 -94.878929 -0.045635935 -15.306768 -0.044495795 -15.302375 -32.053562 -109.43204
75934000 -32.0397 -95.15123 -0.046056859 -15.512205 -0.044232707 -15.513333 -31.962225 -109.3565
76933000 -31.910706 -95.519516 -0.046492741 -15.705126 -0.045882363 -15.702422 -31.783171 -109.73387
77932000 -31.80583 -96.30616 -0.048141681 -15.909805 -0.047343433 -15.901647 -31.682978 -109.67814
78931000 -31.732327 -97.090599 -0.046797566 -16.109243 -0.046267208 -16.101871 -31.576422 -109.51902
79930000 -31.617815 -97.860153 -0.049555074 -16.299955 -0.04874086 -16.298391 -31.468372 -109.80788
80929000 -31.505419 -98.71328 -0.050803661 -16.500116 -0.050350588 -16.495253 -31.3757 -110.08594
81928000 -31.399593 -99.446754 -0.051139437 -16.689745 -0.051355008 -16.687243 -31.251707 -110.02387
82927000 -31.306782 -100.17715 -0.052687958 -16.888552 -0.052478347 -16.886427 -31.1357 -110.35088
83926000 -31.19293 -100.87046 -0.054492857 -17.087063 -0.05347959 -17.088114 -31.016155 -110.5107
84925000 -31.092499 -101.31314 -0.055336207 -17.287363 -0.053578652 -17.281666 -30.922285 -110.56236
85924000 -30.985918 -101.72605 -0.05611416 -17.48621 -0.055358492 -17.487156 -30.834345 -110.51718
86923000 -30.883535 -102.20636 -0.056317654 -17.684235 -0.055273809 -17.682892 -30.722164 -110.40585
87922000 -30.769474 -102.53957 -0.056893304 -17.890331 -0.054596398 -17.882011 -30.643692 -110.39908
88921000 -30.689777 -102.84718 -0.05751887 -18.089003 -0.05563746 -18.085234 -30.551779 -110.42448
89920000 -30.585527 -103.38955 -0.058200408 -18.2883 -0.056510929 -18.287916 -30.49135 -110.57306
90919000 -30.473866 -103.63155 -0.059411593 -18.485506 -0.057659473 -18.479486 -30.409019 -110.7182
91918000 -30.386856 -103.98651 -0.059952486 -18.688887 -0.057851493 -18.681036 -30.338339 -110.68476
92917000 -30.2897 -104.28697 -0.060949154 -18.888563 -0.05853387 -18.884438 -30.265936 -110.83313
93916000 -30.207651 -104.67705 -0.060190279 -19.080059 -0.058746658 -19.074768 -30.182785 -111.43547
94915000 -30.124556 -105.25559 -0.062088631 -19.282183 -0.060086079 -19.276581 -30.119698 -111.25527
95914000 -30.062037 -105.44273 -0.063217111 -19.478582 -0.061409634 -19.475548 -30.029814 -111.52975
96913000 -29.975485 -105.67383 -0.06445729 -19.676434 -0.062434737 -19.674603 -29.964268 -111.93894
97912000 -29.890551 -106.11228 -0.065392442 -19.872782 -0.061882243 -19.877989 -29.880665 -112.0959
98911000 -29.783737 -106.3303 -0.065212965 -20.074886 -0.063046388 -20.074911 -29.844749 -112.39095
99910000 -29.723148 -106.43296 -0.066136718 -20.275192 -0.063946046 -20.2759 -29.728479 -112.65767
100909000 -29.62668 -106.71891 -0.065991111 -20.487034 -0.063373923 -20.477755 -29.640265 -112.82787
101908000 -29.533298 -106.98544 -0.067324884 -20.685843 -0.064311214 -20.684214 -29.536661 -112.64609
102907000 -29.397524 -106.9451 -0.067622766 -20.885267 -0.06445203 -20.880091 -29.46426 -112.58864
103906000 -29.302597 -107.00848 -0.068199649 -21.092949 -0.064238697 -21.086704 -29.314861 -112.59832
104905000 -29.155565 -106.84795 -0.068290897 -21.289707 -0.064841151 -21.294571 -29.19376 -112.27852
105904000 -29.013342 -106.98149 -0.069528311 -21.496159 -0.06492497 -21.487095 -29.082747 -112.12196
106903000 -28.905966 -107.0413 -0.068764783 -21.699856 -0.065370634 -21.694145 -28.951418 -112.03664
107902000 -28.739632 -107.34234 -0.070049688 -21.900898 -0.066573307 -21.892691 -28.80686 -111.96223
108901000 -28.624737 -107.57775 -0.070842117 -22.100733 -0.067590691 -22.095646 -28.674534 -111.96722
109900000 -28.490774 -108.04352 -0.071375757 -22.301243 -0.068866298 -22.293339 -28.526884 -111.99856
110899000 -28.377884 -108.70845 -0.072977051 -22.498608 -0.069046721 -22.492243 -28.405947 -112.27188
111898000 -28.286144 -109.35353 -0.073878497 -22.702862 -0.070015751 -22.696077 -28.278 -112.42952
112897000 -28.161224 -109.93338 -0.075536296 -22.903198 -0.071778655 -22.888218 -28.142307 -112.60004
113896000 -28.062231 -110.47732 -0.076320507 -23.100973 -0.072988898 -23.08997 -28.035967 -112.69905
114895000 -27.954294 -111.11386 -0.077735201 -23.301373 -0.074717984 -23.286816 -27.927778 -112.81116
115894000 -27.834328 -111.48933 -0.079063617 -23.503452 -0.074774869 -23.489929 -27.85932 -112.97558
116893000 -27.756397 -112.0041 -0.080318868 -23.700111 -0.076722026 -23.683428 -27.73502 -112.98071
117892000 -27.673288 -112.44982 -0.079965539 -23.893511 -0.077192873 -23.885941 -27.654821 -113.22971
118891000 -27.611328 -112.89756 -0.080507413 -24.097515 -0.077557839 -24.080561 -27.560684 -113.34935
119890000 -27.523075 -113.2572 -0.081510656 -24.29907 -0.077925473 -24.286274 -27.542952 -113.46526
120889000 -27.474703 -113.72775 -0.082744189 -24.497974 -0.078558825 -24.483013 -27.474445 -113.44495
121888000 -27.43664 -114.05408 -0.082259811 -24.696135 -0.078470781 -24.68281 -27.418665 -113.65234
122887000 -27.396086 -114.2402 -0.083267152 -24.903191 -0.079116337 -24.884321 -27.367254 -113.6736
123886000 -27.345621 -114.69789 -0.083689891 -25.101269 -0.080043055 -25.084486 -27.35404 -113.81443
124885000 -27.310698 -115.1666 -0.084155694 -25.30098 -0.079750128 -25.288696 -27.32357 -113.86207
125884000 -27.256746 -115.38967 -0.085315004 -25.498737 -0.080569118 -25.484829 -27.296358 -114.03252
126883000 -27.236425 -115.75655 -0.085962109 -25.70413 -0.081299119 -25.689465 -27.258745 -114.02242
127882000 -27.19478 -116.03905 -0.085888706 -25.905785 -0.08209493 -25.886257 -27.216827 -114.13961
128881000 -27.15778 -116.40619 -0.086252816 -26.103615 -0.081707954 -26.087755 -27.179308 -114.25623
129880000 -27.10605 -116.7035 -0.087209322 -26.305059 -0.082129225 -26.287968 -27.143736 -114.23686
130879000 -27.041111 -116.8886 -0.086594515 -26.507349 -0.083324939 -26.490427 -27.064049 -114.20565
131878000 -26.976349 -117.10358 -0.087116353 -26.708513 -0.083366372 -26.689524 -27.005602 -114.12992
132877000 -26.908264 -117.16759 -0.08637587 -26.912624 -0.083776981 -26.893059 -26.922085 -114.09754
133876000 -26.825586 -117.3469 -0.087263726 -27.11264 -0.083292745 -27.093742 -26.837479 -113.96284
134875000 -26.730244 -117.47323 -0.087586224 -27.310305 -0.084210061 -27.295568 -26.736031 -113.85135
135874000 -26.646049 -117.5053 -0.08789131 -27.513216 -0.084470041 -27.496841 -26.638088 -113.77071
136873000 -26.541937 -117.44143 -0.08837156 -27.716772 -0.083797038 -27.701084 -26.55302 -113.7323
137872000 -26.452574 -117.55607 -0.0879061 -27.919809 -0.084213234 -27.897585 -26.447945 -113.66171
138871000 -26.381071 -117.75556 -0.08806248 -28.121197 -0.08464662 -28.105824 -26.354519 -113.82935
139870000 -26.27882 -118.04066 -0.089140922 -28.321276 -0.08612819 -28.298935 -26.269281 -113.99297
140869000 -26.198828 -118.64148 -0.089577451 -28.517689 -0.086647063 -28.498865 -26.169636 -114.21669
141868000 -26.122465 -119.03546 -0.090675831 -28.714361 -0.087813117 -28.699718 -26.11624 -114.46152
142867000 -26.040789 -119.17715 -0.090023004 -28.912262 -0.087356694 -28.895044 -26.040129 -114.57981
143866000 -25.963776 -119.70192 -0.091194458 -29.108498 -0.088237621 -29.093994 -25.967375 -115.05013
144865000 -25.90906 -120.19756 -0.093348414 -29.309175 -0.089895628 -29.289904 -25.904623 -115.33823
145864000 -25.85454 -120.49777 -0.093466111 -29.508066 -0.091377661 -29.496346 -25.877037 -115.56673
146863000 -25.806751 -120.88887 -0.094814956 -29.70956 -0.09146966 -29.695644 -25.826042 -115.89474
147862000 -25.771019 -121.21638 -0.095852211 -29.906496 -0.092150204 -29.893898 -25.79174 -116.20462
148861000 -25.737143 -121.65135 -0.096234359 -30.104298 -0.09440092 -30.092735 -25.773153 -116.367
149860000 -25.706738 -121.85786 -0.097771779 -30.300762 -0.094147228 -30.289127 -25.720343 -116.4613
150859000 -25.678993 -122.31535 -0.097037412 -30.497417 -0.093959942 -30.484962 -25.704176 -116.76543
151858000 -25.664673 -122.66236 -0.096708126 -30.697897 -0.094079509 -30.680979 -25.691038 -117.15508
152857000 -25.657791 -122.97338 -0.097242035 -30.895613 -0.094247222 -30.886068 -25.670517 -117.28524
153856000 -25.652258 -123.20661 -0.096645929 -31.095993 -0.093736954 -31.085178 -25.695526 -117.60551
154855000 -25.652288 -123.36755 -0.097199418 -31.295971 -0.093709186 -31.285477 -25.683527 -117.8986
155854000 -25.668129 -123.58062 -0.097599164 -31.495016 -0.094173148 -31.481783 -25.675026 -118.13021
156853000 -25.659378 -124.28066 -0.095012866 -31.68503 -0.093565822 -31.674128 -25.673239 -118.44849
157852000 -25.664585 -124.52251 -0.096725598 -31.886127 -0.094983228 -31.876373 -25.659966 -118.81049
158851000 -25.660446 -124.74441 -0.09726692 -32.086571 -0.09539891 -32.073532 -25.646921 -119.04636
159850000 -25.647055 -124.83855 -0.097483203 -32.285946 -0.09548226 -32.277115 -25.644733 -119.24207
160849000 -25.633387 -124.93446 -0.097954459 -32.48291 -0.096058629 -32.478848 -25.617653 -119.53645
161848000 -25.612484 -125.00333 -0.098563462 -32.68335 -0.096343137 -32.678936 -25.576561 -119.63612
162847000 -25.577002 -125.20966 -0.098701954 -32.883167 -0.09648791 -32.880241 -25.550837 -119.90941
163846000 -25.53594 -125.40898 -0.099048078 -33.085529 -0.096676894 -33.07439 -25.475527 -119.91914
164845000 -25.472666 -125.36222 -0.099061586 -33.283066 -0.096998766 -33.275421 -25.412777 -120.0117
165844000 -25.426668 -125.424 -0.099523738 -33.48143 -0.097318806 -33.476124 -25.330376 -120.1273
166843000 -25.362938 -125.47899 -0.099007823 -33.681126 -0.097435817 -33.681782 -25.264452 -120.3064
167842000 -25.303169 -125.5713 -0.099347346 -33.883785 -0.098359302 -33.876133 -25.190178 -120.2352
168841000 -25.226273 -125.73798 -0.099852175 -34.081192 -0.098163098 -34.081421 -25.116125 -120.28728
169840000 -25.164469 -125.95711 -0.10066332 -34.276119 -0.099112168 -34.273598 -25.024982 -120.48392
170839000 -25.100864 -126.24164 -0.10077406 -34.4748 -0.099431835 -34.476833 -24.94533 -120.66603
171838000 -25.04656 -126.62073 -0.10140386 -34.679893 -0.10042144 -34.671406 -24.881451 -120.87345
172837000 -24.973072 -126.96818 -0.10275757 -34.871986 -0.10119639 -34.868694 -24.813471 -121.08479
173836000 -24.906048 -127.34564 -0.10423763 -35.07391 -0.10217713 -35.071724 -24.770601 -121.31294
174835000 -24.850246 -127.74805 -0.10425221 -35.269974 -0.10344597 -35.27248 -24.726978 -121.64886
175834000 -24.802925 -128.15062 -0.10539224 -35.473064 -0.10422809 -35.468533 -24.665901 -121.894
176833000 -24.749861 -128.48865 -0.10655962 -35.669518 -0.10449377 -35.669689 -24.617476 -122.0432
177832000 -24.704748 -128.90811 -0.10697774 -35.870113 -0.10555509 -35.868046 -24.596125 -122.14833
178831000 -24.661749 -129.14137 -0.10886985 -36.066875 -0.10743702 -36.063255 -24.559605 -122.26573
179830000 -24.596563 -129.50468 -0.11031111 -36.253262 -0.10803409 -36.250282 -24.49687 -122.29575
180829000 -24.539343 -129.87982 -0.10906654 -36.444538 -0.10827612 -36.443439 -24.449526 -122.60539
181828000 -24.511824 -130.33057 -0.10832442 -36.646255 -0.10704513 -36.642738 -24.431208 -122.82377
182827000 -24.497711 -130.66438 -0.10787804 -36.842781 -0.10728684 -36.840836 -24.41762 -122.95194
183826000 -24.449358 -131.03328 -0.10920829 -37.03952 -0.10762542 -37.038998 -24.408993 -123.09068
184825000 -24.454601 -131.37244 -0.10899938 -37.237659 -0.1085317 -37.23827 -24.388712 -123.19681
185824000 -24.429649 -131.72311 -0.10890117 -37.433029 -0.10755987 -37.433289 -24.381807 -123.28165
186823000 -24.411083 -132.10364 -0.10906149 -37.635113 -0.10848419 -37.631168 -24.378839 -123.30878
187822000 -24.385487 -132.42978 -0.11000524 -37.82814 -0.10852135 -37.82943 -24.342522 -123.39742
188821000 -24.365311 -132.69025 -0.10962241 -38.022488 -0.10923855 -38.028511 -24.315941 -123.50914
189820000 -24.342094 -132.99664 -0.10955922 -38.225849 -0.10847835 -38.226368 -24.301226 -123.69858
190819000 -24.306698 -133.29047 -0.11086874 -38.423923 -0.10983001 -38.421906 -24.265936 -123.75415
191818000 -24.27512 -133.59692 -0.11078005 -38.62162 -0.10975249 -38.623398 -24.23428 -123.78142
192817000 -24.228466 -133.83714 -0.11134038 -38.817905 -0.10936198 -38.817879 -24.192144 -123.8794
193816000 -24.1961 -134.11388 -0.11141501 -39.014175 -0.10980082 -39.013336 -24.139828 -124.05076
194815000 -24.137466 -134.5159 -0.11149442 -39.208286 -0.11060797 -39.209587 -24.072191 -124.09486
195814000 -24.079866 -134.72691 -0.11246978 -39.407074 -0.1108937 -39.406467 -24.017975 -124.19601
196813000 -24.024164 -135.04289 -0.11187743 -39.599064 -0.1111343 -39.600922 -23.930651 -124.32124
197812000 -23.963911 -135.24547 -0.11235104 -39.801052 -0.11109632 -39.797688 -23.864756 -124.45289
198811000 -23.910776 -135.39644 -0.11313662 -39.997551 -0.11115023 -39.996109 -23.796198 -124.60658
199810000 -23.838938 -135.77347 -0.11321951 -40.196087 -0.1114753 -40.190144 -23.71311 -124.68142
200809000 -23.78252 -136.01503 -0.11349797 -40.389938 -0.11170159 -40.386795 -23.637568 -124.86533
201808000 -23.719641 -136.20856 -0.11467019 -40.586174 -0.11281674 -40.589298 -23.565695 -124.96098
202807000 -23.664007 -136.53099 -0.11472468 -40.788883 -0.11344324 -40.791519 -23.508684 -125.14449
203806000 -23.613424 -136.97043 -0.11667734 -40.991817 -0.11387663 -40.989361 -23.444458 -125.3073
