!Keysight Technologies,E5080B,MY59205177,A.15.75.32
!Date: Friday, February 23, 2024 03:29:13
!Correction: S11(Cdelta 2-Port  ) 
!S21(Cdelta 2-Port  ) 
!S12(Cdelta 2-Port  ) 
!S22(Cdelta 2-Port  ) 
!S2P File: Measurements: S11, S21, S12, S22:
# Hz S  dB   R 50
10000000 -45.986553 -1.3850714 -0.015741017 -2.051811 -0.018791616 -2.1033416 -46.108879 -158.64474
10999000 -45.209568 -3.6311979 -0.017140003 -2.2710626 -0.018380342 -2.3253374 -45.982052 -152.48572
11998000 -44.336494 -6.3814039 -0.017115833 -2.497308 -0.017495798 -2.5406468 -46.23917 -147.99342
12997000 -43.543148 -12.19375 -0.016835431 -2.6784897 -0.017673576 -2.7079363 -45.859604 -142.23239
13996000 -43.307446 -15.951054 -0.01564749 -2.8573706 -0.017791579 -2.878371 -45.636181 -136.97351
14995000 -42.852379 -20.460255 -0.018185379 -3.0667653 -0.017888531 -3.0960698 -45.358196 -133.05449
15994000 -42.7211 -24.68675 -0.019145725 -3.2881136 -0.019866515 -3.3089008 -45.26305 -129.94978
16993000 -42.685303 -29.275827 -0.018146908 -3.4820321 -0.0194424 -3.4930382 -44.412746 -129.25386
17992000 -42.777222 -34.66201 -0.018804355 -3.6845307 -0.019903181 -3.6855941 -43.815659 -129.37555
18991000 -42.974987 -39.94471 -0.019980937 -3.8943791 -0.02081839 -3.8943627 -43.211346 -128.56049
19990000 -42.75938 -45.625637 -0.022076692 -4.1029615 -0.02355502 -4.1009645 -42.549152 -129.2274
20989000 -42.668541 -48.61488 -0.024716489 -4.3053465 -0.025314003 -4.2975235 -41.991268 -128.39885
21988000 -42.477612 -54.131294 -0.024886753 -4.507072 -0.026052224 -4.4945216 -41.751247 -127.64671
22987000 -42.221298 -58.788326 -0.02644443 -4.7044764 -0.027389672 -4.6957827 -41.476944 -127.10278
23986000 -42.113453 -62.828396 -0.025688957 -4.9025764 -0.025500955 -4.9018373 -41.335728 -127.07925
24985000 -41.777779 -65.79187 -0.026742384 -5.1120443 -0.026466567 -5.1051931 -41.166962 -124.64564
25984000 -41.40382 -67.574493 -0.028147524 -5.3177862 -0.026917156 -5.3172202 -40.83886 -123.02991
26983000 -41.083328 -70.072296 -0.029125713 -5.5163884 -0.02842371 -5.5310545 -40.707928 -122.3418
27982000 -40.933758 -70.521202 -0.029546084 -5.7169423 -0.028680367 -5.7517643 -40.449421 -120.59299
28981000 -40.852913 -72.333443 -0.02783254 -5.9185209 -0.028970137 -5.9401417 -40.205776 -120.10485
29980000 -40.497005 -73.423454 -0.02853523 -6.1096797 -0.029665193 -6.1138291 -39.985199 -119.05399
30979000 -40.10323 -72.467537 -0.026056912 -6.4686952 -0.024247907 -6.4547296 -39.442894 -119.44022
31978000 -39.894154 -73.612389 -0.024758404 -6.661067 -0.02521975 -6.6508031 -39.197731 -118.89081
32977000 -39.711048 -75.423546 -0.024603244 -6.8709521 -0.026617365 -6.8669157 -38.974194 -118.74354
33976000 -39.538715 -76.40667 -0.025978787 -7.0733528 -0.026436096 -7.0705762 -38.669518 -118.26006
34975000 -39.235268 -77.130844 -0.026291294 -7.2717524 -0.027571503 -7.2734704 -38.434082 -117.79729
35974000 -39.03978 -77.711952 -0.025932694 -7.4682894 -0.027564209 -7.4690237 -38.166279 -116.87286
36973000 -38.797112 -78.456039 -0.025781659 -7.6700463 -0.028748639 -7.6756063 -37.893711 -115.87815
37972000 -38.608635 -78.199722 -0.024727423 -7.8787093 -0.02905952 -7.8888693 -37.662868 -115.23957
38971000 -38.293411 -77.751686 -0.02690882 -8.0827017 -0.028209275 -8.0933447 -37.513657 -113.61392
39970000 -37.948887 -77.951233 -0.025099201 -8.2764378 -0.027209671 -8.2942095 -37.253834 -112.90764
40969000 -37.676865 -77.651955 -0.025615266 -8.4738417 -0.027463393 -8.4939852 -37.019554 -111.51631
41968000 -37.319309 -77.589355 -0.024742002 -8.677516 -0.027628293 -8.6964388 -36.818813 -110.27662
42967000 -37.05172 -77.601898 -0.02538795 -8.8915901 -0.027266718 -8.9090309 -36.609974 -108.46128
43966000 -36.751339 -78.504532 -0.025771243 -9.0870981 -0.028969094 -9.1074486 -36.337582 -107.52604
44965000 -36.530655 -79.111618 -0.026609031 -9.2917089 -0.029524712 -9.3125505 -36.113762 -107.39945
45964000 -36.291103 -80.194511 -0.02851647 -9.4928761 -0.030740179 -9.5155067 -35.888355 -106.89654
46963000 -36.082443 -82.263161 -0.028272327 -9.6856308 -0.031053811 -9.711669 -35.694237 -107.19019
47962000 -35.933819 -83.558899 -0.029716797 -9.8913698 -0.033018239 -9.9077101 -35.507233 -107.2403
48961000 -35.712509 -85.047462 -0.031768497 -10.087781 -0.033944823 -10.113058 -35.274422 -107.34352
49960000 -35.476086 -86.32003 -0.032971289 -10.284698 -0.035145089 -10.312787 -35.144917 -107.37952
50959000 -35.263672 -87.706329 -0.034093793 -10.50299 -0.036104232 -10.51228 -34.954411 -107.71494
51958000 -35.060123 -88.691185 -0.035700712 -10.701537 -0.038081653 -10.711663 -34.780994 -108.18242
52957000 -34.830799 -89.804741 -0.037921578 -10.899676 -0.039522599 -10.908361 -34.62466 -107.94379
53956000 -34.671654 -90.419571 -0.037984509 -11.103787 -0.039752483 -11.108924 -34.495213 -107.90038
54955000 -34.495705 -90.932632 -0.040027577 -11.302762 -0.040637918 -11.305028 -34.334801 -107.81577
55954000 -34.33754 -91.762291 -0.040630076 -11.506654 -0.041198164 -11.504235 -34.231739 -107.47418
56953000 -34.216179 -91.720192 -0.040677894 -11.70608 -0.039744124 -11.69815 -34.146133 -107.77956
57952000 -34.049667 -92.46402 -0.041285973 -11.90354 -0.041344773 -11.893445 -34.052479 -107.7646
58951000 -33.93317 -92.669891 -0.041989796 -12.110339 -0.04231156 -12.089314 -33.894775 -107.83216
59950000 -33.807709 -93.012024 -0.042786539 -12.312269 -0.043194376 -12.289596 -33.830486 -108.11826
60949000 -33.678703 -93.667511 -0.043026272 -12.51268 -0.043567739 -12.491379 -33.735882 -108.37609
61948000 -33.621441 -93.947166 -0.044304885 -12.710032 -0.043584734 -12.696164 -33.645695 -108.49698
62947000 -33.544945 -94.16172 -0.044090189 -12.92225 -0.044379942 -12.903146 -33.507996 -108.7617
63946000 -33.467422 -94.869911 -0.045889687 -13.120759 -0.045160122 -13.103947 -33.406006 -108.91015
64945000 -33.360649 -95.062714 -0.045855939 -13.32478 -0.045915063 -13.303904 -33.296261 -109.32257
65944000 -33.266914 -95.360245 -0.046823211 -13.524533 -0.045916371 -13.510251 -33.20295 -109.78551
66943000 -33.111622 -95.758377 -0.044464935 -13.725371 -0.044239506 -13.711734 -33.090218 -110.02357
67942000 -33.060661 -95.713409 -0.046632722 -13.923084 -0.046102643 -13.913003 -32.976158 -110.34046
68941000 -32.946415 -95.747421 -0.046143979 -14.115006 -0.045639858 -14.107367 -32.86985 -110.26539
69940000 -32.837101 -95.77961 -0.046451923 -14.315814 -0.046721686 -14.312293 -32.719452 -110.5298
70939000 -32.736534 -95.738144 -0.046229269 -14.513697 -0.04635093 -14.506916 -32.587368 -110.41398
71938000 -32.591122 -95.292343 -0.046045873 -14.710522 -0.04563044 -14.705409 -32.451824 -110.33709
72937000 -32.427608 -95.047325 -0.046130374 -14.912152 -0.045736648 -14.905544 -32.315472 -109.99889
73936000 -32.303741 -94.739532 -0.046011601 -15.108479 -0.044612177 -15.1032 -32.203278 -109.82157
74935000 -32.173267 -94.913368 -0.045534436 -15.308978 -0.044247877 -15.305703 -32.041649 -109.53709
75934000 -32.036591 -95.244987 -0.04473196 -15.514544 -0.044572685 -15.510402 -31.956921 -109.37309
76933000 -31.910299 -95.589844 -0.046856705 -15.708453 -0.045368332 -15.699257 -31.772045 -109.72028
77932000 -31.799095 -96.346466 -0.048059758 -15.905193 -0.04691558 -15.899739 -31.677275 -109.70874
78931000 -31.728874 -97.052376 -0.046855658 -16.107607 -0.046203367 -16.099594 -31.567831 -109.46452
79930000 -31.620693 -97.896149 -0.049300846 -16.300346 -0.048556305 -16.302853 -31.469242 -109.81544
80929000 -31.513754 -98.660606 -0.050961856 -16.493736 -0.050405059 -16.496265 -31.380398 -110.08599
81928000 -31.404816 -99.470802 -0.051084958 -16.690256 -0.051405039 -16.68417 -31.248064 -110.01357
82927000 -31.293238 -100.1928 -0.052432232 -16.88748 -0.0521443 -16.887392 -31.139008 -110.34906
83926000 -31.176085 -100.97877 -0.054134805 -17.084997 -0.053435825 -17.08482 -31.01881 -110.54722
84925000 -31.080683 -101.33178 -0.055699077 -17.283566 -0.054046739 -17.282314 -30.921057 -110.59661
85924000 -30.981438 -101.74087 -0.055635888 -17.487278 -0.055290848 -17.483164 -30.834854 -110.53014
86923000 -30.871155 -102.19759 -0.056154545 -17.684517 -0.055343024 -17.682674 -30.71825 -110.41449
87922000 -30.759464 -102.57672 -0.056477886 -17.893002 -0.054889739 -17.881451 -30.641254 -110.39816
88921000 -30.686567 -102.84246 -0.057425227 -18.094296 -0.056136187 -18.082422 -30.544058 -110.3792
89920000 -30.585878 -103.34794 -0.05800942 -18.292706 -0.057115979 -18.281786 -30.482161 -110.54752
90919000 -30.482569 -103.59647 -0.058235563 -18.490608 -0.057188634 -18.480232 -30.400997 -110.68019
91918000 -30.384117 -103.98105 -0.059679538 -18.687456 -0.058007583 -18.682144 -30.331261 -110.73676
92917000 -30.297188 -104.32264 -0.060541745 -18.885157 -0.059580598 -18.884483 -30.266649 -110.84336
93916000 -30.20714 -104.63758 -0.060088705 -19.081409 -0.058816455 -19.077019 -30.180952 -111.41626
94915000 -30.127432 -105.28135 -0.061765399 -19.2824 -0.0604042 -19.275331 -30.122883 -111.33779
95914000 -30.058979 -105.45245 -0.062894583 -19.477318 -0.061115593 -19.474033 -30.024622 -111.54929
96913000 -29.974442 -105.68754 -0.064168818 -19.676378 -0.062543191 -19.677586 -29.958662 -111.95782
97912000 -29.893547 -106.1649 -0.065320969 -19.873308 -0.061967582 -19.874752 -29.876955 -112.15035
98911000 -29.783129 -106.32018 -0.065688878 -20.077543 -0.063692018 -20.072021 -29.832825 -112.3941
99910000 -29.714144 -106.44306 -0.066506013 -20.274099 -0.064027481 -20.273975 -29.727407 -112.66917
100909000 -29.625956 -106.71268 -0.06607312 -20.486843 -0.063709095 -20.476 -29.64397 -112.91217
101908000 -29.538404 -106.91576 -0.066770978 -20.684799 -0.065269724 -20.679892 -29.527285 -112.60838
102907000 -29.396439 -106.9535 -0.067625917 -20.882759 -0.065316238 -20.882494 -29.454851 -112.63915
103906000 -29.297968 -106.97916 -0.067857556 -21.091949 -0.064957291 -21.086342 -29.311878 -112.54251
104905000 -29.156431 -106.87505 -0.068094738 -21.289501 -0.065097347 -21.288261 -29.182116 -112.26968
105904000 -29.009945 -106.95844 -0.068517581 -21.49275 -0.065379828 -21.484661 -29.065899 -112.11377
106903000 -28.9014 -107.04012 -0.068356901 -21.700809 -0.065595582 -21.69182 -28.942959 -112.05401
107902000 -28.735264 -107.39075 -0.069140092 -21.898182 -0.067154527 -21.892189 -28.802219 -111.95365
108901000 -28.622473 -107.57775 -0.070852906 -22.101994 -0.067832053 -22.095663 -28.674917 -111.92029
109900000 -28.493334 -108.09517 -0.071258128 -22.300417 -0.069370493 -22.288876 -28.519426 -111.96381
110899000 -28.377102 -108.68614 -0.072373733 -22.499287 -0.06900806 -22.48818 -28.399515 -112.27374
111898000 -28.286053 -109.37153 -0.074032269 -22.700352 -0.070491664 -22.693506 -28.278248 -112.34663
112897000 -28.159187 -109.88615 -0.075593717 -22.90292 -0.071683384 -22.890488 -28.143051 -112.58256
113896000 -28.054756 -110.49625 -0.076693833 -23.100725 -0.073007584 -23.091032 -28.032234 -112.75283
114895000 -27.955452 -111.12751 -0.077323839 -23.298239 -0.074567348 -23.286892 -27.925463 -112.74923
115894000 -27.827354 -111.49822 -0.078543797 -23.500217 -0.075640865 -23.486204 -27.857344 -112.9869
116893000 -27.750082 -111.97122 -0.079634115 -23.698647 -0.076583706 -23.681738 -27.7339 -113.01288
117892000 -27.672171 -112.46208 -0.079423994 -23.894648 -0.07670068 -23.883043 -27.657824 -113.25033
118891000 -27.609436 -112.86684 -0.080182545 -24.09407 -0.077207632 -24.085131 -27.559519 -113.36062
119890000 -27.523458 -113.2971 -0.080276154 -24.295156 -0.078266256 -24.283701 -27.547726 -113.45181
120889000 -27.471882 -113.75186 -0.082102321 -24.498526 -0.078289971 -24.480484 -27.479158 -113.42916
121888000 -27.437378 -114.10663 -0.082715698 -24.697145 -0.07904543 -24.685711 -27.415586 -113.68053
122887000 -27.40061 -114.26032 -0.083026245 -24.894344 -0.078982688 -24.886395 -27.368095 -113.70187
123886000 -27.343168 -114.72642 -0.083000124 -25.096863 -0.080028288 -25.086615 -27.359543 -113.8586
124885000 -27.307354 -115.22596 -0.084072292 -25.300669 -0.08057598 -25.286251 -27.324478 -113.89091
125884000 -27.255997 -115.38152 -0.084315635 -25.497089 -0.080540903 -25.48313 -27.301212 -114.05088
126883000 -27.235889 -115.82945 -0.084975258 -25.703911 -0.08173117 -25.688501 -27.254578 -114.03445
127882000 -27.190386 -116.10327 -0.085905865 -25.900793 -0.081644915 -25.885765 -27.216288 -114.1873
128881000 -27.156113 -116.4091 -0.085624687 -26.102354 -0.081711911 -26.088871 -27.182201 -114.25716
129880000 -27.09864 -116.74053 -0.086401217 -26.304804 -0.082260072 -26.287966 -27.136467 -114.23696
130879000 -27.042652 -116.8939 -0.086350515 -26.507175 -0.083088778 -26.490538 -27.062611 -114.2309
131878000 -26.977293 -117.11978 -0.087117411 -26.709843 -0.083074003 -26.69117 -26.99968 -114.13742
132877000 -26.909838 -117.20233 -0.086354218 -26.910515 -0.083808117 -26.891077 -26.922144 -114.11738
133876000 -26.824404 -117.36408 -0.086887121 -27.111872 -0.084008694 -27.091724 -26.827999 -114.00072
134875000 -26.721273 -117.51169 -0.086665288 -27.310919 -0.084071502 -27.295479 -26.726656 -113.81104
135874000 -26.650581 -117.52731 -0.086704373 -27.513004 -0.084230386 -27.498686 -26.635818 -113.75919
136873000 -26.535324 -117.44174 -0.088021539 -27.716656 -0.083708629 -27.695646 -26.554302 -113.74132
137872000 -26.450191 -117.55505 -0.088571019 -27.915636 -0.084323555 -27.903399 -26.443085 -113.65603
138871000 -26.385107 -117.79814 -0.088386357 -28.119141 -0.084424905 -28.102007 -26.346426 -113.82018
139870000 -26.279812 -118.08215 -0.088598236 -28.318663 -0.085796297 -28.297867 -26.266264 -114.01057
140869000 -26.201103 -118.6219 -0.089609161 -28.516924 -0.085788108 -28.496176 -26.170116 -114.20457
141868000 -26.114639 -119.00453 -0.090458035 -28.713638 -0.087489024 -28.698156 -26.11919 -114.45664
142867000 -26.036531 -119.20895 -0.089686327 -28.912006 -0.087211438 -28.895456 -26.04183 -114.57594
143866000 -25.9676 -119.70102 -0.091534428 -29.108208 -0.088611446 -29.093054 -25.966059 -115.04015
144865000 -25.912031 -120.23882 -0.093000099 -29.30892 -0.090229683 -29.29044 -25.911503 -115.32676
145864000 -25.85265 -120.54292 -0.093064629 -29.509655 -0.091381095 -29.496145 -25.869856 -115.58822
146863000 -25.811028 -120.9113 -0.094209127 -29.706022 -0.091864914 -29.696423 -25.8239 -115.88931
147862000 -25.769882 -121.27173 -0.095270842 -29.907654 -0.09204682 -29.893703 -25.79513 -116.17317
148861000 -25.735001 -121.65491 -0.095835537 -30.104555 -0.093769759 -30.090637 -25.772099 -116.37306
149860000 -25.697035 -121.86195 -0.097212657 -30.301207 -0.093679033 -30.286295 -25.717533 -116.42881
150859000 -25.679245 -122.34013 -0.096370399 -30.496672 -0.094020516 -30.481277 -25.70101 -116.7659
151858000 -25.666019 -122.66883 -0.095687605 -30.696192 -0.094008617 -30.687222 -25.691626 -117.14772
152857000 -25.653004 -122.98058 -0.096030578 -30.892994 -0.094144315 -30.883087 -25.673456 -117.32974
153856000 -25.653275 -123.21971 -0.096365638 -31.093729 -0.093674533 -31.083857 -25.694088 -117.65839
154855000 -25.64703 -123.36043 -0.097298421 -31.295893 -0.093428552 -31.282923 -25.680643 -117.88325
155854000 -25.662992 -123.58858 -0.097120002 -31.492863 -0.094155163 -31.481527 -25.674 -118.11964
156853000 -25.650696 -124.27539 -0.094766803 -31.681528 -0.093650989 -31.675867 -25.668474 -118.45478
157852000 -25.657539 -124.51494 -0.095927365 -31.883427 -0.09518829 -31.873877 -25.658537 -118.8112
158851000 -25.65913 -124.71887 -0.096571021 -32.086021 -0.094874486 -32.074821 -25.641743 -119.07431
159850000 -25.642799 -124.84324 -0.097130589 -32.281925 -0.095316619 -32.276142 -25.642723 -119.26046
160849000 -25.629955 -124.94954 -0.097674876 -32.482052 -0.095874965 -32.475712 -25.616625 -119.55901
161848000 -25.611948 -125.02439 -0.098209172 -32.684654 -0.096324347 -32.675129 -25.573883 -119.6515
162847000 -25.573784 -125.17918 -0.097652107 -32.882217 -0.096807122 -32.878254 -25.545321 -119.92131
163846000 -25.530771 -125.40274 -0.098265834 -33.082706 -0.096601196 -33.075966 -25.469458 -119.94172
164845000 -25.472979 -125.38525 -0.098533273 -33.281921 -0.096945561 -33.274452 -25.407211 -120.0509
165844000 -25.421164 -125.39989 -0.098280132 -33.480507 -0.097424172 -33.475853 -25.325745 -120.15311
166843000 -25.357138 -125.45068 -0.099252798 -33.681831 -0.097068653 -33.675381 -25.258579 -120.30858
167842000 -25.298969 -125.62999 -0.098904014 -33.883072 -0.098116234 -33.875824 -25.183981 -120.21931
168841000 -25.225065 -125.75822 -0.099953629 -34.078449 -0.098352417 -34.075283 -25.110388 -120.31918
169840000 -25.157614 -125.99082 -0.10018435 -34.278488 -0.098546781 -34.274899 -25.026026 -120.50252
170839000 -25.099255 -126.2143 -0.10177802 -34.476307 -0.099126466 -34.474018 -24.941881 -120.65472
171838000 -25.037104 -126.63339 -0.10079844 -34.675919 -0.099769533 -34.672291 -24.874418 -120.88331
172837000 -24.970722 -126.9781 -0.10229003 -34.875637 -0.10143327 -34.867939 -24.814621 -121.08353
173836000 -24.907326 -127.38124 -0.10322806 -35.075916 -0.10224815 -35.072235 -24.77169 -121.294
174835000 -24.851147 -127.78052 -0.10396294 -35.26852 -0.10308651 -35.270451 -24.723883 -121.651
175834000 -24.798449 -128.14604 -0.10465446 -35.469208 -0.1037869 -35.465248 -24.659863 -121.93301
176833000 -24.748859 -128.47618 -0.10624261 -35.667801 -0.10435085 -35.668602 -24.611725 -122.06291
177832000 -24.705917 -128.92517 -0.10667184 -35.869305 -0.10513923 -35.87495 -24.592062 -122.17228
178831000 -24.654453 -129.17534 -0.10865671 -36.066383 -0.10702205 -36.063587 -24.558018 -122.26031
179830000 -24.593782 -129.54349 -0.10958152 -36.251507 -0.10809884 -36.251945 -24.503082 -122.29216
180829000 -24.537489 -129.8748 -0.10842182 -36.443153 -0.10716055 -36.443306 -24.447306 -122.61814
181828000 -24.517572 -130.34795 -0.10812697 -36.643562 -0.10688143 -36.643009 -24.427151 -122.84895
182827000 -24.494099 -130.71785 -0.10761109 -36.840309 -0.10691062 -36.842194 -24.418503 -122.96513
183826000 -24.44669 -131.06853 -0.10873687 -37.036942 -0.10721626 -37.038044 -24.40593 -123.12231
184825000 -24.455944 -131.377 -0.10793218 -37.238632 -0.10786531 -37.237148 -24.388723 -123.24272
185824000 -24.423487 -131.73676 -0.1085877 -37.430603 -0.10775704 -37.433052 -24.379116 -123.27259
186823000 -24.406246 -132.09909 -0.10802772 -37.628246 -0.10726349 -37.632732 -24.378218 -123.28661
187822000 -24.38555 -132.4613 -0.10937817 -37.827198 -0.10853727 -37.826817 -24.336943 -123.36749
188821000 -24.359716 -132.67783 -0.10900389 -38.023869 -0.10816067 -38.02914 -24.319071 -123.50881
189820000 -24.338699 -133.00275 -0.10944773 -38.224247 -0.10861292 -38.222347 -24.300306 -123.73956
190819000 -24.307535 -133.31284 -0.1098125 -38.421268 -0.1089662 -38.420612 -24.255995 -123.76314
191818000 -24.274532 -133.59442 -0.11036209 -38.620892 -0.10939994 -38.618515 -24.233118 -123.78593
192817000 -24.229296 -133.84642 -0.11053973 -38.815006 -0.10957754 -38.818001 -24.181734 -123.87593
193816000 -24.196211 -134.11926 -0.11093539 -39.01564 -0.10934048 -39.013374 -24.136559 -124.02613
194815000 -24.132671 -134.53767 -0.11111146 -39.207191 -0.11040909 -39.211063 -24.070978 -124.1213
195814000 -24.077549 -134.72551 -0.11232315 -39.405106 -0.11135738 -39.404858 -24.011999 -124.19389
196813000 -24.026087 -135.05595 -0.11165962 -39.601337 -0.11095106 -39.600925 -23.928982 -124.34825
197812000 -23.965981 -135.27261 -0.11289166 -39.796303 -0.11159535 -39.795574 -23.862583 -124.4425
198811000 -23.911472 -135.43848 -0.11269453 -39.994133 -0.1115162 -39.999477 -23.789207 -124.61378
199810000 -23.840565 -135.75871 -0.11235848 -40.18803 -0.11073703 -40.187431 -23.710541 -124.70124
200809000 -23.779171 -136.01889 -0.1129788 -40.387585 -0.11136535 -40.38467 -23.629732 -124.88194
201808000 -23.726561 -136.22878 -0.11364465 -40.591511 -0.11275351 -40.589092 -23.565722 -124.94292
202807000 -23.664391 -136.60295 -0.11444137 -40.791939 -0.11324847 -40.791199 -23.508888 -125.15678
