!Keysight Technologies,E5080B,MY59205177,A.15.75.32
!Date: Friday, February 23, 2024 02:50:57
!Correction: S11(Cdelta 2-Port  ) 
!S21(Cdelta 2-Port  ) 
!S12(Cdelta 2-Port  ) 
!S22(Cdelta 2-Port  ) 
!S2P File: Measurements: S11, S21, S12, S22:
# Hz S  dB   R 50
10000000 -42.539417 -3.4215062 -0.040188774 -2.0469937 -0.042702362 -2.1076846 -51.001823 -138.41907
10999000 -41.948891 -4.8453531 -0.040916201 -2.2638233 -0.042685371 -2.319243 -50.320965 -128.70578
11998000 -41.294147 -7.1947045 -0.041247293 -2.489682 -0.042559892 -2.5299904 -50.208836 -120.50406
12997000 -40.737995 -10.988029 -0.040763337 -2.6679237 -0.041997638 -2.6995604 -49.108879 -114.52109
13996000 -40.521603 -14.079132 -0.039477929 -2.8478141 -0.042305026 -2.8671572 -48.437149 -109.39668
14995000 -40.272396 -17.444319 -0.041817814 -3.0546503 -0.041975945 -3.0791039 -47.731861 -106.22755
15994000 -40.189896 -20.506104 -0.043239608 -3.2750053 -0.044563267 -3.2988131 -47.275288 -102.22771
16993000 -40.233074 -23.835201 -0.042178512 -3.4714859 -0.044011999 -3.4807851 -46.44416 -105.05876
17992000 -40.277691 -27.737175 -0.042629428 -3.6723971 -0.044194527 -3.6745939 -45.870922 -107.09021
18991000 -40.60368 -31.745752 -0.043606438 -3.880794 -0.045462761 -3.8762741 -44.932789 -107.43503
19990000 -40.544521 -36.250652 -0.0458753 -4.0906262 -0.047541019 -4.0872636 -44.339817 -110.49607
20989000 -40.511745 -38.881264 -0.048257899 -4.2954807 -0.048433799 -4.2835751 -43.699902 -111.01981
21988000 -40.505768 -42.690041 -0.048487723 -4.4914122 -0.049391434 -4.481781 -43.399017 -110.82433
22987000 -40.353088 -46.913872 -0.049406357 -4.6908045 -0.05027543 -4.6799812 -43.075069 -111.00369
23986000 -40.433727 -50.27916 -0.049363941 -4.8832512 -0.049539365 -4.8798389 -42.975143 -110.91817
24985000 -40.198711 -53.232296 -0.050114378 -5.0934839 -0.050376512 -5.0905657 -42.639332 -108.58084
25984000 -40.000278 -55.324894 -0.0513 -5.2993913 -0.050358184 -5.2971334 -42.233749 -107.46651
26983000 -39.804695 -57.308601 -0.05182207 -5.5003414 -0.051403988 -5.5138416 -42.066036 -106.70963
27982000 -39.653812 -58.229229 -0.053789888 -5.697917 -0.053212289 -5.736464 -41.729034 -105.49915
28981000 -39.689236 -59.3876 -0.051997066 -5.8965034 -0.052704725 -5.921133 -41.455723 -104.91082
29980000 -39.351208 -61.545673 -0.052072778 -6.0910773 -0.052883167 -6.0916152 -41.110493 -104.79158
30979000 -38.998642 -60.900291 -0.049372844 -6.4475284 -0.04782917 -6.4295878 -40.57996 -105.88934
31978000 -38.792553 -62.038635 -0.048618346 -6.6388607 -0.049185909 -6.6306157 -40.278473 -105.60355
32977000 -38.686157 -63.76123 -0.049109723 -6.8498926 -0.050099976 -6.8408399 -40.014221 -106.02116
33976000 -38.567207 -64.910324 -0.049751714 -7.0484562 -0.049942601 -7.0451555 -39.661728 -105.73904
34975000 -38.290451 -65.932129 -0.048995841 -7.2488132 -0.05101293 -7.2505441 -39.402794 -105.61462
35974000 -38.132187 -66.762276 -0.048454478 -7.4448438 -0.050693661 -7.4467812 -39.100796 -105.03185
36973000 -37.894802 -67.682091 -0.049077522 -7.6454439 -0.05159783 -7.6480594 -38.759201 -104.17397
37972000 -37.761463 -67.739334 -0.048411813 -7.8572712 -0.0521519 -7.858201 -38.506756 -103.85963
38971000 -37.440777 -67.76371 -0.049764544 -8.0582619 -0.052549873 -8.0650311 -38.287151 -102.37041
39970000 -37.129047 -68.486206 -0.048108965 -8.25 -0.05047603 -8.2664223 -37.985638 -102.01718
40969000 -36.863651 -68.435562 -0.047950089 -8.4485407 -0.05120125 -8.4680452 -37.71455 -100.71454
41968000 -36.521667 -68.68837 -0.048779078 -8.6500263 -0.051246043 -8.6632252 -37.457001 -99.694954
42967000 -36.267601 -69.182594 -0.048764158 -8.8610077 -0.051221419 -8.8776846 -37.195606 -97.999435
43966000 -36.004047 -70.135048 -0.048905261 -9.0621824 -0.052286562 -9.0761967 -36.894218 -97.514244
44965000 -35.807655 -71.095924 -0.049686253 -9.2645054 -0.052791193 -9.280489 -36.661873 -97.536095
45964000 -35.607658 -72.356171 -0.05139482 -9.4656096 -0.053883452 -9.480752 -36.423473 -97.425926
46963000 -35.463543 -74.288528 -0.051676154 -9.656353 -0.054903895 -9.6797523 -36.24921 -97.998718
47962000 -35.332531 -75.867844 -0.052545421 -9.856679 -0.055325195 -9.8779593 -36.043018 -98.323067
48961000 -35.157249 -77.365814 -0.054752372 -10.056237 -0.057373028 -10.076326 -35.809097 -98.666718
49960000 -34.958454 -78.709564 -0.056216169 -10.255536 -0.058685262 -10.276473 -35.666279 -98.954445
50959000 -34.773315 -80.297218 -0.05684321 -10.471319 -0.059860103 -10.479448 -35.512287 -99.431923
51958000 -34.608696 -81.456123 -0.058687624 -10.668467 -0.061222967 -10.68084 -35.329464 -100.13413
52957000 -34.412365 -82.730453 -0.060706854 -10.870739 -0.061902724 -10.874212 -35.169193 -100.02286
53956000 -34.267841 -83.453285 -0.061442453 -11.070083 -0.063106537 -11.070614 -35.027222 -100.15727
54955000 -34.120953 -84.070679 -0.062234893 -11.269693 -0.063734315 -11.265879 -34.866169 -100.27745
55954000 -33.96524 -85.065018 -0.063466117 -11.469934 -0.064256042 -11.466528 -34.747997 -100.06065
56953000 -33.856819 -85.167969 -0.063248895 -11.669074 -0.063376024 -11.657118 -34.681885 -100.27869
57952000 -33.705757 -85.80558 -0.064675882 -11.868825 -0.064226352 -11.858517 -34.57357 -100.49649
58951000 -33.59502 -86.266609 -0.065296002 -12.074437 -0.065241605 -12.053385 -34.412811 -100.65969
59950000 -33.473381 -86.68605 -0.066201381 -12.274895 -0.065788746 -12.252472 -34.351677 -100.99099
60949000 -33.379478 -87.396507 -0.066753365 -12.472471 -0.066530727 -12.449453 -34.265949 -101.39183
61948000 -33.320431 -87.687111 -0.067240492 -12.672156 -0.066253684 -12.654281 -34.18737 -101.5402
62947000 -33.242702 -88.013481 -0.067438461 -12.882516 -0.067581482 -12.864301 -34.055153 -101.90747
63946000 -33.174149 -88.694092 -0.06834244 -13.08323 -0.068745323 -13.064417 -33.930698 -101.97406
64945000 -33.064636 -88.903015 -0.068670899 -13.282701 -0.068838686 -13.262149 -33.837624 -102.56139
65944000 -32.956753 -89.26931 -0.069492012 -13.481162 -0.069078021 -13.4662 -33.742329 -103.08848
66943000 -32.835365 -89.739197 -0.067890689 -13.682596 -0.068230681 -13.666779 -33.642632 -103.4053
67942000 -32.771629 -89.799683 -0.070048109 -13.87951 -0.069742434 -13.866684 -33.519485 -103.7758
68941000 -32.665913 -89.817627 -0.069068022 -14.073475 -0.069157973 -14.061787 -33.414604 -103.76498
69940000 -32.561821 -89.897385 -0.069604859 -14.276781 -0.06948439 -14.265881 -33.26392 -104.16358
70939000 -32.454514 -89.879593 -0.069006741 -14.468977 -0.06954357 -14.464795 -33.143288 -104.09644
71938000 -32.304054 -89.485184 -0.069772154 -14.666183 -0.070306182 -14.65966 -33.000607 -104.01741
72937000 -32.137772 -89.476357 -0.06852363 -14.862375 -0.069025412 -14.858627 -32.84774 -103.72084
73936000 -31.9988 -89.19091 -0.068768464 -15.061273 -0.068318248 -15.049245 -32.730778 -103.6226
74935000 -31.877768 -89.472137 -0.068635397 -15.257013 -0.067574121 -15.254174 -32.565884 -103.2434
75934000 -31.763884 -89.838615 -0.068637758 -15.464129 -0.067773424 -15.461955 -32.479923 -103.24248
76933000 -31.634371 -90.295044 -0.070127025 -15.659507 -0.06896203 -15.651906 -32.31115 -103.71336
77932000 -31.549189 -90.987625 -0.07096526 -15.857367 -0.071097881 -15.848211 -32.214745 -103.81492
78931000 -31.483526 -91.763092 -0.069838971 -16.053951 -0.070364855 -16.052595 -32.109924 -103.66982
79930000 -31.377333 -92.601524 -0.072333723 -16.246716 -0.072418742 -16.245621 -32.025856 -103.97128
80929000 -31.259514 -93.650299 -0.074143916 -16.444986 -0.073733687 -16.441597 -31.914976 -104.46293
81928000 -31.191147 -94.544037 -0.073534638 -16.638033 -0.07400883 -16.633823 -31.793869 -104.55544
82927000 -31.101341 -95.237938 -0.075569741 -16.8337 -0.075891107 -16.833693 -31.698765 -104.95303
83926000 -31.004055 -96.019524 -0.076860614 -17.03174 -0.077193141 -17.033417 -31.574514 -105.26691
84925000 -30.894598 -96.59742 -0.078135259 -17.234079 -0.077172063 -17.228048 -31.494057 -105.32784
85924000 -30.813421 -97.093292 -0.079544738 -17.431099 -0.078032471 -17.427185 -31.392401 -105.4379
86923000 -30.708378 -97.625305 -0.078922316 -17.628441 -0.078358762 -17.623379 -31.292559 -105.33167
87922000 -30.598021 -98.051491 -0.079017222 -17.837767 -0.078619443 -17.826393 -31.210857 -105.46056
88921000 -30.533272 -98.314049 -0.080993444 -18.033203 -0.078915201 -18.030979 -31.108702 -105.50115
89920000 -30.435297 -98.972076 -0.080543801 -18.232794 -0.079590879 -18.228191 -31.056286 -105.69547
90919000 -30.347847 -99.34568 -0.081068084 -18.431454 -0.080662474 -18.424141 -30.968565 -105.88239
91918000 -30.253443 -99.751801 -0.082434192 -18.630602 -0.08118993 -18.623209 -30.897352 -105.95789
92917000 -30.167604 -100.09 -0.083189577 -18.828398 -0.081907108 -18.823751 -30.840923 -106.09013
93916000 -30.08839 -100.54818 -0.082884558 -19.019802 -0.082186736 -19.015762 -30.754187 -106.70009
94915000 -30.016298 -101.24229 -0.084423058 -19.221214 -0.083089568 -19.216167 -30.685154 -106.62656
95914000 -29.945295 -101.44494 -0.085668772 -19.417452 -0.084439687 -19.414324 -30.595898 -107.02807
96913000 -29.86536 -101.69264 -0.086778052 -19.616907 -0.085397109 -19.614353 -30.531809 -107.36687
97912000 -29.793955 -102.17658 -0.0876166 -19.814348 -0.085899003 -19.812195 -30.450712 -107.58975
98911000 -29.686094 -102.38852 -0.087924324 -20.013792 -0.086811326 -20.008654 -30.415792 -107.75267
99910000 -29.617563 -102.60472 -0.088861115 -20.212612 -0.087496944 -20.209644 -30.312305 -108.14108
100909000 -29.526312 -102.85562 -0.087841645 -20.422159 -0.0863389 -20.417126 -30.212124 -108.34915
101908000 -29.44389 -103.13529 -0.089523278 -20.621449 -0.088116899 -20.614685 -30.09696 -108.13369
102907000 -29.310347 -103.21989 -0.090086967 -20.820654 -0.088064596 -20.821541 -30.020662 -108.11764
103906000 -29.213303 -103.24739 -0.090276197 -21.026621 -0.087373599 -21.018305 -29.863743 -108.07791
104905000 -29.065523 -103.22345 -0.091399342 -21.222343 -0.087836891 -21.223454 -29.72822 -107.78882
105904000 -28.92466 -103.35904 -0.090804555 -21.421526 -0.088253476 -21.419271 -29.614691 -107.64761
106903000 -28.810835 -103.49358 -0.090787373 -21.632826 -0.088770494 -21.623915 -29.486376 -107.58327
107902000 -28.648989 -103.90667 -0.091447189 -21.832436 -0.08909706 -21.81813 -29.334841 -107.57134
108901000 -28.546902 -104.18327 -0.092773728 -22.033924 -0.090212762 -22.024067 -29.204197 -107.55197
109900000 -28.418854 -104.73682 -0.093838267 -22.232525 -0.091435559 -22.224297 -29.0506 -107.69379
110899000 -28.306704 -105.36841 -0.094693787 -22.431326 -0.091836885 -22.422359 -28.926739 -108.00785
111898000 -28.213076 -106.04917 -0.096362986 -22.634546 -0.093154289 -22.625767 -28.806086 -108.22612
112897000 -28.098921 -106.69843 -0.097639404 -22.830336 -0.094485842 -22.820406 -28.672079 -108.43511
113896000 -27.998276 -107.26539 -0.09782102 -23.031736 -0.09548597 -23.019007 -28.56245 -108.61134
114895000 -27.898809 -107.97643 -0.099311858 -23.230204 -0.096976265 -23.21414 -28.44375 -108.7143
115894000 -27.769053 -108.3459 -0.10104457 -23.433062 -0.098448008 -23.41427 -28.373058 -108.93967
116893000 -27.693707 -108.97381 -0.10162751 -23.626837 -0.098845221 -23.608942 -28.246407 -109.11355
117892000 -27.613041 -109.46951 -0.10126343 -23.823803 -0.098923609 -23.810606 -28.173191 -109.37759
118891000 -27.55657 -109.89043 -0.10256858 -24.024734 -0.099896148 -24.008484 -28.073565 -109.56535
119890000 -27.467617 -110.31962 -0.10286888 -24.224373 -0.1005698 -24.208941 -28.064571 -109.6954
120889000 -27.412746 -110.82518 -0.10367608 -24.429379 -0.10089911 -24.410736 -27.987486 -109.69842
121888000 -27.378195 -111.17129 -0.1046892 -24.618156 -0.10153502 -24.606155 -27.931368 -109.99706
122887000 -27.335852 -111.43028 -0.10584737 -24.820965 -0.10267513 -24.807037 -27.887136 -110.05109
123886000 -27.284124 -111.83196 -0.10632432 -25.025017 -0.10248695 -25.008099 -27.869621 -110.24469
124885000 -27.245922 -112.36466 -0.10585162 -25.221434 -0.10355996 -25.208164 -27.841209 -110.26934
125884000 -27.193205 -112.59711 -0.1071234 -25.421251 -0.10342662 -25.407501 -27.809528 -110.52117
126883000 -27.172554 -112.99432 -0.10689947 -25.626207 -0.1042143 -25.611504 -27.768702 -110.58033
127882000 -27.119959 -113.25874 -0.10793537 -25.826548 -0.10446354 -25.808184 -27.722404 -110.68185
128881000 -27.088062 -113.62595 -0.10842713 -26.02532 -0.1047905 -26.005171 -27.683855 -110.86793
129880000 -27.03083 -113.93851 -0.109139 -26.228712 -0.10501326 -26.20923 -27.633059 -110.84706
130879000 -26.969526 -114.05256 -0.10864079 -26.425808 -0.10620547 -26.405062 -27.56035 -110.86973
131878000 -26.904366 -114.32208 -0.10913715 -26.629377 -0.10647605 -26.608004 -27.492945 -110.79802
132877000 -26.83198 -114.38857 -0.10883296 -26.829626 -0.1064169 -26.811735 -27.407341 -110.79168
133876000 -26.745173 -114.5423 -0.10940791 -27.030558 -0.1056869 -27.010988 -27.312767 -110.70159
134875000 -26.651617 -114.68253 -0.10957064 -27.232655 -0.1068151 -27.211281 -27.201075 -110.59069
135874000 -26.570309 -114.76013 -0.1094833 -27.427673 -0.1070576 -27.417189 -27.099285 -110.57549
136873000 -26.450294 -114.71393 -0.10998533 -27.633799 -0.1065766 -27.613144 -27.012627 -110.59874
137872000 -26.372931 -114.80167 -0.11002436 -27.835175 -0.10720751 -27.820328 -26.903694 -110.56141
138871000 -26.300966 -115.02261 -0.11079066 -28.036594 -0.10714887 -28.01531 -26.801386 -110.75141
139870000 -26.201006 -115.33814 -0.11073729 -28.230164 -0.10862858 -28.216824 -26.721155 -110.90904
140869000 -26.11768 -115.76914 -0.11366963 -28.430655 -0.11054584 -28.411848 -26.612242 -111.07252
141868000 -26.020691 -116.29065 -0.11286509 -28.620975 -0.11137836 -28.604059 -26.544653 -111.4449
142867000 -25.946381 -116.55972 -0.11168512 -28.816118 -0.10941481 -28.80093 -26.463722 -111.67088
143866000 -25.873871 -117.08947 -0.11342623 -29.013746 -0.11108278 -28.99929 -26.394291 -112.20473
144865000 -25.819546 -117.62288 -0.11499314 -29.216486 -0.11263051 -29.197338 -26.332195 -112.51957
145864000 -25.763996 -118.0044 -0.11559975 -29.414614 -0.1138203 -29.404121 -26.307117 -112.81124
146863000 -25.718187 -118.36606 -0.11655689 -29.613857 -0.11379426 -29.601377 -26.256315 -113.11304
147862000 -25.683649 -118.71941 -0.11720946 -29.809986 -0.11368345 -29.799372 -26.217352 -113.47564
148861000 -25.655022 -119.27335 -0.11716265 -30.009443 -0.11493652 -29.993298 -26.19799 -113.73463
149860000 -25.635548 -119.49188 -0.11798368 -30.207916 -0.11525709 -30.194019 -26.166605 -113.9166
150859000 -25.617657 -119.84673 -0.11848669 -30.409328 -0.11515661 -30.394424 -26.160294 -114.16611
151858000 -25.603231 -120.20669 -0.11804034 -30.606045 -0.11619926 -30.588142 -26.152098 -114.44485
152857000 -25.588598 -120.54619 -0.11894214 -30.803104 -0.1161001 -30.792341 -26.141756 -114.60414
153856000 -25.577957 -120.76578 -0.11886579 -31.005241 -0.11608335 -30.99004 -26.156889 -114.89423
154855000 -25.568701 -120.87326 -0.1192646 -31.204269 -0.11606872 -31.192245 -26.146612 -115.1683
155854000 -25.581938 -121.15141 -0.11978559 -31.399166 -0.11622984 -31.38694 -26.139462 -115.42057
156853000 -25.571459 -121.86787 -0.11799512 -31.586794 -0.11598471 -31.57922 -26.135563 -115.71637
157852000 -25.571255 -122.10724 -0.11870723 -31.790064 -0.11760972 -31.782431 -26.12488 -116.09641
158851000 -25.567678 -122.34165 -0.11952935 -31.988129 -0.1178326 -31.976675 -26.115423 -116.33129
159850000 -25.555096 -122.44504 -0.11991226 -32.187416 -0.11809699 -32.178104 -26.11418 -116.47949
160849000 -25.534393 -122.57238 -0.12014618 -32.384911 -0.11892193 -32.379154 -26.083183 -116.80885
161848000 -25.513824 -122.66116 -0.12099971 -32.585102 -0.11924545 -32.578789 -26.043074 -116.89454
162847000 -25.468672 -122.87437 -0.12134628 -32.784908 -0.11978906 -32.779064 -26.014214 -117.13634
163846000 -25.423279 -123.12659 -0.12087435 -32.985455 -0.11957086 -32.978104 -25.930475 -117.16675
164845000 -25.367094 -123.11584 -0.12181561 -33.185463 -0.11977069 -33.177017 -25.865437 -117.24412
165844000 -25.309515 -123.19878 -0.12142561 -33.383053 -0.12051876 -33.37492 -25.777138 -117.41897
166843000 -25.248056 -123.29229 -0.1213516 -33.579418 -0.12006129 -33.572216 -25.710571 -117.58504
167842000 -25.186676 -123.45182 -0.12194792 -33.781994 -0.1212068 -33.772026 -25.625753 -117.49043
168841000 -25.107525 -123.64658 -0.12227433 -33.977257 -0.12118284 -33.973915 -25.549732 -117.59243
169840000 -25.044657 -123.92493 -0.12236539 -34.170719 -0.12121212 -34.171307 -25.460739 -117.8393
170839000 -24.982086 -124.19991 -0.12315438 -34.366772 -0.12164762 -34.366692 -25.371532 -118.03456
171838000 -24.921812 -124.6165 -0.123242 -34.569523 -0.12298954 -34.560684 -25.305403 -118.3065
172837000 -24.857838 -125.01434 -0.12461851 -34.763168 -0.12363189 -34.758713 -25.240156 -118.5385
173836000 -24.789988 -125.45388 -0.12585609 -34.964645 -0.12476449 -34.960766 -25.194685 -118.75287
174835000 -24.740362 -125.87435 -0.12648155 -35.160042 -0.12545188 -35.15913 -25.142881 -119.1363
175834000 -24.68865 -126.28289 -0.12694316 -35.357166 -0.12631685 -35.357342 -25.089344 -119.45938
176833000 -24.63813 -126.68123 -0.12804116 -35.557137 -0.12667876 -35.553036 -25.034018 -119.61816
177832000 -24.586597 -127.18661 -0.12811795 -35.753548 -0.12717879 -35.753876 -25.011446 -119.80907
178831000 -24.558514 -127.55705 -0.12859868 -35.95018 -0.12758237 -35.946941 -24.975107 -120.05921
179830000 -24.519743 -127.99667 -0.12971924 -36.145615 -0.1280297 -36.151306 -24.945517 -120.1874
180829000 -24.477503 -128.2343 -0.12993181 -36.34539 -0.12849416 -36.343697 -24.919485 -120.3746
181828000 -24.453959 -128.57178 -0.1296795 -36.541542 -0.12924346 -36.541672 -24.901062 -120.5122
182827000 -24.426466 -128.95341 -0.1302591 -36.73304 -0.12971283 -36.737865 -24.891329 -120.60972
183826000 -24.390713 -129.26064 -0.13074246 -36.933849 -0.12970057 -36.932476 -24.877726 -120.72937
184825000 -24.392204 -129.60274 -0.13078406 -37.130547 -0.12979658 -37.126488 -24.860228 -120.83785
185824000 -24.36771 -129.94357 -0.13074726 -37.323261 -0.13019054 -37.325954 -24.856535 -120.92039
186823000 -24.349365 -130.3188 -0.13114102 -37.526066 -0.13079527 -37.526604 -24.85277 -120.89305
187822000 -24.328129 -130.63289 -0.13155672 -37.720959 -0.1308497 -37.713589 -24.81917 -120.92976
188821000 -24.308029 -130.90054 -0.13170508 -37.914505 -0.13130218 -37.921215 -24.803936 -121.05609
189820000 -24.293158 -131.14082 -0.13229214 -38.121132 -0.13173175 -38.118073 -24.792435 -121.22994
190819000 -24.264746 -131.39005 -0.13334906 -38.316372 -0.13258356 -38.318005 -24.757275 -121.19028
191818000 -24.230122 -131.55678 -0.13440996 -38.510578 -0.13377243 -38.513359 -24.724859 -121.04113
192817000 -24.155567 -131.87526 -0.13538355 -38.697922 -0.13450769 -38.696003 -24.650646 -121.14349
193816000 -24.119602 -132.22441 -0.13472691 -38.887993 -0.13318409 -38.887794 -24.594606 -121.40735
194815000 -24.062168 -132.6627 -0.13437259 -39.086491 -0.13369928 -39.08709 -24.527491 -121.51958
195814000 -24.009031 -132.88625 -0.13504787 -39.278595 -0.13361092 -39.285366 -24.468019 -121.64983
196813000 -23.956242 -133.26624 -0.13421534 -39.48027 -0.13340351 -39.481461 -24.394997 -121.8112
197812000 -23.896616 -133.46686 -0.13422628 -39.680374 -0.13392407 -39.67688 -24.325588 -121.93023
198811000 -23.842937 -133.67159 -0.13475814 -39.87072 -0.1333608 -39.873386 -24.252964 -122.11937
199810000 -23.774939 -134.03313 -0.13496536 -40.06974 -0.13377723 -40.067135 -24.174028 -122.22768
200809000 -23.718494 -134.32991 -0.13553096 -40.263695 -0.1336192 -40.267117 -24.091722 -122.45168
201808000 -23.657951 -134.56415 -0.13692394 -40.462231 -0.13499153 -40.465298 -24.027498 -122.51798
202807000 -23.599707 -134.94029 -0.13696694 -40.665707 -0.13542949 -40.670471 -23.968452 -122.73376
203806000 -23.550625 -135.38245 -0.13788551 -40.864349 -0.13549064 -40.867596 -23.905964 -122.94428
