!Keysight Technologies,E5080B,MY59205177,A.15.75.32
!Date: Friday, February 23, 2024 03:25:39
!Correction: S11(Cdelta 2-Port  ) 
!S21(Cdelta 2-Port  ) 
!S12(Cdelta 2-Port  ) 
!S22(Cdelta 2-Port  ) 
!S2P File: Measurements: S11, S21, S12, S22:
# Hz S  dB   R 50
10000000 -45.843975 -0.3294422 -0.017231483 -2.0636597 -0.020177541 -2.1161819 -46.286209 -159.78383
10999000 -45.073307 -1.9989783 -0.017815752 -2.2809162 -0.019788761 -2.3345788 -46.240917 -153.19772
11998000 -44.155109 -5.5114293 -0.018387882 -2.5050261 -0.019378955 -2.548171 -46.508972 -148.98877
12997000 -43.437172 -11.026287 -0.017357271 -2.6875594 -0.018589353 -2.7181959 -46.175739 -142.9268
13996000 -43.163231 -14.534139 -0.017493717 -2.866503 -0.018717261 -2.8878877 -45.969608 -137.17598
14995000 -42.779785 -18.931042 -0.019733373 -3.0794432 -0.019346712 -3.1023128 -45.694496 -133.81041
15994000 -42.655632 -22.892368 -0.020540867 -3.2998829 -0.021502515 -3.3166258 -45.557835 -130.09044
16993000 -42.643303 -27.543081 -0.019106206 -3.4966094 -0.020515639 -3.5033445 -44.747509 -129.98764
17992000 -42.723064 -32.796814 -0.019951291 -3.6961069 -0.021912262 -3.7010562 -44.199806 -129.90527
18991000 -43.039799 -37.574345 -0.021058992 -3.9100063 -0.022767263 -3.9041114 -43.487541 -128.58015
19990000 -42.846218 -43.37989 -0.02367969 -4.1210294 -0.02467015 -4.1147113 -42.883385 -129.70122
20989000 -42.702515 -46.615196 -0.025451483 -4.3261786 -0.026780933 -4.3108363 -42.307655 -128.48715
21988000 -42.554085 -52.062214 -0.026217852 -4.5218897 -0.027221134 -4.5082273 -42.039463 -127.85446
22987000 -42.290607 -56.671028 -0.028087601 -4.7221947 -0.02843778 -4.7165222 -41.817158 -127.16463
23986000 -42.298492 -61.006798 -0.027242754 -4.9160333 -0.027222957 -4.9180093 -41.658783 -127.29713
24985000 -41.899494 -63.88332 -0.028619394 -5.1276631 -0.028046435 -5.1238656 -41.521336 -124.52735
25984000 -41.548019 -65.652786 -0.029732697 -5.3378973 -0.028431265 -5.3365622 -41.160587 -122.71115
26983000 -41.296944 -67.968697 -0.031119252 -5.5331378 -0.029386323 -5.5467348 -41.026337 -122.25162
27982000 -41.153244 -68.962944 -0.031682707 -5.7339048 -0.030771201 -5.7692075 -40.780617 -120.5731
28981000 -41.082577 -70.49762 -0.029872401 -5.9383864 -0.03100271 -5.9616165 -40.506958 -119.80358
29980000 -40.693054 -72.152023 -0.029689431 -6.1289444 -0.0308966 -6.1311903 -40.246117 -118.824
30979000 -40.291954 -71.016411 -0.028063891 -6.4834094 -0.026523083 -6.4747148 -39.756641 -119.32419
31978000 -40.076431 -71.848267 -0.027155491 -6.6785522 -0.027658254 -6.6678028 -39.491642 -118.64767
32977000 -39.870747 -73.767769 -0.027316213 -6.8904934 -0.028091248 -6.8882017 -39.256462 -118.73652
33976000 -39.708298 -74.671562 -0.027872661 -7.0933285 -0.028828898 -7.0896273 -38.956596 -118.03085
34975000 -39.416584 -75.579239 -0.027751779 -7.2949948 -0.02950673 -7.2958393 -38.719913 -117.65658
35974000 -39.215206 -76.194969 -0.027358152 -7.4858985 -0.029922966 -7.4920664 -38.448162 -116.63619
36973000 -38.95715 -77.019615 -0.028051907 -7.6915197 -0.029836953 -7.6932578 -38.142773 -115.6667
37972000 -38.783894 -76.698967 -0.02757515 -7.8995132 -0.030496694 -7.910779 -37.953793 -114.89534
38971000 -38.460934 -76.274971 -0.028588908 -8.1042013 -0.029568236 -8.1167002 -37.774475 -113.26248
39970000 -38.11483 -76.676201 -0.02721983 -8.3000326 -0.029787952 -8.3173695 -37.502151 -112.66753
40969000 -37.814369 -76.279289 -0.027719473 -8.4969721 -0.029464247 -8.5175686 -37.251854 -111.12862
41968000 -37.449242 -76.193199 -0.027498562 -8.6958771 -0.02923595 -8.7202454 -37.054466 -109.86826
42967000 -37.197491 -76.359901 -0.027674666 -8.9160328 -0.029905764 -8.9321203 -36.84845 -107.81782
43966000 -36.872532 -77.092964 -0.028941471 -9.1157846 -0.03154555 -9.1294403 -36.575344 -107.00137
44965000 -36.653854 -77.826523 -0.029802548 -9.3165359 -0.031915829 -9.337162 -36.341908 -106.72826
45964000 -36.430771 -79.009705 -0.030603314 -9.5182619 -0.033313513 -9.5404758 -36.108967 -106.41165
46963000 -36.232044 -80.946632 -0.030585326 -9.7149944 -0.033567593 -9.7331429 -35.930592 -106.6423
47962000 -36.06303 -82.402946 -0.032346379 -9.9183483 -0.034970246 -9.9336281 -35.715309 -106.67027
48961000 -35.846092 -83.885307 -0.034889352 -10.111729 -0.036469676 -10.134625 -35.471901 -106.80788
49960000 -35.622318 -85.147758 -0.036181495 -10.314735 -0.038159475 -10.336817 -35.328964 -106.86163
50959000 -35.402882 -86.637276 -0.036625262 -10.530648 -0.038743954 -10.540991 -35.166668 -107.27364
51958000 -35.183323 -87.591377 -0.038593255 -10.72795 -0.040142011 -10.740195 -34.992321 -107.66817
52957000 -34.98827 -88.643585 -0.03961011 -10.930596 -0.041345034 -10.936637 -34.815578 -107.37568
53956000 -34.81041 -89.42923 -0.041358363 -11.133777 -0.042641453 -11.135967 -34.680389 -107.40434
54955000 -34.642044 -89.952034 -0.042860262 -11.33418 -0.04389485 -11.330531 -34.530697 -107.30571
55954000 -34.487762 -90.732552 -0.043803591 -11.530453 -0.043665007 -11.535789 -34.425884 -106.97726
56953000 -34.354671 -90.850143 -0.042935554 -11.73893 -0.042719353 -11.726992 -34.354912 -107.11378
57952000 -34.197468 -91.437157 -0.044618189 -11.936594 -0.044280302 -11.924217 -34.248928 -107.21806
58951000 -34.057484 -91.78479 -0.045302153 -12.136724 -0.045696363 -12.11785 -34.103657 -107.22898
59950000 -33.935074 -92.069214 -0.046331044 -12.339645 -0.045429017 -12.319427 -34.029266 -107.49027
60949000 -33.82325 -92.693787 -0.046836816 -12.540096 -0.046647899 -12.520558 -33.9347 -107.74404
61948000 -33.761944 -92.976173 -0.047691505 -12.741335 -0.046856705 -12.722342 -33.852036 -107.85402
62947000 -33.677425 -93.128899 -0.047257859 -12.951416 -0.047735471 -12.933145 -33.713406 -108.08438
63946000 -33.606091 -93.931534 -0.04868222 -13.15173 -0.047839377 -13.132104 -33.60453 -108.28236
64945000 -33.50098 -94.078728 -0.049526535 -13.355661 -0.048444793 -13.337085 -33.493343 -108.77693
65944000 -33.382408 -94.395775 -0.05016204 -13.554416 -0.04953596 -13.541299 -33.390934 -109.14014
66943000 -33.234943 -94.756195 -0.048130166 -13.759738 -0.048027303 -13.740387 -33.285305 -109.4606
67942000 -33.185501 -94.742477 -0.049783397 -13.957787 -0.049609534 -13.942463 -33.152401 -109.74822
68941000 -33.057503 -94.808914 -0.050436746 -14.149576 -0.049035896 -14.144389 -33.047188 -109.66843
69940000 -32.961582 -94.778618 -0.050189797 -14.353718 -0.050181154 -14.338994 -32.909969 -109.95802
70939000 -32.858013 -94.777 -0.050148424 -14.546345 -0.049899656 -14.543273 -32.766975 -109.84211
71938000 -32.722862 -94.221268 -0.050307639 -14.739942 -0.049956478 -14.73656 -32.620178 -109.76571
72937000 -32.556271 -94.076004 -0.049813248 -14.944251 -0.050140567 -14.940947 -32.500404 -109.38414
73936000 -32.397911 -93.728195 -0.049244031 -15.142151 -0.048793215 -15.132484 -32.371517 -109.2192
74935000 -32.273769 -93.926056 -0.049272045 -15.344672 -0.048446104 -15.334565 -32.21027 -108.84961
75934000 -32.141945 -94.210159 -0.048619393 -15.544027 -0.048071273 -15.542518 -32.120396 -108.76173
76933000 -32.021679 -94.548012 -0.049968261 -15.742859 -0.049831837 -15.737854 -31.949528 -109.13843
77932000 -31.915655 -95.37159 -0.051919259 -15.941221 -0.051064003 -15.936787 -31.844269 -109.07275
78931000 -31.831263 -96.066437 -0.050780352 -16.13924 -0.050661974 -16.138866 -31.738394 -108.93281
79930000 -31.72089 -97.014671 -0.052878972 -16.332909 -0.052888405 -16.334202 -31.630928 -109.27281
80929000 -31.609749 -97.816216 -0.054914117 -16.532244 -0.054667175 -16.530766 -31.532522 -109.52417
81928000 -31.503977 -98.525917 -0.055253882 -16.723452 -0.055381037 -16.721245 -31.40674 -109.45759
82927000 -31.404305 -99.251129 -0.056774233 -16.924261 -0.056649134 -16.92037 -31.292601 -109.80659
83926000 -31.287355 -100.05353 -0.05841082 -17.120317 -0.057949346 -17.119131 -31.166321 -109.90955
84925000 -31.175543 -100.43977 -0.059341002 -17.323978 -0.05844624 -17.31683 -31.065882 -109.97045
85924000 -31.082821 -100.80442 -0.059580073 -17.525497 -0.060135949 -17.521263 -30.978832 -109.93882
86923000 -30.978556 -101.32006 -0.059783205 -17.718485 -0.060549881 -17.715765 -30.884499 -109.76621
87922000 -30.869137 -101.68369 -0.060381364 -17.929535 -0.059522863 -17.920424 -30.789619 -109.8352
88921000 -30.794527 -101.96777 -0.061943423 -18.126379 -0.061067287 -18.121964 -30.694321 -109.82365
89920000 -30.684608 -102.51066 -0.062705226 -18.328032 -0.061209578 -18.317476 -30.634323 -109.94331
90919000 -30.583197 -102.76897 -0.063058473 -18.523264 -0.06220312 -18.521919 -30.550528 -110.03407
91918000 -30.484549 -103.15122 -0.064087905 -18.724525 -0.062744886 -18.719563 -30.472715 -110.08931
92917000 -30.3902 -103.44823 -0.065466814 -18.925322 -0.063701212 -18.920677 -30.409393 -110.19285
93916000 -30.29645 -103.82524 -0.064821184 -19.116459 -0.064370058 -19.113821 -30.318247 -110.81325
94915000 -30.231556 -104.46497 -0.066289954 -19.318735 -0.065063447 -19.313593 -30.256769 -110.68346
95914000 -30.160025 -104.65376 -0.067191333 -19.514385 -0.066104129 -19.51479 -30.165398 -110.91402
96913000 -30.068615 -104.85577 -0.068208858 -19.715239 -0.067202635 -19.713455 -30.095148 -111.275
97912000 -29.98321 -105.32423 -0.070396163 -19.91254 -0.067339867 -19.913225 -30.017416 -111.53503
98911000 -29.884499 -105.48029 -0.070395894 -20.115662 -0.068832636 -20.111002 -29.968542 -111.73428
99910000 -29.811329 -105.66191 -0.071717069 -20.314379 -0.069694556 -20.311733 -29.872606 -112.05203
100909000 -29.723492 -105.90498 -0.070583224 -20.522657 -0.068835005 -20.517141 -29.786516 -112.25542
101908000 -29.631842 -106.14849 -0.071778394 -20.723673 -0.07053481 -20.723911 -29.665266 -112.02361
102907000 -29.491003 -106.10287 -0.072340831 -20.922924 -0.07063821 -20.924742 -29.595612 -111.93309
103906000 -29.398092 -106.17461 -0.07246691 -21.128922 -0.070673995 -21.125492 -29.44611 -111.88027
104905000 -29.245188 -106.06847 -0.073458813 -21.33024 -0.07118129 -21.330317 -29.315561 -111.60451
105904000 -29.102732 -106.11302 -0.074494138 -21.528109 -0.071077883 -21.52594 -29.209724 -111.48995
106903000 -29.000502 -106.24392 -0.074079402 -21.740259 -0.071441278 -21.733219 -29.076181 -111.36002
107902000 -28.83077 -106.58791 -0.074696913 -21.937796 -0.071752071 -21.934654 -28.933615 -111.32584
108901000 -28.718937 -106.82928 -0.075685382 -22.143051 -0.073723152 -22.134624 -28.811193 -111.28252
109900000 -28.595198 -107.29261 -0.076829523 -22.342171 -0.074845448 -22.337267 -28.664293 -111.37849
110899000 -28.47666 -107.92444 -0.078326873 -22.542257 -0.074861512 -22.532553 -28.536999 -111.61868
111898000 -28.387249 -108.62426 -0.079259224 -22.743515 -0.076047055 -22.734812 -28.412502 -111.7588
112897000 -28.2649 -109.17553 -0.080838107 -22.943132 -0.077091165 -22.931396 -28.279158 -111.97689
113896000 -28.163881 -109.74169 -0.082168534 -23.143661 -0.078848772 -23.130873 -28.169024 -112.05266
114895000 -28.058123 -110.36662 -0.082951576 -23.341888 -0.080237657 -23.32922 -28.056015 -112.1488
115894000 -27.936726 -110.76913 -0.08426021 -23.543819 -0.08075504 -23.533306 -27.987194 -112.36746
116893000 -27.869209 -111.19645 -0.084918506 -23.742178 -0.082443424 -23.725119 -27.876116 -112.41962
117892000 -27.77795 -111.76402 -0.084944375 -23.936798 -0.08314129 -23.92527 -27.78898 -112.59209
118891000 -27.722486 -112.21642 -0.085850686 -24.139208 -0.082889043 -24.127703 -27.694845 -112.73876
119890000 -27.632757 -112.60448 -0.087078057 -24.33938 -0.083669573 -24.325356 -27.679556 -112.86969
120889000 -27.581703 -113.0299 -0.087227277 -24.544069 -0.084076516 -24.528193 -27.608698 -112.8218
121888000 -27.547834 -113.35404 -0.087990627 -24.737389 -0.085113846 -24.727116 -27.547272 -113.06772
122887000 -27.505007 -113.58719 -0.088728748 -24.943001 -0.085563697 -24.923794 -27.496075 -113.06229
123886000 -27.453028 -113.98271 -0.089724116 -25.146376 -0.085725278 -25.128862 -27.487511 -113.22926
124885000 -27.415525 -114.47922 -0.089693457 -25.344362 -0.08607538 -25.329126 -27.454756 -113.26723
125884000 -27.36684 -114.7128 -0.090723671 -25.546228 -0.086516351 -25.528849 -27.424973 -113.41087
126883000 -27.341854 -115.11064 -0.091344878 -25.745815 -0.087201923 -25.731884 -27.386065 -113.41605
127882000 -27.290703 -115.39397 -0.090905003 -25.946808 -0.08835201 -25.928753 -27.345295 -113.54966
128881000 -27.266195 -115.69228 -0.091891348 -26.145721 -0.087888405 -26.131571 -27.306547 -113.64922
129880000 -27.204695 -116.04467 -0.092535727 -26.351763 -0.088352539 -26.334391 -27.264732 -113.63256
130879000 -27.136494 -116.1641 -0.092083573 -26.55197 -0.089306332 -26.532417 -27.184656 -113.60617
131878000 -27.071199 -116.46223 -0.092747018 -26.755022 -0.089317963 -26.736965 -27.117104 -113.5175
132877000 -27.004309 -116.47828 -0.092689894 -26.956797 -0.089457482 -26.939415 -27.039394 -113.47236
133876000 -26.916084 -116.72165 -0.093305834 -27.156725 -0.089590929 -27.137354 -26.9484 -113.41609
134875000 -26.82058 -116.79609 -0.093563974 -27.35565 -0.090704903 -27.340506 -26.84374 -113.25253
135874000 -26.733627 -116.80952 -0.093540169 -27.558491 -0.090673715 -27.54899 -26.745016 -113.16357
136873000 -26.61709 -116.80335 -0.09409485 -27.763371 -0.09012872 -27.742071 -26.658279 -113.14297
137872000 -26.533352 -116.90045 -0.093952268 -27.96278 -0.090436891 -27.946358 -26.551559 -113.08872
138871000 -26.459265 -117.09641 -0.094386369 -28.161491 -0.091027923 -28.14887 -26.450897 -113.26643
139870000 -26.350889 -117.40277 -0.094699338 -28.3629 -0.092120059 -28.349543 -26.372782 -113.45191
140869000 -26.278288 -117.94576 -0.097106501 -28.559311 -0.093411356 -28.543003 -26.265772 -113.62582
141868000 -26.190849 -118.3902 -0.096953765 -28.761152 -0.094610445 -28.743319 -26.207605 -113.89789
142867000 -26.118092 -118.58863 -0.095949598 -28.960781 -0.093492821 -28.940788 -26.131365 -113.99098
143866000 -26.042124 -119.05497 -0.097728357 -29.155859 -0.095067367 -29.137762 -26.057529 -114.48849
144865000 -25.982347 -119.59167 -0.099183142 -29.352991 -0.096447416 -29.339239 -25.99544 -114.78666
145864000 -25.927124 -119.91165 -0.099771127 -29.554684 -0.09795393 -29.545633 -25.965933 -115.04003
146863000 -25.880054 -120.2823 -0.10101092 -29.757221 -0.098196991 -29.747538 -25.916937 -115.30885
147862000 -25.840708 -120.5796 -0.10180611 -29.955076 -0.098552868 -29.944807 -25.879423 -115.61666
148861000 -25.804155 -121.03902 -0.10275783 -30.154484 -0.10036025 -30.13862 -25.866688 -115.79524
149860000 -25.77556 -121.22211 -0.10372593 -30.34498 -0.10110869 -30.340979 -25.812347 -115.88745
150859000 -25.754869 -121.69417 -0.10372805 -30.543144 -0.10102575 -30.529716 -25.791382 -116.20474
151858000 -25.74539 -122.04958 -0.10302979 -30.741947 -0.10051522 -30.730473 -25.778334 -116.55836
152857000 -25.730679 -122.40514 -0.10450995 -30.940201 -0.10072213 -30.931185 -25.763506 -116.70164
153856000 -25.727434 -122.6208 -0.10311143 -31.142405 -0.099948063 -31.130196 -25.782801 -117.04652
154855000 -25.720949 -122.7712 -0.10423922 -31.345924 -0.10067126 -31.332615 -25.776615 -117.28555
155854000 -25.742334 -123.01369 -0.10424426 -31.543346 -0.1013869 -31.53179 -25.763206 -117.55042
156853000 -25.73271 -123.74356 -0.10187315 -31.732515 -0.10074677 -31.72393 -25.76745 -117.8543
157852000 -25.740458 -123.90949 -0.10314987 -31.932245 -0.10287445 -31.922993 -25.753979 -118.21839
158851000 -25.743578 -124.11181 -0.10382455 -32.132122 -0.1026799 -32.122505 -25.74482 -118.47465
159850000 -25.721197 -124.26204 -0.10473746 -32.329311 -0.10294019 -32.322857 -25.74494 -118.62992
160849000 -25.713242 -124.31682 -0.10491699 -32.532269 -0.10344014 -32.527832 -25.71344 -118.92888
161848000 -25.697166 -124.40191 -0.10545351 -32.731258 -0.10394492 -32.724392 -25.679575 -119.01357
162847000 -25.655846 -124.61837 -0.10541027 -32.929905 -0.10465128 -32.929718 -25.647879 -119.30587
163846000 -25.618193 -124.79843 -0.10602191 -33.132309 -0.10393696 -33.128242 -25.572599 -119.29811
164845000 -25.558334 -124.77564 -0.10574234 -33.334057 -0.10463749 -33.328995 -25.512079 -119.40374
165844000 -25.506083 -124.82415 -0.10610387 -33.536327 -0.10473402 -33.525562 -25.431116 -119.56284
166843000 -25.441784 -124.88114 -0.10592801 -33.729916 -0.10484195 -33.727734 -25.365002 -119.68707
167842000 -25.382971 -125.01669 -0.10644501 -33.933537 -0.10496102 -33.928062 -25.281599 -119.64738
168841000 -25.311394 -125.13183 -0.10784832 -34.132465 -0.10645404 -34.125011 -25.211649 -119.686
169840000 -25.241079 -125.38036 -0.10748399 -34.325783 -0.10639143 -34.324421 -25.128197 -119.90867
170839000 -25.181715 -125.65285 -0.10852507 -34.525452 -0.10734309 -34.521713 -25.044851 -120.04041
171838000 -25.121693 -126.04606 -0.10810097 -34.726978 -0.10814289 -34.72102 -24.983263 -120.3069
172837000 -25.055254 -126.37138 -0.10994046 -34.924709 -0.10872944 -34.919071 -24.913523 -120.54144
173836000 -24.984545 -126.79283 -0.11119086 -35.12286 -0.10993834 -35.120514 -24.867584 -120.73647
174835000 -24.92532 -127.2126 -0.1118328 -35.318394 -0.11028137 -35.318714 -24.822285 -121.07224
175834000 -24.87825 -127.56131 -0.11259517 -35.520721 -0.11123469 -35.516949 -24.760277 -121.34133
176833000 -24.827881 -127.93789 -0.11408897 -35.719738 -0.11229871 -35.717293 -24.712591 -121.48866
177832000 -24.782528 -128.37842 -0.11420005 -35.919052 -0.11307365 -35.918983 -24.688887 -121.62824
178831000 -24.736971 -128.68629 -0.11539426 -36.117298 -0.1149857 -36.114388 -24.650904 -121.76863
179830000 -24.685829 -128.97511 -0.11731504 -36.310047 -0.11612988 -36.312752 -24.606131 -121.73531
180829000 -24.61194 -129.27 -0.11729828 -36.495934 -0.11595706 -36.493221 -24.544455 -121.9896
181828000 -24.586782 -129.74118 -0.11641915 -36.696354 -0.11527225 -36.69276 -24.519785 -122.23943
182827000 -24.559311 -130.14236 -0.11665262 -36.890186 -0.11564069 -36.890511 -24.504831 -122.39588
183826000 -24.519487 -130.46838 -0.11704777 -37.089447 -0.11552186 -37.093197 -24.49383 -122.55168
184825000 -24.523975 -130.84924 -0.1170584 -37.286934 -0.11573161 -37.288284 -24.47559 -122.65594
185824000 -24.491713 -131.18477 -0.11677493 -37.48056 -0.11573241 -37.48772 -24.46562 -122.73457
186823000 -24.474075 -131.55389 -0.11713792 -37.685223 -0.11609903 -37.682819 -24.454884 -122.76044
187822000 -24.453741 -131.91063 -0.11765999 -37.881092 -0.11652471 -37.880562 -24.418173 -122.84635
188821000 -24.426329 -132.16971 -0.1176935 -38.074383 -0.11664623 -38.08073 -24.394545 -123.01669
189820000 -24.403816 -132.44942 -0.11787436 -38.277126 -0.11675765 -38.276855 -24.37878 -123.20074
190819000 -24.369005 -132.74248 -0.11881364 -38.477692 -0.11689194 -38.472595 -24.340855 -123.2139
191818000 -24.33848 -133.05884 -0.11927977 -38.671982 -0.11711957 -38.671822 -24.309027 -123.24713
192817000 -24.291542 -133.30667 -0.11959507 -38.871872 -0.11868887 -38.872864 -24.264034 -123.37189
193816000 -24.257126 -133.59056 -0.11956181 -39.067688 -0.11782648 -39.065208 -24.212585 -123.50964
194815000 -24.196632 -133.95836 -0.1199096 -39.260384 -0.11922656 -39.265976 -24.13887 -123.57937
195814000 -24.139797 -134.18349 -0.1209699 -39.457237 -0.11970949 -39.459141 -24.083263 -123.69552
196813000 -24.07971 -134.49527 -0.12058131 -39.653259 -0.11947799 -39.658981 -24.002647 -123.80997
197812000 -24.021807 -134.70944 -0.12095712 -39.85368 -0.1199064 -39.850731 -23.932934 -123.94706
198811000 -23.96604 -134.89464 -0.12071252 -40.047131 -0.12041869 -40.0518 -23.862373 -124.10516
199810000 -23.894999 -135.24895 -0.12179936 -40.243118 -0.11995058 -40.241459 -23.781347 -124.21574
200809000 -23.836164 -135.50211 -0.12218381 -40.441448 -0.12037291 -40.444988 -23.703407 -124.38134
201808000 -23.778311 -135.70998 -0.12318687 -40.642632 -0.12192609 -40.648846 -23.636375 -124.47115
202807000 -23.719091 -136.03517 -0.1236857 -40.843353 -0.12216118 -40.847572 -23.579727 -124.68381
203806000 -23.668982 -136.44926 -0.12553607 -41.04401 -0.12235394 -41.045273 -23.512291 -124.84605
