!Keysight Technologies,E5080B,MY59205177,A.15.75.32
!Date: Friday, February 23, 2024 02:46:13
!Correction: S11(Cdelta 2-Port  ) 
!S21(Cdelta 2-Port  ) 
!S12(Cdelta 2-Port  ) 
!S22(Cdelta 2-Port  ) 
!S2P File: Measurements: S11, S21, S12, S22:
# Hz S  dB   R 50
10000000 -39.105083 -3.3151464 -0.070990257 -2.057054 -0.07439249 -2.1110196 -52.670677 -48.417767
10999000 -38.733761 -4.2654648 -0.072240286 -2.2745774 -0.074501775 -2.3253901 -50.872673 -52.017536
11998000 -38.261879 -6.1673641 -0.073240831 -2.494976 -0.073688924 -2.5409458 -49.881214 -50.782368
12997000 -37.88615 -9.0222435 -0.072196856 -2.6777394 -0.073636532 -2.7091498 -48.587902 -53.770218
13996000 -37.779358 -11.125901 -0.071244448 -2.8568435 -0.073773175 -2.878643 -47.657158 -54.905243
14995000 -37.579983 -13.8575 -0.073988035 -3.0708454 -0.073396683 -3.0936346 -46.855358 -55.665569
15994000 -37.528652 -16.34593 -0.07486362 -3.2870908 -0.076271512 -3.3114166 -46.332634 -54.717041
16993000 -37.557575 -18.748545 -0.073929049 -3.4845345 -0.075643763 -3.4931247 -45.989857 -60.843922
17992000 -37.688919 -21.803181 -0.074652411 -3.6866174 -0.07659556 -3.6863832 -45.736221 -64.060867
18991000 -37.913006 -24.377148 -0.075721204 -3.8951967 -0.07760185 -3.8913305 -45.214645 -68.217613
19990000 -37.947433 -27.563734 -0.077805564 -4.104548 -0.079655997 -4.0991492 -44.950546 -73.594093
20989000 -37.919903 -29.864504 -0.079642557 -4.3097959 -0.081453152 -4.297689 -44.439804 -76.551346
21988000 -38.018517 -33.041039 -0.080745019 -4.5081959 -0.082754217 -4.4917707 -44.222919 -77.570129
22987000 -37.999954 -36.209526 -0.0814761 -4.7086687 -0.082977958 -4.6968112 -43.979942 -78.702644
23986000 -38.102413 -38.782894 -0.08140146 -4.9023762 -0.081749894 -4.897624 -43.847878 -79.472443
24985000 -37.968342 -41.210907 -0.08264789 -5.1106138 -0.082472183 -5.1098022 -43.291084 -78.264305
25984000 -37.868263 -43.046131 -0.083702035 -5.3185272 -0.082806721 -5.3196549 -42.867603 -78.670044
26983000 -37.745007 -44.868546 -0.084861748 -5.5169473 -0.083820522 -5.5338759 -42.723808 -78.300056
27982000 -37.690563 -45.719013 -0.08577887 -5.7169533 -0.085745342 -5.7506704 -42.253517 -78.325287
28981000 -37.705025 -46.983234 -0.084177598 -5.9168906 -0.085513532 -5.9421196 -41.922066 -78.928917
29980000 -37.482147 -48.609467 -0.084515177 -6.107862 -0.085564755 -6.1129832 -41.544147 -79.297997
30979000 -37.177677 -48.85762 -0.081999704 -6.46525 -0.080784835 -6.4512935 -41.186306 -82.180664
31978000 -37.075558 -50.10527 -0.081322595 -6.6591311 -0.082433403 -6.6539922 -40.855408 -82.719536
32977000 -36.990677 -51.645851 -0.081382997 -6.8688807 -0.082791686 -6.8674278 -40.658611 -83.634468
33976000 -36.911495 -52.751682 -0.082266934 -7.070487 -0.082787722 -7.0652056 -40.298859 -84.373055
34975000 -36.730705 -53.939034 -0.082026608 -7.2716699 -0.083836094 -7.2727394 -40.054432 -84.742851
35974000 -36.600754 -55.050648 -0.081470035 -7.469852 -0.083786741 -7.4705477 -39.662418 -84.873741
36973000 -36.443748 -56.026531 -0.08219254 -7.6673503 -0.084503561 -7.6702847 -39.302395 -85.280136
37972000 -36.284523 -56.330402 -0.081484012 -7.8767066 -0.08477807 -7.8877091 -39.020264 -85.146858
38971000 -36.01503 -56.724426 -0.082337372 -8.0726643 -0.084263645 -8.0906572 -38.741287 -84.020065
39970000 -35.765274 -57.598598 -0.081278816 -8.2781725 -0.083793074 -8.2876358 -38.425564 -84.48204
40969000 -35.52758 -58.054806 -0.081599548 -8.47048 -0.083809964 -8.4891129 -38.072296 -83.718193
41968000 -35.242599 -58.829636 -0.082006559 -8.6754265 -0.083437353 -8.6926651 -37.799137 -83.207901
42967000 -35.040154 -59.396317 -0.081678152 -8.8866329 -0.084472947 -8.9085207 -37.451008 -81.860832
43966000 -34.837505 -60.480343 -0.081991524 -9.0875473 -0.085320286 -9.1084881 -37.13789 -81.917755
44965000 -34.661522 -61.563065 -0.083901018 -9.28862 -0.08606191 -9.3070345 -36.935787 -82.465469
45964000 -34.507214 -62.879616 -0.084370539 -9.4903898 -0.086899795 -9.5130072 -36.693794 -82.803078
46963000 -34.400845 -64.853729 -0.08481054 -9.6839008 -0.088341445 -9.706027 -36.51606 -83.42878
47962000 -34.323242 -66.25425 -0.087045841 -9.886857 -0.088524789 -9.9060688 -36.350418 -84.088699
48961000 -34.197632 -67.751663 -0.08874698 -10.086438 -0.09071812 -10.107735 -36.12701 -84.825798
49960000 -34.058372 -69.380386 -0.090098061 -10.284756 -0.092111863 -10.30782 -36.00605 -85.167618
50959000 -33.908634 -70.738968 -0.090335399 -10.499421 -0.092703916 -10.509095 -35.850872 -86.050537
51958000 -33.770935 -72.069687 -0.092436038 -10.698119 -0.093922377 -10.708221 -35.692947 -86.895309
52957000 -33.625126 -73.369118 -0.094095379 -10.899615 -0.095745564 -10.903749 -35.539391 -87.05909
53956000 -33.497894 -74.249397 -0.095990881 -11.102321 -0.096910357 -11.100102 -35.407738 -87.37574
54955000 -33.366653 -74.973557 -0.096560173 -11.298631 -0.097431317 -11.298349 -35.268265 -87.691177
55954000 -33.256767 -75.96434 -0.097506769 -11.498169 -0.098111205 -11.500207 -35.142513 -87.566818
56953000 -33.142937 -76.270485 -0.097952604 -11.700221 -0.097378105 -11.689151 -35.072647 -88.125999
57952000 -33.018661 -77.054832 -0.098316938 -11.898934 -0.098759949 -11.88681 -34.97641 -88.326576
58951000 -32.901089 -77.51799 -0.099801324 -12.106121 -0.099444017 -12.085695 -34.839359 -88.710854
59950000 -32.81358 -78.078575 -0.10034091 -12.306012 -0.10005985 -12.282979 -34.795662 -89.156784
60949000 -32.717686 -78.7463 -0.1010496 -12.504046 -0.10085513 -12.481372 -34.703846 -89.560425
61948000 -32.671085 -79.077042 -0.10136253 -12.706683 -0.10076372 -12.688239 -34.622681 -89.851318
62947000 -32.588417 -79.473747 -0.10167573 -12.918127 -0.10233535 -12.896033 -34.494816 -90.450119
63946000 -32.555149 -80.227646 -0.10240479 -13.117767 -0.10289115 -13.09546 -34.393948 -90.735619
64945000 -32.449974 -80.572052 -0.10324503 -13.316562 -0.10381686 -13.300735 -34.308289 -91.428963
65944000 -32.358883 -80.961159 -0.10418858 -13.5157 -0.10417745 -13.499337 -34.224022 -92.068352
66943000 -32.232307 -81.523315 -0.10174198 -13.719814 -0.10305523 -13.701535 -34.144291 -92.466156
67942000 -32.172955 -81.593307 -0.10441846 -13.912661 -0.10409074 -13.902503 -34.022053 -92.987213
68941000 -32.066216 -81.94236 -0.10357985 -14.110986 -0.10317399 -14.10029 -33.915958 -93.111145
69940000 -31.960211 -82.05999 -0.10405999 -14.309906 -0.10434449 -14.299129 -33.780182 -93.616264
70939000 -31.855804 -82.097908 -0.10402738 -14.506622 -0.10425857 -14.498255 -33.642578 -93.70546
71938000 -31.704882 -81.925163 -0.10405972 -14.703046 -0.10477591 -14.694777 -33.507519 -93.741875
72937000 -31.552389 -82.07029 -0.10344544 -14.900956 -0.1037649 -14.898299 -33.346851 -93.697548
73936000 -31.40966 -81.968033 -0.10413661 -15.102315 -0.10314456 -15.095162 -33.214489 -93.644012
74935000 -31.293398 -82.297684 -0.10304543 -15.296696 -0.10240743 -15.293931 -33.038136 -93.504501
75934000 -31.178041 -82.822685 -0.10332137 -15.50717 -0.10281163 -15.496624 -32.956562 -93.558044
76933000 -31.059038 -83.309006 -0.10472102 -15.697471 -0.10385 -15.691116 -32.788372 -94.204773
77932000 -30.990799 -84.112465 -0.10581899 -15.897484 -0.10612006 -15.889776 -32.68782 -94.345528
78931000 -30.942678 -84.880226 -0.104677 -16.096344 -0.10466082 -16.089617 -32.574219 -94.302979
79930000 -30.840723 -85.794815 -0.1073537 -16.28875 -0.1082257 -16.287167 -32.49247 -94.84227
80929000 -30.747654 -86.793327 -0.10945383 -16.484535 -0.10905751 -16.482279 -32.39323 -95.320908
81928000 -30.683105 -87.707115 -0.10925846 -16.678249 -0.10968958 -16.67462 -32.28157 -95.632614
82927000 -30.601572 -88.461143 -0.11117944 -16.875116 -0.11052273 -16.874897 -32.176102 -96.124962
83926000 -30.516537 -89.361771 -0.11283693 -17.072069 -0.1121542 -17.07287 -32.067448 -96.49736
84925000 -30.422674 -89.886009 -0.11405575 -17.273094 -0.11267169 -17.269777 -31.979465 -96.750237
85924000 -30.349056 -90.432716 -0.11432283 -17.471228 -0.11329869 -17.468924 -31.890453 -96.793144
86923000 -30.25478 -91.070541 -0.1147922 -17.674789 -0.11401455 -17.668135 -31.783726 -96.901291
87922000 -30.154242 -91.55397 -0.11513057 -17.880108 -0.11401136 -17.869757 -31.698318 -97.098038
88921000 -30.098358 -91.951584 -0.11571114 -18.073496 -0.11544503 -18.073889 -31.602358 -97.235191
89920000 -30.01219 -92.592461 -0.11675525 -18.275135 -0.11570742 -18.267767 -31.553076 -97.446503
90919000 -29.91646 -93.038261 -0.11840689 -18.473434 -0.11719563 -18.468287 -31.464909 -97.753357
91918000 -29.833759 -93.513695 -0.11854097 -18.672905 -0.11706665 -18.665154 -31.40155 -97.855309
92917000 -29.757187 -93.939682 -0.11955223 -18.87324 -0.11793075 -18.868656 -31.333813 -98.092743
93916000 -29.68008 -94.383026 -0.11892937 -19.066845 -0.11834703 -19.062197 -31.260254 -98.873863
94915000 -29.622107 -95.086769 -0.12054857 -19.265959 -0.11945884 -19.258642 -31.19758 -98.783035
95914000 -29.556431 -95.373154 -0.12120094 -19.460173 -0.12090149 -19.460102 -31.109886 -99.170723
96913000 -29.480482 -95.707474 -0.12231374 -19.66161 -0.12192183 -19.658825 -31.054266 -99.576477
97912000 -29.419584 -96.284157 -0.12357996 -19.855957 -0.12180416 -19.857925 -30.974371 -99.964455
98911000 -29.302895 -96.502625 -0.12431323 -20.059534 -0.12288649 -20.056372 -30.933752 -100.21804
99910000 -29.244926 -96.710556 -0.1246614 -20.258463 -0.12343241 -20.258205 -30.833401 -100.64158
100909000 -29.151258 -97.095146 -0.12435105 -20.468639 -0.12282311 -20.461674 -30.733009 -100.94975
101908000 -29.068331 -97.430916 -0.12519449 -20.663277 -0.12436118 -20.665953 -30.611723 -100.76607
102907000 -28.933376 -97.602745 -0.12588194 -20.868988 -0.1246582 -20.864126 -30.529249 -100.82825
103906000 -28.840754 -97.755295 -0.12667397 -21.07494 -0.12407936 -21.06962 -30.370655 -100.94126
104905000 -28.693954 -97.805534 -0.12681469 -21.268499 -0.12450476 -21.267935 -30.213926 -100.68998
105904000 -28.552734 -98.079231 -0.12703033 -21.475117 -0.12478421 -21.464884 -30.087967 -100.63601
106903000 -28.440325 -98.25985 -0.12663159 -21.679834 -0.12474611 -21.672808 -29.953663 -100.74647
107902000 -28.288576 -98.787186 -0.12784308 -21.878897 -0.12540205 -21.872562 -29.800449 -100.83932
108901000 -28.181343 -99.074203 -0.12925839 -22.081146 -0.1270202 -22.071257 -29.662334 -100.88738
109900000 -28.061743 -99.687683 -0.13016814 -22.280842 -0.12827046 -22.272118 -29.503851 -101.12127
110899000 -27.957733 -100.42624 -0.1318126 -22.478075 -0.12869067 -22.470108 -29.370331 -101.60229
111898000 -27.881298 -101.1767 -0.13205704 -22.680464 -0.1303698 -22.674177 -29.255178 -101.90975
112897000 -27.761496 -101.80019 -0.13406983 -22.878094 -0.13125868 -22.867401 -29.118341 -102.25227
113896000 -27.667999 -102.41621 -0.13544123 -23.081026 -0.13288088 -23.070311 -29.007202 -102.52306
114895000 -27.573921 -103.15398 -0.13633411 -23.274746 -0.13459554 -23.266491 -28.883204 -102.71002
115894000 -27.446005 -103.62132 -0.13772546 -23.480158 -0.13534242 -23.467138 -28.813993 -102.96442
116893000 -27.366762 -104.24706 -0.13804825 -23.677828 -0.13657211 -23.660278 -28.685024 -103.23719
117892000 -27.292868 -104.84851 -0.13801859 -23.875441 -0.13650133 -23.860191 -28.605913 -103.52523
118891000 -27.23374 -105.26787 -0.13888526 -24.076647 -0.13699633 -24.062904 -28.509232 -103.8231
119890000 -27.153471 -105.71375 -0.13978098 -24.275158 -0.13780643 -24.262939 -28.496346 -103.96703
120889000 -27.103493 -106.27457 -0.14063571 -24.474962 -0.13843387 -24.457235 -28.418951 -104.04577
121888000 -27.066713 -106.62138 -0.1414021 -24.672844 -0.13856375 -24.657511 -28.36022 -104.40419
122887000 -27.019054 -106.86926 -0.1422098 -24.873831 -0.13971256 -24.857592 -28.316284 -104.45651
123886000 -26.971628 -107.33712 -0.1435217 -25.075747 -0.14000341 -25.052195 -28.297512 -104.67483
124885000 -26.936478 -107.92413 -0.14371246 -25.276241 -0.14112531 -25.25915 -28.271498 -104.77783
125884000 -26.879358 -108.13697 -0.144595 -25.471832 -0.14140958 -25.461929 -28.235456 -104.99174
126883000 -26.860634 -108.53722 -0.14477324 -25.676369 -0.14183989 -25.662874 -28.194056 -105.08578
127882000 -26.808353 -108.81449 -0.14510405 -25.876534 -0.14244972 -25.853939 -28.156853 -105.29266
128881000 -26.77873 -109.17698 -0.14508852 -26.076967 -0.14260247 -26.059925 -28.106001 -105.40404
129880000 -26.723494 -109.55372 -0.14611992 -26.279373 -0.14259417 -26.258915 -28.055105 -105.42594
130879000 -26.662947 -109.76896 -0.14586265 -26.479212 -0.14413552 -26.461765 -27.980293 -105.5452
131878000 -26.596607 -110.02478 -0.14618979 -26.681536 -0.14385884 -26.662619 -27.901365 -105.51471
132877000 -26.521927 -110.1676 -0.14585087 -26.883768 -0.14409752 -26.862719 -27.80858 -105.55215
133876000 -26.439579 -110.36999 -0.14685272 -27.08544 -0.14457038 -27.066212 -27.712809 -105.50945
134875000 -26.336935 -110.57753 -0.1468222 -27.283567 -0.14485461 -27.266521 -27.601719 -105.47514
135874000 -26.253651 -110.67001 -0.1469285 -27.482048 -0.14477484 -27.468391 -27.493576 -105.51945
136873000 -26.145542 -110.70502 -0.14760278 -27.686762 -0.14531337 -27.668961 -27.402071 -105.56739
137872000 -26.062599 -110.87413 -0.14779159 -27.889914 -0.14463353 -27.870461 -27.284561 -105.55758
138871000 -25.990763 -111.12563 -0.148462 -28.090347 -0.14523573 -28.074263 -27.19076 -105.83997
139870000 -25.893295 -111.44588 -0.14906634 -28.288849 -0.14646502 -28.269892 -27.109739 -106.00945
140869000 -25.818245 -111.95283 -0.15112269 -28.486246 -0.14754735 -28.463015 -26.998753 -106.26527
141868000 -25.720898 -112.4934 -0.15139876 -28.677271 -0.14912555 -28.656548 -26.92675 -106.65422
142867000 -25.650473 -112.84932 -0.14978732 -28.874727 -0.14765796 -28.859934 -26.847778 -106.95558
143866000 -25.588215 -113.3264 -0.15183274 -29.071236 -0.14903767 -29.055679 -26.786682 -107.46325
144865000 -25.531906 -113.88959 -0.15314166 -29.26825 -0.15095383 -29.256516 -26.733513 -107.85671
145864000 -25.485304 -114.25484 -0.15317678 -29.471716 -0.15151 -29.458059 -26.702349 -108.1516
146863000 -25.439356 -114.67165 -0.1538609 -29.669628 -0.15184829 -29.653452 -26.660048 -108.52521
147862000 -25.404266 -115.08519 -0.15534641 -29.866724 -0.15215899 -29.854567 -26.629398 -108.91818
148861000 -25.374144 -115.61951 -0.15532817 -30.065428 -0.15325321 -30.054571 -26.609943 -109.20237
149860000 -25.363554 -115.81219 -0.15625976 -30.263657 -0.15339534 -30.251888 -26.579418 -109.36482
150859000 -25.345402 -116.2281 -0.1563773 -30.461445 -0.15425141 -30.448479 -26.581985 -109.62614
151858000 -25.332142 -116.5549 -0.15681311 -30.662693 -0.15464088 -30.645096 -26.58379 -109.94619
152857000 -25.311394 -116.88297 -0.15731904 -30.85832 -0.15465108 -30.850245 -26.564548 -110.09595
153856000 -25.306902 -117.12177 -0.15634026 -31.053438 -0.1539966 -31.046944 -26.590511 -110.32767
154855000 -25.298685 -117.30201 -0.15788086 -31.257433 -0.15450193 -31.246664 -26.591633 -110.63382
155854000 -25.313719 -117.5471 -0.15807253 -31.456566 -0.15546338 -31.444538 -26.583918 -110.88685
156853000 -25.303486 -118.27933 -0.1562136 -31.645393 -0.15510872 -31.639509 -26.585449 -111.18645
157852000 -25.304028 -118.484 -0.15736869 -31.847567 -0.15654045 -31.836596 -26.580976 -111.58067
158851000 -25.302181 -118.71062 -0.15791629 -32.045216 -0.15663572 -32.035412 -26.571789 -111.79504
159850000 -25.282711 -118.88193 -0.15881513 -32.244072 -0.15738265 -32.236511 -26.579346 -111.98866
160849000 -25.267611 -118.99785 -0.15887904 -32.442711 -0.15829025 -32.437035 -26.547235 -112.3095
161848000 -25.245106 -119.15066 -0.15942253 -32.642662 -0.1581042 -32.636917 -26.504711 -112.44218
162847000 -25.204357 -119.35213 -0.15942173 -32.838837 -0.15830341 -32.836891 -26.475924 -112.70683
163846000 -25.162857 -119.6171 -0.15944724 -33.041172 -0.15876359 -33.034496 -26.394667 -112.72565
164845000 -25.103249 -119.69037 -0.15975338 -33.24073 -0.15969725 -33.236061 -26.325535 -112.90665
165844000 -25.04384 -119.82795 -0.15938762 -33.440449 -0.15919964 -33.433582 -26.240696 -113.08286
166843000 -24.97946 -119.95069 -0.15978104 -33.639847 -0.15934895 -33.633968 -26.168921 -113.31828
167842000 -24.919451 -120.10713 -0.16079363 -33.840946 -0.15920663 -33.828388 -26.084715 -113.29704
168841000 -24.843597 -120.36369 -0.16102841 -34.036736 -0.1600676 -34.031944 -26.005335 -113.43375
169840000 -24.779314 -120.68221 -0.16101229 -34.232742 -0.16093251 -34.228382 -25.911432 -113.66669
170839000 -24.721739 -120.97114 -0.16205178 -34.428932 -0.16125919 -34.427448 -25.823936 -113.9324
171838000 -24.666189 -121.40289 -0.16229738 -34.631252 -0.16253117 -34.62521 -25.763271 -114.2162
172837000 -24.604647 -121.83894 -0.16441269 -34.827599 -0.16270907 -34.821171 -25.693317 -114.52354
173836000 -24.540163 -122.28246 -0.16524862 -35.025383 -0.16391347 -35.022545 -25.648037 -114.80997
174835000 -24.484352 -122.71542 -0.16579479 -35.221687 -0.16508809 -35.220993 -25.602081 -115.19706
175834000 -24.437178 -123.16798 -0.16617723 -35.420708 -0.16580716 -35.414303 -25.543701 -115.52562
176833000 -24.39027 -123.5629 -0.16741353 -35.616508 -0.16610031 -35.614613 -25.488409 -115.77701
177832000 -24.349197 -124.07732 -0.16809236 -35.812504 -0.16662909 -35.812504 -25.469091 -115.96689
178831000 -24.307064 -124.45061 -0.16842386 -36.010483 -0.16687657 -36.009151 -25.428125 -116.28097
179830000 -24.272545 -124.93421 -0.16927025 -36.209202 -0.16868328 -36.21167 -25.407373 -116.40311
180829000 -24.234991 -125.17469 -0.16912572 -36.403828 -0.16846207 -36.408028 -25.372101 -116.617
181828000 -24.212002 -125.55608 -0.16983065 -36.603748 -0.16852693 -36.599083 -25.35918 -116.7549
182827000 -24.185081 -125.90371 -0.16988072 -36.79834 -0.16872123 -36.797997 -25.34549 -116.86195
183826000 -24.142876 -126.26962 -0.17132595 -36.998562 -0.16866714 -36.993366 -25.336903 -117.02595
184825000 -24.148363 -126.58775 -0.17068513 -37.193768 -0.16949877 -37.190502 -25.318802 -117.1073
185824000 -24.118961 -126.94217 -0.17101629 -37.387314 -0.17049021 -37.387161 -25.31386 -117.16348
186823000 -24.104155 -127.30843 -0.17144713 -37.585789 -0.17005193 -37.584515 -25.307629 -117.1739
187822000 -24.085348 -127.65068 -0.17206195 -37.780846 -0.17092206 -37.783195 -25.273653 -117.28323
188821000 -24.058876 -127.90504 -0.17156023 -37.978516 -0.17107177 -37.981396 -25.255384 -117.36923
189820000 -24.044003 -128.16556 -0.17262782 -38.180767 -0.17151445 -38.180141 -25.247261 -117.5354
190819000 -24.011877 -128.44902 -0.17317115 -38.380459 -0.17301975 -38.379337 -25.209171 -117.5306
191818000 -23.98004 -128.67299 -0.17496297 -38.575203 -0.17422406 -38.57806 -25.169338 -117.42119
192817000 -23.909069 -128.93007 -0.17528072 -38.760826 -0.17490718 -38.760632 -25.092939 -117.55768
193816000 -23.867046 -129.32707 -0.17460158 -38.952419 -0.17377006 -38.951656 -25.030607 -117.85728
194815000 -23.809408 -129.8063 -0.17448302 -39.149426 -0.17414673 -39.150639 -24.96352 -118.03142
195814000 -23.754961 -130.04341 -0.17513411 -39.346642 -0.17397913 -39.351574 -24.906313 -118.15839
196813000 -23.700836 -130.43018 -0.17494464 -39.544083 -0.17393252 -39.541264 -24.82093 -118.37834
197812000 -23.64233 -130.6745 -0.17500959 -39.743523 -0.17395407 -39.738937 -24.746033 -118.50344
198811000 -23.589193 -130.89413 -0.17535727 -39.934582 -0.17464793 -39.942326 -24.673771 -118.73593
199810000 -23.521957 -131.2877 -0.17529851 -40.132374 -0.1736189 -40.130291 -24.59227 -118.91134
200809000 -23.462496 -131.60147 -0.17569391 -40.330456 -0.17446415 -40.332241 -24.508991 -119.11887
201808000 -23.402685 -131.87946 -0.17658621 -40.531277 -0.17530525 -40.533699 -24.434914 -119.26195
202807000 -23.349173 -132.27246 -0.17775832 -40.732021 -0.17675094 -40.734482 -24.376835 -119.51236
203806000 -23.300982 -132.72502 -0.17903677 -40.933475 -0.17744309 -40.933609 -24.311251 -119.73074
204805000 -23.247862 -133.1463 -0.17988226 -41.133842 -0.17835435 -41.130589 -24.24769 -119.9936
205804000 -23.213257 -133.51863 -0.18039601 -41.331436 -0.17904595 -41.334831 -24.191149 -120.23882
