!Keysight Technologies,E5080B,MY59205177,A.15.75.32
!Date: Friday, February 23, 2024 02:51:03
!Correction: S11(Cdelta 2-Port  ) 
!S21(Cdelta 2-Port  ) 
!S12(Cdelta 2-Port  ) 
!S22(Cdelta 2-Port  ) 
!S2P File: Measurements: S11, S21, S12, S22:
# Hz S  dB   R 50
10000000 -42.572933 -3.4620972 -0.038836673 -2.0506909 -0.041462112 -2.1042826 -50.815071 -139.48862
10999000 -41.980038 -4.8099914 -0.040033586 -2.2645581 -0.040819257 -2.3172317 -50.161709 -129.22034
11998000 -41.330997 -7.274529 -0.040530004 -2.4875264 -0.041377179 -2.5322349 -50.215733 -122.0579
12997000 -40.754322 -11.259512 -0.040203407 -2.6684024 -0.041178826 -2.6992593 -49.056126 -115.8056
13996000 -40.58503 -14.085149 -0.038935401 -2.8500197 -0.041177258 -2.8703699 -48.449352 -110.17091
14995000 -40.315086 -17.24814 -0.040953569 -3.0557311 -0.040813509 -3.0826311 -47.66721 -107.48447
15994000 -40.24897 -20.650295 -0.041858587 -3.2757506 -0.043131892 -3.2931056 -47.277607 -103.43125
16993000 -40.276192 -24.017149 -0.041462898 -3.4698207 -0.042450365 -3.4820099 -46.383423 -105.80332
17992000 -40.37236 -27.972939 -0.041715883 -3.6743042 -0.043180782 -3.6739907 -45.755169 -107.4761
18991000 -40.621048 -31.880749 -0.043080389 -3.8791103 -0.044007555 -3.8793356 -44.985783 -108.30335
19990000 -40.574238 -36.141422 -0.045056805 -4.0914378 -0.045563996 -4.0844274 -44.324543 -110.86179
20989000 -40.542576 -38.717899 -0.04687031 -4.2959242 -0.047672398 -4.2836018 -43.687729 -111.38882
21988000 -40.558094 -42.94075 -0.048280671 -4.4898133 -0.04867908 -4.4750385 -43.338451 -111.09383
22987000 -40.442379 -47.11002 -0.049197167 -4.6878052 -0.049512919 -4.6799607 -43.053505 -111.11983
23986000 -40.492603 -50.688072 -0.04847699 -4.8858414 -0.048778031 -4.8805599 -42.934273 -111.1786
24985000 -40.232277 -53.533043 -0.049841788 -5.0933833 -0.0494239 -5.0905299 -42.675064 -109.32049
25984000 -40.034851 -55.402447 -0.050150517 -5.3028746 -0.049557954 -5.297451 -42.188789 -107.57419
26983000 -39.808815 -57.508766 -0.051422324 -5.4971833 -0.050999571 -5.5151367 -42.029217 -107.26431
27982000 -39.707104 -58.301273 -0.052736953 -5.6971669 -0.052273199 -5.7304358 -41.702797 -105.78281
28981000 -39.710335 -59.768494 -0.050651234 -5.8980594 -0.051845383 -5.9206886 -41.429501 -105.42386
29980000 -39.340851 -61.693977 -0.050963424 -6.0878673 -0.053205214 -6.0961657 -41.018459 -104.98979
30979000 -38.992821 -61.201527 -0.04862358 -6.4444346 -0.047207352 -6.4337926 -40.549438 -106.30079
31978000 -38.840065 -62.355415 -0.047908999 -6.63662 -0.048711278 -6.6305356 -40.246662 -105.84901
32977000 -38.70203 -63.941963 -0.047596764 -6.8488641 -0.04923958 -6.8422236 -39.980412 -106.18402
33976000 -38.570545 -65.093025 -0.048610754 -7.04706 -0.049521562 -7.0441933 -39.649723 -105.87337
34975000 -38.324238 -66.206924 -0.048761278 -7.2499785 -0.050248455 -7.2486815 -39.420452 -105.80264
35974000 -38.151623 -66.998894 -0.047148734 -7.445725 -0.050171204 -7.4453468 -39.054298 -105.3746
36973000 -37.93821 -67.904083 -0.047840949 -7.6399193 -0.050346397 -7.6482778 -38.764629 -104.6636
37972000 -37.742401 -67.813187 -0.047812421 -7.8524704 -0.050113071 -7.8627286 -38.483471 -104.11785
38971000 -37.455421 -67.91922 -0.04936656 -8.0531549 -0.0503718 -8.0661993 -38.274456 -102.49834
39970000 -37.152504 -68.659363 -0.047943283 -8.2531414 -0.050279882 -8.2666836 -37.972931 -102.24134
40969000 -36.869137 -68.555534 -0.047374312 -8.4431896 -0.049463958 -8.4626865 -37.680195 -101.06728
41968000 -36.546951 -68.938477 -0.04800741 -8.6477299 -0.049989995 -8.66819 -37.429768 -99.963196
42967000 -36.277054 -69.340851 -0.048408408 -8.8574476 -0.050414748 -8.8767958 -37.205444 -98.201424
43966000 -36.03569 -70.402817 -0.04856861 -9.0576868 -0.051393252 -9.0771828 -36.875748 -97.713737
44965000 -35.823963 -71.155685 -0.049162608 -9.266201 -0.051936552 -9.2836714 -36.646488 -97.761124
45964000 -35.632484 -72.484421 -0.050459005 -9.4650326 -0.053105634 -9.4841661 -36.433319 -97.717773
46963000 -35.470856 -74.514618 -0.050837707 -9.6595478 -0.053764202 -9.6799631 -36.227764 -98.136856
47962000 -35.343361 -75.91433 -0.052629787 -9.8614283 -0.054902844 -9.8776417 -36.024117 -98.445496
48961000 -35.181744 -77.594566 -0.054919887 -10.056796 -0.056029201 -10.077738 -35.813042 -98.889114
49960000 -34.976334 -79.065704 -0.055725034 -10.255539 -0.057621434 -10.277406 -35.668587 -99.110168
50959000 -34.793777 -80.425064 -0.056626581 -10.470577 -0.058438893 -10.480952 -35.482513 -99.713173
51958000 -34.616688 -81.598419 -0.05861678 -10.669162 -0.060123876 -10.675951 -35.317055 -100.23347
52957000 -34.435604 -82.792931 -0.05986404 -10.868225 -0.061623614 -10.873914 -35.156445 -100.25224
53956000 -34.289494 -83.635773 -0.061237145 -11.069529 -0.061618887 -11.068681 -35.009918 -100.27759
54955000 -34.135876 -84.24118 -0.062090468 -11.270409 -0.06281238 -11.268976 -34.852253 -100.4464
55954000 -33.98822 -85.237228 -0.062657692 -11.469949 -0.063794993 -11.465207 -34.746124 -100.29736
56953000 -33.877892 -85.316696 -0.063076861 -11.665133 -0.062221501 -11.662017 -34.671982 -100.56252
57952000 -33.711197 -86.068291 -0.063935533 -11.865976 -0.062592566 -11.854369 -34.576862 -100.67909
58951000 -33.591969 -86.483902 -0.064713195 -12.069482 -0.064284414 -12.048418 -34.411686 -100.91386
59950000 -33.493847 -86.861763 -0.065305725 -12.271682 -0.065055043 -12.247278 -34.347954 -101.17631
60949000 -33.393745 -87.519379 -0.066317819 -12.47018 -0.066265777 -12.447867 -34.262032 -101.54646
61948000 -33.328289 -87.92276 -0.06635803 -12.676311 -0.065645777 -12.655305 -34.169853 -101.65906
62947000 -33.249294 -88.127556 -0.066231869 -12.884886 -0.0666795 -12.864585 -34.025036 -102.0359
63946000 -33.181477 -88.907921 -0.066894002 -13.083817 -0.067542575 -13.061882 -33.927433 -102.23562
64945000 -33.076084 -89.031143 -0.068452097 -13.281036 -0.068119451 -13.261885 -33.827015 -102.70333
65944000 -32.979145 -89.342613 -0.069382593 -13.482486 -0.068566754 -13.463306 -33.739639 -103.29128
66943000 -32.840134 -89.909401 -0.067410856 -13.684635 -0.066918455 -13.667708 -33.618088 -103.55057
67942000 -32.779102 -89.823753 -0.069213204 -13.879722 -0.068553872 -13.866551 -33.506481 -103.94826
68941000 -32.672592 -90.034103 -0.068285644 -14.071369 -0.0678147 -14.064302 -33.395248 -103.98486
69940000 -32.576233 -90.028915 -0.069256343 -14.271551 -0.068463407 -14.264716 -33.261871 -104.32474
70939000 -32.466068 -90.045937 -0.069108523 -14.46821 -0.068965979 -14.457993 -33.120216 -104.18167
71938000 -32.321133 -89.694145 -0.068660378 -14.664715 -0.068649858 -14.657966 -32.990406 -104.21127
72937000 -32.157043 -89.548698 -0.068644598 -14.864763 -0.067555718 -14.858821 -32.836033 -103.88551
73936000 -32.018993 -89.302742 -0.067662202 -15.061889 -0.067453973 -15.051309 -32.728466 -103.72198
74935000 -31.889336 -89.596252 -0.067555197 -15.25862 -0.066964723 -15.254555 -32.553165 -103.47968
75934000 -31.768625 -89.934006 -0.067728721 -15.466159 -0.067662202 -15.460992 -32.48167 -103.39471
76933000 -31.63876 -90.333015 -0.069156133 -15.65881 -0.068570174 -15.651896 -32.306187 -103.87093
77932000 -31.551458 -91.142227 -0.070656627 -15.852704 -0.070185691 -15.851276 -32.201366 -103.87891
78931000 -31.489523 -91.916107 -0.069041722 -16.056273 -0.069016211 -16.051273 -32.098415 -103.83044
79930000 -31.393621 -92.8172 -0.071418121 -16.25053 -0.071808659 -16.244362 -32.0112 -104.09534
80929000 -31.268793 -93.771835 -0.072936513 -16.441967 -0.072999686 -16.438122 -31.904833 -104.51054
81928000 -31.194752 -94.681374 -0.073008113 -16.636936 -0.073502786 -16.631723 -31.782942 -104.71218
82927000 -31.108322 -95.355911 -0.074814633 -16.836626 -0.075096168 -16.833252 -31.682356 -105.04015
83926000 -31.005754 -96.146156 -0.075753868 -17.032257 -0.076342642 -17.031908 -31.573111 -105.36641
84925000 -30.903187 -96.693146 -0.077269293 -17.231359 -0.076566577 -17.232328 -31.462889 -105.4753
85924000 -30.817862 -97.239006 -0.0783448 -17.429102 -0.078407787 -17.427153 -31.385044 -105.53487
86923000 -30.711355 -97.793571 -0.078644484 -17.631475 -0.078214064 -17.62974 -31.287489 -105.468
87922000 -30.610666 -98.23436 -0.078404367 -17.837893 -0.077297755 -17.824394 -31.191269 -105.54085
88921000 -30.538355 -98.567284 -0.079588771 -18.033684 -0.078486338 -18.030722 -31.098238 -105.56824
89920000 -30.445112 -99.096863 -0.079518639 -18.234093 -0.079294018 -18.221199 -31.050808 -105.8017
90919000 -30.348253 -99.506546 -0.080795653 -18.429571 -0.080244511 -18.425438 -30.951786 -106.06061
91918000 -30.252121 -99.888229 -0.08145421 -18.627428 -0.079984784 -18.623182 -30.88855 -106.05515
92917000 -30.168869 -100.25108 -0.082097307 -18.829979 -0.081798166 -18.823671 -30.825333 -106.21924
93916000 -30.090414 -100.68002 -0.082260601 -19.020037 -0.081117399 -19.016121 -30.734917 -106.86259
94915000 -30.017328 -101.29733 -0.084035084 -19.225836 -0.083180338 -19.217575 -30.675167 -106.74799
95914000 -29.946157 -101.52409 -0.084850661 -19.415001 -0.083152898 -19.409889 -30.585266 -107.04799
96913000 -29.877197 -101.82847 -0.085807383 -19.615602 -0.084372647 -19.615681 -30.52533 -107.51934
97912000 -29.790144 -102.33685 -0.086921453 -19.809679 -0.085279629 -19.813343 -30.443562 -107.70412
98911000 -29.690384 -102.55145 -0.087148048 -20.014011 -0.086525328 -20.010637 -30.403955 -107.90096
99910000 -29.625126 -102.67982 -0.087818928 -20.212044 -0.086441353 -20.212456 -30.297302 -108.2318
100909000 -29.544735 -103.00526 -0.087445706 -20.422367 -0.085274354 -20.412331 -30.207561 -108.47559
101908000 -29.452509 -103.23974 -0.089365259 -20.616854 -0.087583318 -20.616009 -30.084583 -108.24442
102907000 -29.311783 -103.28423 -0.089124277 -20.817183 -0.08725924 -20.819395 -30.010838 -108.23003
103906000 -29.213797 -103.36339 -0.089137755 -21.019999 -0.087293044 -21.016138 -29.863876 -108.23911
104905000 -29.071297 -103.31792 -0.089902498 -21.222553 -0.086869158 -21.220335 -29.714441 -107.9094
105904000 -28.918568 -103.48193 -0.090008736 -21.425528 -0.086888969 -21.418579 -29.604382 -107.81581
106903000 -28.817513 -103.57291 -0.090030938 -21.63279 -0.087921686 -21.626366 -29.472651 -107.72283
107902000 -28.656139 -103.9901 -0.090238139 -21.830973 -0.088591099 -21.819622 -29.327948 -107.71279
108901000 -28.546345 -104.22714 -0.092004776 -22.030678 -0.09026219 -22.022705 -29.189524 -107.69549
109900000 -28.421757 -104.77094 -0.092699945 -22.230045 -0.091304429 -22.222603 -29.042961 -107.76855
110899000 -28.306171 -105.47997 -0.094123684 -22.431692 -0.091021314 -22.422142 -28.912453 -108.12273
111898000 -28.219213 -106.20397 -0.095220305 -22.62993 -0.092354596 -22.626865 -28.795012 -108.33549
112897000 -28.101885 -106.76858 -0.096778005 -22.830738 -0.093853079 -22.819361 -28.653185 -108.55234
113896000 -28.003422 -107.36695 -0.098260008 -23.03063 -0.09591493 -23.018915 -28.552986 -108.69102
114895000 -27.900946 -108.0485 -0.099635243 -23.227781 -0.097226419 -23.213684 -28.436293 -108.82954
115894000 -27.774439 -108.42004 -0.10174277 -23.429811 -0.098611921 -23.413784 -28.36503 -109.05735
116893000 -27.701267 -109.05457 -0.10148679 -23.62755 -0.098869056 -23.607809 -28.232182 -109.25848
117892000 -27.616346 -109.53643 -0.10148229 -23.820759 -0.099630214 -23.807055 -28.167309 -109.47232
118891000 -27.557186 -109.9777 -0.10257017 -24.02072 -0.099910982 -24.008112 -28.061939 -109.62468
119890000 -27.47324 -110.3867 -0.10219197 -24.225126 -0.10070412 -24.210003 -28.061705 -109.77824
120889000 -27.419231 -110.8999 -0.10354618 -24.424143 -0.1009068 -24.406437 -27.986681 -109.75266
121888000 -27.377893 -111.28377 -0.10412494 -24.619268 -0.10127985 -24.610113 -27.922262 -110.07789
122887000 -27.340906 -111.5032 -0.10498409 -24.820971 -0.10171469 -24.810575 -27.873957 -110.12599
123886000 -27.282322 -111.94822 -0.10582615 -25.026752 -0.10269952 -25.001574 -27.862324 -110.313
124885000 -27.251905 -112.44767 -0.10593226 -25.223742 -0.10289221 -25.205603 -27.830711 -110.41876
125884000 -27.200472 -112.67192 -0.10674798 -25.420626 -0.10346877 -25.404942 -27.802326 -110.5715
126883000 -27.174641 -113.06515 -0.10666096 -25.624762 -0.10389772 -25.609314 -27.759357 -110.60438
127882000 -27.122444 -113.32906 -0.10702284 -25.822273 -0.10455582 -25.80484 -27.713835 -110.79834
128881000 -27.098814 -113.67067 -0.10739775 -26.025131 -0.10461071 -26.005676 -27.678755 -110.94457
129880000 -27.035757 -113.99899 -0.10802825 -26.227755 -0.10474144 -26.206148 -27.629452 -110.9047
130879000 -26.977564 -114.16783 -0.10787672 -26.425543 -0.10562351 -26.407034 -27.557505 -110.98195
131878000 -26.909189 -114.404 -0.10797491 -26.630007 -0.10571475 -26.60671 -27.486786 -110.89641
132877000 -26.831171 -114.45252 -0.10789264 -26.828989 -0.10543016 -26.81036 -27.400589 -110.88379
133876000 -26.753725 -114.66586 -0.10875969 -27.03187 -0.10553811 -27.010931 -27.305368 -110.77939
134875000 -26.655714 -114.77192 -0.10842262 -27.226944 -0.10640602 -27.21418 -27.195072 -110.64733
135874000 -26.571508 -114.82834 -0.10853224 -27.42967 -0.1063917 -27.410112 -27.094992 -110.69731
136873000 -26.45483 -114.76118 -0.10944826 -27.633459 -0.10632909 -27.608292 -27.00588 -110.64661
137872000 -26.380068 -114.87353 -0.10984594 -27.832558 -0.10675462 -27.816729 -26.896519 -110.61325
138871000 -26.298695 -115.08315 -0.11002091 -28.034128 -0.10653707 -28.019642 -26.795958 -110.80825
139870000 -26.202528 -115.35247 -0.11065365 -28.2334 -0.10826763 -28.216127 -26.718945 -110.97533
140869000 -26.112303 -115.86388 -0.11273731 -28.425396 -0.10888259 -28.410776 -26.60252 -111.17506
141868000 -26.024649 -116.34258 -0.11294054 -28.619513 -0.11026756 -28.604153 -26.537601 -111.51006
142867000 -25.946981 -116.60927 -0.11121503 -28.816759 -0.10877987 -28.800852 -26.459972 -111.74751
143866000 -25.881725 -117.13414 -0.11317089 -29.013306 -0.1100833 -28.997658 -26.386917 -112.21779
144865000 -25.823368 -117.63914 -0.11420111 -29.213825 -0.11152178 -29.199724 -26.328819 -112.57727
145864000 -25.768335 -118.02343 -0.11489347 -29.412888 -0.112431 -29.403675 -26.296961 -112.83705
146863000 -25.725252 -118.42478 -0.11534109 -29.611698 -0.11263821 -29.603031 -26.245239 -113.17934
147862000 -25.688528 -118.8055 -0.11697304 -29.805883 -0.11414265 -29.797356 -26.216919 -113.56024
148861000 -25.657614 -119.32879 -0.11751637 -30.008526 -0.11502158 -29.994282 -26.186419 -113.82523
149860000 -25.642597 -119.55446 -0.11819781 -30.208401 -0.11481877 -30.195242 -26.160046 -113.96832
150859000 -25.626341 -119.91475 -0.11799246 -30.407412 -0.1148193 -30.389896 -26.157131 -114.23499
151858000 -25.604668 -120.23557 -0.11771158 -30.607071 -0.11571034 -30.59235 -26.148348 -114.55766
152857000 -25.587679 -120.56687 -0.11860321 -30.804827 -0.11591292 -30.791033 -26.130743 -114.69005
153856000 -25.578329 -120.80898 -0.11817919 -31.00062 -0.11542536 -30.989805 -26.149742 -115.00348
154855000 -25.574909 -120.97684 -0.11869685 -31.200464 -0.11520553 -31.189594 -26.140139 -115.22658
155854000 -25.587999 -121.20803 -0.11896502 -31.400225 -0.11669782 -31.385399 -26.137323 -115.46638
156853000 -25.571344 -121.92271 -0.11695044 -31.585938 -0.11528766 -31.580132 -26.130217 -115.77055
157852000 -25.578131 -122.13057 -0.11732116 -31.788345 -0.11671484 -31.780489 -26.120371 -116.1302
158851000 -25.57336 -122.3506 -0.11912759 -31.986845 -0.11740068 -31.97727 -26.103544 -116.36269
159850000 -25.554825 -122.52178 -0.11964989 -32.183395 -0.11764137 -32.175625 -26.104269 -116.54566
160849000 -25.532038 -122.62912 -0.11955064 -32.383068 -0.11844413 -32.380733 -26.076717 -116.8716
161848000 -25.513615 -122.74782 -0.12030079 -32.585251 -0.11854788 -32.574249 -26.029123 -116.94198
162847000 -25.472172 -122.95265 -0.12095792 -32.778606 -0.11821111 -32.775486 -26.005251 -117.19229
163846000 -25.428495 -123.13158 -0.12012994 -32.984718 -0.11905016 -32.975353 -25.920149 -117.21019
164845000 -25.370838 -123.18753 -0.12043492 -33.181488 -0.11892565 -33.175423 -25.854158 -117.30327
165844000 -25.313202 -123.24995 -0.12115968 -33.38092 -0.11977389 -33.371643 -25.776226 -117.47356
166843000 -25.246269 -123.3406 -0.12094168 -33.574535 -0.1187655 -33.570068 -25.699707 -117.64972
167842000 -25.189257 -123.49747 -0.12194978 -33.775883 -0.11989044 -33.769859 -25.620644 -117.58882
168841000 -25.109474 -123.6832 -0.12273044 -33.973114 -0.12021616 -33.975166 -25.538546 -117.66316
169840000 -25.042976 -123.96967 -0.12254911 -34.174091 -0.12115888 -34.169502 -25.453405 -117.87131
170839000 -24.985565 -124.22549 -0.12235341 -34.366745 -0.12079263 -34.367168 -25.363569 -118.10223
171838000 -24.927893 -124.6637 -0.1225571 -34.568954 -0.12202593 -34.564011 -25.300217 -118.34216
172837000 -24.856735 -125.05473 -0.12392434 -34.767517 -0.12283829 -34.758446 -25.232361 -118.57726
173836000 -24.787914 -125.47731 -0.12522008 -34.964668 -0.12387639 -34.961933 -25.189144 -118.82446
174835000 -24.740654 -125.95545 -0.12548332 -35.161095 -0.12489024 -35.160923 -25.14551 -119.19405
175834000 -24.689362 -126.34209 -0.12662387 -35.356575 -0.12578894 -35.353497 -25.079853 -119.47782
176833000 -24.637388 -126.73587 -0.12727155 -35.555382 -0.12667316 -35.553711 -25.027256 -119.67243
177832000 -24.588701 -127.23007 -0.12754132 -35.750759 -0.12671715 -35.752518 -25.005405 -119.87728
178831000 -24.556406 -127.6253 -0.12804838 -35.947231 -0.12748374 -35.943264 -24.970413 -120.06568
179830000 -24.520138 -128.02547 -0.12896372 -36.14732 -0.12796625 -36.147068 -24.942003 -120.22014
180829000 -24.479425 -128.27789 -0.12991047 -36.344177 -0.12852243 -36.343769 -24.912695 -120.46988
181828000 -24.459269 -128.64754 -0.12963682 -36.53997 -0.12847923 -36.537781 -24.892738 -120.56178
182827000 -24.431339 -128.98505 -0.12959228 -36.733303 -0.12862907 -36.735249 -24.877926 -120.6407
183826000 -24.392754 -129.32811 -0.13053411 -36.934414 -0.12888665 -36.927666 -24.868225 -120.79124
184825000 -24.396303 -129.65829 -0.13032098 -37.130089 -0.12992275 -37.128361 -24.854523 -120.88088
185824000 -24.366367 -130.00653 -0.13063762 -37.320599 -0.12964483 -37.322109 -24.850658 -120.94873
186823000 -24.35639 -130.37679 -0.13126323 -37.521984 -0.12989368 -37.519592 -24.848928 -120.93713
187822000 -24.328518 -130.6821 -0.13094574 -37.71999 -0.13048956 -37.719616 -24.809429 -121.00092
188821000 -24.312456 -130.92883 -0.13146546 -37.914238 -0.13098042 -37.918678 -24.795151 -121.13049
189820000 -24.296101 -131.19684 -0.13189505 -38.115646 -0.13088678 -38.115078 -24.783701 -121.26148
190819000 -24.262001 -131.44536 -0.13304797 -38.31464 -0.13166718 -38.317242 -24.75157 -121.22199
191818000 -24.227804 -131.60504 -0.13417663 -38.512112 -0.13330902 -38.509678 -24.715755 -121.13566
192817000 -24.156527 -131.89069 -0.13495281 -38.695698 -0.13409439 -38.695038 -24.640711 -121.18515
193816000 -24.117939 -132.25322 -0.13410908 -38.888802 -0.13256061 -38.885769 -24.584436 -121.43958
194815000 -24.061876 -132.70172 -0.13374199 -39.085876 -0.13280562 -39.088543 -24.518808 -121.58319
195814000 -24.008293 -132.92963 -0.13454667 -39.279755 -0.13280082 -39.281696 -24.46837 -121.68915
196813000 -23.962029 -133.27986 -0.13429622 -39.477924 -0.13222809 -39.479668 -24.390701 -121.8667
197812000 -23.901176 -133.50784 -0.13363041 -39.676861 -0.13317662 -39.67429 -24.318193 -121.97766
198811000 -23.847414 -133.70274 -0.13319264 -39.870747 -0.13216671 -39.87598 -24.243631 -122.16587
199810000 -23.776665 -134.073 -0.13468632 -40.068935 -0.13258035 -40.062737 -24.166985 -122.2728
200809000 -23.716427 -134.37166 -0.135281 -40.26395 -0.13333517 -40.262535 -24.083302 -122.47184
201808000 -23.660692 -134.58289 -0.1358584 -40.466255 -0.13513145 -40.470318 -24.020441 -122.56599
202807000 -23.606178 -134.98508 -0.13599114 -40.666008 -0.13533308 -40.664684 -23.962982 -122.79451
203806000 -23.551146 -135.4174 -0.13779947 -40.864273 -0.13499179 -40.867184 -23.896111 -122.97581
