!Keysight Technologies,E5080B,MY59205177,A.15.75.32
!Date: Friday, February 23, 2024 03:29:19
!Correction: S11(Cdelta 2-Port  ) 
!S21(Cdelta 2-Port  ) 
!S12(Cdelta 2-Port  ) 
!S22(Cdelta 2-Port  ) 
!S2P File: Measurements: S11, S21, S12, S22:
# Hz S  dB   R 50
10000000 -45.99971 -1.3825519 -0.015309251 -2.0516064 -0.019018065 -2.1042168 -46.071095 -158.46231
10999000 -45.216152 -3.5428157 -0.016603116 -2.2715883 -0.018454691 -2.3234956 -45.969898 -151.79874
11998000 -44.250599 -6.7540588 -0.016558163 -2.4973898 -0.017904647 -2.5393407 -46.175304 -147.94122
12997000 -43.560181 -12.457708 -0.015505903 -2.6777849 -0.018103497 -2.7052937 -45.789124 -141.77438
13996000 -43.279728 -16.209726 -0.015876114 -2.8562591 -0.017636148 -2.8823695 -45.70113 -136.95297
14995000 -42.896801 -20.393211 -0.017576629 -3.0662212 -0.017452393 -3.09045 -45.36668 -133.36795
15994000 -42.748005 -24.664968 -0.018820733 -3.2905872 -0.020225395 -3.3068869 -45.236996 -129.80942
16993000 -42.656918 -29.336285 -0.018114675 -3.4839923 -0.019222427 -3.4946451 -44.422798 -129.47023
17992000 -42.699162 -34.640114 -0.018672025 -3.6839445 -0.020688079 -3.6862156 -43.931705 -129.68141
18991000 -43.015724 -39.769192 -0.019478023 -3.8960681 -0.021589665 -3.8882782 -43.173542 -128.05977
19990000 -42.779339 -45.484108 -0.022363158 -4.1054468 -0.02316724 -4.1031532 -42.519768 -129.09207
20989000 -42.64312 -48.799278 -0.023779117 -4.3093467 -0.024763871 -4.2971764 -41.981514 -128.57246
21988000 -42.494213 -54.040741 -0.024744345 -4.5043955 -0.025773326 -4.4956741 -41.696495 -127.77082
22987000 -42.18829 -59.051537 -0.025504081 -4.7064319 -0.026839796 -4.7004447 -41.474037 -127.34312
23986000 -42.127716 -63.000759 -0.025971236 -4.9008608 -0.025164552 -4.8994107 -41.324306 -127.00001
24985000 -41.746151 -65.871323 -0.026582986 -5.1123309 -0.026638983 -5.105886 -41.14299 -124.65646
25984000 -41.385223 -67.848579 -0.027939877 -5.3170037 -0.02662049 -5.319768 -40.81937 -122.76182
26983000 -41.098412 -69.940895 -0.028589167 -5.5165696 -0.027983908 -5.5346084 -40.711391 -122.38803
27982000 -40.92976 -70.733307 -0.029934956 -5.7183995 -0.030106988 -5.7505336 -40.452213 -120.69923
28981000 -40.893421 -72.510643 -0.028108444 -5.9160519 -0.029351922 -5.9417896 -40.2141 -120.10121
29980000 -40.453442 -73.686203 -0.027670758 -6.1124053 -0.029867187 -6.1144114 -39.936352 -119.16066
30979000 -40.094219 -72.475517 -0.025673334 -6.4609761 -0.024132593 -6.4578557 -39.455742 -119.51435
31978000 -39.870087 -73.582375 -0.024689935 -6.6599388 -0.025315044 -6.6498408 -39.194668 -118.8577
32977000 -39.687386 -75.072029 -0.024288775 -6.8703766 -0.025656668 -6.8670964 -38.979546 -118.96796
33976000 -39.524136 -76.478592 -0.025311921 -7.0711446 -0.026799686 -7.0690432 -38.657932 -118.33932
34975000 -39.234905 -77.174965 -0.026102746 -7.2718191 -0.027791377 -7.2736659 -38.42514 -117.83829
35974000 -39.033886 -77.725693 -0.024978396 -7.4670439 -0.027124494 -7.4704018 -38.149883 -116.87637
36973000 -38.794548 -78.32399 -0.025000265 -7.6668839 -0.027964106 -7.6725154 -37.896706 -115.9375
37972000 -38.625252 -78.08886 -0.024989331 -7.8788676 -0.027817691 -7.8883348 -37.649994 -115.17254
38971000 -38.301117 -77.694618 -0.025963683 -8.0820208 -0.028502138 -8.0914335 -37.49564 -113.55396
39970000 -37.968227 -77.978218 -0.025080195 -8.2756834 -0.026867406 -8.2934284 -37.215015 -112.96844
40969000 -37.684124 -77.713921 -0.024337456 -8.4705706 -0.027120586 -8.4984112 -37.003838 -111.45164
41968000 -37.327572 -77.657883 -0.024878422 -8.6775827 -0.027614748 -8.6935205 -36.801483 -110.1795
42967000 -37.044193 -77.717865 -0.025431694 -8.892621 -0.027789032 -8.9119692 -36.613453 -108.32313
43966000 -36.746906 -78.513733 -0.025801189 -9.0869684 -0.028525067 -9.103981 -36.334835 -107.61845
44965000 -36.506931 -79.17144 -0.025984777 -9.291398 -0.029265659 -9.3104706 -36.118935 -107.38094
45964000 -36.27784 -80.221931 -0.028067278 -9.497283 -0.031045469 -9.5107126 -35.894054 -106.97505
46963000 -36.090366 -82.176064 -0.027739013 -9.6900368 -0.03135547 -9.7146368 -35.721001 -107.11671
47962000 -35.933895 -83.618126 -0.029415252 -9.8914576 -0.032588143 -9.9083338 -35.51067 -107.21146
48961000 -35.715012 -84.985001 -0.031895749 -10.088053 -0.03364481 -10.110138 -35.261913 -107.36822
49960000 -35.482903 -86.341255 -0.032810096 -10.286905 -0.035440769 -10.310587 -35.143341 -107.49021
50959000 -35.259346 -87.581573 -0.034106057 -10.502004 -0.036481161 -10.512695 -34.961483 -107.79932
51958000 -35.054844 -88.725349 -0.035364565 -10.702898 -0.037874576 -10.712542 -34.77586 -108.14148
52957000 -34.828888 -89.701836 -0.036905639 -10.901004 -0.038973536 -10.910101 -34.612984 -107.87871
53956000 -34.675293 -90.435501 -0.037997566 -11.105233 -0.039582681 -11.107252 -34.476131 -107.84711
54955000 -34.502346 -90.907188 -0.038914505 -11.304505 -0.040432807 -11.306508 -34.335217 -107.75895
55954000 -34.325413 -91.833572 -0.040528174 -11.50717 -0.040923256 -11.505857 -34.215958 -107.45175
56953000 -34.211098 -91.85289 -0.039947372 -11.704791 -0.040057883 -11.69301 -34.150475 -107.70897
57952000 -34.047089 -92.382866 -0.041239455 -11.903614 -0.041152433 -11.891621 -34.058163 -107.78028
58951000 -33.924988 -92.728806 -0.041604023 -12.110534 -0.041798212 -12.089829 -33.895424 -107.78484
59950000 -33.791439 -93.080872 -0.042798825 -12.309613 -0.042930849 -12.289606 -33.820354 -108.08652
60949000 -33.679634 -93.653442 -0.043324843 -12.509603 -0.043460276 -12.491352 -33.73138 -108.30688
61948000 -33.622803 -93.968575 -0.043625265 -12.710725 -0.0434574 -12.693032 -33.649261 -108.41578
62947000 -33.52943 -94.119759 -0.044409491 -12.923479 -0.043981403 -12.902678 -33.498798 -108.72692
63946000 -33.467361 -94.884872 -0.045044772 -13.120884 -0.04557446 -13.102382 -33.407551 -108.90534
64945000 -33.348728 -95.059029 -0.045092374 -13.323552 -0.046064448 -13.305519 -33.283546 -109.36173
65944000 -33.259186 -95.46756 -0.04666857 -13.522458 -0.045785308 -13.509034 -33.206921 -109.80888
66943000 -33.111259 -95.782082 -0.044701882 -13.727317 -0.044589944 -13.708371 -33.093506 -110.1199
67942000 -33.057995 -95.632484 -0.04678056 -13.923089 -0.046372909 -13.911246 -32.963577 -110.33939
68941000 -32.938465 -95.780968 -0.045858819 -14.121626 -0.04586431 -14.105375 -32.859035 -110.31519
69940000 -32.835468 -95.807068 -0.046560246 -14.315717 -0.046210434 -14.306566 -32.722839 -110.5801
70939000 -32.733269 -95.736763 -0.046225086 -14.511553 -0.046017092 -14.508945 -32.584309 -110.48033
71938000 -32.574638 -95.345596 -0.04663717 -14.711068 -0.046189502 -14.70006 -32.450294 -110.33119
72937000 -32.42931 -95.117172 -0.046125405 -14.90807 -0.046006367 -14.902464 -32.3097 -109.97601
73936000 -32.292141 -94.749802 -0.045063343 -15.106886 -0.044789236 -15.099215 -32.186085 -109.78635
74935000 -32.161823 -94.954544 -0.045224991 -15.307259 -0.044863254 -15.29882 -32.035839 -109.48932
75934000 -32.03632 -95.137032 -0.045254286 -15.512169 -0.044634927 -15.507492 -31.94935 -109.39754
76933000 -31.907362 -95.630074 -0.045683805 -15.708941 -0.045935731 -15.700573 -31.77702 -109.74967
77932000 -31.807386 -96.323776 -0.04759755 -15.90758 -0.047951922 -15.899888 -31.670143 -109.65044
78931000 -31.727297 -97.097488 -0.046344649 -16.103014 -0.047066044 -16.099218 -31.569654 -109.49237
79930000 -31.616148 -97.97126 -0.048903689 -16.297632 -0.049170464 -16.298548 -31.47159 -109.8313
80929000 -31.493433 -98.745323 -0.050868351 -16.495289 -0.051184751 -16.494652 -31.367857 -110.08141
81928000 -31.402372 -99.453697 -0.051455591 -16.689444 -0.051868439 -16.682093 -31.240089 -109.97686
82927000 -31.301008 -100.20351 -0.053018112 -16.889145 -0.05268167 -16.885942 -31.129335 -110.3754
83926000 -31.181456 -100.97647 -0.053660944 -17.086548 -0.054129824 -17.08366 -31.007942 -110.57627
84925000 -31.070795 -101.32228 -0.055098414 -17.287643 -0.054092344 -17.277433 -30.909016 -110.56609
85924000 -30.983467 -101.78471 -0.055500858 -17.486364 -0.055375796 -17.483961 -30.822334 -110.57123
86923000 -30.874783 -102.24827 -0.056048866 -17.683184 -0.056039691 -17.677843 -30.728336 -110.4804
87922000 -30.754381 -102.59026 -0.055591837 -17.890551 -0.055552773 -17.883297 -30.638308 -110.47835
88921000 -30.693123 -102.83852 -0.05650096 -18.086451 -0.056671426 -18.08473 -30.539211 -110.43655
89920000 -30.583345 -103.36262 -0.057660259 -18.284575 -0.057230864 -18.278767 -30.49901 -110.5517
90919000 -30.479296 -103.65289 -0.058333423 -18.488516 -0.058370415 -18.482552 -30.4037 -110.7658
91918000 -30.377188 -103.98924 -0.059141044 -18.687979 -0.058614418 -18.680943 -30.331772 -110.75707
92917000 -30.28916 -104.32426 -0.060469035 -18.886179 -0.059228424 -18.882206 -30.263725 -110.87485
93916000 -30.197939 -104.69585 -0.060248025 -19.076431 -0.059886083 -19.073082 -30.175261 -111.48547
94915000 -30.123159 -105.32485 -0.061467659 -19.281734 -0.060343828 -19.273874 -30.114037 -111.32965
95914000 -30.049515 -105.51429 -0.062244087 -19.477829 -0.061786141 -19.472425 -30.028976 -111.61566
96913000 -29.967672 -105.74974 -0.06390664 -19.678654 -0.06303405 -19.676737 -29.955679 -111.99633
97912000 -29.883615 -106.20547 -0.065139391 -19.872652 -0.062621713 -19.873848 -29.875286 -112.17956
98911000 -29.779699 -106.32128 -0.065198511 -20.073925 -0.063899808 -20.073797 -29.842106 -112.41486
99910000 -29.71484 -106.45821 -0.065969564 -20.274481 -0.064698219 -20.269768 -29.714308 -112.72444
100909000 -29.618279 -106.72594 -0.065603204 -20.479361 -0.063798413 -20.473902 -29.630959 -112.89198
101908000 -29.528542 -106.96591 -0.066741541 -20.682631 -0.065104701 -20.68199 -29.524626 -112.67118
102907000 -29.395552 -106.96897 -0.067747131 -20.880972 -0.065094717 -20.881168 -29.451473 -112.65892
103906000 -29.300076 -106.99625 -0.067480788 -21.0877 -0.064559489 -21.0872 -29.30212 -112.6096
104905000 -29.144766 -106.90861 -0.067183442 -21.289953 -0.065494411 -21.287409 -29.179552 -112.26709
105904000 -29.004662 -106.99644 -0.068429746 -21.49291 -0.065253958 -21.483086 -29.065331 -112.17844
106903000 -28.895317 -107.0504 -0.068776354 -21.694189 -0.066114902 -21.692678 -28.935862 -112.0351
107902000 -28.725323 -107.385 -0.068999901 -21.89583 -0.065968253 -21.889297 -28.800558 -112.01434
108901000 -28.621897 -107.64668 -0.070502453 -22.099323 -0.067980878 -22.091869 -28.667444 -111.95026
109900000 -28.494144 -108.12328 -0.070963159 -22.302752 -0.06898649 -22.290932 -28.516409 -112.01173
110899000 -28.372143 -108.7244 -0.072089739 -22.496483 -0.069509111 -22.490274 -28.395376 -112.27932
111898000 -28.27635 -109.36226 -0.073985398 -22.698706 -0.071209185 -22.695814 -28.277147 -112.4045
112897000 -28.157442 -109.94441 -0.075584233 -22.898453 -0.071909189 -22.888933 -28.138525 -112.59477
113896000 -28.051443 -110.53261 -0.076178253 -23.101099 -0.073267154 -23.087952 -28.028488 -112.72401
114895000 -27.948452 -111.10036 -0.077349402 -23.301014 -0.074574985 -23.285765 -27.916618 -112.78991
115894000 -27.830536 -111.49591 -0.079089716 -23.498714 -0.075859495 -23.4902 -27.848669 -112.99749
116893000 -27.749304 -111.95574 -0.079242349 -23.697342 -0.077060074 -23.683422 -27.732782 -113.0404
117892000 -27.669325 -112.52614 -0.079132423 -23.892639 -0.07713306 -23.881208 -27.654118 -113.23991
118891000 -27.612818 -112.91151 -0.080254532 -24.096077 -0.077388659 -24.083445 -27.564402 -113.38203
119890000 -27.5187 -113.27098 -0.080730774 -24.294729 -0.077956311 -24.279247 -27.549656 -113.48502
120889000 -27.474247 -113.79256 -0.081838526 -24.498575 -0.078504525 -24.485291 -27.466553 -113.4321
121888000 -27.432545 -114.11306 -0.082098365 -24.693655 -0.078909665 -24.682362 -27.411612 -113.71647
122887000 -27.395893 -114.33131 -0.082923345 -24.896685 -0.080023542 -24.881674 -27.363085 -113.76146
123886000 -27.343561 -114.74036 -0.08374346 -25.103745 -0.080025919 -25.081493 -27.345713 -113.87437
124885000 -27.309021 -115.23928 -0.083983354 -25.298731 -0.080259539 -25.286232 -27.318003 -113.88329
125884000 -27.25375 -115.42259 -0.08454632 -25.499659 -0.081143513 -25.482975 -27.297443 -114.08211
126883000 -27.239304 -115.80258 -0.085275933 -25.702261 -0.08158952 -25.687695 -27.251186 -114.06527
127882000 -27.188889 -116.07323 -0.085188292 -25.90041 -0.082381956 -25.881863 -27.210648 -114.21992
128881000 -27.165283 -116.40321 -0.085068442 -26.104557 -0.082181193 -26.08897 -27.172266 -114.28162
129880000 -27.10326 -116.74731 -0.086465649 -26.304676 -0.082274847 -26.286158 -27.133274 -114.23496
130879000 -27.044142 -116.87939 -0.085834578 -26.504425 -0.083384313 -26.491266 -27.062963 -114.28292
131878000 -26.978151 -117.15823 -0.087059841 -26.708029 -0.084098689 -26.689034 -26.999846 -114.14424
132877000 -26.913 -117.22861 -0.08602336 -26.912947 -0.08345028 -26.893049 -26.916809 -114.13354
133876000 -26.822754 -117.37177 -0.086723916 -27.110308 -0.083909199 -27.091965 -26.829906 -113.9854
134875000 -26.728502 -117.50494 -0.0867218 -27.314354 -0.084219567 -27.293497 -26.730322 -113.83616
135874000 -26.64757 -117.51925 -0.086690642 -27.51095 -0.084130883 -27.49165 -26.635036 -113.80331
136873000 -26.534258 -117.47124 -0.086874709 -27.710537 -0.084454998 -27.701694 -26.546339 -113.76225
137872000 -26.455389 -117.56215 -0.087484799 -27.915239 -0.084465027 -27.897766 -26.445517 -113.6659
138871000 -26.375025 -117.78779 -0.088300236 -28.111452 -0.084760919 -28.10055 -26.34885 -113.83192
139870000 -26.273874 -118.09575 -0.088318199 -28.313383 -0.085956566 -28.298361 -26.268343 -113.97481
140869000 -26.202803 -118.59036 -0.089431055 -28.517696 -0.086900853 -28.49366 -26.167547 -114.21005
141868000 -26.121069 -119.02032 -0.090151452 -28.710066 -0.08810316 -28.69632 -26.117804 -114.48528
142867000 -26.041018 -119.25002 -0.089058749 -28.91188 -0.087105259 -28.895943 -26.039154 -114.57829
143866000 -25.96694 -119.72929 -0.090538651 -29.106073 -0.08856336 -29.092772 -25.966707 -115.06943
144865000 -25.908176 -120.21651 -0.09314847 -29.304258 -0.090352312 -29.29043 -25.905788 -115.33877
145864000 -25.849865 -120.53575 -0.093569793 -29.504915 -0.091144763 -29.495234 -25.871922 -115.5948
146863000 -25.807377 -120.87547 -0.094141409 -29.710129 -0.091553465 -29.693401 -25.826332 -115.91096
147862000 -25.766983 -121.26371 -0.09548226 -29.905468 -0.092420176 -29.892891 -25.796268 -116.23205
148861000 -25.731821 -121.6969 -0.096230656 -30.106972 -0.094030567 -30.091125 -25.766424 -116.36782
149860000 -25.705957 -121.86738 -0.097096711 -30.298494 -0.094036654 -30.285837 -25.718288 -116.48203
150859000 -25.681097 -122.31646 -0.09629523 -30.489531 -0.093832977 -30.479908 -25.698235 -116.85525
151858000 -25.664255 -122.6909 -0.096024759 -30.693583 -0.093280703 -30.681337 -25.692881 -117.15268
152857000 -25.650585 -123.02946 -0.096799977 -30.892307 -0.094337434 -30.880962 -25.676441 -117.35905
153856000 -25.652962 -123.21564 -0.096126914 -31.094372 -0.093548894 -31.076788 -25.69422 -117.6774
154855000 -25.650557 -123.38669 -0.097250506 -31.29117 -0.093838528 -31.282475 -25.680567 -117.8787
155854000 -25.663658 -123.66193 -0.097753771 -31.491982 -0.093884289 -31.480352 -25.672396 -118.17484
156853000 -25.650709 -124.33717 -0.095442042 -31.679945 -0.093386762 -31.674501 -25.664852 -118.51232
157852000 -25.653198 -124.55966 -0.096334934 -31.885332 -0.094762042 -31.873068 -25.652954 -118.83725
158851000 -25.655418 -124.78098 -0.097406961 -32.08036 -0.095170029 -32.073112 -25.645342 -119.09249
159850000 -25.640228 -124.87136 -0.097506501 -32.283058 -0.095070809 -32.273975 -25.636583 -119.26675
160849000 -25.626648 -124.95163 -0.098210759 -32.482891 -0.095979504 -32.475964 -25.610542 -119.57091
161848000 -25.606697 -125.04252 -0.097477913 -32.68396 -0.096308999 -32.675549 -25.57263 -119.65085
162847000 -25.572449 -125.23837 -0.098500967 -32.882259 -0.09679918 -32.87709 -25.541737 -119.91815
163846000 -25.531702 -125.45085 -0.098077841 -33.083984 -0.096391045 -33.076408 -25.465981 -119.93446
164845000 -25.469814 -125.40879 -0.098990873 -33.279884 -0.09703768 -33.276196 -25.403383 -120.02341
165844000 -25.419886 -125.43914 -0.098926254 -33.485813 -0.097336546 -33.473629 -25.325857 -120.16207
166843000 -25.35581 -125.47323 -0.09899617 -33.680981 -0.097762778 -33.675072 -25.255959 -120.33016
167842000 -25.299313 -125.59907 -0.099501759 -33.87859 -0.097727299 -33.873711 -25.178461 -120.27783
168841000 -25.219158 -125.7659 -0.099944361 -34.079823 -0.097768068 -34.072453 -25.104998 -120.32236
169840000 -25.157681 -126.00739 -0.10018832 -34.278133 -0.099190824 -34.27129 -25.018848 -120.5089
170839000 -25.096952 -126.27261 -0.10133788 -34.473446 -0.099450111 -34.470608 -24.936554 -120.67757
171838000 -25.035902 -126.63276 -0.10029614 -34.677586 -0.10059841 -34.668465 -24.873945 -120.88139
172837000 -24.965826 -126.98665 -0.10184188 -34.869026 -0.10121441 -34.865429 -24.80999 -121.09261
173836000 -24.898863 -127.37962 -0.10360874 -35.071419 -0.10245197 -35.068344 -24.764004 -121.33271
174835000 -24.844288 -127.7756 -0.1040112 -35.269863 -0.10302342 -35.266693 -24.722811 -121.63099
175834000 -24.792488 -128.18707 -0.10443438 -35.468739 -0.10363685 -35.464848 -24.666622 -121.91347
176833000 -24.74478 -128.50937 -0.10593385 -35.671059 -0.10482763 -35.666126 -24.614391 -122.03459
177832000 -24.699064 -128.95454 -0.1064039 -35.86779 -0.10558107 -35.865093 -24.591919 -122.1691
178831000 -24.658102 -129.19872 -0.10838255 -36.064972 -0.10710324 -36.0616 -24.554775 -122.27229
179830000 -24.590744 -129.55669 -0.10953055 -36.251259 -0.10816678 -36.249489 -24.495564 -122.28751
180829000 -24.535484 -129.90544 -0.10860097 -36.444477 -0.10745931 -36.440029 -24.445242 -122.62512
181828000 -24.509623 -130.3517 -0.10807496 -36.6423 -0.10739563 -36.637848 -24.431252 -122.84762
182827000 -24.491774 -130.7115 -0.10757819 -36.839088 -0.10678618 -36.839764 -24.415895 -122.95315
183826000 -24.452967 -131.07259 -0.10871352 -37.035065 -0.10717487 -37.033398 -24.4065 -123.10735
184825000 -24.451035 -131.38399 -0.10859673 -37.235039 -0.10750442 -37.231281 -24.385839 -123.2575
185824000 -24.422567 -131.76672 -0.10844597 -37.430084 -0.1081697 -37.432919 -24.381447 -123.32386
186823000 -24.410046 -132.12218 -0.10899805 -37.630527 -0.10750972 -37.630615 -24.373577 -123.31427
187822000 -24.383186 -132.45844 -0.10913821 -37.82729 -0.10819438 -37.824417 -24.336994 -123.397
188821000 -24.360092 -132.74139 -0.10877456 -38.020111 -0.10813546 -38.025116 -24.316046 -123.53452
189820000 -24.339819 -133.05391 -0.10950188 -38.222095 -0.108386 -38.224018 -24.300579 -123.73687
190819000 -24.303129 -133.33214 -0.11033952 -38.41811 -0.10930412 -38.419044 -24.262918 -123.76784
191818000 -24.273451 -133.62337 -0.10964577 -38.615986 -0.10886321 -38.61916 -24.232557 -123.81699
192817000 -24.227118 -133.88206 -0.11120334 -38.815651 -0.10979869 -38.815968 -24.185209 -123.89991
193816000 -24.196461 -134.17485 -0.11076464 -39.008339 -0.109684 -39.00927 -24.134069 -124.03678
194815000 -24.133921 -134.54654 -0.1113781 -39.207409 -0.11137066 -39.208717 -24.067074 -124.09804
195814000 -24.078684 -134.7097 -0.11181553 -39.404041 -0.11125274 -39.405197 -24.008099 -124.20594
196813000 -24.021671 -135.08315 -0.11194489 -39.595959 -0.11128674 -39.601494 -23.928604 -124.35939
197812000 -23.963121 -135.28847 -0.11202644 -39.797371 -0.11126549 -39.796597 -23.864101 -124.44841
198811000 -23.91198 -135.4245 -0.11212073 -39.994507 -0.11172231 -39.997337 -23.788586 -124.5972
199810000 -23.841442 -135.77638 -0.11176985 -40.187412 -0.11104427 -40.184425 -23.706762 -124.72215
200809000 -23.781157 -136.04063 -0.11286031 -40.387825 -0.11188167 -40.384731 -23.62689 -124.89816
201808000 -23.721888 -136.24194 -0.11360533 -40.587299 -0.11314937 -40.58847 -23.562933 -124.94946
202807000 -23.663818 -136.59073 -0.11372756 -40.788342 -0.11350542 -40.790386 -23.508892 -125.1441
