!Keysight Technologies,E5080B,MY59205177,A.15.75.32
!Date: Friday, February 23, 2024 02:51:09
!Correction: S11(Cdelta 2-Port  ) 
!S21(Cdelta 2-Port  ) 
!S12(Cdelta 2-Port  ) 
!S22(Cdelta 2-Port  ) 
!S2P File: Measurements: S11, S21, S12, S22:
# Hz S  dB   R 50
10000000 -42.586018 -3.6686893 -0.038809508 -2.0516355 -0.04157972 -2.1017685 -50.735962 -139.43692
10999000 -42.098232 -4.8653579 -0.039657392 -2.2660925 -0.040914111 -2.3170404 -50.092648 -129.8383
11998000 -41.400497 -6.9579396 -0.040007722 -2.4885743 -0.040942594 -2.5319421 -50.025322 -122.75172
12997000 -40.828335 -11.21929 -0.039279666 -2.6696639 -0.040218037 -2.7021134 -49.05291 -116.37714
13996000 -40.648506 -14.380825 -0.038401037 -2.8487144 -0.040416084 -2.8683438 -48.414104 -110.48518
14995000 -40.368961 -17.408939 -0.040172838 -3.0557911 -0.040068071 -3.081882 -47.700676 -107.70483
15994000 -40.259148 -20.970406 -0.041898839 -3.2778444 -0.042947058 -3.2983072 -47.224659 -103.75963
16993000 -40.295357 -24.103403 -0.041367248 -3.4738302 -0.041569002 -3.4810014 -46.3717 -106.31633
17992000 -40.380199 -28.452894 -0.041065935 -3.6671896 -0.04267282 -3.6756139 -45.773205 -108.06634
18991000 -40.700603 -32.084 -0.042268429 -3.8830762 -0.043815099 -3.8767335 -44.966091 -108.49242
19990000 -40.636646 -36.524605 -0.045177385 -4.0917993 -0.045667063 -4.0850954 -44.312309 -111.11847
20989000 -40.59581 -38.78336 -0.047102939 -4.293921 -0.047873665 -4.2874427 -43.658512 -111.8577
21988000 -40.534458 -43.448601 -0.046800967 -4.4912462 -0.048691645 -4.4791336 -43.341209 -111.80728
22987000 -40.447113 -47.41795 -0.049219158 -4.6900711 -0.049355041 -4.6825461 -43.029846 -111.58208
23986000 -40.487728 -50.846046 -0.048760232 -4.8835311 -0.047480565 -4.8830099 -42.856022 -111.5177
24985000 -40.265305 -53.400455 -0.049709294 -5.0966315 -0.048925418 -5.085072 -42.588184 -109.28452
25984000 -40.035275 -55.472225 -0.050759662 -5.3006182 -0.049158942 -5.3017931 -42.168392 -108.37647
26983000 -39.821434 -57.689358 -0.051419184 -5.4996662 -0.04998764 -5.5125632 -42.030224 -107.43975
27982000 -39.705349 -58.723248 -0.052839667 -5.6983051 -0.051418919 -5.7300582 -41.667286 -106.20098
28981000 -39.73143 -60.011253 -0.050591785 -5.8964787 -0.051585782 -5.9167213 -41.400459 -105.78403
29980000 -39.384575 -61.931519 -0.050758611 -6.0893593 -0.051861625 -6.0921459 -41.05402 -105.42065
30979000 -39.022308 -61.080963 -0.047769234 -6.4442663 -0.046856441 -6.4304752 -40.509007 -106.60587
31978000 -38.863888 -62.436508 -0.047317002 -6.6351805 -0.048157386 -6.6290803 -40.244789 -106.17365
32977000 -38.719505 -64.141884 -0.046927877 -6.8455181 -0.047969718 -6.8436251 -39.968445 -106.31384
33976000 -38.588215 -65.277481 -0.047736783 -7.0518961 -0.048848715 -7.0413723 -39.616772 -106.21838
34975000 -38.339832 -66.432999 -0.048487984 -7.2492633 -0.050294809 -7.2486324 -39.376884 -106.05163
35974000 -38.146214 -67.103081 -0.047203951 -7.4427514 -0.050175134 -7.4449902 -39.059193 -105.74991
36973000 -37.957016 -68.069664 -0.048278838 -7.6448193 -0.050692614 -7.6489334 -38.736828 -104.89371
37972000 -37.793221 -68.07296 -0.047784414 -7.8548985 -0.050336707 -7.8658543 -38.467606 -104.40453
38971000 -37.466015 -68.037704 -0.048585888 -8.0532246 -0.050433341 -8.0669937 -38.246746 -102.78113
39970000 -37.178429 -68.856094 -0.046965823 -8.2528372 -0.049184602 -8.2626686 -37.964577 -102.53859
40969000 -36.875824 -68.702713 -0.046349097 -8.4422483 -0.04944982 -8.4627132 -37.6507 -101.18624
41968000 -36.565327 -69.209991 -0.046579607 -8.6511736 -0.049727622 -8.6622419 -37.430145 -100.18959
42967000 -36.316868 -69.461288 -0.04663429 -8.860939 -0.049822673 -8.876997 -37.182518 -98.449104
43966000 -36.039761 -70.430153 -0.04814744 -9.0590935 -0.051407397 -9.0821466 -36.872799 -97.965271
44965000 -35.847095 -71.445152 -0.049100824 -9.2643929 -0.051130794 -9.2826481 -36.668976 -98.063072
45964000 -35.644489 -72.65844 -0.049688086 -9.4647551 -0.052468129 -9.4799948 -36.419621 -97.98925
46963000 -35.490459 -74.656677 -0.050806802 -9.6557741 -0.052859057 -9.679781 -36.225735 -98.400986
47962000 -35.363838 -76.209694 -0.05194205 -9.8568707 -0.054359175 -9.8778076 -36.03146 -98.706024
48961000 -35.16581 -77.759781 -0.054277394 -10.053462 -0.055268303 -10.077402 -35.793633 -99.147171
49960000 -34.996548 -79.086967 -0.055591051 -10.255451 -0.056734368 -10.277807 -35.646343 -99.340805
50959000 -34.796127 -80.595215 -0.055592101 -10.467913 -0.058632787 -10.477758 -35.486153 -99.814346
51958000 -34.617847 -81.785599 -0.058085237 -10.666381 -0.059565376 -10.675747 -35.323933 -100.50906
52957000 -34.433022 -82.946655 -0.060013115 -10.865121 -0.060498696 -10.873238 -35.144463 -100.38716
53956000 -34.291599 -83.818024 -0.060316794 -11.067047 -0.061911125 -11.07018 -35.013126 -100.50489
54955000 -34.136757 -84.341835 -0.061691619 -11.268008 -0.0623121 -11.267899 -34.849529 -100.58031
55954000 -33.979244 -85.390144 -0.062661633 -11.469665 -0.063160121 -11.470043 -34.746616 -100.4285
56953000 -33.875835 -85.439224 -0.06208653 -11.670959 -0.061970469 -11.65387 -34.654205 -100.69488
57952000 -33.723751 -86.084076 -0.063444056 -11.868643 -0.063451149 -11.854535 -34.567074 -100.83006
58951000 -33.610279 -86.532036 -0.063937113 -12.072662 -0.064356923 -12.048484 -34.407333 -101.04162
59950000 -33.486439 -87.018196 -0.065386929 -12.27 -0.065100759 -12.248322 -34.333897 -101.35584
60949000 -33.386044 -87.674988 -0.065118894 -12.473623 -0.064834058 -12.450089 -34.243347 -101.7041
61948000 -33.337269 -87.97081 -0.066516794 -12.670312 -0.065265782 -12.651896 -34.168949 -101.89186
62947000 -33.249168 -88.160995 -0.065898336 -12.879595 -0.065823697 -12.862569 -34.02829 -102.14468
63946000 -33.192131 -88.970985 -0.066564895 -13.08247 -0.066921346 -13.061633 -33.906773 -102.38672
64945000 -33.082539 -89.153702 -0.067795247 -13.280491 -0.067569919 -13.263796 -33.806816 -102.94633
65944000 -32.989204 -89.55571 -0.068787664 -13.477142 -0.067884378 -13.466638 -33.732243 -103.38268
66943000 -32.84977 -89.962379 -0.065883622 -13.681393 -0.066284172 -13.664944 -33.627148 -103.72044
67942000 -32.786938 -89.95488 -0.068066865 -13.876207 -0.068418436 -13.867821 -33.489399 -104.10497
68941000 -32.67823 -90.052567 -0.067705587 -14.074245 -0.066714466 -14.063017 -33.389637 -104.13918
69940000 -32.578568 -90.185455 -0.067971416 -14.269406 -0.068382941 -14.262595 -33.244434 -104.40967
70939000 -32.471737 -90.098618 -0.068327449 -14.467249 -0.067400075 -14.458886 -33.115795 -104.36588
71938000 -32.324535 -89.814095 -0.068240151 -14.665477 -0.068130761 -14.656631 -32.984268 -104.26508
72937000 -32.167671 -89.738472 -0.06790752 -14.859767 -0.067788668 -14.860238 -32.821415 -104.01183
73936000 -32.024155 -89.40876 -0.067477107 -15.060108 -0.066269189 -15.051954 -32.70414 -103.83336
74935000 -31.880943 -89.705872 -0.066606164 -15.252842 -0.06591069 -15.253539 -32.546745 -103.60089
75934000 -31.78005 -90.123238 -0.067100897 -15.467042 -0.066424534 -15.459488 -32.462566 -103.50629
76933000 -31.658405 -90.49456 -0.067379571 -15.660063 -0.067410856 -15.652779 -32.293049 -104.04043
77932000 -31.56185 -91.288597 -0.06959486 -15.855347 -0.069030151 -15.849916 -32.195827 -103.95056
78931000 -31.49719 -92.063011 -0.068469189 -16.056839 -0.068065546 -16.047199 -32.091915 -103.91898
79930000 -31.397713 -92.92453 -0.070737667 -16.24437 -0.070920266 -16.244711 -31.987118 -104.21923
80929000 -31.277817 -93.887985 -0.072338723 -16.444723 -0.072269499 -16.440353 -31.89307 -104.66448
81928000 -31.199276 -94.779213 -0.072435319 -16.636461 -0.072756715 -16.631138 -31.774673 -104.82212
82927000 -31.110754 -95.546738 -0.07458894 -16.835461 -0.074235022 -16.832611 -31.673641 -105.21585
83926000 -31.009415 -96.309113 -0.075510219 -17.032072 -0.074594997 -17.030739 -31.561703 -105.45574
84925000 -30.900492 -96.800606 -0.07648991 -17.232389 -0.074712716 -17.225645 -31.461628 -105.60322
85924000 -30.822729 -97.291328 -0.077373378 -17.42977 -0.076951519 -17.423656 -31.372217 -105.63471
86923000 -30.716562 -97.84304 -0.078150809 -17.626919 -0.077296436 -17.626747 -31.268677 -105.54337
87922000 -30.615486 -98.306671 -0.07736969 -17.833284 -0.076924115 -17.825861 -31.180555 -105.69705
88921000 -30.547186 -98.617737 -0.078856155 -18.035488 -0.078066997 -18.029482 -31.085163 -105.71694
89920000 -30.448776 -99.187119 -0.079508618 -18.233387 -0.078095995 -18.224001 -31.04266 -105.93791
90919000 -30.351019 -99.53035 -0.080297247 -18.42877 -0.079400793 -18.422739 -30.948166 -106.11481
91918000 -30.258459 -99.967117 -0.08119072 -18.627802 -0.079804964 -18.621727 -30.878471 -106.23817
92917000 -30.169357 -100.32784 -0.081414387 -18.823034 -0.080310166 -18.820225 -30.816902 -106.33219
93916000 -30.090626 -100.71739 -0.082064331 -19.019732 -0.080548555 -19.012756 -30.73737 -107.03648
94915000 -30.01807 -101.39049 -0.083058171 -19.222874 -0.081757806 -19.211203 -30.669394 -106.88824
95914000 -29.952494 -101.59841 -0.084033236 -19.416437 -0.082579561 -19.412764 -30.57546 -107.13882
96913000 -29.871511 -101.85977 -0.084988192 -19.617043 -0.08379598 -19.610754 -30.513887 -107.55417
97912000 -29.794645 -102.38761 -0.086096764 -19.809673 -0.084110297 -19.811073 -30.425076 -107.80644
98911000 -29.701973 -102.60152 -0.086662911 -20.013445 -0.085339822 -20.009968 -30.390076 -108.03384
99910000 -29.62682 -102.73843 -0.087361187 -20.211912 -0.08554548 -20.208799 -30.284538 -108.36604
100909000 -29.540009 -103.05087 -0.086755864 -20.41975 -0.085073724 -20.413073 -30.19281 -108.57652
101908000 -29.456018 -103.34229 -0.087799385 -20.618637 -0.086130299 -20.615984 -30.075459 -108.31224
102907000 -29.31959 -103.36098 -0.088564679 -20.815937 -0.086112872 -20.819792 -30.004148 -108.33104
103906000 -29.219337 -103.46123 -0.088768907 -21.026798 -0.085704155 -21.017189 -29.849279 -108.26555
104905000 -29.070889 -103.39608 -0.089790449 -21.223454 -0.086281598 -21.220398 -29.71209 -108.0096
105904000 -28.933643 -103.5586 -0.089520112 -21.425432 -0.086552262 -21.416285 -29.600428 -107.90115
106903000 -28.825884 -103.64489 -0.089450084 -21.628944 -0.087346926 -21.626823 -29.462923 -107.78413
107902000 -28.657322 -104.07026 -0.089360766 -21.827559 -0.087628484 -21.818338 -29.318756 -107.81699
108901000 -28.552275 -104.33948 -0.091182828 -22.030172 -0.088663489 -22.025606 -29.184019 -107.75951
109900000 -28.427702 -104.86416 -0.091821812 -22.233572 -0.089604937 -22.225014 -29.03964 -107.89854
110899000 -28.311455 -105.51755 -0.093504988 -22.428143 -0.090687461 -22.421383 -28.909891 -108.20209
111898000 -28.222776 -106.21604 -0.094790086 -22.629387 -0.091696233 -22.62344 -28.783291 -108.37792
112897000 -28.103146 -106.83861 -0.0961674 -22.82823 -0.092936896 -22.820957 -28.657215 -108.6133
113896000 -28.000189 -107.45951 -0.097421259 -23.028278 -0.094031624 -23.020296 -28.540497 -108.80489
114895000 -27.902346 -108.14063 -0.09797591 -23.226591 -0.095756151 -23.214724 -28.431339 -108.88234
115894000 -27.774561 -108.52876 -0.099758409 -23.428659 -0.096666045 -23.413692 -28.365795 -109.14371
116893000 -27.699108 -109.15082 -0.1001417 -23.622576 -0.097562097 -23.6092 -28.232744 -109.26791
117892000 -27.61665 -109.61218 -0.10002118 -23.819063 -0.097999997 -23.809612 -28.157179 -109.5574
118891000 -27.568848 -110.07382 -0.1007526 -24.017916 -0.098958567 -24.007177 -28.066874 -109.72873
119890000 -27.470999 -110.49876 -0.10172847 -24.222027 -0.099795491 -24.205008 -28.045721 -109.91733
120889000 -27.420677 -110.9909 -0.10237616 -24.419735 -0.099432625 -24.405325 -27.975891 -109.84009
121888000 -27.382683 -111.34442 -0.10332668 -24.617109 -0.10051841 -24.605181 -27.916273 -110.18703
122887000 -27.339472 -111.5303 -0.10345551 -24.820847 -0.10019336 -24.807642 -27.865297 -110.20215
123886000 -27.28517 -111.98656 -0.10430816 -25.019989 -0.10142108 -25.003006 -27.851189 -110.37773
124885000 -27.255924 -112.50411 -0.10429623 -25.221972 -0.10175762 -25.205511 -27.826956 -110.45247
125884000 -27.194786 -112.70264 -0.10529305 -25.421383 -0.1023046 -25.408352 -27.788599 -110.67091
126883000 -27.176083 -113.11877 -0.10604101 -25.621128 -0.10296776 -25.608189 -27.745825 -110.69819
127882000 -27.127356 -113.40504 -0.10658801 -25.822706 -0.10326438 -25.804138 -27.703257 -110.87755
128881000 -27.093647 -113.71122 -0.10636411 -26.024426 -0.10357852 -26.008614 -27.663858 -110.98779
129880000 -27.038841 -114.06779 -0.10726614 -26.225805 -0.10368562 -26.2055 -27.620718 -110.96999
130879000 -26.976236 -114.24425 -0.10708944 -26.422911 -0.10407987 -26.407 -27.540144 -111.03739
131878000 -26.908251 -114.46166 -0.10772652 -26.623289 -0.10515328 -26.606873 -27.475334 -110.93441
132877000 -26.842985 -114.51845 -0.10693157 -26.828224 -0.10500185 -26.810057 -27.387411 -110.94983
133876000 -26.755768 -114.71733 -0.10783558 -27.029968 -0.10391416 -27.009195 -27.295744 -110.85635
134875000 -26.664179 -114.84978 -0.10806009 -27.229057 -0.10555509 -27.212095 -27.190754 -110.75786
135874000 -26.574713 -114.88184 -0.10831434 -27.428158 -0.10481224 -27.412096 -27.083155 -110.7664
136873000 -26.462976 -114.87552 -0.10823153 -27.628969 -0.10486156 -27.613819 -27.002121 -110.75034
137872000 -26.379416 -114.96394 -0.10877138 -27.830322 -0.10583623 -27.818192 -26.882397 -110.70643
138871000 -26.306337 -115.21576 -0.10940339 -28.028679 -0.10580282 -28.016924 -26.792931 -110.87065
139870000 -26.207947 -115.45638 -0.10929562 -28.232771 -0.10687108 -28.212204 -26.711102 -111.08501
140869000 -26.120184 -115.96442 -0.1108459 -28.42548 -0.10832071 -28.405655 -26.596729 -111.24028
141868000 -26.031557 -116.41248 -0.11199111 -28.61828 -0.10885976 -28.605471 -26.532528 -111.60439
142867000 -25.950706 -116.67522 -0.11015765 -28.815994 -0.10834035 -28.799076 -26.453983 -111.78754
143866000 -25.883898 -117.21667 -0.11220414 -29.014299 -0.10929376 -28.996332 -26.38233 -112.30057
144865000 -25.826366 -117.73112 -0.11329843 -29.213078 -0.11076836 -29.197905 -26.325811 -112.66636
145864000 -25.774387 -118.07256 -0.11341561 -29.410507 -0.11186653 -29.401085 -26.290804 -112.91985
146863000 -25.725906 -118.50963 -0.11470767 -29.613228 -0.11190558 -29.602154 -26.244652 -113.25512
147862000 -25.684971 -118.86163 -0.11539027 -29.809582 -0.11277158 -29.797531 -26.208033 -113.59758
148861000 -25.656338 -119.38732 -0.11638086 -30.010065 -0.11335742 -29.992477 -26.186806 -113.86716
149860000 -25.642843 -119.58252 -0.11632104 -30.205395 -0.1135086 -30.194685 -26.156628 -114.04613
150859000 -25.619167 -119.96356 -0.11770467 -30.405195 -0.11341082 -30.391901 -26.147816 -114.34225
151858000 -25.604794 -120.30097 -0.11696108 -30.606085 -0.11477093 -30.588552 -26.141279 -114.58776
152857000 -25.585243 -120.63811 -0.11714218 -30.799746 -0.11443286 -30.790398 -26.125885 -114.74465
153856000 -25.580368 -120.83485 -0.11710627 -31.001492 -0.11345839 -30.987787 -26.141993 -115.07771
154855000 -25.574404 -121.02866 -0.11723711 -31.201496 -0.11476668 -31.186544 -26.133303 -115.27766
155854000 -25.588902 -121.27506 -0.11832177 -31.399313 -0.11501201 -31.385679 -26.125849 -115.51344
156853000 -25.570562 -121.99335 -0.115629 -31.584831 -0.11440495 -31.579794 -26.122299 -115.84703
157852000 -25.578905 -122.19345 -0.11687704 -31.784456 -0.11607882 -31.778616 -26.111959 -116.20286
158851000 -25.576632 -122.42581 -0.11777196 -31.983877 -0.11610701 -31.976606 -26.096632 -116.45078
159850000 -25.56048 -122.57166 -0.11823744 -32.183632 -0.11659571 -32.176376 -26.09374 -116.63753
160849000 -25.537153 -122.66217 -0.1181079 -32.381172 -0.11737195 -32.378799 -26.066195 -116.93491
161848000 -25.521103 -122.78754 -0.11919383 -32.583286 -0.11708207 -32.576214 -26.026199 -116.98205
162847000 -25.47818 -122.98885 -0.11920341 -32.781734 -0.11820206 -32.780331 -25.994915 -117.25246
163846000 -25.436693 -123.24184 -0.11909433 -32.981274 -0.11790628 -32.977318 -25.916239 -117.25539
164845000 -25.371836 -123.25608 -0.11940243 -33.178925 -0.11813982 -33.177135 -25.847763 -117.39439
165844000 -25.314587 -123.3232 -0.11957937 -33.381943 -0.11853085 -33.372787 -25.76556 -117.54102
166843000 -25.255342 -123.40724 -0.11963073 -33.577705 -0.11893044 -33.573944 -25.694094 -117.74094
167842000 -25.193207 -123.56892 -0.12004904 -33.779331 -0.11850958 -33.769642 -25.609007 -117.62521
168841000 -25.113155 -123.74747 -0.12027365 -33.974319 -0.11973584 -33.975174 -25.527523 -117.74514
169840000 -25.045607 -124.02954 -0.1204956 -34.166721 -0.119813 -34.172577 -25.443306 -117.94207
170839000 -24.987597 -124.3071 -0.12193647 -34.367687 -0.1199716 -34.361858 -25.351318 -118.1521
171838000 -24.929365 -124.72659 -0.12114451 -34.571663 -0.12150387 -34.561241 -25.290947 -118.39678
172837000 -24.862949 -125.10275 -0.12347263 -34.764164 -0.12197933 -34.758247 -25.221018 -118.64986
173836000 -24.792713 -125.54627 -0.12429352 -34.963009 -0.12312163 -34.962482 -25.186455 -118.90605
174835000 -24.741974 -125.98493 -0.12494139 -35.157639 -0.12406391 -35.157238 -25.135633 -119.24059
175834000 -24.688307 -126.39242 -0.1249691 -35.354996 -0.12488438 -35.354073 -25.068964 -119.5322
176833000 -24.640133 -126.78201 -0.12608047 -35.554527 -0.12480605 -35.5522 -25.020435 -119.72988
177832000 -24.593147 -127.26788 -0.12704471 -35.750706 -0.1256256 -35.750549 -25.000141 -119.92767
178831000 -24.559097 -127.65656 -0.12735419 -35.946857 -0.12597148 -35.942261 -24.957563 -120.14698
179830000 -24.517073 -128.10205 -0.12753119 -36.143776 -0.1258942 -36.142654 -24.936495 -120.28208
180829000 -24.48023 -128.32979 -0.12786601 -36.341454 -0.12661479 -36.341934 -24.908638 -120.49551
181828000 -24.457609 -128.69777 -0.12877253 -36.537483 -0.12738004 -36.536758 -24.887072 -120.64431
182827000 -24.434435 -129.06886 -0.12830965 -36.731991 -0.12756397 -36.73695 -24.870632 -120.69708
183826000 -24.398407 -129.39857 -0.12978432 -36.930676 -0.12740509 -36.93042 -24.859804 -120.86651
184825000 -24.395105 -129.69141 -0.12931333 -37.128246 -0.12883653 -37.124489 -24.847113 -120.96893
185824000 -24.364546 -130.07037 -0.12906212 -37.321133 -0.12878694 -37.324944 -24.841431 -120.97209
186823000 -24.351738 -130.40826 -0.12988541 -37.521637 -0.12846002 -37.520916 -24.840481 -120.9681
187822000 -24.331797 -130.72659 -0.12992595 -37.718136 -0.1292488 -37.719955 -24.804903 -121.07334
188821000 -24.31509 -130.99606 -0.13011719 -37.91309 -0.13007291 -37.918243 -24.788248 -121.18156
189820000 -24.29899 -131.23682 -0.13007665 -38.114773 -0.12974112 -38.116444 -24.775679 -121.33627
190819000 -24.268705 -131.49738 -0.13118665 -38.313667 -0.13083129 -38.311958 -24.746016 -121.29632
191818000 -24.23073 -131.66566 -0.13306025 -38.508369 -0.13264762 -38.509914 -24.709463 -121.19151
192817000 -24.164314 -131.95329 -0.13341632 -38.693741 -0.13242957 -38.692841 -24.6311 -121.23725
193816000 -24.124464 -132.29431 -0.13290678 -38.885345 -0.13161595 -38.887749 -24.576324 -121.50908
194815000 -24.065865 -132.73672 -0.13280402 -39.081406 -0.13170987 -39.083931 -24.511951 -121.62305
195814000 -24.015671 -132.99443 -0.13326524 -39.282093 -0.13178085 -39.279888 -24.454981 -121.7291
196813000 -23.966709 -133.34291 -0.13272262 -39.477394 -0.13255367 -39.479465 -24.383148 -121.90391
197812000 -23.905018 -133.55309 -0.13318355 -39.67691 -0.13197511 -39.670238 -24.312408 -122.0435
198811000 -23.853479 -133.77917 -0.13271648 -39.871048 -0.13186891 -39.875561 -24.240171 -122.20397
199810000 -23.780945 -134.14722 -0.13348892 -40.063793 -0.13209599 -40.063614 -24.161222 -122.32973
200809000 -23.724773 -134.42722 -0.13440143 -40.263344 -0.1325518 -40.262711 -24.080095 -122.53499
201808000 -23.663149 -134.66705 -0.13380232 -40.464085 -0.13375908 -40.467384 -24.011803 -122.61602
202807000 -23.606905 -135.02866 -0.1352663 -40.664516 -0.13446176 -40.66396 -23.956512 -122.83498
203806000 -23.554588 -135.49997 -0.13680345 -40.863903 -0.13448313 -40.864655 -23.888107 -122.98401
