!Keysight Technologies,E5080B,MY59205177,A.15.75.32
!Date: Friday, February 23, 2024 03:29:25
!Correction: S11(Cdelta 2-Port  ) 
!S21(Cdelta 2-Port  ) 
!S12(Cdelta 2-Port  ) 
!S22(Cdelta 2-Port  ) 
!S2P File: Measurements: S11, S21, S12, S22:
# Hz S  dB   R 50
10000000 -45.979561 -1.5951061 -0.015857408 -2.0529411 -0.019372454 -2.1074004 -46.06076 -158.16719
10999000 -45.199627 -3.4730783 -0.016716674 -2.2694299 -0.019292889 -2.3226087 -45.99192 -151.84193
11998000 -44.277962 -6.7729673 -0.017134285 -2.4942083 -0.018744558 -2.5384884 -46.149822 -147.99991
12997000 -43.513039 -12.504681 -0.016561281 -2.6765389 -0.017813152 -2.7074962 -45.867512 -142.02382
13996000 -43.28397 -16.318789 -0.015573189 -2.8576031 -0.018480947 -2.8800049 -45.69405 -136.90634
14995000 -42.903111 -20.432772 -0.017957412 -3.0700173 -0.018715441 -3.0924969 -45.358337 -132.91408
15994000 -42.71019 -24.982561 -0.020023065 -3.2834008 -0.021066016 -3.3098109 -45.25404 -129.88638
16993000 -42.645779 -29.411465 -0.018766398 -3.4841819 -0.020465704 -3.4947162 -44.483299 -129.48303
17992000 -42.726006 -34.704128 -0.018976726 -3.6833963 -0.020682096 -3.6875236 -43.846371 -129.33238
18991000 -43.002445 -39.84848 -0.01955317 -3.8938854 -0.021517605 -3.8952549 -43.164753 -128.38086
19990000 -42.771915 -45.424786 -0.022094645 -4.1040292 -0.02368854 -4.0982814 -42.507992 -129.07196
20989000 -42.612041 -48.915169 -0.024387956 -4.3092418 -0.025666043 -4.3030491 -41.995281 -128.34976
21988000 -42.498493 -54.049198 -0.025170801 -4.5080562 -0.026615543 -4.4973149 -41.711033 -127.80853
22987000 -42.2187 -59.067593 -0.026316555 -4.7051992 -0.027495435 -4.6932306 -41.45771 -127.11197
23986000 -42.108356 -63.072685 -0.025812386 -4.9005799 -0.026450159 -4.8992391 -41.392754 -127.10705
24985000 -41.706512 -65.782997 -0.026607729 -5.1119471 -0.027506897 -5.1078982 -41.165352 -124.53516
25984000 -41.411343 -68.09214 -0.028698087 -5.3133225 -0.027667891 -5.3161626 -40.793503 -123.04546
26983000 -41.065407 -69.970436 -0.028828377 -5.516633 -0.027805446 -5.5324855 -40.720238 -122.39145
27982000 -40.903591 -70.8339 -0.029991778 -5.7157989 -0.030170068 -5.7501602 -40.436569 -120.78952
28981000 -40.893429 -72.433205 -0.027546754 -5.9120092 -0.02971367 -5.9362035 -40.223427 -119.81664
29980000 -40.465809 -73.720734 -0.028389836 -6.1070676 -0.030535014 -6.1194935 -39.913425 -119.32581
30979000 -40.093098 -72.659515 -0.025237454 -6.4624896 -0.025115864 -6.4572783 -39.433064 -119.52472
31978000 -39.871975 -73.661263 -0.025020054 -6.6624498 -0.026246499 -6.652164 -39.180851 -118.82312
32977000 -39.693638 -75.135162 -0.025300724 -6.8732362 -0.026416041 -6.8619714 -38.931026 -118.94719
33976000 -39.513241 -76.333748 -0.025870197 -7.0723085 -0.026590539 -7.067205 -38.662102 -118.22862
34975000 -39.231033 -77.268372 -0.025679061 -7.2718983 -0.028294995 -7.2723765 -38.439991 -117.97406
35974000 -39.033943 -77.537621 -0.024857854 -7.4661012 -0.026882254 -7.469501 -38.15284 -116.9304
36973000 -38.787621 -78.457222 -0.025689999 -7.6683345 -0.028622782 -7.671731 -37.89991 -115.79375
37972000 -38.596741 -78.188416 -0.025608756 -7.8781128 -0.028670466 -7.8885903 -37.670052 -115.16948
38971000 -38.288235 -77.644547 -0.026991129 -8.0811958 -0.02869053 -8.0914087 -37.515545 -113.55092
39970000 -37.940044 -77.983589 -0.024809171 -8.274044 -0.028227251 -8.2916508 -37.231689 -112.94508
40969000 -37.656635 -77.766411 -0.025828531 -8.4685402 -0.027166432 -8.4898872 -36.980305 -111.40709
41968000 -37.301395 -77.718674 -0.025766036 -8.6742668 -0.027360497 -8.693449 -36.79483 -110.24371
42967000 -37.049412 -77.762695 -0.025400188 -8.8907413 -0.027485536 -8.9067373 -36.610199 -108.29526
43966000 -36.744305 -78.494621 -0.026040506 -9.090416 -0.029320909 -9.1072187 -36.33168 -107.54287
44965000 -36.50436 -79.276932 -0.026359266 -9.2926655 -0.029227348 -9.3109226 -36.113468 -107.2366
45964000 -36.272526 -80.363007 -0.028602196 -9.4924822 -0.03068074 -9.515831 -35.889851 -106.87881
46963000 -36.071854 -82.155205 -0.027874485 -9.6885242 -0.031136459 -9.7117453 -35.695892 -107.15353
47962000 -35.922588 -83.622696 -0.029802287 -9.8893547 -0.032591533 -9.908637 -35.503391 -107.24077
48961000 -35.715733 -85.149452 -0.031718168 -10.087597 -0.033723593 -10.111519 -35.267544 -107.41222
49960000 -35.460003 -86.381989 -0.033530809 -10.288127 -0.035249997 -10.311725 -35.123203 -107.39995
50959000 -35.251984 -87.671097 -0.034129538 -10.50205 -0.036329761 -10.513742 -34.949696 -107.69754
51958000 -35.039234 -88.696213 -0.03619533 -10.699204 -0.037845068 -10.712724 -34.77755 -108.15554
52957000 -34.82415 -89.766197 -0.036989443 -10.90005 -0.03866142 -10.907675 -34.603371 -107.95695
53956000 -34.658001 -90.483406 -0.038926259 -11.104572 -0.039974805 -11.104975 -34.474411 -107.88706
54955000 -34.496483 -90.931847 -0.039560214 -11.304717 -0.040644448 -11.302817 -34.332684 -107.78207
55954000 -34.335735 -91.790482 -0.040454231 -11.509529 -0.04056998 -11.500001 -34.235538 -107.4706
56953000 -34.207504 -91.869072 -0.040317059 -11.706023 -0.039783832 -11.693465 -34.146946 -107.71513
57952000 -34.046486 -92.472794 -0.042247519 -11.904329 -0.040462591 -11.894819 -34.038101 -107.81846
58951000 -33.918568 -92.784096 -0.042663671 -12.111049 -0.041874271 -12.089204 -33.896801 -107.85828
59950000 -33.798153 -93.20932 -0.04357297 -12.306821 -0.043008756 -12.287564 -33.823536 -108.16184
60949000 -33.687847 -93.748642 -0.043641739 -12.508903 -0.043908186 -12.486012 -33.721558 -108.45726
61948000 -33.611397 -93.970985 -0.044342283 -12.708627 -0.043294251 -12.695909 -33.635567 -108.44994
62947000 -33.532585 -94.233994 -0.044228002 -12.921179 -0.044682004 -12.90469 -33.497093 -108.7896
63946000 -33.455906 -95.036171 -0.045684591 -13.119773 -0.045275733 -13.102334 -33.395885 -108.90037
64945000 -33.341347 -95.138756 -0.045577075 -13.325605 -0.04559591 -13.306412 -33.280128 -109.34023
65944000 -33.254498 -95.467628 -0.046879731 -13.521205 -0.045881055 -13.508751 -33.181789 -109.86579
66943000 -33.110157 -95.826569 -0.044430152 -13.722909 -0.044505734 -13.709399 -33.081173 -110.10403
67942000 -33.045231 -95.781769 -0.046418432 -13.919834 -0.045944627 -13.90994 -32.956001 -110.3623
68941000 -32.93084 -95.847076 -0.04607622 -14.116889 -0.045232575 -14.105482 -32.840069 -110.34109
69940000 -32.83556 -95.797752 -0.046662029 -14.315107 -0.046933111 -14.304909 -32.700233 -110.63983
70939000 -32.72974 -95.787308 -0.045990407 -14.509914 -0.045922652 -14.50739 -32.568718 -110.50983
71938000 -32.576069 -95.354607 -0.045820102 -14.711555 -0.045340866 -14.70044 -32.433651 -110.41681
72937000 -32.421806 -95.069878 -0.045448899 -14.910351 -0.045229696 -14.90127 -32.301205 -110.01051
73936000 -32.287903 -94.712448 -0.045383241 -15.108309 -0.04542248 -15.100667 -32.183434 -109.82201
74935000 -32.158997 -94.916161 -0.046219066 -15.303613 -0.043943487 -15.2994 -32.033329 -109.49695
75934000 -32.037098 -95.233017 -0.045081653 -15.512985 -0.044555947 -15.512091 -31.939486 -109.36568
76933000 -31.902121 -95.569389 -0.046759102 -15.70725 -0.046285521 -15.700305 -31.786257 -109.74027
77932000 -31.793947 -96.393341 -0.04803149 -15.905653 -0.047994845 -15.899697 -31.671984 -109.61282
78931000 -31.72415 -97.06385 -0.046306189 -16.103571 -0.046049271 -16.100395 -31.571104 -109.51052
79930000 -31.606398 -97.967552 -0.048770178 -16.298687 -0.049266022 -16.297653 -31.464092 -109.78645
80929000 -31.491247 -98.767662 -0.050837707 -16.494356 -0.050745782 -16.492468 -31.365198 -110.14977
81928000 -31.397602 -99.487411 -0.051120054 -16.686495 -0.051220112 -16.683142 -31.237141 -110.07685
82927000 -31.302734 -100.30074 -0.052478869 -16.886898 -0.052731451 -16.883974 -31.128391 -110.35519
83926000 -31.178337 -100.94222 -0.054735858 -17.084652 -0.053555589 -17.087994 -31.001169 -110.55101
84925000 -31.082281 -101.35561 -0.055173133 -17.280912 -0.052999247 -17.28227 -30.906315 -110.5934
85924000 -30.974979 -101.79015 -0.05569829 -17.483978 -0.055273283 -17.484138 -30.825083 -110.60693
86923000 -30.865633 -102.23115 -0.05610944 -17.681015 -0.055167891 -17.680967 -30.718447 -110.43689
87922000 -30.749182 -102.58214 -0.056152184 -17.891909 -0.05480323 -17.884085 -30.635382 -110.48682
88921000 -30.688953 -102.87939 -0.057720069 -18.085865 -0.055869773 -18.083487 -30.540014 -110.43565
89920000 -30.580931 -103.3881 -0.057367519 -18.286448 -0.056603502 -18.279043 -30.487143 -110.59696
90919000 -30.480825 -103.63659 -0.058473002 -18.484972 -0.057649504 -18.48258 -30.394424 -110.75884
91918000 -30.378122 -104.0212 -0.059277497 -18.686426 -0.058075007 -18.679928 -30.32523 -110.79919
92917000 -30.284782 -104.35551 -0.060356166 -18.881744 -0.05902952 -18.884476 -30.257277 -110.8707
93916000 -30.195015 -104.67973 -0.059560653 -19.078941 -0.059510004 -19.076918 -30.168228 -111.50332
94915000 -30.112204 -105.3364 -0.061592896 -19.280783 -0.060279258 -19.276419 -30.110424 -111.37991
95914000 -30.050516 -105.57862 -0.062652178 -19.474813 -0.061478686 -19.475515 -30.012793 -111.66153
96913000 -29.958601 -105.73206 -0.063509725 -19.676825 -0.062348336 -19.673904 -29.951506 -111.95719
97912000 -29.886049 -106.17332 -0.064494334 -19.873129 -0.062845998 -19.873581 -29.872423 -112.21233
98911000 -29.775064 -106.39046 -0.065244764 -20.074318 -0.064215586 -20.071171 -29.827713 -112.44073
99910000 -29.703531 -106.4992 -0.066313609 -20.272381 -0.064014085 -20.270699 -29.726208 -112.71944
100909000 -29.611277 -106.77516 -0.065382987 -20.481945 -0.063682042 -20.474413 -29.626873 -112.92925
101908000 -29.53508 -106.97721 -0.066672929 -20.68372 -0.064933904 -20.679352 -29.521633 -112.69415
102907000 -29.399143 -106.94727 -0.067610145 -20.881968 -0.065530144 -20.880222 -29.453226 -112.66171
103906000 -29.293541 -106.9986 -0.067009412 -21.090292 -0.064084753 -21.080786 -29.301483 -112.58754
104905000 -29.150684 -106.92953 -0.067988507 -21.286825 -0.065102078 -21.289551 -29.170618 -112.25069
105904000 -29.003225 -106.99551 -0.068369001 -21.492105 -0.065416619 -21.484175 -29.060709 -112.13669
106903000 -28.896313 -107.08337 -0.068152845 -21.696346 -0.065689929 -21.688633 -28.93494 -112.05785
107902000 -28.730291 -107.34648 -0.069278434 -21.896338 -0.066282071 -21.889601 -28.806305 -112.04451
108901000 -28.611464 -107.62093 -0.069814511 -22.098101 -0.06711325 -22.092367 -28.670393 -111.99024
109900000 -28.487762 -108.12888 -0.071224183 -22.298891 -0.068491548 -22.290806 -28.518898 -112.03242
110899000 -28.375816 -108.67918 -0.072765142 -22.497229 -0.069851339 -22.488873 -28.393147 -112.23885
111898000 -28.279324 -109.41145 -0.073658384 -22.697536 -0.070663996 -22.692062 -28.270887 -112.45135
112897000 -28.155172 -109.92552 -0.07532452 -22.897799 -0.072098419 -22.886028 -28.139725 -112.59811
113896000 -28.049555 -110.45789 -0.076441169 -23.100031 -0.073155269 -23.087616 -28.030258 -112.74464
114895000 -27.95319 -111.15382 -0.077330694 -23.29763 -0.07439065 -23.285908 -27.916111 -112.7905
115894000 -27.824379 -111.53429 -0.078415431 -23.497274 -0.075717516 -23.485058 -27.851479 -113.01877
116893000 -27.75276 -112.00887 -0.079143494 -23.695456 -0.076593712 -23.681681 -27.724001 -113.05514
117892000 -27.673962 -112.55234 -0.079645187 -23.894142 -0.077016331 -23.881779 -27.647141 -113.26321
118891000 -27.610514 -112.93584 -0.079792045 -24.095234 -0.077450849 -24.080349 -27.554485 -113.38504
119890000 -27.524239 -113.27824 -0.08058916 -24.295151 -0.077850893 -24.280592 -27.544266 -113.52355
120889000 -27.471708 -113.82031 -0.082210481 -24.495466 -0.07868772 -24.480404 -27.473465 -113.46003
121888000 -27.428858 -114.13098 -0.081760444 -24.693626 -0.078491874 -24.678005 -27.404703 -113.70816
122887000 -27.391226 -114.34539 -0.083390906 -24.894592 -0.078802906 -24.881357 -27.366539 -113.68408
123886000 -27.33267 -114.78099 -0.083294332 -25.098598 -0.079407118 -25.078146 -27.345297 -113.89716
124885000 -27.303057 -115.24184 -0.083545811 -25.298389 -0.080390856 -25.284719 -27.316772 -113.91463
125884000 -27.249109 -115.44324 -0.0850299 -25.497023 -0.080844969 -25.484333 -27.288494 -114.06565
126883000 -27.231964 -115.82217 -0.084536292 -25.698833 -0.081611939 -25.683647 -27.247707 -114.08822
127882000 -27.187176 -116.11746 -0.084854886 -25.898027 -0.081946947 -25.881317 -27.207907 -114.19273
128881000 -27.149933 -116.45844 -0.08552938 -26.103725 -0.081718504 -26.087215 -27.171099 -114.3168
129880000 -27.100237 -116.77864 -0.086145088 -26.300026 -0.081821114 -26.284277 -27.131029 -114.259
130879000 -27.036287 -116.92226 -0.086002767 -26.502914 -0.083426796 -26.486082 -27.059206 -114.29705
131878000 -26.971884 -117.14831 -0.086171225 -26.70726 -0.08369042 -26.686676 -26.997309 -114.18671
132877000 -26.906267 -117.21436 -0.085752733 -26.906046 -0.083534986 -26.891214 -26.916471 -114.1306
133876000 -26.822344 -117.40507 -0.086460367 -27.110701 -0.083108038 -27.090065 -26.81991 -114.02079
134875000 -26.727854 -117.53939 -0.086429738 -27.3092 -0.083452128 -27.290731 -26.723097 -113.84116
135874000 -26.639994 -117.52645 -0.086842485 -27.508591 -0.083794922 -27.494478 -26.624041 -113.83068
136873000 -26.527573 -117.48534 -0.086984836 -27.712952 -0.084300332 -27.69924 -26.545279 -113.76624
137872000 -26.448879 -117.60302 -0.08716812 -27.916044 -0.084484033 -27.898901 -26.445955 -113.70436
138871000 -26.370506 -117.80809 -0.087650932 -28.114193 -0.0843964 -28.097597 -26.345665 -113.83546
139870000 -26.276369 -118.0709 -0.08808995 -28.313694 -0.08539632 -28.300417 -26.263945 -113.986
140869000 -26.197042 -118.64551 -0.089201167 -28.50988 -0.086067989 -28.492899 -26.167889 -114.24114
141868000 -26.118181 -119.04282 -0.090039924 -28.71096 -0.087174989 -28.695005 -26.113255 -114.47799
142867000 -26.036394 -119.27351 -0.088564157 -28.910252 -0.086838529 -28.892763 -26.035769 -114.60361
143866000 -25.967144 -119.75375 -0.091137096 -29.105068 -0.088259287 -29.091209 -25.959538 -115.07957
144865000 -25.904432 -120.23156 -0.092192769 -29.306419 -0.089641139 -29.290218 -25.900766 -115.35915
145864000 -25.853008 -120.57233 -0.09289141 -29.505524 -0.090939365 -29.494539 -25.869659 -115.61732
146863000 -25.806446 -120.9118 -0.093602851 -29.705057 -0.091306545 -29.694504 -25.823069 -115.90282
147862000 -25.767927 -121.29569 -0.095358424 -29.906017 -0.091664508 -29.892313 -25.787567 -116.22225
148861000 -25.731081 -121.69486 -0.095705867 -30.100853 -0.093523502 -30.090689 -25.762613 -116.38911
149860000 -25.698021 -121.83847 -0.097071029 -30.295635 -0.093349732 -30.286144 -25.712032 -116.49348
150859000 -25.679972 -122.37001 -0.096549846 -30.495569 -0.093772136 -30.478849 -25.697121 -116.84235
151858000 -25.665543 -122.69489 -0.095114999 -30.694365 -0.0930686 -30.675489 -25.685108 -117.15334
152857000 -25.652704 -123.00328 -0.09625262 -30.891911 -0.093211941 -30.883598 -25.6689 -117.35592
153856000 -25.649612 -123.23638 -0.096149668 -31.091356 -0.09314926 -31.081575 -25.686438 -117.65318
154855000 -25.643147 -123.40782 -0.095894024 -31.291698 -0.093377508 -31.282669 -25.674833 -117.90599
155854000 -25.664734 -123.67626 -0.096241243 -31.494099 -0.09433002 -31.478163 -25.666912 -118.15831
156853000 -25.647114 -124.37151 -0.094356209 -31.679886 -0.093486473 -31.67433 -25.665234 -118.48679
157852000 -25.654465 -124.54912 -0.0954431 -31.882404 -0.094854645 -31.87244 -25.656744 -118.82554
158851000 -25.653486 -124.7829 -0.096270621 -32.080986 -0.095451571 -32.073578 -25.639038 -119.10217
159850000 -25.63785 -124.89146 -0.097250506 -32.280212 -0.095472738 -32.27243 -25.639967 -119.29784
160849000 -25.625757 -124.98064 -0.097423114 -32.481651 -0.095503964 -32.474663 -25.609362 -119.56648
161848000 -25.606436 -125.05341 -0.097724654 -32.681095 -0.096440271 -32.674431 -25.567673 -119.68113
162847000 -25.565857 -125.21523 -0.098091081 -32.878231 -0.097482674 -32.874924 -25.543896 -119.94933
163846000 -25.527357 -125.45759 -0.097791635 -33.081398 -0.096162371 -33.072681 -25.464357 -119.95541
164845000 -25.469725 -125.40217 -0.098767892 -33.277878 -0.097259246 -33.271389 -25.395515 -120.0191
165844000 -25.415867 -125.46006 -0.098141387 -33.4851 -0.097367249 -33.474812 -25.323971 -120.1593
166843000 -25.354671 -125.50257 -0.098505206 -33.6768 -0.097329132 -33.676441 -25.255913 -120.32959
167842000 -25.298012 -125.59341 -0.099106871 -33.878777 -0.097903892 -33.871799 -25.175631 -120.26798
168841000 -25.217224 -125.77321 -0.09920115 -34.07896 -0.098241478 -34.075531 -25.102039 -120.34086
169840000 -25.151306 -126.0313 -0.099177316 -34.27634 -0.098253921 -34.267849 -25.018227 -120.52006
170839000 -25.094166 -126.22601 -0.099915221 -34.472572 -0.099485338 -34.465748 -24.932873 -120.68404
171838000 -25.031347 -126.65743 -0.10049058 -34.67461 -0.099981971 -34.665512 -24.872646 -120.93397
172837000 -24.966221 -127.00082 -0.10180055 -34.871361 -0.10120328 -34.865211 -24.803297 -121.11594
173836000 -24.898825 -127.37868 -0.10285855 -35.073151 -0.10175443 -35.067463 -24.764244 -121.30756
174835000 -24.849939 -127.84949 -0.10364295 -35.270393 -0.10278566 -35.266899 -24.721809 -121.66474
175834000 -24.795174 -128.20229 -0.10436279 -35.467468 -0.10376092 -35.464344 -24.658766 -121.92796
176833000 -24.743128 -128.51973 -0.1054734 -35.666729 -0.10461124 -35.661942 -24.611788 -122.05662
177832000 -24.702084 -128.94437 -0.10617948 -35.865772 -0.10489339 -35.864742 -24.594513 -122.17337
178831000 -24.657902 -129.16722 -0.10815775 -36.064037 -0.10639913 -36.0578 -24.553827 -122.26379
179830000 -24.587065 -129.5602 -0.10970232 -36.248035 -0.10710509 -36.248226 -24.491556 -122.30567
180829000 -24.53298 -129.90759 -0.10803833 -36.443336 -0.10710482 -36.435764 -24.445839 -122.63657
181828000 -24.512341 -130.33522 -0.10685012 -36.638191 -0.10641716 -36.639099 -24.428423 -122.85081
182827000 -24.490662 -130.73517 -0.1074678 -36.836647 -0.10685145 -36.839005 -24.4111 -122.98025
183826000 -24.44775 -131.08124 -0.10876235 -37.035683 -0.10749752 -37.034966 -24.402632 -123.17046
184825000 -24.450636 -131.40883 -0.1082448 -37.23563 -0.10762595 -37.234821 -24.383677 -123.21545
185824000 -24.4214 -131.78529 -0.10818164 -37.427715 -0.10761879 -37.43 -24.37928 -123.34143
186823000 -24.401554 -132.15755 -0.10810415 -37.628826 -0.10771989 -37.630341 -24.375971 -123.32208
187822000 -24.382107 -132.49261 -0.10832548 -37.82267 -0.10831486 -37.823441 -24.336023 -123.4221
188821000 -24.354021 -132.74231 -0.10858346 -38.019913 -0.10841201 -38.023655 -24.314413 -123.50826
189820000 -24.335674 -133.04005 -0.10883879 -38.220959 -0.1084396 -38.221855 -24.295202 -123.74593
190819000 -24.30402 -133.33531 -0.10967179 -38.418915 -0.10902619 -38.418633 -24.258381 -123.78934
191818000 -24.270454 -133.62984 -0.1097809 -38.617901 -0.10894178 -38.617893 -24.231197 -123.81697
192817000 -24.225761 -133.89699 -0.10992851 -38.812229 -0.10925739 -38.815327 -24.179819 -123.87731
193816000 -24.19348 -134.17606 -0.11046936 -39.010193 -0.10925554 -39.007641 -24.131659 -124.0732
194815000 -24.127737 -134.52188 -0.11042874 -39.204788 -0.1103674 -39.208385 -24.065144 -124.10869
195814000 -24.077229 -134.74892 -0.11190292 -39.4011 -0.11039449 -39.405849 -24.011662 -124.20638
196813000 -24.025791 -135.07086 -0.11130745 -39.59763 -0.11051185 -39.597553 -23.929518 -124.36034
197812000 -23.962919 -135.29478 -0.11167981 -39.798813 -0.11089025 -39.793072 -23.856667 -124.45271
198811000 -23.911404 -135.42781 -0.11162138 -39.991169 -0.11094999 -39.993362 -23.786226 -124.63858
199810000 -23.836298 -135.83102 -0.11222752 -40.185707 -0.11061859 -40.184742 -23.709469 -124.73389
200809000 -23.778662 -136.09372 -0.1129448 -40.38303 -0.11078854 -40.387508 -23.636093 -124.90934
201808000 -23.720085 -136.27002 -0.11371321 -40.582989 -0.11271579 -40.586369 -23.561892 -124.96284
202807000 -23.66334 -136.59015 -0.11402359 -40.785759 -0.11277211 -40.788929 -23.50646 -125.17495
