!Keysight Technologies,E5080B,MY59205177,A.15.75.32
!Date: Friday, February 23, 2024 02:51:15
!Correction: S11(Cdelta 2-Port  ) 
!S21(Cdelta 2-Port  ) 
!S12(Cdelta 2-Port  ) 
!S22(Cdelta 2-Port  ) 
!S2P File: Measurements: S11, S21, S12, S22:
# Hz S  dB   R 50
10000000 -42.660053 -3.4774933 -0.038424805 -2.0473399 -0.040823698 -2.1016214 -50.5709 -139.70189
10999000 -42.097412 -5.138083 -0.039621081 -2.2643628 -0.040366441 -2.3206081 -50.021782 -130.60243
11998000 -41.41663 -7.1980529 -0.04011745 -2.4878759 -0.039970886 -2.5323656 -50.080555 -123.46235
12997000 -40.875031 -11.21552 -0.039176226 -2.6645494 -0.039779913 -2.7003028 -49.040756 -116.62081
13996000 -40.678997 -14.20775 -0.038668994 -2.8451583 -0.040373497 -2.8659029 -48.263725 -111.12762
14995000 -40.396545 -17.475315 -0.040696446 -3.0564859 -0.040010598 -3.0797262 -47.650726 -108.08023
15994000 -40.312153 -20.782307 -0.041970193 -3.2747014 -0.042330641 -3.299463 -47.246346 -104.31347
16993000 -40.362179 -24.191566 -0.040601596 -3.4696314 -0.04138371 -3.4795604 -46.324535 -107.00462
17992000 -40.451828 -28.420094 -0.040908884 -3.6680896 -0.04254473 -3.6737714 -45.716518 -108.88123
18991000 -40.691895 -32.194576 -0.042241246 -3.8819962 -0.043114636 -3.8762379 -44.929573 -109.02666
19990000 -40.680626 -36.465977 -0.045126118 -4.0915308 -0.045201972 -4.0877962 -44.250027 -111.33675
20989000 -40.570992 -39.182762 -0.046307497 -4.2932754 -0.046976287 -4.2829905 -43.605282 -111.94119
21988000 -40.593491 -43.48925 -0.04733846 -4.4911785 -0.04797129 -4.4781728 -43.293056 -111.7848
22987000 -40.467617 -47.478687 -0.048729602 -4.6877608 -0.04825528 -4.6799359 -43.01685 -111.81985
23986000 -40.5294 -50.999107 -0.048096664 -4.8847051 -0.047632355 -4.8802676 -42.901775 -112.07579
24985000 -40.28796 -53.586235 -0.049148995 -5.0945983 -0.048049286 -5.0888376 -42.598709 -109.04785
25984000 -40.061024 -55.910175 -0.050182726 -5.3033075 -0.049102131 -5.2999058 -42.21471 -108.64508
26983000 -39.833332 -57.820168 -0.051027596 -5.495894 -0.048945837 -5.5145779 -41.994144 -107.49714
27982000 -39.726448 -58.852791 -0.052361753 -5.6965284 -0.051878393 -5.731823 -41.658672 -106.26182
28981000 -39.721252 -60.11367 -0.050335921 -5.897068 -0.050677948 -5.9181876 -41.386734 -105.8893
29980000 -39.394306 -62.005508 -0.049875565 -6.085247 -0.051683228 -6.0937791 -41.009693 -105.55862
30979000 -39.031788 -61.470535 -0.048400294 -6.4440489 -0.046939917 -6.428967 -40.505222 -106.70993
31978000 -38.887978 -62.742844 -0.048093785 -6.634726 -0.047589697 -6.6277604 -40.226692 -106.1295
32977000 -38.736595 -64.269882 -0.04771192 -6.8482475 -0.048289832 -6.8418083 -39.96534 -106.62298
33976000 -38.589909 -65.488411 -0.048381709 -7.0511003 -0.048103467 -7.0420437 -39.598541 -106.27998
34975000 -38.336033 -66.605797 -0.048235126 -7.2473249 -0.04902621 -7.2496037 -39.383717 -106.15437
35974000 -38.169209 -67.422676 -0.047311507 -7.4397435 -0.049271259 -7.4457088 -39.037354 -105.55965
36973000 -37.963943 -68.380539 -0.047965009 -7.6415296 -0.049438823 -7.647419 -38.742386 -104.89297
37972000 -37.800335 -68.186409 -0.047641255 -7.8537121 -0.049910393 -7.8624706 -38.456909 -104.38197
38971000 -37.488682 -68.116074 -0.047954276 -8.0547552 -0.049998112 -8.0659237 -38.254227 -103.00002
39970000 -37.158817 -68.974785 -0.046765644 -8.2497644 -0.048363648 -8.2672691 -37.930557 -102.73185
40969000 -36.882984 -68.975426 -0.047092211 -8.4446068 -0.048520707 -8.4645977 -37.672031 -101.46026
41968000 -36.573124 -69.188438 -0.047368295 -8.6485014 -0.049220204 -8.6625433 -37.431061 -100.32934
42967000 -36.322742 -69.558319 -0.046993036 -8.8614521 -0.04951423 -8.88029 -37.202538 -98.582268
43966000 -36.053741 -70.602135 -0.047537878 -9.0567827 -0.050188489 -9.0789824 -36.87199 -98.153534
44965000 -35.832802 -71.514015 -0.048910234 -9.2600641 -0.050459791 -9.2828245 -36.651295 -98.216393
45964000 -35.649429 -72.720146 -0.049748309 -9.4644365 -0.052452669 -9.4796486 -36.406174 -98.02433
46963000 -35.500835 -74.764778 -0.050254218 -9.6590052 -0.052555639 -9.6779213 -36.215385 -98.521729
47962000 -35.372768 -76.196548 -0.05244245 -9.8612375 -0.053475659 -9.8769464 -36.020603 -98.742996
48961000 -35.188713 -77.752617 -0.053982262 -10.05535 -0.055281673 -10.076725 -35.801456 -99.261009
49960000 -35.00975 -79.193459 -0.054723274 -10.254831 -0.056348335 -10.276244 -35.641788 -99.501778
50959000 -34.803886 -80.646698 -0.055955254 -10.466942 -0.057786174 -10.476497 -35.479908 -100.018
51958000 -34.635929 -81.838806 -0.058289345 -10.667721 -0.058586083 -10.677552 -35.306725 -100.60135
52957000 -34.445053 -82.980621 -0.059489273 -10.864474 -0.05971602 -10.872465 -35.144886 -100.48576
53956000 -34.295609 -83.887772 -0.06025406 -11.069706 -0.061120581 -11.070611 -34.999577 -100.60643
54955000 -34.135506 -84.549858 -0.061684005 -11.270694 -0.061157599 -11.266319 -34.832474 -100.70496
55954000 -33.994629 -85.432503 -0.062738582 -11.471231 -0.062026136 -11.464722 -34.745918 -100.55108
56953000 -33.881271 -85.606827 -0.061719712 -11.669447 -0.061354499 -11.656849 -34.647713 -100.72527
57952000 -33.726112 -86.264626 -0.062462572 -11.864278 -0.062620401 -11.856022 -34.551861 -100.90596
58951000 -33.610146 -86.607895 -0.064412363 -12.070666 -0.064393707 -12.050733 -34.40139 -101.18843
59950000 -33.493748 -87.166595 -0.065489151 -12.270645 -0.064137295 -12.246593 -34.330727 -101.46358
60949000 -33.40266 -87.806374 -0.065979816 -12.472738 -0.064553447 -12.445735 -34.245247 -101.77396
61948000 -33.336658 -88.08725 -0.065454729 -12.670013 -0.064531118 -12.652682 -34.13942 -101.92036
62947000 -33.249722 -88.372314 -0.065825015 -12.88407 -0.064476728 -12.859465 -34.009693 -102.26385
63946000 -33.181911 -89.079926 -0.06729544 -13.078278 -0.066870347 -13.062382 -33.910244 -102.38287
64945000 -33.088169 -89.25544 -0.067582801 -13.28313 -0.066846952 -13.261971 -33.801857 -102.99004
65944000 -32.986065 -89.702141 -0.068587534 -13.479679 -0.067316204 -13.461342 -33.712479 -103.53362
66943000 -32.849232 -90.043427 -0.066333853 -13.680785 -0.065880992 -13.664612 -33.610634 -103.80636
67942000 -32.786175 -90.079193 -0.068483129 -13.878319 -0.06716793 -13.868275 -33.481079 -104.11142
68941000 -32.685406 -90.167557 -0.067724518 -14.068625 -0.066765726 -14.062557 -33.381153 -104.18504
69940000 -32.582066 -90.21431 -0.068322189 -14.271463 -0.067601733 -14.263618 -33.241291 -104.5332
70939000 -32.474117 -90.186432 -0.068623036 -14.468588 -0.06704779 -14.461993 -33.107964 -104.46355
71938000 -32.323383 -89.901436 -0.068646699 -14.665544 -0.067378782 -14.659454 -32.961624 -104.37891
72937000 -32.169571 -89.771835 -0.067755543 -14.861032 -0.066621937 -14.854154 -32.818981 -104.10282
73936000 -32.019543 -89.532608 -0.067875177 -15.065701 -0.065945908 -15.053246 -32.712288 -103.95093
74935000 -31.895342 -89.783012 -0.06723392 -15.254952 -0.065665752 -15.251418 -32.530586 -103.65837
75934000 -31.780447 -90.114799 -0.067204475 -15.464602 -0.065850504 -15.458928 -32.456718 -103.60046
76933000 -31.66003 -90.576843 -0.068292476 -15.656966 -0.066671357 -15.648525 -32.279808 -104.13171
77932000 -31.564499 -91.366013 -0.069394432 -15.855695 -0.068657748 -15.848872 -32.187977 -104.16136
78931000 -31.502197 -92.178734 -0.068360582 -16.052807 -0.067744233 -16.047518 -32.087944 -104.0067
79930000 -31.391703 -92.95153 -0.071218133 -16.24798 -0.07017649 -16.244404 -31.991604 -104.3522
80929000 -31.271797 -93.944344 -0.072685115 -16.440798 -0.072068684 -16.43729 -31.876791 -104.80071
81928000 -31.202427 -94.814392 -0.072572194 -16.635967 -0.071960248 -16.631676 -31.767267 -104.94106
82927000 -31.115953 -95.58831 -0.074230015 -16.83761 -0.073490933 -16.829401 -31.666609 -105.21878
83926000 -31.009109 -96.401451 -0.076427475 -17.02919 -0.073852167 -17.033289 -31.550728 -105.52921
84925000 -30.913603 -96.854759 -0.076847963 -17.233496 -0.074125744 -17.227152 -31.453968 -105.66709
85924000 -30.816259 -97.306625 -0.077865645 -17.431389 -0.076485693 -17.423481 -31.364847 -105.69962
86923000 -30.722969 -97.947487 -0.077435039 -17.626396 -0.076117128 -17.61865 -31.269476 -105.62588
87922000 -30.612398 -98.374969 -0.077527799 -17.835155 -0.076122925 -17.823299 -31.169081 -105.69948
88921000 -30.55019 -98.725616 -0.078948684 -18.03187 -0.077666149 -18.028711 -31.076618 -105.75071
89920000 -30.446173 -99.270889 -0.079747222 -18.233267 -0.078293137 -18.22331 -31.025551 -105.96649
90919000 -30.350264 -99.591148 -0.080723919 -18.429644 -0.07859309 -18.424517 -30.93832 -106.20525
91918000 -30.260277 -100.08681 -0.081412271 -18.627096 -0.078765742 -18.621088 -30.873995 -106.28107
92917000 -30.177652 -100.37746 -0.08208596 -18.82478 -0.080321774 -18.821306 -30.814575 -106.37209
93916000 -30.093407 -100.82695 -0.081530966 -19.018511 -0.080008782 -19.013899 -30.722921 -107.00227
94915000 -30.02313 -101.52319 -0.083236016 -19.220255 -0.08070045 -19.213955 -30.654741 -106.92834
95914000 -29.956898 -101.73714 -0.084381886 -19.414593 -0.081953801 -19.413401 -30.571823 -107.26685
96913000 -29.874155 -101.96606 -0.085489511 -19.615417 -0.083292484 -19.612507 -30.501198 -107.61071
97912000 -29.806425 -102.41964 -0.086860448 -19.808512 -0.08345978 -19.809607 -30.422951 -107.88527
98911000 -29.700716 -102.65351 -0.086993016 -20.011923 -0.084826112 -20.009161 -30.382355 -108.08459
99910000 -29.633486 -102.81857 -0.087325796 -20.2087 -0.085259572 -20.208521 -30.276236 -108.40673
100909000 -29.540907 -103.11514 -0.086617224 -20.418934 -0.084197134 -20.411472 -30.195869 -108.65909
101908000 -29.447636 -103.38902 -0.088373147 -20.618656 -0.08595524 -20.617077 -30.077375 -108.3506
102907000 -29.31398 -103.43992 -0.088737465 -20.814161 -0.085169546 -20.81414 -29.994505 -108.37651
103906000 -29.223967 -103.53394 -0.089499764 -21.022566 -0.085422717 -21.015665 -29.838219 -108.40779
104905000 -29.070766 -103.47655 -0.089512974 -21.219723 -0.085385233 -21.223022 -29.708277 -108.09489
105904000 -28.934492 -103.6191 -0.089371599 -21.424599 -0.086450331 -21.416624 -29.590588 -107.97405
106903000 -28.825115 -103.73577 -0.089462765 -21.627712 -0.086747684 -21.627041 -29.461908 -107.83642
107902000 -28.659306 -104.13047 -0.090524115 -21.827251 -0.087592565 -21.819935 -29.317183 -107.83146
108901000 -28.554129 -104.42768 -0.091537341 -22.031958 -0.088280156 -22.021988 -29.183235 -107.80486
109900000 -28.427359 -104.93836 -0.092043117 -22.22714 -0.089658841 -22.220404 -29.023914 -107.90723
110899000 -28.312107 -105.56851 -0.094127916 -22.427462 -0.090410464 -22.418797 -28.902788 -108.24473
111898000 -28.219553 -106.31835 -0.095246501 -22.629812 -0.091548443 -22.62665 -28.784281 -108.46344
112897000 -28.104532 -106.87862 -0.096530527 -22.827568 -0.092796735 -22.815983 -28.644758 -108.69671
113896000 -28.001816 -107.52191 -0.09727142 -23.02829 -0.094280027 -23.015263 -28.538248 -108.84792
114895000 -27.905817 -108.19446 -0.099040397 -23.225443 -0.095820457 -23.211376 -28.427731 -108.96448
115894000 -27.774536 -108.5318 -0.099810325 -23.428034 -0.096929416 -23.41313 -28.353127 -109.18182
116893000 -27.701887 -109.16286 -0.10031574 -23.623392 -0.097483732 -23.604744 -28.226229 -109.36349
117892000 -27.618416 -109.67043 -0.099911511 -23.815683 -0.097831614 -23.80703 -28.152779 -109.59314
118891000 -27.561647 -110.16354 -0.1014338 -24.019043 -0.098400876 -24.001612 -28.057882 -109.79491
119890000 -27.474543 -110.519 -0.10116725 -24.223009 -0.098720491 -24.20454 -28.046917 -109.92712
120889000 -27.42024 -111.0601 -0.10353505 -24.420063 -0.09936668 -24.404686 -27.964304 -109.92036
121888000 -27.386101 -111.35593 -0.10299241 -24.615395 -0.099770598 -24.606298 -27.907881 -110.22981
122887000 -27.340923 -111.65195 -0.10393351 -24.818928 -0.10086149 -24.803299 -27.862806 -110.30445
123886000 -27.288849 -112.05176 -0.10450014 -25.020792 -0.10128886 -25.002651 -27.847927 -110.44601
124885000 -27.252199 -112.53881 -0.10504428 -25.218521 -0.101101 -25.203461 -27.821526 -110.53787
125884000 -27.19515 -112.72692 -0.10589883 -25.414833 -0.10134106 -25.403028 -27.78755 -110.6893
126883000 -27.180202 -113.12219 -0.10610547 -25.623838 -0.10243288 -25.605278 -27.746973 -110.71397
127882000 -27.126268 -113.46642 -0.10632007 -25.819309 -0.10284424 -25.804131 -27.700104 -110.92494
128881000 -27.097246 -113.80048 -0.10618558 -26.019787 -0.10350695 -26.006266 -27.663479 -111.0643
129880000 -27.040895 -114.10722 -0.10710137 -26.224266 -0.10314111 -26.205978 -27.616354 -111.05431
130879000 -26.977539 -114.28732 -0.10645191 -26.421787 -0.10434794 -26.404554 -27.539825 -111.11206
131878000 -26.913078 -114.48469 -0.10725129 -26.623077 -0.10470989 -26.604891 -27.469969 -110.99556
132877000 -26.84012 -114.58799 -0.10713454 -26.824833 -0.10442589 -26.807501 -27.386793 -111.00813
133876000 -26.750599 -114.77439 -0.1075283 -27.027781 -0.10440229 -27.009249 -27.289768 -110.93194
134875000 -26.660156 -114.89814 -0.1077788 -27.231764 -0.1049398 -27.207998 -27.189594 -110.80617
135874000 -26.575249 -114.93341 -0.1076716 -27.42622 -0.10462449 -27.407198 -27.081938 -110.7987
136873000 -26.463446 -114.87816 -0.10854816 -27.628851 -0.10399052 -27.609764 -26.995287 -110.79002
137872000 -26.378702 -115.02391 -0.10820208 -27.829914 -0.10520712 -27.811733 -26.885496 -110.79053
138871000 -26.310816 -115.23099 -0.10914617 -28.028856 -0.10576197 -28.013754 -26.78146 -110.92661
139870000 -26.210527 -115.49849 -0.109924 -28.230562 -0.10644501 -28.212221 -26.708038 -111.10176
140869000 -26.124928 -115.98445 -0.110997 -28.424425 -0.10789954 -28.404068 -26.596146 -111.31247
141868000 -26.028738 -116.48568 -0.111883 -28.617111 -0.10896753 -28.602766 -26.52813 -111.62576
142867000 -25.954155 -116.7494 -0.11064409 -28.817354 -0.1073675 -28.800501 -26.446072 -111.83698
143866000 -25.881655 -117.2642 -0.1126066 -29.013065 -0.10871829 -29.00013 -26.379826 -112.39245
144865000 -25.832186 -117.81683 -0.11353571 -29.212084 -0.11014198 -29.197214 -26.316502 -112.69767
145864000 -25.776188 -118.10738 -0.1137419 -29.412411 -0.11110588 -29.39949 -26.289133 -112.96864
146863000 -25.72533 -118.54972 -0.11514944 -29.61319 -0.11148407 -29.59992 -26.235399 -113.31358
147862000 -25.68615 -118.91592 -0.11591771 -29.806561 -0.11168353 -29.792418 -26.210159 -113.65215
148861000 -25.65724 -119.41725 -0.11609425 -30.005693 -0.11255426 -29.993143 -26.183472 -113.91621
149860000 -25.643597 -119.63297 -0.11614237 -30.203957 -0.11326788 -30.191137 -26.150778 -114.09705
150859000 -25.623075 -120.03983 -0.11696506 -30.406883 -0.11336964 -30.392033 -26.139791 -114.33801
151858000 -25.606646 -120.36476 -0.11721425 -30.60656 -0.11310659 -30.587824 -26.135757 -114.66293
152857000 -25.587652 -120.68979 -0.11797357 -30.802599 -0.11379187 -30.793474 -26.113276 -114.79757
153856000 -25.58345 -120.88824 -0.11685524 -30.997868 -0.11334546 -30.986147 -26.134472 -115.09122
154855000 -25.579275 -121.07229 -0.11771956 -31.197958 -0.1134629 -31.186972 -26.132706 -115.32955
155854000 -25.592918 -121.31685 -0.11824143 -31.398695 -0.11386043 -31.385263 -26.121017 -115.59428
156853000 -25.577085 -122.03918 -0.1161873 -31.587952 -0.11349612 -31.576965 -26.119291 -115.86227
157852000 -25.580624 -122.2373 -0.11739136 -31.786249 -0.11509202 -31.777733 -26.104694 -116.26019
158851000 -25.578657 -122.48096 -0.11819781 -31.984745 -0.11538575 -31.973318 -26.093256 -116.50173
159850000 -25.566811 -122.61531 -0.11877082 -32.180962 -0.11551601 -32.174736 -26.08814 -116.69254
160849000 -25.541468 -122.72518 -0.1188618 -32.380413 -0.1164718 -32.377007 -26.063107 -116.95075
161848000 -25.522327 -122.83882 -0.11888362 -32.582939 -0.1162777 -32.57671 -26.013832 -117.0463
162847000 -25.475225 -123.0481 -0.11905681 -32.778015 -0.11724403 -32.771729 -25.990358 -117.32481
163846000 -25.430866 -123.26633 -0.11930931 -32.982147 -0.11674276 -32.973492 -25.91156 -117.29117
164845000 -25.375109 -123.28489 -0.11938328 -33.176727 -0.11771956 -33.174278 -25.836258 -117.42673
165844000 -25.313416 -123.36417 -0.12003361 -33.375725 -0.117035 -33.374203 -25.759876 -117.57832
166843000 -25.256645 -123.46377 -0.11972865 -33.578903 -0.11793979 -33.57452 -25.687738 -117.75316
167842000 -25.190584 -123.60744 -0.1197055 -33.777618 -0.1178068 -33.770348 -25.606062 -117.69102
168841000 -25.116858 -123.78595 -0.12111682 -33.972851 -0.11808237 -33.968212 -25.524559 -117.76541
169840000 -25.045349 -124.07375 -0.12101621 -34.170341 -0.11856065 -34.166729 -25.432396 -117.99552
170839000 -24.986286 -124.34764 -0.12211778 -34.365402 -0.11926062 -34.365128 -25.349619 -118.18419
171838000 -24.926846 -124.76482 -0.12198094 -34.568546 -0.12071278 -34.559063 -25.284243 -118.44747
172837000 -24.858404 -125.16203 -0.12359194 -34.760918 -0.12065024 -34.755299 -25.216221 -118.71259
173836000 -24.795858 -125.58763 -0.1244997 -34.965534 -0.12235101 -34.957191 -25.174362 -118.91727
174835000 -24.744524 -126.01917 -0.12522274 -35.156334 -0.12263645 -35.156105 -25.127871 -119.28326
175834000 -24.693619 -126.4347 -0.12582278 -35.35817 -0.12360313 -35.351978 -25.065504 -119.59614
176833000 -24.642416 -126.83636 -0.12706843 -35.551235 -0.12415341 -35.551777 -25.014353 -119.77194
177832000 -24.595755 -127.30101 -0.12695676 -35.751011 -0.12518623 -35.751698 -24.989759 -119.9827
178831000 -24.555819 -127.70597 -0.12755091 -35.945332 -0.12549238 -35.94355 -24.956295 -120.20562
179830000 -24.522343 -128.1427 -0.12824246 -36.14336 -0.12576096 -36.144974 -24.924528 -120.34696
180829000 -24.48671 -128.35635 -0.12895572 -36.338078 -0.12586915 -36.339214 -24.898148 -120.53603
181828000 -24.458475 -128.74911 -0.12949628 -36.540585 -0.12678431 -36.53418 -24.877045 -120.68122
182827000 -24.433971 -129.0881 -0.12898105 -36.73764 -0.12627155 -36.735825 -24.862 -120.74134
183826000 -24.395094 -129.42502 -0.12977445 -36.929958 -0.12648953 -36.925606 -24.860022 -120.86326
184825000 -24.399569 -129.72794 -0.12906906 -37.126942 -0.12778203 -37.126228 -24.842173 -120.98331
185824000 -24.373583 -130.09898 -0.12960936 -37.318478 -0.12721343 -37.325714 -24.836943 -121.00068
186823000 -24.358791 -130.44481 -0.12974964 -37.52087 -0.12756105 -37.517895 -24.838028 -121.00432
187822000 -24.337528 -130.77727 -0.1305936 -37.714108 -0.1284291 -37.716473 -24.801025 -121.11278
188821000 -24.317221 -131.02003 -0.13024975 -37.912846 -0.1288832 -37.91729 -24.783197 -121.19257
189820000 -24.300438 -131.28009 -0.13026282 -38.113178 -0.12898213 -38.114975 -24.776218 -121.36301
190819000 -24.271456 -131.51176 -0.13166505 -38.311401 -0.13044021 -38.312317 -24.737577 -121.33292
191818000 -24.238129 -131.70734 -0.13333197 -38.506725 -0.13148814 -38.508907 -24.705063 -121.2053
192817000 -24.16309 -131.97914 -0.13361439 -38.693733 -0.13158046 -38.695297 -24.629835 -121.25873
193816000 -24.123001 -132.36047 -0.13282804 -38.88644 -0.13048369 -38.884377 -24.573082 -121.53255
194815000 -24.069717 -132.77956 -0.13265936 -39.081047 -0.1304218 -39.087273 -24.510288 -121.64805
195814000 -24.0175 -133.02576 -0.13379619 -39.277493 -0.13100924 -39.283352 -24.452351 -121.75787
196813000 -23.9636 -133.38844 -0.13287342 -39.473198 -0.13056798 -39.475754 -24.377584 -121.94808
197812000 -23.903887 -133.6288 -0.13277066 -39.669975 -0.1308801 -39.671082 -24.303072 -122.05384
198811000 -23.850552 -133.80959 -0.13365658 -39.871243 -0.13114102 -39.874332 -24.236162 -122.26015
199810000 -23.781235 -134.15858 -0.13354713 -40.06282 -0.12958989 -40.063404 -24.160025 -122.38672
200809000 -23.724901 -134.48007 -0.13373986 -40.257912 -0.13079527 -40.263027 -24.076347 -122.58167
201808000 -23.665604 -134.71143 -0.13431172 -40.459717 -0.13194469 -40.466858 -24.006823 -122.66058
202807000 -23.610437 -135.06013 -0.13571337 -40.660912 -0.13303141 -40.664795 -23.949636 -122.87031
203806000 -23.558527 -135.53076 -0.13702652 -40.862293 -0.1331462 -40.867157 -23.889034 -123.07486
