!Keysight Technologies,E5080B,MY59205177,A.15.75.32
!Date: Friday, February 23, 2024 03:29:32
!Correction: S11(Cdelta 2-Port  ) 
!S21(Cdelta 2-Port  ) 
!S12(Cdelta 2-Port  ) 
!S22(Cdelta 2-Port  ) 
!S2P File: Measurements: S11, S21, S12, S22:
# Hz S  dB   R 50
10000000 -45.963886 -1.6017221 -0.015457584 -2.0549688 -0.018512404 -2.1033204 -46.059399 -158.33508
10999000 -45.180561 -3.8588312 -0.01647969 -2.2702923 -0.017910626 -2.3232834 -45.955933 -152.32112
11998000 -44.294544 -6.7985106 -0.01701838 -2.4972568 -0.018168222 -2.5412395 -46.213074 -147.70685
12997000 -43.536598 -12.316302 -0.016651969 -2.6773052 -0.018448973 -2.7075813 -45.863934 -142.11688
13996000 -43.273445 -16.204971 -0.015340943 -2.8584037 -0.018434934 -2.8753428 -45.611717 -136.71028
14995000 -42.874268 -20.31209 -0.018020837 -3.0680728 -0.018384503 -3.0930507 -45.390682 -133.56953
15994000 -42.705463 -25.165464 -0.019350093 -3.2871351 -0.020566616 -3.3091435 -45.215729 -129.71809
16993000 -42.682735 -29.368168 -0.018074904 -3.4822469 -0.019383116 -3.4929943 -44.416912 -129.94676
17992000 -42.716118 -34.746952 -0.018254006 -3.6813729 -0.020622276 -3.6840971 -43.806232 -129.39841
18991000 -43.018021 -39.764496 -0.019892 -3.8968935 -0.021043645 -3.89533 -43.171688 -128.56006
19990000 -42.746853 -45.614277 -0.022352751 -4.1016083 -0.02339522 -4.0981116 -42.54306 -129.08153
20989000 -42.636696 -48.839371 -0.024256237 -4.3094902 -0.024495209 -4.3009777 -41.939869 -128.52171
21988000 -42.481335 -53.936451 -0.02476283 -4.5058117 -0.025858998 -4.4928308 -41.714581 -127.80589
22987000 -42.155926 -58.798634 -0.02662049 -4.7064881 -0.026498862 -4.6978621 -41.458076 -127.17864
23986000 -42.115154 -62.96487 -0.025722548 -4.9017906 -0.025459554 -4.896843 -41.369926 -126.8946
24985000 -41.717926 -65.897736 -0.02698045 -5.1110535 -0.026763221 -5.1054072 -41.12355 -124.50047
25984000 -41.367428 -67.926491 -0.027947953 -5.3151503 -0.027599117 -5.3173485 -40.819733 -122.88628
26983000 -41.089973 -69.871216 -0.028928963 -5.52037 -0.027180238 -5.5314426 -40.703106 -122.37664
27982000 -40.901688 -71.003181 -0.030224027 -5.7137012 -0.029625054 -5.7495646 -40.423901 -120.42756
28981000 -40.926613 -72.36187 -0.0281642 -5.9146924 -0.029864581 -5.9368935 -40.181931 -119.99402
29980000 -40.442589 -73.890724 -0.027861718 -6.1087456 -0.030038696 -6.1181488 -39.960052 -119.1072
30979000 -40.087559 -72.685966 -0.0254908 -6.4674478 -0.024369733 -6.4568744 -39.42598 -119.49674
31978000 -39.881882 -73.647987 -0.024469176 -6.6590786 -0.025754577 -6.6482821 -39.179306 -118.78442
32977000 -39.694824 -75.341766 -0.025053117 -6.8695579 -0.026293637 -6.866785 -38.962334 -118.53821
33976000 -39.503101 -76.269165 -0.025874622 -7.0677571 -0.026076443 -7.0673618 -38.677624 -118.20381
34975000 -39.210377 -77.210365 -0.026030349 -7.2725806 -0.027345909 -7.2692208 -38.428234 -117.82817
35974000 -39.022179 -77.77594 -0.02524084 -7.4675722 -0.027488662 -7.4721389 -38.154278 -116.8708
36973000 -38.785904 -78.566917 -0.026159517 -7.6679411 -0.027962804 -7.6682639 -37.902554 -115.94846
37972000 -38.587009 -78.298622 -0.025224436 -7.8764801 -0.028023249 -7.8867621 -37.650475 -115.18585
38971000 -38.282501 -77.737724 -0.026283741 -8.0805473 -0.028168889 -8.0896196 -37.476788 -113.63209
39970000 -37.950794 -78.024704 -0.025026562 -8.2750282 -0.027220091 -8.2918129 -37.217503 -112.99709
40969000 -37.661392 -77.803764 -0.024580596 -8.4693623 -0.027294852 -8.491807 -37.001163 -111.42265
41968000 -37.317986 -77.701302 -0.024976052 -8.6746845 -0.026811928 -8.6991081 -36.799839 -110.21024
42967000 -37.037201 -77.759033 -0.024633702 -8.883832 -0.028917497 -8.9062605 -36.596157 -108.33521
43966000 -36.743031 -78.577965 -0.025546784 -9.08636 -0.028929485 -9.1034451 -36.320648 -107.61039
44965000 -36.510895 -79.193207 -0.026763741 -9.2899675 -0.029219791 -9.3097143 -36.10886 -107.25597
45964000 -36.273529 -80.283882 -0.027486838 -9.4936352 -0.030707592 -9.5122194 -35.868042 -107.06875
46963000 -36.092079 -82.331367 -0.02761058 -9.6849155 -0.030898686 -9.7096014 -35.68618 -107.19535
47962000 -35.904156 -83.704796 -0.029521845 -9.8866482 -0.032468691 -9.9047956 -35.480591 -107.39954
48961000 -35.700199 -85.059944 -0.031395886 -10.08849 -0.034224506 -10.109336 -35.262463 -107.43891
49960000 -35.471302 -86.368965 -0.032199293 -10.286172 -0.03505845 -10.312436 -35.127998 -107.44447
50959000 -35.253239 -87.732567 -0.033300992 -10.501911 -0.036346205 -10.511985 -34.939888 -107.86496
51958000 -35.035309 -88.840469 -0.035503667 -10.699261 -0.037812427 -10.711823 -34.766052 -108.16935
52957000 -34.82901 -89.868645 -0.036901463 -10.901631 -0.038934097 -10.906913 -34.598492 -107.95045
53956000 -34.652454 -90.508804 -0.038014539 -11.101654 -0.039559692 -11.104748 -34.477974 -107.82357
54955000 -34.481518 -91.007744 -0.038993385 -11.302765 -0.040178064 -11.303456 -34.317314 -107.82909
55954000 -34.316761 -91.806976 -0.041066457 -11.502627 -0.040679462 -11.503 -34.208584 -107.47555
56953000 -34.202923 -91.832909 -0.04036409 -11.702274 -0.03931519 -11.695151 -34.145657 -107.81783
57952000 -34.038181 -92.459999 -0.041452445 -11.903849 -0.041515168 -11.893469 -34.037384 -107.75687
58951000 -33.907799 -92.799278 -0.042305287 -12.106568 -0.041940399 -12.089419 -33.884506 -107.96623
59950000 -33.79813 -93.098587 -0.042992022 -12.304928 -0.042738438 -12.284578 -33.81908 -108.14137
60949000 -33.680042 -93.734734 -0.043427072 -12.510835 -0.043511264 -12.485625 -33.719746 -108.39288
61948000 -33.608746 -93.980125 -0.044371571 -12.708941 -0.042895291 -12.687736 -33.638252 -108.45824
62947000 -33.52763 -94.233582 -0.044312209 -12.920994 -0.044205774 -12.898842 -33.501263 -108.76642
63946000 -33.452187 -94.981735 -0.045754701 -13.119707 -0.044646699 -13.103339 -33.396347 -108.86216
64945000 -33.343132 -95.04142 -0.045332756 -13.32547 -0.045524236 -13.303185 -33.286953 -109.39192
65944000 -33.244694 -95.342758 -0.046532508 -13.5227 -0.046334971 -13.506564 -33.190254 -109.76558
66943000 -33.098049 -95.815414 -0.044311948 -13.724278 -0.044510704 -13.706672 -33.084278 -110.04626
67942000 -33.046402 -95.802887 -0.04657856 -13.920359 -0.046298079 -13.909546 -32.960674 -110.35557
68941000 -32.933292 -95.831314 -0.046872664 -14.111352 -0.045146517 -14.107977 -32.860458 -110.28034
69940000 -32.831562 -95.870811 -0.046539836 -14.316206 -0.045505922 -14.306208 -32.706573 -110.57439
70939000 -32.725185 -95.735237 -0.046779513 -14.510153 -0.045687731 -14.502536 -32.583725 -110.49521
71938000 -32.586697 -95.384369 -0.046706248 -14.709333 -0.045568965 -14.702694 -32.44466 -110.38654
72937000 -32.427814 -95.159943 -0.04547872 -14.907575 -0.045107808 -14.900649 -32.30196 -110.08691
73936000 -32.284084 -94.820099 -0.045771703 -15.105516 -0.045174245 -15.105222 -32.182137 -109.82893
74935000 -32.153393 -94.993721 -0.045180522 -15.30331 -0.044295471 -15.301701 -32.035328 -109.50601
75934000 -32.029129 -95.257782 -0.045114085 -15.513149 -0.044365294 -15.507717 -31.94768 -109.41233
76933000 -31.894005 -95.670059 -0.046517856 -15.705027 -0.045388211 -15.698441 -31.774899 -109.71015
77932000 -31.794817 -96.383858 -0.047905594 -15.906649 -0.047352593 -15.896111 -31.663284 -109.74557
78931000 -31.735273 -97.055801 -0.047064997 -16.102512 -0.046475995 -16.100645 -31.56566 -109.56987
79930000 -31.614071 -98.008682 -0.04907595 -16.298458 -0.048678815 -16.294868 -31.462482 -109.89339
80929000 -31.493839 -98.779816 -0.050892711 -16.49305 -0.05071383 -16.492273 -31.364536 -110.08031
81928000 -31.396248 -99.51403 -0.050724041 -16.684765 -0.051133674 -16.681009 -31.239475 -110.09331
82927000 -31.288439 -100.29626 -0.052516863 -16.885454 -0.05237931 -16.882151 -31.118158 -110.40128
83926000 -31.170938 -101.00056 -0.054038089 -17.084387 -0.053369522 -17.082371 -31.002682 -110.56358
84925000 -31.065283 -101.36508 -0.054965239 -17.281515 -0.053720433 -17.279402 -30.903069 -110.61984
85924000 -30.976711 -101.80984 -0.05544737 -17.481977 -0.055331748 -17.483189 -30.811398 -110.59841
86923000 -30.867212 -102.24436 -0.056155067 -17.682505 -0.054560751 -17.677639 -30.715895 -110.4556
87922000 -30.746893 -102.59959 -0.055559851 -17.8901 -0.055838309 -17.884054 -30.623644 -110.53611
88921000 -30.684959 -102.88367 -0.056784727 -18.083635 -0.05580632 -18.085501 -30.535826 -110.3998
89920000 -30.57683 -103.35332 -0.057392441 -18.28554 -0.056722566 -18.278002 -30.482353 -110.59333
90919000 -30.467136 -103.68494 -0.058479559 -18.482676 -0.057225354 -18.482115 -30.394072 -110.7335
91918000 -30.377855 -104.01315 -0.059109289 -18.685112 -0.057594679 -18.677179 -30.320082 -110.75684
92917000 -30.284288 -104.36375 -0.059993956 -18.882303 -0.059591096 -18.878374 -30.258577 -110.9021
93916000 -30.198988 -104.73616 -0.059366718 -19.078745 -0.058884151 -19.074474 -30.169813 -111.47755
94915000 -30.120113 -105.33418 -0.060862523 -19.280628 -0.060041986 -19.272711 -30.10791 -111.33365
95914000 -30.047974 -105.51475 -0.062152442 -19.473627 -0.061780363 -19.472376 -30.015856 -111.62525
96913000 -29.968725 -105.70181 -0.06297259 -19.674831 -0.062023509 -19.675097 -29.950367 -111.93616
97912000 -29.883863 -106.17857 -0.064043768 -19.870789 -0.062437098 -19.872774 -29.871727 -112.21076
98911000 -29.779181 -106.38432 -0.064862177 -20.073248 -0.06330274 -20.073347 -29.831451 -112.41377
99910000 -29.712791 -106.56278 -0.065967195 -20.270824 -0.063828878 -20.272982 -29.715429 -112.71167
100909000 -29.616207 -106.76142 -0.064712934 -20.478613 -0.062533475 -20.476433 -29.629688 -112.91635
101908000 -29.529976 -106.95272 -0.065753266 -20.682686 -0.064932592 -20.678984 -29.523138 -112.70737
102907000 -29.389887 -106.97235 -0.066948161 -20.880632 -0.065608725 -20.879032 -29.443403 -112.66345
103906000 -29.295113 -107.05415 -0.066941589 -21.08993 -0.064469106 -21.082588 -29.305626 -112.63181
104905000 -29.150455 -106.9269 -0.067781046 -21.290825 -0.064843781 -21.284889 -29.168507 -112.34473
105904000 -29.00654 -107.04838 -0.06850785 -21.490372 -0.064833537 -21.486147 -29.059195 -112.20708
106903000 -28.887781 -107.12852 -0.067430839 -21.697502 -0.065359332 -21.690676 -28.93321 -112.07626
107902000 -28.729259 -107.41389 -0.069101162 -21.897268 -0.065971144 -21.885937 -28.797955 -112.0263
108901000 -28.625261 -107.61835 -0.069897637 -22.098629 -0.067312002 -22.090694 -28.663982 -111.9794
109900000 -28.485035 -108.14886 -0.070604272 -22.300409 -0.068633556 -22.290636 -28.518076 -112.10323
110899000 -28.368637 -108.76086 -0.071888924 -22.496355 -0.069268964 -22.488632 -28.380812 -112.31628
111898000 -28.281799 -109.42622 -0.073362455 -22.696819 -0.07042221 -22.693085 -28.265528 -112.4652
112897000 -28.155218 -109.95347 -0.074573934 -22.897585 -0.072000779 -22.885643 -28.136881 -112.59267
113896000 -28.046305 -110.49879 -0.075770989 -23.096994 -0.072937563 -23.086584 -28.021137 -112.79074
114895000 -27.945879 -111.1774 -0.077035308 -23.295115 -0.074004091 -23.285751 -27.911989 -112.8363
115894000 -27.818165 -111.55162 -0.078225665 -23.497459 -0.074848078 -23.4827 -27.842421 -113.02205
116893000 -27.742393 -112.03941 -0.079242088 -23.697456 -0.076637186 -23.680468 -27.719286 -113.06154
117892000 -27.658573 -112.52205 -0.079234704 -23.891178 -0.076799221 -23.877974 -27.647921 -113.27395
118891000 -27.599915 -112.92277 -0.078929439 -24.093519 -0.077408686 -24.079031 -27.545927 -113.36824
119890000 -27.513308 -113.29127 -0.080481835 -24.297237 -0.077702254 -24.27993 -27.531727 -113.50873
120889000 -27.465622 -113.81473 -0.081423618 -24.494984 -0.077863544 -24.48217 -27.462261 -113.42844
121888000 -27.42944 -114.14028 -0.081778646 -24.68998 -0.079242878 -24.682283 -27.405495 -113.74818
122887000 -27.391518 -114.33558 -0.082212061 -24.89365 -0.079754077 -24.882629 -27.354124 -113.70588
123886000 -27.339539 -114.74528 -0.083175853 -25.100805 -0.079564512 -25.076059 -27.344198 -113.86434
124885000 -27.297262 -115.27909 -0.083276384 -25.298641 -0.080278262 -25.287718 -27.312677 -113.9241
125884000 -27.246914 -115.46539 -0.084604919 -25.495413 -0.080342077 -25.482954 -27.289484 -114.08397
126883000 -27.22765 -115.81459 -0.084400885 -25.69883 -0.081241362 -25.687159 -27.24971 -114.0532
127882000 -27.183178 -116.13895 -0.084899761 -25.902905 -0.081736445 -25.884817 -27.204533 -114.22433
128881000 -27.152084 -116.48742 -0.085481063 -26.101084 -0.082344756 -26.084494 -27.169256 -114.31067
129880000 -27.097786 -116.77748 -0.086049765 -26.30385 -0.082512811 -26.283127 -27.132755 -114.27683
130879000 -27.035177 -116.95687 -0.085122824 -26.502829 -0.083020441 -26.487104 -27.059414 -114.30877
131878000 -26.968769 -117.18436 -0.085772797 -26.705908 -0.082957111 -26.686525 -26.994398 -114.14636
132877000 -26.909658 -117.24498 -0.085777551 -26.912737 -0.082678229 -26.891283 -26.917559 -114.1474
133876000 -26.816389 -117.41199 -0.086614847 -27.108929 -0.083048932 -27.090654 -26.829525 -114.0099
134875000 -26.724218 -117.52016 -0.086745828 -27.309687 -0.083761938 -27.295599 -26.73057 -113.88467
135874000 -26.645309 -117.53123 -0.08591564 -27.51013 -0.084157541 -27.491283 -26.630001 -113.86452
136873000 -26.526236 -117.47823 -0.086596631 -27.714193 -0.083162658 -27.696302 -26.544889 -113.78935
137872000 -26.444441 -117.65163 -0.08656124 -27.912613 -0.083329163 -27.900951 -26.442886 -113.73138
138871000 -26.371527 -117.8571 -0.086926728 -28.110317 -0.084026374 -28.100454 -26.344433 -113.89522
139870000 -26.273504 -118.14035 -0.087429598 -28.317135 -0.085754842 -28.296116 -26.258789 -114.04115
140869000 -26.186075 -118.67915 -0.089275151 -28.511621 -0.085988246 -28.492355 -26.157673 -114.26572
141868000 -26.111225 -119.03927 -0.08914119 -28.710243 -0.087220147 -28.69479 -26.111044 -114.50916
142867000 -26.029036 -119.23388 -0.088345669 -28.906864 -0.087019697 -28.892786 -26.030693 -114.64565
143866000 -25.959057 -119.77164 -0.090282537 -29.104895 -0.087976895 -29.089169 -25.954248 -115.09654
144865000 -25.906143 -120.29047 -0.091745675 -29.303988 -0.089431584 -29.288137 -25.897982 -115.37373
145864000 -25.850595 -120.57583 -0.092290074 -29.503572 -0.090585172 -29.493689 -25.864792 -115.62296
146863000 -25.794605 -120.92934 -0.092673503 -29.706331 -0.091014177 -29.692408 -25.819038 -115.90939
147862000 -25.758718 -121.2804 -0.094287962 -29.904594 -0.092200704 -29.888952 -25.783419 -116.24358
148861000 -25.728708 -121.72457 -0.094746701 -30.101341 -0.093310855 -30.086485 -25.763205 -116.41244
149860000 -25.701115 -121.86555 -0.095889255 -30.294783 -0.093198456 -30.284561 -25.709103 -116.49288
150859000 -25.672726 -122.34678 -0.09598241 -30.496798 -0.093642525 -30.478868 -25.690235 -116.84854
151858000 -25.662624 -122.70985 -0.095159978 -30.692234 -0.0939155 -30.67713 -25.684511 -117.20105
152857000 -25.643032 -123.02685 -0.095565088 -30.894964 -0.09277267 -30.879324 -25.661352 -117.36842
153856000 -25.643318 -123.22876 -0.095174789 -31.090824 -0.092296951 -31.078352 -25.68186 -117.64368
154855000 -25.638884 -123.40541 -0.096031904 -31.289806 -0.093067802 -31.281355 -25.672493 -117.91087
155854000 -25.663017 -123.66106 -0.096353456 -31.492374 -0.094063103 -31.480162 -25.662327 -118.20438
156853000 -25.645605 -124.35926 -0.093914442 -31.679838 -0.092825294 -31.673298 -25.663506 -118.50336
157852000 -25.655834 -124.5447 -0.095105737 -31.882002 -0.094575264 -31.872311 -25.648813 -118.86131
158851000 -25.650055 -124.78231 -0.09548597 -32.079407 -0.094775274 -32.07037 -25.634262 -119.09939
159850000 -25.642202 -124.87773 -0.096658364 -32.280777 -0.094569974 -32.272507 -25.637938 -119.28341
160849000 -25.626865 -125.01285 -0.096783303 -32.479958 -0.095643684 -32.471603 -25.606647 -119.58292
161848000 -25.613073 -125.05996 -0.09687753 -32.680145 -0.095316879 -32.675682 -25.566124 -119.69082
162847000 -25.566862 -125.27112 -0.096988179 -32.881519 -0.097003527 -32.872623 -25.544083 -119.96999
163846000 -25.529486 -125.45142 -0.098037601 -33.079895 -0.096122675 -33.069305 -25.4659 -119.95691
164845000 -25.47311 -125.42789 -0.097895682 -33.279163 -0.096359544 -33.274662 -25.40107 -120.04653
165844000 -25.418367 -125.4842 -0.097401671 -33.480412 -0.096773244 -33.47501 -25.322962 -120.206
166843000 -25.353748 -125.53347 -0.098002121 -33.678493 -0.097195975 -33.671631 -25.252661 -120.36263
167842000 -25.297972 -125.62679 -0.098552868 -33.882042 -0.096863769 -33.872093 -25.175413 -120.26984
168841000 -25.218246 -125.79678 -0.099292785 -34.078186 -0.097833201 -34.070015 -25.102083 -120.33367
169840000 -25.153837 -126.04166 -0.09838552 -34.275299 -0.098383136 -34.271263 -25.020168 -120.54182
170839000 -25.096382 -126.2706 -0.10020395 -34.473476 -0.098458074 -34.469326 -24.933538 -120.71105
171838000 -25.03548 -126.67866 -0.099759474 -34.671627 -0.099388659 -34.666061 -24.870266 -120.95085
172837000 -24.96137 -126.98971 -0.10123905 -34.867542 -0.10099025 -34.863476 -24.802116 -121.15334
173836000 -24.896549 -127.42503 -0.10236503 -35.070343 -0.10168103 -35.066559 -24.758375 -121.36066
174835000 -24.841606 -127.81983 -0.10299559 -35.265606 -0.10241538 -35.26733 -24.714682 -121.6885
175834000 -24.796656 -128.20554 -0.10389189 -35.467216 -0.10344332 -35.463249 -24.654181 -121.94184
176833000 -24.737476 -128.53616 -0.1049878 -35.664764 -0.10419203 -35.664257 -24.609009 -122.06297
177832000 -24.695515 -128.96935 -0.10566383 -35.865658 -0.10554448 -35.864277 -24.589645 -122.21038
178831000 -24.652054 -129.18065 -0.10728949 -36.062256 -0.1067769 -36.059624 -24.551916 -122.29774
179830000 -24.586031 -129.56186 -0.10921359 -36.246094 -0.10800808 -36.247086 -24.486563 -122.32732
180829000 -24.530005 -129.92767 -0.10835468 -36.443024 -0.10754051 -36.442646 -24.435892 -122.66995
181828000 -24.510847 -130.36157 -0.10743065 -36.640995 -0.10632166 -36.632385 -24.421831 -122.88771
182827000 -24.481291 -130.74074 -0.10680821 -36.834625 -0.10669147 -36.836132 -24.406979 -122.98562
183826000 -24.447306 -131.06256 -0.10812113 -37.033588 -0.1067769 -37.031307 -24.39889 -123.13624
184825000 -24.448322 -131.41641 -0.10770662 -37.233494 -0.10752459 -37.233608 -24.383974 -123.26728
185824000 -24.41765 -131.75482 -0.10783108 -37.428581 -0.10756227 -37.43158 -24.37398 -123.30598
186823000 -24.401722 -132.14343 -0.10816147 -37.631039 -0.10756651 -37.625843 -24.368717 -123.33993
187822000 -24.377851 -132.48802 -0.10806487 -37.825523 -0.10846031 -37.82386 -24.330463 -123.43294
188821000 -24.358992 -132.73833 -0.10828567 -38.0186 -0.10844014 -38.023499 -24.309149 -123.55486
189820000 -24.333057 -133.00917 -0.10879367 -38.221306 -0.10805611 -38.216507 -24.296309 -123.73364
190819000 -24.302759 -133.34027 -0.10934792 -38.418198 -0.10866706 -38.41684 -24.255892 -123.79998
191818000 -24.272793 -133.6355 -0.10966754 -38.61525 -0.10912175 -38.614643 -24.22477 -123.81514
192817000 -24.222176 -133.9135 -0.10991179 -38.812653 -0.10922872 -38.812737 -24.183296 -123.88294
193816000 -24.192848 -134.14644 -0.11067913 -39.009331 -0.10866813 -39.008373 -24.133558 -124.04547
194815000 -24.13195 -134.56633 -0.11088998 -39.204575 -0.1111744 -39.209282 -24.06378 -124.13976
195814000 -24.073799 -134.77545 -0.11182112 -39.401203 -0.11067754 -39.403027 -24.006187 -124.21812
196813000 -24.017515 -135.08463 -0.1111991 -39.596191 -0.1102073 -39.598316 -23.927202 -124.38136
197812000 -23.960943 -135.31262 -0.11188805 -39.793259 -0.11093938 -39.796207 -23.859846 -124.46854
198811000 -23.906834 -135.44272 -0.11147105 -39.994061 -0.1104221 -39.993389 -23.788397 -124.62744
199810000 -23.834745 -135.8293 -0.11134357 -40.183815 -0.11089795 -40.186096 -23.710447 -124.72589
200809000 -23.778337 -136.07967 -0.11240391 -40.383175 -0.11077314 -40.385357 -23.63228 -124.94537
201808000 -23.721527 -136.27106 -0.11341003 -40.587246 -0.11231199 -40.587551 -23.56601 -125.00072
202807000 -23.661255 -136.63057 -0.11375839 -40.783291 -0.11284198 -40.790298 -23.505911 -125.20116
