!Keysight Technologies,E5080B,MY59205177,A.15.75.32
!Date: Friday, February 23, 2024 03:29:38
!Correction: S11(Cdelta 2-Port  ) 
!S21(Cdelta 2-Port  ) 
!S12(Cdelta 2-Port  ) 
!S22(Cdelta 2-Port  ) 
!S2P File: Measurements: S11, S21, S12, S22:
# Hz S  dB   R 50
10000000 -46.031952 -1.7523413 -0.015452908 -2.0543909 -0.018243868 -2.1065221 -46.045128 -158.52414
10999000 -45.219917 -3.5848529 -0.016470594 -2.2713859 -0.018393861 -2.3251355 -45.950672 -152.38045
11998000 -44.319824 -6.7924628 -0.016784497 -2.4935532 -0.01818252 -2.5399189 -46.191021 -148.19681
12997000 -43.554211 -12.266595 -0.016399657 -2.6790831 -0.017657461 -2.7078612 -45.828873 -141.94154
13996000 -43.258556 -16.166325 -0.015836623 -2.8555882 -0.01817706 -2.8784304 -45.603149 -136.32466
14995000 -42.873932 -20.644957 -0.018069964 -3.0677817 -0.018268822 -3.0916953 -45.328018 -133.25439
15994000 -42.680279 -24.855585 -0.019011566 -3.2869108 -0.020133331 -3.3077374 -45.192707 -129.91739
16993000 -42.685661 -29.171274 -0.01818122 -3.4817955 -0.019670444 -3.4913869 -44.358898 -129.29588
17992000 -42.734703 -34.715336 -0.019065125 -3.6840739 -0.020417849 -3.6794977 -43.797424 -129.55222
18991000 -43.014885 -39.932144 -0.019496225 -3.8952799 -0.020878214 -3.8956194 -43.152073 -128.36565
19990000 -42.807701 -45.921062 -0.022097507 -4.1052494 -0.023421505 -4.0977139 -42.516613 -129.24446
20989000 -42.638077 -48.81649 -0.024599599 -4.307518 -0.024709981 -4.2957921 -41.974319 -128.44437
21988000 -42.475338 -54.251823 -0.02504036 -4.5051694 -0.025928007 -4.489027 -41.729767 -127.54868
22987000 -42.167915 -58.799023 -0.026666852 -4.7039442 -0.027338615 -4.6932659 -41.442219 -127.20023
23986000 -42.126125 -63.052113 -0.025629587 -4.9009614 -0.025645472 -4.8995094 -41.308708 -126.98126
24985000 -41.752945 -65.998337 -0.026736915 -5.109601 -0.025864728 -5.1034288 -41.135826 -124.4075
25984000 -41.370079 -68.05175 -0.028423971 -5.3158259 -0.026643671 -5.3179679 -40.786591 -122.94263
26983000 -41.066475 -69.933899 -0.028857563 -5.516768 -0.02751836 -5.5322351 -40.710384 -122.29254
27982000 -40.923668 -70.62352 -0.029887257 -5.7141232 -0.029677702 -5.748208 -40.440102 -120.61716
28981000 -40.897713 -72.622902 -0.028158989 -5.9115653 -0.02973452 -5.9396467 -40.188335 -119.92752
29980000 -40.450741 -73.781158 -0.027811438 -6.1090574 -0.029889865 -6.115849 -39.903217 -119.00004
30979000 -40.061008 -72.668098 -0.025042184 -6.4619765 -0.024620946 -6.45472 -39.433163 -119.48083
31978000 -39.875031 -73.822014 -0.025426226 -6.658566 -0.025939204 -6.6503911 -39.17878 -118.7307
32977000 -39.68507 -75.274643 -0.024883628 -6.8665953 -0.026566578 -6.8686457 -38.942833 -118.7831
33976000 -39.528118 -76.418121 -0.025617089 -7.0670147 -0.027202118 -7.0671468 -38.652035 -118.08355
34975000 -39.221378 -77.268608 -0.026060296 -7.2699704 -0.027993547 -7.2734165 -38.408398 -117.74222
35974000 -39.032368 -77.826912 -0.024402274 -7.468852 -0.027460007 -7.4718375 -38.136566 -116.71102
36973000 -38.778717 -78.453232 -0.025183558 -7.6654549 -0.028342415 -7.6681905 -37.876213 -115.93893
37972000 -38.619297 -78.222336 -0.02483963 -7.8765759 -0.028674375 -7.888061 -37.656296 -115.22717
38971000 -38.263809 -77.617477 -0.026506154 -8.0810919 -0.028352577 -8.0882902 -37.491642 -113.54777
39970000 -37.943447 -78.08313 -0.02514112 -8.2727299 -0.027454276 -8.2873468 -37.238441 -113.04124
40969000 -37.639404 -77.682503 -0.025116645 -8.4740229 -0.026922105 -8.4911671 -36.998699 -111.53864
41968000 -37.316082 -77.732079 -0.025078373 -8.6784754 -0.027894545 -8.6889029 -36.782444 -110.19505
42967000 -37.023254 -77.776306 -0.025124718 -8.8822927 -0.028094634 -8.9115438 -36.591316 -108.33913
43966000 -36.735207 -78.515884 -0.025912903 -9.0841398 -0.029404566 -9.1025562 -36.320087 -107.51324
44965000 -36.495319 -79.128799 -0.027156012 -9.288496 -0.029558072 -9.3106174 -36.108196 -107.31454
45964000 -36.273151 -80.261826 -0.028081348 -9.4895344 -0.030362183 -9.5117292 -35.873363 -107.07931
46963000 -36.066154 -82.206467 -0.027871618 -9.6832123 -0.030880176 -9.7068262 -35.696712 -107.32833
47962000 -35.906967 -83.754433 -0.029323775 -9.8867188 -0.032096021 -9.9061594 -35.489876 -107.30987
48961000 -35.702606 -85.012093 -0.031631861 -10.084551 -0.033932563 -10.108981 -35.253933 -107.41019
49960000 -35.475071 -86.457794 -0.032931902 -10.284568 -0.035314716 -10.308771 -35.122719 -107.53014
50959000 -35.252029 -87.70826 -0.033872556 -10.501345 -0.036548514 -10.51146 -34.944809 -107.74306
51958000 -35.026768 -88.647781 -0.035865664 -10.700771 -0.037674554 -10.710583 -34.764378 -108.22105
52957000 -34.832726 -89.833641 -0.037356269 -10.900996 -0.038792271 -10.908869 -34.594746 -107.94894
53956000 -34.652626 -90.50975 -0.038529269 -11.105229 -0.040032543 -11.102874 -34.459145 -107.86263
54955000 -34.489719 -91.053215 -0.039830074 -11.304485 -0.041168895 -11.298195 -34.317955 -107.79462
55954000 -34.320244 -91.885948 -0.040161081 -11.501724 -0.041200519 -11.501168 -34.217819 -107.5146
56953000 -34.205368 -91.9002 -0.040207848 -11.700521 -0.040023919 -11.693988 -34.141254 -107.75151
57952000 -34.047195 -92.410156 -0.040841728 -11.896164 -0.040782675 -11.893763 -34.036858 -107.77525
58951000 -33.909271 -92.776115 -0.042080496 -12.10691 -0.04198065 -12.088137 -33.893925 -107.84203
59950000 -33.787628 -93.157074 -0.043340005 -12.307899 -0.042347372 -12.29034 -33.818001 -108.11659
60949000 -33.68211 -93.774536 -0.043267846 -12.506927 -0.043969113 -12.486468 -33.732803 -108.48071
61948000 -33.610268 -94.084198 -0.044491611 -12.707972 -0.043613236 -12.689253 -33.633179 -108.5115
62947000 -33.523937 -94.245247 -0.044253629 -12.923537 -0.044399295 -12.901941 -33.483562 -108.74377
63946000 -33.447422 -94.984863 -0.045228388 -13.117909 -0.044785574 -13.101794 -33.378784 -108.90497
64945000 -33.348301 -95.171867 -0.04587556 -13.322442 -0.045783736 -13.30221 -33.275711 -109.38497
65944000 -33.245743 -95.445244 -0.047064211 -13.520782 -0.045505662 -13.506468 -33.182831 -109.79738
66943000 -33.10009 -95.908218 -0.044557516 -13.728785 -0.044064563 -13.705168 -33.08115 -110.03059
67942000 -33.042767 -95.763756 -0.0466322 -13.919848 -0.04607648 -13.909359 -32.966721 -110.39316
68941000 -32.926636 -95.911087 -0.04605189 -14.113372 -0.04556923 -14.104908 -32.849525 -110.4067
69940000 -32.834301 -95.864876 -0.046785008 -14.314935 -0.046116509 -14.303667 -32.709702 -110.57323
70939000 -32.717152 -95.771339 -0.046498235 -14.511729 -0.046014216 -14.503673 -32.569935 -110.50502
71938000 -32.578842 -95.375603 -0.046565477 -14.7087 -0.045679621 -14.699049 -32.440582 -110.39239
72937000 -32.428772 -95.172775 -0.045539405 -14.909538 -0.046443813 -14.90336 -32.297329 -110.03587
73936000 -32.285206 -94.821495 -0.044788714 -15.099952 -0.044831082 -15.096313 -32.177513 -109.88522
74935000 -32.145672 -94.968163 -0.044489779 -15.30426 -0.044663958 -15.298178 -32.024193 -109.51447
75934000 -32.035107 -95.296547 -0.045762546 -15.514828 -0.044150595 -15.507118 -31.932447 -109.39716
76933000 -31.891254 -95.624153 -0.046540361 -15.705103 -0.045953784 -15.698232 -31.753588 -109.80155
77932000 -31.796831 -96.429161 -0.047441833 -15.905988 -0.047423776 -15.896026 -31.663198 -109.70821
78931000 -31.710501 -97.189598 -0.046588503 -16.09976 -0.046385989 -16.095776 -31.55574 -109.56106
79930000 -31.601465 -98.047188 -0.048946101 -16.299097 -0.048531178 -16.295231 -31.464338 -109.88072
80929000 -31.480253 -98.76844 -0.05060095 -16.491745 -0.050936189 -16.491184 -31.361254 -110.05531
81928000 -31.386806 -99.515656 -0.051119529 -16.68627 -0.050798945 -16.681662 -31.234831 -110.10156
82927000 -31.291185 -100.33727 -0.05259756 -16.886009 -0.052352585 -16.882084 -31.118816 -110.43027
83926000 -31.169405 -100.98156 -0.054012667 -17.080042 -0.053412236 -17.08223 -31.000359 -110.55387
84925000 -31.064344 -101.4088 -0.054723799 -17.278566 -0.054220252 -17.281408 -30.897341 -110.62762
85924000 -30.979681 -101.78916 -0.055687018 -17.484074 -0.054775178 -17.486195 -30.817654 -110.58009
86923000 -30.865852 -102.30853 -0.055611242 -17.681486 -0.055016622 -17.674669 -30.716255 -110.44664
87922000 -30.746805 -102.62295 -0.055665515 -17.887159 -0.054645944 -17.881128 -30.625378 -110.48317
88921000 -30.681753 -102.82504 -0.056548953 -18.08679 -0.055336468 -18.082348 -30.532705 -110.39449
89920000 -30.574186 -103.43777 -0.057435196 -18.284443 -0.056386624 -18.274279 -30.477352 -110.57995
90919000 -30.469975 -103.69174 -0.058256026 -18.48563 -0.057449099 -18.477989 -30.384375 -110.7484
91918000 -30.368074 -104.07353 -0.059626527 -18.684385 -0.057483982 -18.679434 -30.325294 -110.69377
92917000 -30.274099 -104.33573 -0.060127024 -18.883894 -0.058850303 -18.878689 -30.25045 -110.84238
93916000 -30.195253 -104.80737 -0.060032535 -19.074884 -0.058623079 -19.072258 -30.170305 -111.50199
94915000 -30.109978 -105.34409 -0.06117361 -19.278801 -0.059688725 -19.270454 -30.110054 -111.35275
95914000 -30.046124 -105.56873 -0.062276646 -19.475462 -0.061196715 -19.47032 -30.009684 -111.62856
96913000 -29.957005 -105.75126 -0.063443266 -19.673454 -0.062224917 -19.672974 -29.948597 -111.9893
97912000 -29.892841 -106.23562 -0.064410783 -19.867289 -0.061911125 -19.872061 -29.870182 -112.2293
98911000 -29.781445 -106.41644 -0.065172233 -20.071255 -0.063667066 -20.071903 -29.835024 -112.43449
99910000 -29.708158 -106.52554 -0.065647617 -20.271463 -0.063771613 -20.270906 -29.725227 -112.69666
100909000 -29.614538 -106.79851 -0.065270253 -20.483068 -0.06277141 -20.473661 -29.632715 -112.95689
101908000 -29.522615 -107.03461 -0.066724718 -20.681643 -0.065243974 -20.676817 -29.522379 -112.75353
102907000 -29.389454 -106.96828 -0.066780441 -20.880327 -0.065006688 -20.874407 -29.447535 -112.6626
103906000 -29.286339 -107.04996 -0.066810146 -21.085751 -0.064890027 -21.082407 -29.295811 -112.6423
104905000 -29.143476 -106.94476 -0.067366682 -21.286198 -0.064795174 -21.288033 -29.176262 -112.33784
105904000 -29.004368 -107.04527 -0.068053186 -21.484959 -0.064651713 -21.4848 -29.061174 -112.21356
106903000 -28.889326 -107.11437 -0.067487359 -21.694349 -0.064903162 -21.68511 -28.931044 -112.0974
107902000 -28.725658 -107.48509 -0.069156662 -21.894348 -0.065640263 -21.888027 -28.792801 -112.03393
108901000 -28.613668 -107.6669 -0.070214108 -22.095312 -0.067765005 -22.092226 -28.661606 -112.00558
109900000 -28.484425 -108.15426 -0.070665836 -22.297964 -0.068660639 -22.285229 -28.50802 -112.06868
110899000 -28.37294 -108.77636 -0.072685383 -22.494162 -0.06896361 -22.488329 -28.383776 -112.37236
111898000 -28.276623 -109.42944 -0.073232144 -22.697386 -0.070144393 -22.691256 -28.265165 -112.46201
112897000 -28.147543 -109.98542 -0.074873887 -22.896406 -0.071795762 -22.885784 -28.127316 -112.59962
113896000 -28.045816 -110.53161 -0.075783104 -23.098989 -0.073016539 -23.086765 -28.016603 -112.80665
114895000 -27.945801 -111.19978 -0.077203684 -23.29533 -0.074390382 -23.280247 -27.912327 -112.82428
115894000 -27.817045 -111.5164 -0.078270204 -23.495281 -0.075399064 -23.485016 -27.838755 -113.05815
116893000 -27.74703 -112.02615 -0.079308257 -23.692337 -0.075949326 -23.67827 -27.717485 -113.09476
117892000 -27.65576 -112.54996 -0.079116605 -23.891779 -0.076801859 -23.875614 -27.644844 -113.30525
118891000 -27.598289 -112.99022 -0.080385588 -24.090971 -0.076943614 -24.076977 -27.543415 -113.45101
119890000 -27.514189 -113.29214 -0.0805206 -24.292858 -0.07826256 -24.273636 -27.538271 -113.53531
120889000 -27.465038 -113.82768 -0.082090445 -24.494141 -0.078283124 -24.478067 -27.457378 -113.49061
121888000 -27.431257 -114.11806 -0.082431287 -24.689699 -0.078113385 -24.679878 -27.397024 -113.73801
122887000 -27.382816 -114.34765 -0.08297506 -24.892698 -0.080031984 -24.881733 -27.357012 -113.75335
123886000 -27.331234 -114.78094 -0.083205931 -25.098511 -0.079767525 -25.078539 -27.345676 -113.8835
124885000 -27.302874 -115.27424 -0.084120065 -25.296 -0.080427773 -25.280443 -27.315113 -113.95832
125884000 -27.250206 -115.46849 -0.08489316 -25.496181 -0.080519281 -25.482399 -27.284315 -114.0686
126883000 -27.224024 -115.85024 -0.084918767 -25.697607 -0.081453152 -25.683807 -27.246428 -114.08988
127882000 -27.180571 -116.16733 -0.085597225 -25.896643 -0.082160883 -25.881006 -27.205397 -114.19127
128881000 -27.146339 -116.48573 -0.085128628 -26.098135 -0.081614316 -26.084166 -27.166979 -114.34492
129880000 -27.091413 -116.78968 -0.085868903 -26.301355 -0.081743039 -26.282709 -27.124428 -114.27615
130879000 -27.032001 -116.93415 -0.085973196 -26.502405 -0.082887724 -26.483816 -27.049818 -114.29258
131878000 -26.969444 -117.14481 -0.086042114 -26.703676 -0.082659498 -26.686005 -26.993086 -114.17384
132877000 -26.901899 -117.2277 -0.085818209 -26.907518 -0.083207518 -26.888008 -26.914072 -114.16114
133876000 -26.819536 -117.40706 -0.086534835 -27.108074 -0.082992204 -27.090023 -26.828541 -114.02808
134875000 -26.719391 -117.54608 -0.086747684 -27.307056 -0.084650844 -27.289837 -26.720139 -113.89534
135874000 -26.635527 -117.56791 -0.086330712 -27.510084 -0.083863273 -27.493633 -26.626545 -113.83903
136873000 -26.52503 -117.50446 -0.08748585 -27.711178 -0.084364727 -27.689177 -26.538626 -113.80387
137872000 -26.448288 -117.63139 -0.088094182 -27.913671 -0.084091038 -27.893785 -26.435547 -113.72198
138871000 -26.369343 -117.85228 -0.087983236 -28.111845 -0.084187895 -28.098829 -26.343847 -113.88121
139870000 -26.275291 -118.10925 -0.088833906 -28.311651 -0.085694388 -28.297688 -26.260689 -114.05585
140869000 -26.193331 -118.6792 -0.089640871 -28.507938 -0.085888967 -28.493711 -26.158854 -114.24666
141868000 -26.114302 -119.07577 -0.090399623 -28.709206 -0.087628752 -28.693222 -26.112728 -114.55656
142867000 -26.032127 -119.25671 -0.089034706 -28.908636 -0.086643636 -28.88983 -26.02841 -114.62836
143866000 -25.960421 -119.76712 -0.090980344 -29.106985 -0.087930933 -29.087217 -25.954266 -115.07311
144865000 -25.905321 -120.28522 -0.092593908 -29.304337 -0.08935073 -29.289631 -25.893 -115.40665
145864000 -25.848154 -120.56639 -0.092803612 -29.500933 -0.090667374 -29.495514 -25.863716 -115.65946
146863000 -25.797083 -120.95045 -0.094183736 -29.705494 -0.09089575 -29.690538 -25.815144 -115.91911
147862000 -25.76232 -121.27769 -0.09480226 -29.901367 -0.091396958 -29.890982 -25.780287 -116.26208
148861000 -25.729494 -121.76723 -0.09620975 -30.1033 -0.092818417 -30.085218 -25.760429 -116.37959
149860000 -25.698183 -121.90594 -0.097321987 -30.296957 -0.093399197 -30.281694 -25.706606 -116.52911
150859000 -25.674337 -122.35085 -0.09678065 -30.490589 -0.093154818 -30.477688 -25.689259 -116.86031
151858000 -25.663071 -122.74666 -0.095999353 -30.690821 -0.093396023 -30.678747 -25.679535 -117.22672
152857000 -25.646717 -123.06401 -0.096044607 -30.886915 -0.093680091 -30.87719 -25.665138 -117.36273
153856000 -25.643881 -123.2998 -0.096080333 -31.088381 -0.093283616 -31.078123 -25.681562 -117.69534
154855000 -25.643379 -123.44894 -0.096054398 -31.290787 -0.092914149 -31.276974 -25.674892 -117.94133
155854000 -25.657587 -123.67646 -0.096476793 -31.489441 -0.093890108 -31.477423 -25.665781 -118.19719
156853000 -25.645885 -124.33702 -0.094601192 -31.679272 -0.092812069 -31.667917 -25.655954 -118.51802
157852000 -25.653851 -124.57841 -0.095697664 -31.882421 -0.094637431 -31.869879 -25.649393 -118.85704
158851000 -25.648384 -124.80074 -0.096308999 -32.077675 -0.094653569 -32.069336 -25.632839 -119.13365
159850000 -25.640711 -124.93516 -0.096898973 -32.278816 -0.095125578 -32.270439 -25.636938 -119.31818
160849000 -25.626196 -124.99785 -0.09709724 -32.477207 -0.09553095 -32.47451 -25.605839 -119.62389
161848000 -25.606237 -125.07119 -0.098075196 -32.677765 -0.096137494 -32.671329 -25.568819 -119.69453
162847000 -25.56476 -125.27277 -0.098065667 -32.877029 -0.096766889 -32.872166 -25.537331 -119.94995
163846000 -25.520908 -125.44994 -0.098494083 -33.078373 -0.096618138 -33.074417 -25.465137 -119.97439
164845000 -25.463924 -125.4595 -0.098014034 -33.277172 -0.095936365 -33.273342 -25.400892 -120.05667
165844000 -25.414129 -125.50172 -0.098373339 -33.479633 -0.097151242 -33.472282 -25.323351 -120.188
166843000 -25.349047 -125.53629 -0.098428942 -33.675304 -0.096982092 -33.671238 -25.251411 -120.33325
167842000 -25.29092 -125.6566 -0.09845119 -33.874542 -0.09762881 -33.872639 -25.177782 -120.27246
168841000 -25.213299 -125.80939 -0.099154539 -34.07708 -0.097548857 -34.074471 -25.098188 -120.36149
169840000 -25.147943 -126.03732 -0.099549167 -34.270561 -0.098402992 -34.268574 -25.014923 -120.53285
170839000 -25.092073 -126.27824 -0.10047098 -34.472916 -0.098864287 -34.467079 -24.931828 -120.70092
171838000 -25.034304 -126.65855 -0.10044634 -34.67276 -0.099622004 -34.660004 -24.864428 -120.93777
172837000 -24.967419 -127.0108 -0.10205521 -34.87067 -0.1005245 -34.865211 -24.803068 -121.16257
173836000 -24.898746 -127.43311 -0.10325272 -35.070671 -0.10167599 -35.063038 -24.754917 -121.3654
174835000 -24.845146 -127.81258 -0.10381713 -35.26355 -0.10211909 -35.265747 -24.713392 -121.7113
175834000 -24.79323 -128.18419 -0.10477486 -35.464447 -0.10383834 -35.463127 -24.653755 -121.9724
176833000 -24.735254 -128.53279 -0.10534132 -35.664814 -0.1044874 -35.664997 -24.605558 -122.11786
177832000 -24.69429 -128.98601 -0.10685171 -35.863815 -0.10507001 -35.863228 -24.584044 -122.21559
178831000 -24.656033 -129.19691 -0.10798313 -36.060863 -0.10678221 -36.061657 -24.547043 -122.31902
179830000 -24.583368 -129.59134 -0.10958736 -36.245068 -0.10749805 -36.248962 -24.478247 -122.32739
180829000 -24.532911 -129.96228 -0.10860283 -36.440067 -0.1073813 -36.437962 -24.438536 -122.68127
181828000 -24.503624 -130.39951 -0.10804789 -36.637962 -0.1062832 -36.632744 -24.417768 -122.86065
182827000 -24.484873 -130.76894 -0.10783453 -36.833488 -0.10668033 -36.837013 -24.405533 -123.00653
183826000 -24.446743 -131.10327 -0.10891789 -37.031586 -0.10663841 -37.031956 -24.39782 -123.14212
184825000 -24.447584 -131.42587 -0.10786106 -37.228901 -0.10684323 -37.234062 -24.379564 -123.28303
185824000 -24.419317 -131.80415 -0.10858611 -37.426167 -0.10683208 -37.429756 -24.369926 -123.35915
186823000 -24.4027 -132.16882 -0.10846615 -37.627281 -0.10741314 -37.627701 -24.370035 -123.35311
187822000 -24.379927 -132.49687 -0.10892054 -37.823647 -0.10775306 -37.823101 -24.328964 -123.43164
188821000 -24.351673 -132.78659 -0.10874377 -38.019608 -0.1085816 -38.02338 -24.31126 -123.56197
189820000 -24.334177 -133.0453 -0.10903256 -38.21983 -0.10801153 -38.218792 -24.292484 -123.76526
190819000 -24.299938 -133.36734 -0.11031669 -38.4165 -0.10876049 -38.414242 -24.256836 -123.79759
191818000 -24.267895 -133.65367 -0.11022854 -38.613312 -0.10902725 -38.613628 -24.224895 -123.84788
192817000 -24.224411 -133.90776 -0.11010029 -38.809639 -0.10952259 -38.813889 -24.177864 -123.93956
193816000 -24.188723 -134.21565 -0.11054849 -39.007179 -0.10914458 -39.007511 -24.132507 -124.05834
194815000 -24.13203 -134.60753 -0.11133534 -39.198887 -0.11023889 -39.206783 -24.060694 -124.13357
195814000 -24.07588 -134.76765 -0.11188114 -39.400192 -0.10969329 -39.402889 -24.005579 -124.23423
196813000 -24.01959 -135.0833 -0.11228755 -39.595211 -0.11015419 -39.599468 -23.926973 -124.39883
197812000 -23.957954 -135.30244 -0.11243737 -39.792408 -0.11086395 -39.789413 -23.856388 -124.47231
198811000 -23.906691 -135.4566 -0.11239222 -39.990482 -0.11035041 -39.993229 -23.785337 -124.66056
199810000 -23.833139 -135.80547 -0.11251017 -40.182301 -0.11046777 -40.184582 -23.706949 -124.75517
200809000 -23.774532 -136.05936 -0.11286297 -40.382542 -0.11086077 -40.385536 -23.627834 -124.93506
201808000 -23.715857 -136.28392 -0.11399382 -40.585308 -0.11179774 -40.584881 -23.561392 -125.01163
202807000 -23.662943 -136.63547 -0.11403449 -40.783802 -0.1130524 -40.785633 -23.505676 -125.19002
