!Keysight Technologies,E5080B,MY59205177,A.15.75.32
!Date: Friday, February 23, 2024 02:51:22
!Correction: S11(Cdelta 2-Port  ) 
!S21(Cdelta 2-Port  ) 
!S12(Cdelta 2-Port  ) 
!S22(Cdelta 2-Port  ) 
!S2P File: Measurements: S11, S21, S12, S22:
# Hz S  dB   R 50
10000000 -42.677437 -3.3887665 -0.037766729 -2.0492713 -0.040478792 -2.0999055 -50.520668 -140.34557
10999000 -42.165718 -4.939292 -0.038935926 -2.2661908 -0.039994922 -2.3187938 -49.878513 -130.93341
11998000 -41.482666 -7.1746588 -0.039045103 -2.4875653 -0.040034108 -2.5296767 -49.921879 -123.60275
12997000 -40.917091 -11.267446 -0.038193163 -2.6665912 -0.039595742 -2.6981719 -48.879063 -117.50294
13996000 -40.701576 -14.136449 -0.037728082 -2.8480091 -0.039722703 -2.8650832 -48.227165 -111.28912
14995000 -40.43819 -17.462271 -0.039925691 -3.0570939 -0.039846793 -3.0802829 -47.595676 -108.57803
15994000 -40.332779 -20.959713 -0.041119769 -3.2739489 -0.041996855 -3.2952631 -47.321598 -105.32093
16993000 -40.372005 -24.558825 -0.040237371 -3.4708822 -0.041042157 -3.4810503 -46.260986 -107.31464
17992000 -40.460094 -28.523108 -0.040246516 -3.6713111 -0.041949023 -3.678813 -45.721519 -108.84145
18991000 -40.761002 -32.267677 -0.041308183 -3.8792431 -0.042592045 -3.8779287 -44.904202 -109.49058
19990000 -40.684048 -36.880596 -0.043453481 -4.0874834 -0.044645913 -4.0839829 -44.198059 -111.98051
20989000 -40.603539 -39.56966 -0.045305293 -4.2937965 -0.046779513 -4.2842999 -43.598042 -112.53801
21988000 -40.612377 -43.650379 -0.046604201 -4.4890518 -0.04702653 -4.4766817 -43.311249 -112.13527
22987000 -40.50388 -47.997433 -0.04815948 -4.6876783 -0.047857698 -4.6774545 -42.97224 -111.8661
23986000 -40.521931 -51.189312 -0.047365416 -4.8816767 -0.046974719 -4.8809814 -42.864128 -112.07893
24985000 -40.305706 -53.759716 -0.04836417 -5.0923324 -0.047286905 -5.0874949 -42.544201 -109.8922
25984000 -40.122646 -56.202164 -0.049361587 -5.3000317 -0.047902979 -5.3004622 -42.123642 -108.61467
26983000 -39.833828 -57.956978 -0.049975071 -5.4985037 -0.048918873 -5.5148573 -41.981476 -108.11676
27982000 -39.767929 -59.004925 -0.051307335 -5.6962161 -0.050577641 -5.732224 -41.615932 -106.3907
28981000 -39.768044 -60.501713 -0.049884468 -5.8947849 -0.0511562 -5.9200287 -41.316353 -106.16509
29980000 -39.388275 -62.173615 -0.048775151 -6.0873518 -0.051112458 -6.0940018 -41.012653 -105.5934
30979000 -39.057289 -61.634377 -0.046999838 -6.440414 -0.046583794 -6.4302416 -40.495834 -106.88392
31978000 -38.898331 -62.753471 -0.0458753 -6.6346774 -0.046717238 -6.6269917 -40.174725 -106.44055
32977000 -38.730652 -64.281151 -0.046248369 -6.8501897 -0.047802474 -6.8418469 -39.940216 -106.67797
33976000 -38.608894 -65.57357 -0.046745759 -7.0471215 -0.048476204 -7.0418696 -39.636509 -106.52342
34975000 -38.367874 -66.589546 -0.04736175 -7.2460785 -0.048989821 -7.2475257 -39.335419 -106.52152
35974000 -38.186977 -67.509003 -0.046682436 -7.4413571 -0.048935629 -7.4444485 -39.016796 -106.13834
36973000 -37.991886 -68.377556 -0.047067352 -7.6430793 -0.049833409 -7.6470876 -38.710796 -105.29243
37972000 -37.819813 -68.406616 -0.046861153 -7.8508134 -0.049667139 -7.8607044 -38.444542 -104.56084
38971000 -37.512001 -68.322678 -0.046939917 -8.0525799 -0.049189575 -8.0654173 -38.230339 -103.06139
39970000 -37.189274 -69.097069 -0.045419078 -8.2492208 -0.048590861 -8.2604532 -37.953671 -102.85391
40969000 -36.917667 -68.980598 -0.046757009 -8.4460812 -0.048606042 -8.4663935 -37.664078 -101.66634
41968000 -36.577972 -69.393112 -0.046993557 -8.6567068 -0.049225442 -8.6601896 -37.41481 -100.54368
42967000 -36.326168 -69.724197 -0.046268255 -8.858861 -0.049051866 -8.8730831 -37.167244 -98.737961
43966000 -36.074409 -70.704102 -0.046621732 -9.0578527 -0.0500696 -9.0769711 -36.864258 -98.40036
44965000 -35.856411 -71.688103 -0.047958728 -9.264266 -0.051672488 -9.2836819 -36.633049 -98.30661
45964000 -35.662937 -72.931633 -0.048814941 -9.4605522 -0.051892016 -9.481204 -36.395569 -98.190125
46963000 -35.516029 -74.823166 -0.048934057 -9.6538792 -0.052845694 -9.6797676 -36.216461 -98.674675
47962000 -35.373333 -76.380936 -0.051015548 -9.8574905 -0.053486664 -9.8739223 -36.010975 -99.03743
48961000 -35.215481 -77.879662 -0.053215433 -10.05485 -0.054817908 -10.077363 -35.783333 -99.400864
49960000 -35.003628 -79.456207 -0.054062989 -10.252809 -0.056650445 -10.275562 -35.6413 -99.575768
50959000 -34.815701 -80.756279 -0.05505909 -10.466118 -0.056896713 -10.477788 -35.469166 -100.18185
51958000 -34.645927 -82.00737 -0.057208043 -10.665823 -0.05873695 -10.676749 -35.298965 -100.77341
52957000 -34.450375 -83.207359 -0.058616254 -10.865292 -0.0598769 -10.872791 -35.113613 -100.76945
53956000 -34.311245 -84.096458 -0.059874013 -11.069198 -0.060893763 -11.066688 -34.969917 -100.75642
54955000 -34.146557 -84.613693 -0.060557492 -11.269975 -0.061306454 -11.265879 -34.832542 -100.85134
55954000 -34.01141 -85.66581 -0.062160581 -11.470026 -0.062604122 -11.467194 -34.717949 -100.63616
56953000 -33.885563 -85.689827 -0.061790343 -11.665664 -0.061128456 -11.656816 -34.652596 -100.9332
57952000 -33.72514 -86.353622 -0.06240401 -11.865956 -0.062980205 -11.858827 -34.537365 -101.13951
58951000 -33.611835 -86.756149 -0.063233659 -12.071001 -0.062517717 -12.050516 -34.393192 -101.22051
59950000 -33.513103 -87.219368 -0.063924238 -12.270263 -0.063942105 -12.251641 -34.32275 -101.44365
60949000 -33.396626 -87.93306 -0.064427599 -12.471692 -0.064165667 -12.449183 -34.235413 -101.85878
61948000 -33.345013 -88.180847 -0.064893968 -12.672668 -0.064286515 -12.649956 -34.15519 -102.10916
62947000 -33.259422 -88.388115 -0.064700581 -12.882354 -0.065402433 -12.865032 -34.009243 -102.42513
63946000 -33.205425 -89.189201 -0.066390097 -13.075997 -0.065957211 -13.058651 -33.88842 -102.52953
64945000 -33.083023 -89.328339 -0.066998899 -13.28237 -0.066726558 -13.264707 -33.79768 -103.17954
65944000 -32.99155 -89.70919 -0.067785516 -13.481045 -0.067285709 -13.465885 -33.69215 -103.62725
66943000 -32.85648 -90.245163 -0.065712005 -13.683208 -0.065677576 -13.665703 -33.596836 -103.86765
67942000 -32.795723 -90.187103 -0.067758963 -13.877734 -0.067182921 -13.865145 -33.475109 -104.31644
68941000 -32.676708 -90.337608 -0.067870967 -14.069955 -0.066659786 -14.059896 -33.365246 -104.31939
69940000 -32.576427 -90.437134 -0.067579642 -14.26728 -0.067712687 -14.259351 -33.227646 -104.69234
70939000 -32.472462 -90.331612 -0.06749998 -14.466213 -0.06729044 -14.459299 -33.102894 -104.5754
71938000 -32.328445 -90.007828 -0.067550197 -14.656135 -0.066980757 -14.654301 -32.961597 -104.51063
72937000 -32.167965 -89.904213 -0.067035437 -14.860141 -0.066849314 -14.852257 -32.80785 -104.20224
73936000 -32.029644 -89.566132 -0.066665307 -15.058573 -0.067144796 -15.050274 -32.690678 -104.09426
74935000 -31.901285 -89.948647 -0.066601172 -15.250476 -0.06504637 -15.255228 -32.537189 -103.76945
75934000 -31.781113 -90.261467 -0.066780441 -15.459807 -0.065138072 -15.457075 -32.443264 -103.74062
76933000 -31.659182 -90.635986 -0.067598313 -15.658014 -0.067059882 -15.650115 -32.285576 -104.18816
77932000 -31.565216 -91.479874 -0.068859458 -15.853843 -0.068241991 -15.847456 -32.193291 -104.22786
78931000 -31.508347 -92.228836 -0.067622237 -16.055367 -0.067541786 -16.049265 -32.073669 -104.10265
79930000 -31.401773 -93.130127 -0.069719546 -16.24618 -0.070508502 -16.245205 -31.989864 -104.50266
80929000 -31.277895 -94.100098 -0.07189814 -16.439669 -0.071956828 -16.437414 -31.882963 -104.8668
81928000 -31.204018 -94.974289 -0.072022095 -16.633511 -0.072266869 -16.630547 -31.757404 -105.0047
82927000 -31.113508 -95.633308 -0.074120738 -16.828634 -0.073791079 -16.830433 -31.656353 -105.3778
83926000 -31.00798 -96.400894 -0.074620277 -17.030092 -0.074920237 -17.026112 -31.54166 -105.63078
84925000 -30.914913 -96.941292 -0.076176934 -17.227743 -0.07534454 -17.226879 -31.448347 -105.75486
85924000 -30.821646 -97.447289 -0.076270193 -17.427187 -0.076206177 -17.427334 -31.353781 -105.71062
86923000 -30.722286 -97.993759 -0.077264547 -17.626854 -0.076571845 -17.620035 -31.249886 -105.71931
87922000 -30.622223 -98.461128 -0.076837957 -17.834301 -0.075460173 -17.82489 -31.163092 -105.81447
88921000 -30.549589 -98.753311 -0.077962108 -18.030146 -0.077026084 -18.027628 -31.077541 -105.90774
89920000 -30.458426 -99.408997 -0.079119764 -18.232338 -0.077445842 -18.223936 -31.020821 -106.07719
90919000 -30.354256 -99.696075 -0.079810768 -18.426891 -0.078526139 -18.419353 -30.932497 -106.25596
91918000 -30.259497 -100.1096 -0.08082097 -18.628056 -0.07913664 -18.618046 -30.865049 -106.36734
92917000 -30.175312 -100.52906 -0.081151158 -18.824669 -0.080796175 -18.820938 -30.793219 -106.43059
93916000 -30.097942 -100.9231 -0.081134543 -19.018709 -0.080630831 -19.00992 -30.71279 -107.18807
94915000 -30.018358 -101.57652 -0.08273311 -19.217688 -0.081441551 -19.212784 -30.651026 -107.03378
95914000 -29.953173 -101.80847 -0.083899431 -19.411774 -0.081951424 -19.410872 -30.556149 -107.34888
96913000 -29.877602 -102.05301 -0.084962063 -19.614679 -0.083322033 -19.608269 -30.499857 -107.68452
97912000 -29.798157 -102.4978 -0.085855171 -19.810444 -0.082926773 -19.808195 -30.424482 -107.97768
98911000 -29.700184 -102.72021 -0.086475946 -20.011168 -0.085067384 -20.00728 -30.376543 -108.22148
99910000 -29.632391 -102.86802 -0.086973213 -20.207298 -0.085240036 -20.208881 -30.273251 -108.47224
100909000 -29.549192 -103.15648 -0.086182579 -20.416374 -0.084782034 -20.409973 -30.180643 -108.70647
101908000 -29.461456 -103.46687 -0.087435402 -20.620846 -0.085905343 -20.616518 -30.071548 -108.49734
102907000 -29.316927 -103.50263 -0.088344619 -20.813969 -0.085840389 -20.814848 -29.98912 -108.49216
103906000 -29.228388 -103.56622 -0.088601403 -21.023159 -0.08609914 -21.016697 -29.830425 -108.42505
104905000 -29.075323 -103.51294 -0.089002475 -21.219929 -0.085918806 -21.218035 -29.696224 -108.13122
105904000 -28.936821 -103.63758 -0.088802993 -21.422558 -0.085930161 -21.417353 -29.580269 -108.02374
106903000 -28.821817 -103.79385 -0.089194566 -21.62628 -0.086182848 -21.623318 -29.450205 -107.98098
107902000 -28.667803 -104.17947 -0.089849643 -21.82799 -0.087143824 -21.822363 -29.300838 -107.94809
108901000 -28.5597 -104.47314 -0.090996467 -22.031433 -0.088162333 -22.023973 -29.173763 -107.85437
109900000 -28.433197 -104.99478 -0.091525175 -22.23131 -0.089686058 -22.219158 -29.015553 -108.00996
110899000 -28.317038 -105.66555 -0.092676148 -22.426733 -0.090211973 -22.417971 -28.896324 -108.31602
111898000 -28.229729 -106.36856 -0.09451732 -22.626774 -0.091332458 -22.621223 -28.777786 -108.54634
112897000 -28.109577 -106.93486 -0.096301317 -22.825994 -0.092831373 -22.815617 -28.633984 -108.75644
113896000 -28.010645 -107.59277 -0.096825652 -23.027603 -0.093454204 -23.014334 -28.528732 -108.94447
114895000 -27.910912 -108.2386 -0.097827904 -23.226299 -0.095015511 -23.210421 -28.408226 -109.03484
115894000 -27.776489 -108.62836 -0.099377804 -23.426678 -0.09654773 -23.411417 -28.347595 -109.23573
116893000 -27.697784 -109.25183 -0.09921439 -23.620975 -0.096910886 -23.60339 -28.214806 -109.43871
117892000 -27.625566 -109.7653 -0.099837348 -23.820469 -0.098020121 -23.80431 -28.147427 -109.66988
118891000 -27.565802 -110.17592 -0.10054012 -24.019016 -0.097447202 -24.009958 -28.049719 -109.84764
119890000 -27.47489 -110.62315 -0.10153555 -24.22451 -0.098679714 -24.205431 -28.033081 -110.00639
120889000 -27.421307 -111.13964 -0.10287525 -24.417921 -0.098233268 -24.405766 -27.958233 -109.98195
121888000 -27.389202 -111.47514 -0.10206873 -24.614124 -0.099179432 -24.605062 -27.903315 -110.33359
122887000 -27.344353 -111.69049 -0.10337943 -24.81855 -0.099668883 -24.80768 -27.855682 -110.33113
123886000 -27.292381 -112.10175 -0.10427582 -25.019499 -0.099565059 -25.001638 -27.837866 -110.50391
124885000 -27.252987 -112.63441 -0.10461548 -25.219696 -0.10112935 -25.205309 -27.813786 -110.58944
125884000 -27.200539 -112.80916 -0.10461681 -25.416176 -0.10108961 -25.40617 -27.780628 -110.82622
126883000 -27.184336 -113.23282 -0.10522038 -25.619698 -0.1019683 -25.603931 -27.743231 -110.82582
127882000 -27.124458 -113.53732 -0.10538163 -25.81843 -0.10289725 -25.802786 -27.69709 -110.97822
128881000 -27.100288 -113.85446 -0.10605481 -26.020332 -0.10230487 -26.003281 -27.655039 -111.11056
129880000 -27.040428 -114.18676 -0.10685331 -26.224215 -0.10315702 -26.203344 -27.61282 -111.1006
130879000 -26.979307 -114.34409 -0.1063007 -26.424299 -0.10380599 -26.405144 -27.535238 -111.15564
131878000 -26.916927 -114.57966 -0.10691459 -26.625633 -0.10394227 -26.602007 -27.466339 -111.07526
132877000 -26.850548 -114.62612 -0.10662197 -26.82439 -0.10410241 -26.807796 -27.383966 -111.05092
133876000 -26.759657 -114.84593 -0.10660844 -27.027613 -0.10428827 -27.006786 -27.283123 -110.98862
134875000 -26.658022 -114.94769 -0.10703027 -27.224806 -0.10569274 -27.208092 -27.18364 -110.845
135874000 -26.57929 -114.98894 -0.10705972 -27.426592 -0.10512783 -27.40958 -27.080553 -110.87863
136873000 -26.46876 -114.92404 -0.10791785 -27.627295 -0.10412521 -27.609482 -26.98595 -110.87524
137872000 -26.38489 -115.05737 -0.10796429 -27.826729 -0.10422517 -27.81735 -26.876675 -110.81113
138871000 -26.30698 -115.24179 -0.10811609 -28.025341 -0.10533442 -28.015614 -26.781946 -110.99061
139870000 -26.209042 -115.54434 -0.1086737 -28.230045 -0.1060357 -28.21302 -26.703465 -111.17145
140869000 -26.125895 -116.01116 -0.11117227 -28.422268 -0.10716134 -28.403238 -26.588951 -111.34901
141868000 -26.033712 -116.49126 -0.11162961 -28.618767 -0.10806514 -28.602146 -26.523924 -111.70219
142867000 -25.956264 -116.80826 -0.10980294 -28.814213 -0.107004 -28.799589 -26.443167 -111.90723
143866000 -25.889397 -117.29477 -0.11123707 -29.011517 -0.10870183 -28.997623 -26.378576 -112.42969
144865000 -25.836451 -117.82896 -0.11312493 -29.211821 -0.11015233 -29.196724 -26.315405 -112.78759
145864000 -25.780663 -118.19071 -0.11305691 -29.409077 -0.11068976 -29.398756 -26.283062 -113.03697
146863000 -25.729605 -118.58039 -0.11445651 -29.610062 -0.1117648 -29.599667 -26.225578 -113.38969
147862000 -25.695139 -118.94923 -0.11497161 -29.806919 -0.11175896 -29.798037 -26.191504 -113.71977
148861000 -25.660378 -119.50886 -0.11467073 -30.007572 -0.11299209 -29.990019 -26.175583 -113.99899
149860000 -25.649578 -119.67693 -0.11586666 -30.204535 -0.11258667 -30.193296 -26.145151 -114.1604
150859000 -25.63394 -120.09519 -0.11663906 -30.403782 -0.11407249 -30.389189 -26.14164 -114.42404
151858000 -25.615719 -120.40141 -0.11607245 -30.600878 -0.11416816 -30.587612 -26.133413 -114.71693
152857000 -25.597315 -120.72958 -0.11690098 -30.796602 -0.11409348 -30.784985 -26.11301 -114.85728
153856000 -25.586889 -120.94855 -0.11615646 -30.999842 -0.11322643 -30.984976 -26.129387 -115.14239
154855000 -25.583202 -121.11473 -0.11734349 -31.197477 -0.1133885 -31.186682 -26.121309 -115.38322
155854000 -25.593473 -121.33803 -0.11753339 -31.39896 -0.11469651 -31.385485 -26.114437 -115.63128
156853000 -25.58062 -122.10665 -0.11528394 -31.586794 -0.11348336 -31.580189 -26.10747 -115.95674
157852000 -25.583673 -122.31502 -0.11668931 -31.785286 -0.11536794 -31.776995 -26.101362 -116.28766
158851000 -25.579752 -122.52656 -0.11764828 -31.982044 -0.1158305 -31.974726 -26.088554 -116.5816
159850000 -25.560699 -122.65628 -0.11780547 -32.182858 -0.11592994 -32.174755 -26.085083 -116.66991
160849000 -25.54023 -122.78129 -0.11791426 -32.380032 -0.11689327 -32.376003 -26.054653 -117.005
161848000 -25.515924 -122.8941 -0.11843269 -32.580059 -0.11686216 -32.572414 -26.013102 -117.10255
162847000 -25.475145 -123.08631 -0.11803342 -32.777637 -0.1170959 -32.77589 -25.983086 -117.3497
163846000 -25.432051 -123.29881 -0.11874102 -32.977646 -0.11688156 -32.972672 -25.902514 -117.34711
164845000 -25.370584 -123.31332 -0.11889639 -33.175388 -0.117327 -33.172638 -25.833731 -117.45752
165844000 -25.314726 -123.38486 -0.11887696 -33.377541 -0.11782914 -33.369751 -25.754063 -117.66159
166843000 -25.247416 -123.46107 -0.11869207 -33.57708 -0.1181196 -33.569752 -25.679138 -117.81911
167842000 -25.193201 -123.64544 -0.11925396 -33.771278 -0.11797012 -33.772655 -25.597961 -117.75484
168841000 -25.116894 -123.81294 -0.11969353 -33.972466 -0.11837044 -33.969479 -25.517046 -117.83908
169840000 -25.043932 -124.07727 -0.12083787 -34.16444 -0.11911508 -34.165199 -25.432327 -118.05235
170839000 -24.989439 -124.40079 -0.12102313 -34.365196 -0.11937422 -34.363338 -25.342968 -118.2248
171838000 -24.929953 -124.78962 -0.12100396 -34.56723 -0.12018663 -34.559784 -25.276905 -118.51248
172837000 -24.862803 -125.18623 -0.12235527 -34.761784 -0.12071518 -34.757011 -25.207935 -118.76588
173836000 -24.797958 -125.61459 -0.12378158 -34.960171 -0.12254538 -34.959309 -25.166977 -118.99867
174835000 -24.746698 -126.04572 -0.12415181 -35.153744 -0.12278716 -35.156944 -25.118435 -119.32835
175834000 -24.695089 -126.47697 -0.12479354 -35.355087 -0.12397654 -35.350433 -25.061184 -119.66576
176833000 -24.642797 -126.845 -0.12548119 -35.549278 -0.1241614 -35.55093 -25.004433 -119.84438
177832000 -24.603403 -127.33676 -0.12620385 -35.748348 -0.1241305 -35.748016 -24.984291 -120.00787
178831000 -24.561752 -127.73275 -0.12704605 -35.946705 -0.12518704 -35.939842 -24.944336 -120.28484
179830000 -24.525742 -128.19513 -0.12732273 -36.140923 -0.12601037 -36.141178 -24.921427 -120.4119
180829000 -24.485985 -128.4019 -0.12734459 -36.341091 -0.12640798 -36.337173 -24.893038 -120.59119
181828000 -24.463522 -128.78539 -0.12799717 -36.536995 -0.12674034 -36.53146 -24.873426 -120.69501
182827000 -24.437601 -129.16083 -0.12727074 -36.731136 -0.12659241 -36.732021 -24.864628 -120.78178
183826000 -24.397747 -129.46815 -0.12905093 -36.931858 -0.12642424 -36.928711 -24.855648 -120.94511
184825000 -24.400995 -129.79939 -0.12904586 -37.126827 -0.12698741 -37.125164 -24.83848 -121.00325
185824000 -24.375172 -130.14966 -0.12848562 -37.321293 -0.12735578 -37.319897 -24.833494 -121.06635
186823000 -24.355211 -130.50084 -0.12881386 -37.520737 -0.12782629 -37.521183 -24.82696 -121.07241
187822000 -24.339117 -130.81351 -0.12918133 -37.713768 -0.1284643 -37.7141 -24.793657 -121.1464
188821000 -24.312759 -131.06316 -0.128636 -37.912731 -0.12858748 -37.916077 -24.777739 -121.23153
189820000 -24.298965 -131.31914 -0.1298894 -38.113613 -0.12875867 -38.112656 -24.770306 -121.3856
190819000 -24.271214 -131.58621 -0.13096601 -38.310417 -0.12978378 -38.311302 -24.733337 -121.36704
191818000 -24.238491 -131.73953 -0.13200019 -38.506416 -0.13088597 -38.507782 -24.698576 -121.24243
192817000 -24.168188 -132.04399 -0.13277839 -38.691849 -0.13130859 -38.691563 -24.630323 -121.30043
193816000 -24.128992 -132.39471 -0.13171254 -38.884727 -0.13014439 -38.882423 -24.57 -121.5927
194815000 -24.070608 -132.83258 -0.13133687 -39.079403 -0.130934 -39.083359 -24.503574 -121.69702
195814000 -24.014965 -133.0739 -0.13221848 -39.278633 -0.1306024 -39.277744 -24.452711 -121.81219
196813000 -23.964317 -133.39447 -0.13201834 -39.475075 -0.13044955 -39.480705 -24.373981 -122.01484
197812000 -23.90473 -133.66241 -0.13186251 -39.669254 -0.13041647 -39.670013 -24.300579 -122.10902
198811000 -23.854778 -133.84077 -0.13190973 -39.870689 -0.13049117 -39.870594 -24.231453 -122.29608
199810000 -23.784735 -134.18518 -0.13277733 -40.061516 -0.13084677 -40.058548 -24.151735 -122.3927
200809000 -23.725986 -134.49825 -0.13264388 -40.259312 -0.13144144 -40.259575 -24.070719 -122.61348
201808000 -23.6667 -134.74187 -0.13386373 -40.460442 -0.13282697 -40.463909 -24.000486 -122.67721
202807000 -23.611944 -135.10704 -0.13442385 -40.660667 -0.13276024 -40.664013 -23.942989 -122.92799
203806000 -23.558449 -135.58377 -0.13552989 -40.86121 -0.13295855 -40.863209 -23.881969 -123.11089
