!Keysight Technologies,E5080B,MY59205177,A.15.75.32
!Date: Friday, February 23, 2024 03:29:44
!Correction: S11(Cdelta 2-Port  ) 
!S21(Cdelta 2-Port  ) 
!S12(Cdelta 2-Port  ) 
!S22(Cdelta 2-Port  ) 
!S2P File: Measurements: S11, S21, S12, S22:
# Hz S  dB   R 50
10000000 -46.052929 -2.1185379 -0.01567113 -2.0510912 -0.018301576 -2.1069436 -46.029877 -158.34369
10999000 -45.188354 -3.6327949 -0.016991612 -2.2767599 -0.017678775 -2.3236322 -45.940704 -152.16331
11998000 -44.258667 -6.9471602 -0.017865397 -2.4985495 -0.017669937 -2.5376666 -46.187721 -147.92398
12997000 -43.55114 -12.21632 -0.016570115 -2.6751297 -0.017074512 -2.7082024 -45.857586 -142.23111
13996000 -43.274738 -16.101564 -0.015943145 -2.8553748 -0.016934959 -2.8771501 -45.648399 -136.98601
14995000 -42.904766 -20.411787 -0.018356428 -3.0669336 -0.017165212 -3.0913842 -45.306416 -133.13791
15994000 -42.730991 -24.643517 -0.019407036 -3.2848415 -0.019495703 -3.3083694 -45.221504 -129.96933
16993000 -42.678154 -29.289377 -0.017911145 -3.483351 -0.018629389 -3.4946151 -44.382732 -129.74179
17992000 -42.747383 -34.898579 -0.018808514 -3.6811523 -0.020112786 -3.6848564 -43.805271 -129.32512
18991000 -42.987984 -39.722382 -0.01971803 -3.8954396 -0.020715909 -3.8901737 -43.142395 -128.38492
19990000 -42.779003 -45.459766 -0.022502106 -4.1005888 -0.022653027 -4.0996642 -42.480709 -129.12051
20989000 -42.654156 -48.763672 -0.024832861 -4.3065372 -0.024626413 -4.2957749 -41.9543 -128.63994
21988000 -42.466183 -53.900047 -0.025067698 -4.5050201 -0.02538066 -4.4932752 -41.697037 -127.71615
22987000 -42.158363 -59.032261 -0.026410053 -4.7055697 -0.026966384 -4.6970582 -41.435093 -127.34623
23986000 -42.125023 -63.346516 -0.025902487 -4.9011812 -0.025233289 -4.8955793 -41.353344 -126.80354
24985000 -41.726292 -65.871346 -0.027487621 -5.1088004 -0.025891811 -5.1061764 -41.125931 -124.45638
25984000 -41.392101 -68.15052 -0.027923724 -5.3134961 -0.026561629 -5.3175321 -40.771797 -122.98609
26983000 -41.049706 -70.040024 -0.028971439 -5.5152607 -0.027770536 -5.5289783 -40.674526 -122.05135
27982000 -40.900131 -71.017815 -0.030332727 -5.7130399 -0.028793458 -5.7481132 -40.4296 -120.65243
28981000 -40.90316 -72.35006 -0.027438385 -5.912291 -0.028522983 -5.9343982 -40.196514 -119.92892
29980000 -40.457558 -73.822868 -0.02802429 -6.1085205 -0.029434538 -6.1159582 -39.927277 -119.04388
30979000 -40.071301 -72.804276 -0.026467349 -6.4597011 -0.024357758 -6.4541278 -39.415321 -119.42093
31978000 -39.885963 -73.674828 -0.025164032 -6.6579347 -0.024684988 -6.6492887 -39.185089 -118.90276
32977000 -39.686977 -75.324333 -0.024703473 -6.8695855 -0.025482729 -6.8677759 -38.945839 -118.8474
33976000 -39.515408 -76.581528 -0.025620734 -7.071331 -0.026077224 -7.063683 -38.64418 -118.2041
34975000 -39.200474 -77.255829 -0.02609936 -7.2709413 -0.027305271 -7.273056 -38.419159 -117.77967
35974000 -39.002041 -77.912735 -0.025519963 -7.4665236 -0.026578037 -7.4697237 -38.13306 -116.90211
36973000 -38.749195 -78.527863 -0.026190767 -7.6662302 -0.028010743 -7.669785 -37.855991 -115.88277
37972000 -38.616161 -78.300934 -0.025106752 -7.8752441 -0.02724093 -7.8906417 -37.651669 -115.2408
38971000 -38.27354 -77.780403 -0.026347807 -8.0771856 -0.027830195 -8.0934553 -37.494976 -113.68922
39970000 -37.93071 -78.17173 -0.025027342 -8.2729473 -0.026251968 -8.2907343 -37.21302 -113.1274
40969000 -37.647907 -77.807106 -0.025234852 -8.4690094 -0.026909862 -8.4924269 -36.983158 -111.49174
41968000 -37.311508 -77.722916 -0.026369423 -8.673851 -0.027479023 -8.6929588 -36.821346 -110.26202
42967000 -37.044178 -77.813118 -0.025468668 -8.8883429 -0.027554309 -8.9056158 -36.599987 -108.29793
43966000 -36.738674 -78.625137 -0.025898321 -9.0883074 -0.028421884 -9.1091757 -36.321705 -107.66255
44965000 -36.49474 -79.237282 -0.027244316 -9.2891378 -0.029078024 -9.3115654 -36.096527 -107.43247
45964000 -36.261349 -80.314056 -0.02760537 -9.4897327 -0.02991228 -9.5095816 -35.874992 -106.99195
46963000 -36.084084 -82.196083 -0.028050084 -9.6864853 -0.030257914 -9.706893 -35.698433 -107.28882
47962000 -35.90033 -83.656715 -0.029996209 -9.8862963 -0.03210463 -9.9076233 -35.483826 -107.41119
48961000 -35.683781 -85.076736 -0.032133054 -10.084052 -0.033256385 -10.107709 -35.254101 -107.40277
49960000 -35.463509 -86.456558 -0.033122834 -10.286922 -0.034084924 -10.309813 -35.111431 -107.50756
50959000 -35.259624 -87.658279 -0.033895254 -10.49899 -0.035526894 -10.509743 -34.934452 -107.77943
51958000 -35.050785 -88.713959 -0.035698626 -10.697275 -0.037262797 -10.7083 -34.761581 -108.14963
52957000 -34.821468 -89.926155 -0.037966229 -10.901887 -0.038380407 -10.907537 -34.596062 -108.00979
53956000 -34.657349 -90.52813 -0.038716007 -11.100952 -0.038909022 -11.10688 -34.457325 -107.84206
54955000 -34.492939 -91.020096 -0.039409488 -11.304674 -0.03965034 -11.300124 -34.30825 -107.87485
55954000 -34.319412 -91.917801 -0.040878311 -11.504305 -0.040867601 -11.501842 -34.196819 -107.50388
56953000 -34.202148 -91.900002 -0.039693184 -11.701647 -0.039154023 -11.691715 -34.130848 -107.70164
57952000 -34.045773 -92.506424 -0.041147728 -11.900362 -0.040623024 -11.889931 -34.033833 -107.80872
58951000 -33.903027 -92.753029 -0.041372996 -12.104928 -0.041312367 -12.091354 -33.890175 -107.85677
59950000 -33.789818 -93.248802 -0.042527739 -12.309258 -0.042712819 -12.282461 -33.819721 -108.16972
60949000 -33.681152 -93.770927 -0.043410078 -12.510209 -0.042485651 -12.485572 -33.707096 -108.41985
61948000 -33.604767 -94.068642 -0.044511486 -12.708152 -0.042308684 -12.68736 -33.624943 -108.55286
62947000 -33.515957 -94.29921 -0.043925185 -12.921899 -0.043270722 -12.898 -33.489185 -108.76768
63946000 -33.447819 -95.087311 -0.044978596 -13.120627 -0.044741634 -13.095957 -33.382942 -108.84383
64945000 -33.335278 -95.193871 -0.045269195 -13.322022 -0.045341652 -13.299581 -33.27092 -109.36745
65944000 -33.236256 -95.518593 -0.04656731 -13.521613 -0.045918465 -13.503351 -33.178387 -109.8472
66943000 -33.086189 -95.877701 -0.044761773 -13.723021 -0.04339125 -13.707825 -33.078522 -110.05659
67942000 -33.018726 -95.815361 -0.046535648 -13.917863 -0.045204062 -13.908189 -32.952072 -110.36834
68941000 -32.911091 -95.911964 -0.046679296 -14.11355 -0.04496238 -14.105123 -32.843227 -110.32128
69940000 -32.827873 -95.862595 -0.047079913 -14.307477 -0.045656338 -14.302825 -32.706753 -110.65427
70939000 -32.722206 -95.8694 -0.046626441 -14.514792 -0.045347404 -14.502126 -32.567078 -110.53353
71938000 -32.5802 -95.401932 -0.045679882 -14.707348 -0.044684097 -14.700958 -32.4408 -110.3662
72937000 -32.41267 -95.153282 -0.045859866 -14.905766 -0.045896489 -14.89973 -32.297318 -110.04659
73936000 -32.273239 -94.83432 -0.045781646 -15.104311 -0.04450861 -15.09485 -32.176685 -109.86315
74935000 -32.149788 -95.020012 -0.045192294 -15.30031 -0.044214927 -15.297877 -32.024998 -109.52046
75934000 -32.03392 -95.31089 -0.044963427 -15.508083 -0.043228626 -15.506421 -31.94216 -109.45726
76933000 -31.893637 -95.602707 -0.046480443 -15.704574 -0.044878684 -15.702171 -31.763857 -109.75301
77932000 -31.784737 -96.446648 -0.047454916 -15.901777 -0.046702586 -15.894915 -31.657173 -109.75475
78931000 -31.719471 -97.192238 -0.04578086 -16.104986 -0.04618898 -16.098812 -31.553041 -109.61379
79930000 -31.602406 -98.033875 -0.048995055 -16.296227 -0.048223611 -16.293858 -31.46085 -109.92106
80929000 -31.49744 -98.742264 -0.050637092 -16.492966 -0.049614511 -16.491886 -31.343628 -110.19218
81928000 -31.385635 -99.543564 -0.050434653 -16.682791 -0.050446961 -16.681376 -31.220781 -110.12554
82927000 -31.291388 -100.326 -0.051794823 -16.882612 -0.051010832 -16.879221 -31.114134 -110.45058
83926000 -31.171753 -101.0251 -0.053635783 -17.078445 -0.052308306 -17.083244 -30.994839 -110.60672
84925000 -31.064959 -101.42443 -0.054971006 -17.282862 -0.052783594 -17.279118 -30.887024 -110.64552
85924000 -30.971605 -101.8505 -0.054919887 -17.478704 -0.054386172 -17.477367 -30.809849 -110.67586
86923000 -30.858145 -102.29139 -0.055221636 -17.678497 -0.054507013 -17.676311 -30.713058 -110.51872
87922000 -30.754827 -102.66558 -0.055169988 -17.884542 -0.055050701 -17.881248 -30.622696 -110.55872
88921000 -30.672205 -102.97883 -0.056985889 -18.087318 -0.056081384 -18.080181 -30.527626 -110.47177
89920000 -30.577234 -103.45101 -0.057414737 -18.285133 -0.055775903 -18.27742 -30.477814 -110.5974
90919000 -30.469425 -103.69788 -0.057778828 -18.478216 -0.05640734 -18.476404 -30.387291 -110.75254
91918000 -30.368319 -104.09192 -0.058897272 -18.683558 -0.057069819 -18.681362 -30.311434 -110.76329
92917000 -30.283318 -104.36342 -0.060208127 -18.884146 -0.058710974 -18.877985 -30.244192 -110.8558
93916000 -30.191431 -104.74854 -0.059311349 -19.07877 -0.05828305 -19.073769 -30.161011 -111.50458
94915000 -30.111591 -105.37381 -0.061069388 -19.277185 -0.058926661 -19.272976 -30.103516 -111.3504
95914000 -30.046309 -105.61246 -0.061984386 -19.470985 -0.060646743 -19.473202 -30.009123 -111.6079
96913000 -29.956518 -105.79218 -0.063176401 -19.672619 -0.061705273 -19.67185 -29.945686 -111.97324
97912000 -29.876856 -106.21625 -0.064336434 -19.869867 -0.061090652 -19.870953 -29.869612 -112.24248
98911000 -29.772921 -106.42758 -0.064882405 -20.070131 -0.062605694 -20.069687 -29.823917 -112.43877
99910000 -29.700602 -106.53352 -0.064665109 -20.272854 -0.063322179 -20.272589 -29.710918 -112.75881
100909000 -29.612558 -106.79552 -0.064518504 -20.478065 -0.062348336 -20.473457 -29.626509 -112.9664
101908000 -29.519361 -107.01482 -0.065870218 -20.678717 -0.063798144 -20.67922 -29.524473 -112.71074
102907000 -29.393494 -107.03855 -0.066604853 -20.875118 -0.06390506 -20.879932 -29.449406 -112.70277
103906000 -29.289465 -107.07407 -0.066051304 -21.085775 -0.064132825 -21.085083 -29.303106 -112.67386
104905000 -29.143425 -106.97356 -0.067603834 -21.283594 -0.064555027 -21.283672 -29.170195 -112.35815
105904000 -28.995579 -107.04016 -0.06673944 -21.488293 -0.064646192 -21.480177 -29.055405 -112.21861
106903000 -28.889812 -107.1113 -0.067384563 -21.693695 -0.065006956 -21.688456 -28.924913 -112.09977
107902000 -28.724567 -107.4875 -0.068542302 -21.891644 -0.064775199 -21.884924 -28.794058 -112.10056
108901000 -28.616896 -107.73412 -0.069975503 -22.097822 -0.066446088 -22.088671 -28.658098 -111.97614
109900000 -28.476496 -108.17264 -0.070216477 -22.294113 -0.067879647 -22.288071 -28.51009 -112.101
110899000 -28.364614 -108.7699 -0.071703389 -22.490757 -0.068540193 -22.487823 -28.381878 -112.36122
111898000 -28.278887 -109.44125 -0.07358098 -22.695232 -0.069294214 -22.691395 -28.264631 -112.51546
112897000 -28.146416 -109.96285 -0.074927092 -22.892916 -0.070915267 -22.886095 -28.124741 -112.65951
113896000 -28.048315 -110.56034 -0.075987257 -23.09609 -0.072380573 -23.08424 -28.018938 -112.77309
114895000 -27.946051 -111.20084 -0.076889068 -23.2932 -0.073489621 -23.281981 -27.906858 -112.8308
115894000 -27.819981 -111.55639 -0.078123666 -23.497334 -0.074694544 -23.485565 -27.839542 -113.04095
116893000 -27.752113 -112.05061 -0.078357972 -23.691494 -0.075639814 -23.682062 -27.715416 -113.09985
117892000 -27.658459 -112.5663 -0.079195686 -23.889315 -0.076469623 -23.877424 -27.637774 -113.27339
118891000 -27.599337 -112.95296 -0.07957717 -24.089735 -0.076034412 -24.078554 -27.538046 -113.38535
119890000 -27.512487 -113.32076 -0.080711 -24.294016 -0.076847173 -24.271452 -27.529984 -113.53351
120889000 -27.462543 -113.84541 -0.080882154 -24.494106 -0.077365212 -24.47744 -27.45507 -113.49239
121888000 -27.424784 -114.18147 -0.080847338 -24.689911 -0.078511111 -24.678534 -27.396538 -113.76247
122887000 -27.384933 -114.37109 -0.082057208 -24.890354 -0.078655034 -24.881989 -27.355263 -113.76573
123886000 -27.32901 -114.80177 -0.083317816 -25.094854 -0.079394728 -25.076435 -27.338388 -113.90124
124885000 -27.297031 -115.29795 -0.082949728 -25.296774 -0.079600632 -25.282545 -27.317093 -113.98129
125884000 -27.243368 -115.48069 -0.083955117 -25.491238 -0.080724448 -25.480116 -27.279678 -114.08217
126883000 -27.224407 -115.8598 -0.084760122 -25.696392 -0.080628455 -25.68511 -27.239006 -114.08443
127882000 -27.179134 -116.13768 -0.084864922 -25.895903 -0.081185445 -25.881815 -27.196989 -114.26823
128881000 -27.146982 -116.49492 -0.084952556 -26.098572 -0.081032477 -26.082676 -27.164757 -114.34836
129880000 -27.09203 -116.84141 -0.08590138 -26.299192 -0.081070982 -26.281651 -27.123047 -114.28435
130879000 -27.031687 -116.93852 -0.085339822 -26.501501 -0.081942461 -26.485292 -27.050369 -114.34348
131878000 -26.968517 -117.20126 -0.085737951 -26.700848 -0.082260601 -26.686773 -26.987785 -114.18908
132877000 -26.900864 -117.25517 -0.085040458 -26.905365 -0.082708575 -26.886347 -26.908737 -114.1749
133876000 -26.813602 -117.44447 -0.086161457 -27.106562 -0.082321808 -27.092203 -26.820126 -114.02107
134875000 -26.72213 -117.58187 -0.086117364 -27.307896 -0.083443686 -27.287169 -26.718513 -113.89722
135874000 -26.639008 -117.56846 -0.086603232 -27.503721 -0.083060019 -27.489885 -26.62281 -113.85013
136873000 -26.524162 -117.51952 -0.086369269 -27.711372 -0.083653472 -27.690102 -26.540012 -113.79742
137872000 -26.444063 -117.6239 -0.087101035 -27.909502 -0.083355024 -27.898338 -26.435606 -113.74931
138871000 -26.370474 -117.85451 -0.087619506 -28.110668 -0.083829232 -28.097385 -26.339779 -113.899
139870000 -26.270399 -118.14345 -0.087893158 -28.311829 -0.085057616 -28.29318 -26.256355 -114.0539
140869000 -26.189419 -118.67749 -0.089689232 -28.506817 -0.084856473 -28.492104 -26.158134 -114.30246
141868000 -26.10906 -119.06374 -0.090146959 -28.706596 -0.087039769 -28.687735 -26.106417 -114.51308
142867000 -26.031343 -119.26758 -0.088459536 -28.905228 -0.086133733 -28.887964 -26.022268 -114.63561
143866000 -25.956619 -119.73734 -0.090444289 -29.099957 -0.087525211 -29.085896 -25.951635 -115.13098
144865000 -25.899105 -120.31162 -0.091775283 -29.300747 -0.088671416 -29.288807 -25.897589 -115.42625
145864000 -25.839069 -120.58412 -0.092564285 -29.503546 -0.090384826 -29.491117 -25.863363 -115.66779
146863000 -25.79808 -120.96325 -0.093230985 -29.703663 -0.090499535 -29.691895 -25.812105 -115.95953
147862000 -25.75869 -121.30871 -0.094404623 -29.897678 -0.091575406 -29.886391 -25.786541 -116.24062
148861000 -25.730841 -121.72128 -0.095441513 -30.101183 -0.091938943 -30.084583 -25.75617 -116.42397
149860000 -25.698181 -121.92394 -0.096530788 -30.291811 -0.093114883 -30.281647 -25.708742 -116.49867
150859000 -25.673908 -122.39371 -0.095425904 -30.493301 -0.092701003 -30.474703 -25.687473 -116.86287
151858000 -25.661901 -122.73228 -0.095724389 -30.690359 -0.092387646 -30.676302 -25.678173 -117.19955
152857000 -25.645607 -123.08756 -0.095899314 -30.889343 -0.092794351 -30.877827 -25.657871 -117.40325
153856000 -25.643999 -123.27328 -0.095604785 -31.088108 -0.092016675 -31.0756 -25.67897 -117.68957
154855000 -25.64192 -123.46066 -0.09554974 -31.289083 -0.092921823 -31.277756 -25.672588 -117.93176
155854000 -25.656563 -123.68116 -0.095908843 -31.489702 -0.093317993 -31.475882 -25.657366 -118.20515
156853000 -25.645569 -124.38126 -0.093925029 -31.677013 -0.092624314 -31.668736 -25.656591 -118.54274
157852000 -25.650276 -124.59821 -0.09552566 -31.876251 -0.093768962 -31.873587 -25.647066 -118.87766
158851000 -25.648714 -124.83588 -0.095776789 -32.076782 -0.094110988 -32.068134 -25.632605 -119.13303
159850000 -25.638296 -124.94608 -0.096765302 -32.275627 -0.094447218 -32.269733 -25.627466 -119.32043
160849000 -25.623671 -125.03843 -0.096822478 -32.478279 -0.095122933 -32.470955 -25.605825 -119.61622
161848000 -25.604956 -125.10954 -0.097235158 -32.677872 -0.095541008 -32.668873 -25.562939 -119.71303
162847000 -25.561447 -125.27203 -0.097677 -32.877274 -0.095677555 -32.871319 -25.53821 -120.00145
163846000 -25.526161 -125.49872 -0.097135887 -33.079803 -0.095179029 -33.073021 -25.460169 -119.967
164845000 -25.463774 -125.42707 -0.098242007 -33.277443 -0.095816746 -33.266323 -25.395597 -120.0611
165844000 -25.415415 -125.50976 -0.09809161 -33.476112 -0.096277498 -33.476307 -25.321507 -120.23577
166843000 -25.347115 -125.53471 -0.097945459 -33.678375 -0.096292056 -33.671989 -25.250439 -120.38728
167842000 -25.294033 -125.65208 -0.098258421 -33.876724 -0.096910886 -33.869392 -25.173929 -120.29871
168841000 -25.214781 -125.84045 -0.098628871 -34.074512 -0.096567847 -34.073544 -25.098965 -120.3937
169840000 -25.149599 -126.04799 -0.099021062 -34.268471 -0.098378368 -34.265503 -25.008673 -120.5648
170839000 -25.092581 -126.31824 -0.10028713 -34.469528 -0.098423384 -34.468159 -24.927998 -120.72112
171838000 -25.027681 -126.66385 -0.099884756 -34.670307 -0.099384427 -34.667431 -24.863119 -120.98001
172837000 -24.957592 -127.04084 -0.10111213 -34.867683 -0.10007442 -34.862179 -24.79727 -121.19386
173836000 -24.894402 -127.44038 -0.10287817 -35.066231 -0.10137763 -35.066067 -24.755106 -121.40375
174835000 -24.841908 -127.84396 -0.10324132 -35.263611 -0.10200248 -35.265686 -24.707285 -121.72788
175834000 -24.785883 -128.20546 -0.10382137 -35.46286 -0.10243129 -35.460625 -24.647041 -121.97957
176833000 -24.740309 -128.54381 -0.10473481 -35.6637 -0.10352709 -35.660858 -24.598211 -122.11153
177832000 -24.692799 -128.96152 -0.10618876 -35.859852 -0.10421562 -35.863514 -24.579002 -122.24697
178831000 -24.651651 -129.23151 -0.107441 -36.058979 -0.10597575 -36.056396 -24.539673 -122.33974
179830000 -24.582174 -129.57686 -0.10887595 -36.244667 -0.10683473 -36.250519 -24.474201 -122.36926
180829000 -24.529146 -129.938 -0.10808106 -36.435963 -0.10645112 -36.434746 -24.434937 -122.67778
181828000 -24.506338 -130.38821 -0.10753467 -36.640007 -0.10538799 -36.632278 -24.416601 -122.88617
182827000 -24.482479 -130.75716 -0.10661427 -36.829472 -0.10604101 -36.835926 -24.398903 -123.02283
183826000 -24.440773 -131.09416 -0.10817792 -37.032921 -0.1055328 -37.033051 -24.396519 -123.14902
184825000 -24.44257 -131.44435 -0.10806859 -37.228863 -0.10662939 -37.228863 -24.38183 -123.28173
185824000 -24.415739 -131.81448 -0.10783213 -37.426498 -0.10685702 -37.427345 -24.370365 -123.33646
186823000 -24.397802 -132.1949 -0.108274 -37.62513 -0.10633705 -37.623104 -24.365931 -123.3643
187822000 -24.374979 -132.53433 -0.10877483 -37.818329 -0.10738449 -37.821651 -24.329741 -123.4733
188821000 -24.352352 -132.75362 -0.10832681 -38.015472 -0.10741235 -38.023132 -24.304493 -123.5668
189820000 -24.330809 -133.04691 -0.10893753 -38.220345 -0.10777561 -38.217285 -24.293354 -123.76647
190819000 -24.29743 -133.38127 -0.10995851 -38.414356 -0.10827187 -38.41291 -24.253235 -123.80917
191818000 -24.267971 -133.67899 -0.1092412 -38.61274 -0.10825595 -38.611984 -24.22431 -123.84655
192817000 -24.21994 -133.91966 -0.11013216 -38.811466 -0.1088165 -38.810989 -24.180159 -123.92776
193816000 -24.188137 -134.19342 -0.11017862 -39.005184 -0.10853887 -39.00288 -24.134583 -124.0807
194815000 -24.127411 -134.60356 -0.11020198 -39.202736 -0.10962241 -39.204918 -24.064674 -124.13085
195814000 -24.071756 -134.78304 -0.11117387 -39.399704 -0.10935216 -39.399738 -24.008595 -124.27285
196813000 -24.015041 -135.11182 -0.11164581 -39.595024 -0.10873315 -39.595642 -23.927116 -124.41801
197812000 -23.95624 -135.35315 -0.11075641 -39.791008 -0.11003817 -39.789989 -23.854225 -124.51073
198811000 -23.901842 -135.47592 -0.11133029 -39.988857 -0.10985444 -39.993523 -23.784115 -124.67427
199810000 -23.831402 -135.81473 -0.11195923 -40.185677 -0.11001321 -40.181763 -23.706432 -124.7451
200809000 -23.774927 -136.07797 -0.11198208 -40.379089 -0.11050335 -40.384975 -23.628016 -124.94758
201808000 -23.714777 -136.28455 -0.11280319 -40.579746 -0.11129922 -40.585953 -23.559679 -124.99096
202807000 -23.657927 -136.63049 -0.11363349 -40.778233 -0.11155976 -40.784767 -23.500879 -125.21027
