!Keysight Technologies,E5080B,MY59205177,A.15.75.32
!Date: Friday, February 23, 2024 02:51:28
!Correction: S11(Cdelta 2-Port  ) 
!S21(Cdelta 2-Port  ) 
!S12(Cdelta 2-Port  ) 
!S22(Cdelta 2-Port  ) 
!S2P File: Measurements: S11, S21, S12, S22:
# Hz S  dB   R 50
10000000 -42.726513 -3.6144118 -0.036852904 -2.0459223 -0.041062016 -2.1003661 -50.40279 -141.12326
10999000 -42.154808 -4.9290404 -0.038157385 -2.2661061 -0.04117151 -2.3186617 -49.907497 -130.99234
11998000 -41.514126 -7.1376743 -0.039104134 -2.4888468 -0.040101513 -2.5317097 -49.831963 -123.51694
12997000 -40.950214 -11.257248 -0.038058933 -2.6680944 -0.040548816 -2.6987929 -48.83728 -117.69248
13996000 -40.717953 -14.134973 -0.037388384 -2.8460948 -0.040440906 -2.8659077 -48.184818 -112.14821
14995000 -40.478161 -17.665888 -0.039193988 -3.0567813 -0.040103864 -3.0794122 -47.578701 -108.88068
15994000 -40.370098 -21.14356 -0.040441949 -3.2736478 -0.042025868 -3.2963405 -47.242588 -105.05455
16993000 -40.384552 -24.332012 -0.039779913 -3.470607 -0.041259054 -3.4815514 -46.291416 -107.37748
17992000 -40.507587 -28.367178 -0.039782263 -3.6693509 -0.042027697 -3.6727874 -45.691998 -109.20228
18991000 -40.770988 -32.128654 -0.041087102 -3.8816602 -0.042900521 -3.878242 -44.914219 -109.82925
19990000 -40.673481 -36.798656 -0.043542117 -4.0911431 -0.045016784 -4.0867934 -44.2183 -112.17397
20989000 -40.673347 -39.209396 -0.045393705 -4.2930689 -0.047017634 -4.2820902 -43.57954 -112.80452
21988000 -40.635601 -43.710144 -0.045957707 -4.4887376 -0.047944069 -4.4781408 -43.288708 -112.45389
22987000 -40.477634 -47.97311 -0.047945641 -4.6883812 -0.048121527 -4.6793814 -42.959064 -112.19697
23986000 -40.513508 -51.335278 -0.047297899 -4.8837118 -0.047411215 -4.8804379 -42.845325 -112.32092
24985000 -40.309647 -54.23539 -0.047670305 -5.0931454 -0.048121791 -5.0910826 -42.496124 -110.01396
25984000 -40.140713 -56.268143 -0.049421806 -5.2999911 -0.048144039 -5.295362 -42.128368 -108.86095
26983000 -39.85218 -58.268879 -0.049844146 -5.4966698 -0.04968128 -5.5145822 -41.990025 -108.25309
27982000 -39.798637 -59.138226 -0.050701518 -5.6950393 -0.051246304 -5.7310028 -41.619812 -106.90468
28981000 -39.773754 -60.412861 -0.049850952 -5.8965197 -0.050987523 -5.9159813 -41.368313 -106.37104
29980000 -39.475418 -62.466808 -0.049494855 -6.0849638 -0.052008856 -6.0990062 -40.97081 -105.86619
30979000 -39.070148 -61.862793 -0.047280364 -6.4426723 -0.045652676 -6.4308829 -40.485493 -107.29546
31978000 -38.897217 -63.021557 -0.045715459 -6.6343093 -0.04681693 -6.6296568 -40.178085 -106.73643
32977000 -38.752781 -64.650993 -0.045782693 -6.8457584 -0.047944069 -6.8448415 -39.914387 -107.02229
33976000 -38.614994 -65.779182 -0.046965823 -7.0480967 -0.048735362 -7.0400338 -39.597706 -106.8713
34975000 -38.380192 -66.874702 -0.04708593 -7.2478671 -0.049353469 -7.2472329 -39.328796 -106.74007
35974000 -38.192184 -67.583733 -0.046061568 -7.4430342 -0.04905422 -7.4435096 -39.022972 -106.19687
36973000 -37.962955 -68.59903 -0.046242613 -7.6399937 -0.050177228 -7.6453161 -38.697311 -105.36919
37972000 -37.834282 -68.513145 -0.046448261 -7.8514099 -0.049634408 -7.861968 -38.433025 -104.86578
38971000 -37.501938 -68.44603 -0.047742803 -8.0547714 -0.050009374 -8.0659924 -38.214905 -103.22429
39970000 -37.188427 -69.031319 -0.045729063 -8.2468204 -0.04884243 -8.2616949 -37.913925 -102.97629
40969000 -36.905621 -69.264954 -0.046326861 -8.440608 -0.048862588 -8.4603491 -37.634727 -101.65681
41968000 -36.578545 -69.479988 -0.046643451 -8.6460047 -0.048327789 -8.6649046 -37.39399 -100.63877
42967000 -36.338036 -69.900002 -0.046021804 -8.8596802 -0.049374416 -8.8753071 -37.151478 -98.861893
43966000 -36.071342 -70.853996 -0.047281411 -9.0562725 -0.050312355 -9.075635 -36.846684 -98.456047
44965000 -35.863739 -71.785904 -0.048003223 -9.2620506 -0.050086886 -9.2828445 -36.633171 -98.461777
45964000 -35.674599 -72.984772 -0.048849236 -9.4570885 -0.051954363 -9.4819117 -36.390694 -98.335762
46963000 -35.514668 -74.92746 -0.049184602 -9.6545677 -0.0525559 -9.678668 -36.217213 -98.77256
47962000 -35.398006 -76.432877 -0.050780352 -9.857132 -0.053791985 -9.8738356 -35.994854 -99.029884
48961000 -35.214066 -78.089874 -0.052861415 -10.053969 -0.054821055 -10.076185 -35.788841 -99.394585
49960000 -35.015968 -79.523048 -0.054073736 -10.251032 -0.055926673 -10.277328 -35.645523 -99.701843
50959000 -34.823978 -80.921242 -0.054656692 -10.467581 -0.057677835 -10.477664 -35.47097 -100.18379
51958000 -34.642097 -82.134003 -0.056309525 -10.667388 -0.05884584 -10.673585 -35.300072 -100.92679
52957000 -34.452888 -83.253036 -0.058662958 -10.863088 -0.059799999 -10.876488 -35.106247 -100.74401
53956000 -34.303558 -84.156487 -0.059634399 -11.068242 -0.061260775 -11.065162 -34.983921 -100.8223
54955000 -34.14674 -84.647614 -0.059846979 -11.271415 -0.061682165 -11.264814 -34.833675 -100.92886
55954000 -34.018616 -85.561012 -0.061248697 -11.465908 -0.062096771 -11.463377 -34.701298 -100.76712
56953000 -33.892746 -85.811035 -0.061246336 -11.664737 -0.060404461 -11.655349 -34.638744 -101.09461
57952000 -33.747242 -86.408417 -0.062237259 -11.863172 -0.062030863 -11.851418 -34.535885 -101.25335
58951000 -33.633591 -86.824432 -0.063386269 -12.064808 -0.063781857 -12.04778 -34.380856 -101.40195
59950000 -33.512974 -87.323471 -0.064094737 -12.268721 -0.063946836 -12.245775 -34.317528 -101.65704
60949000 -33.406296 -87.936584 -0.064085804 -12.472446 -0.063578278 -12.445959 -34.218285 -102.03461
61948000 -33.345005 -88.319794 -0.065428711 -12.668393 -0.063997269 -12.649361 -34.135742 -102.21875
62947000 -33.262238 -88.489227 -0.064922869 -12.877855 -0.06552726 -12.858904 -33.989491 -102.52439
63946000 -33.207634 -89.296989 -0.065935656 -13.079858 -0.066160373 -13.057821 -33.893372 -102.72419
64945000 -33.104092 -89.417953 -0.066622198 -13.277361 -0.067051739 -13.258564 -33.784138 -103.26614
65944000 -33.004864 -89.861671 -0.067305163 -13.477946 -0.06684196 -13.460568 -33.693275 -103.73694
66943000 -32.862518 -90.271179 -0.065178014 -13.682321 -0.065551169 -13.665229 -33.587193 -104.09248
67942000 -32.805916 -90.209045 -0.06710773 -13.878197 -0.067752913 -13.864459 -33.473431 -104.3889
68941000 -32.687805 -90.349785 -0.067096949 -14.06893 -0.065801099 -14.060751 -33.363651 -104.43421
69940000 -32.5956 -90.35437 -0.067511551 -14.270366 -0.067329615 -14.26193 -33.225021 -104.73199
70939000 -32.476433 -90.362724 -0.067531534 -14.46897 -0.066800684 -14.463038 -33.090717 -104.63766
71938000 -32.335495 -90.082237 -0.067827061 -14.662623 -0.067447402 -14.652709 -32.955437 -104.51831
72937000 -32.183231 -89.904793 -0.06688612 -14.863105 -0.066404819 -14.855868 -32.805885 -104.30823
73936000 -32.031803 -89.685432 -0.066344365 -15.061186 -0.065824226 -15.054386 -32.687649 -104.15244
74935000 -31.913412 -89.989693 -0.066017658 -15.254641 -0.065107591 -15.249262 -32.529736 -103.88982
75934000 -31.787888 -90.260185 -0.065795057 -15.463188 -0.064290196 -15.459522 -32.447247 -103.80674
76933000 -31.651884 -90.718681 -0.067425311 -15.654818 -0.065912269 -15.652524 -32.271122 -104.30992
77932000 -31.568687 -91.496933 -0.068780035 -15.851566 -0.068570964 -15.849857 -32.16539 -104.25946
78931000 -31.507748 -92.332817 -0.067535475 -16.052248 -0.066765726 -16.049168 -32.073605 -104.20303
79930000 -31.402996 -93.153854 -0.070291713 -16.24645 -0.070457987 -16.24416 -31.973824 -104.50581
80929000 -31.278086 -94.136032 -0.071050778 -16.440006 -0.0719992 -16.437223 -31.87821 -104.91003
81928000 -31.193787 -94.997345 -0.07148549 -16.632196 -0.071917877 -16.628086 -31.753889 -105.03651
82927000 -31.116858 -95.72065 -0.073348768 -16.832157 -0.073250569 -16.828978 -31.656208 -105.44539
83926000 -31.020533 -96.498688 -0.074842021 -17.02792 -0.074154712 -17.025143 -31.533083 -105.70842
84925000 -30.917521 -96.975891 -0.075576857 -17.22699 -0.073961176 -17.226353 -31.440474 -105.78125
85924000 -30.829889 -97.496094 -0.076009385 -17.427973 -0.076047055 -17.425304 -31.355492 -105.88531
86923000 -30.717999 -98.059219 -0.076380573 -17.624834 -0.076084994 -17.618856 -31.253674 -105.80665
87922000 -30.619701 -98.481018 -0.076262549 -17.829988 -0.075924039 -17.826492 -31.165289 -105.95581
88921000 -30.552423 -98.819206 -0.0774187 -18.028919 -0.07676813 -18.027344 -31.066525 -105.96173
89920000 -30.450914 -99.408127 -0.07863605 -18.229984 -0.077287473 -18.223574 -31.01244 -106.11272
90919000 -30.357063 -99.712959 -0.079577431 -18.430136 -0.078113124 -18.418419 -30.930239 -106.3886
91918000 -30.26549 -100.13168 -0.080017217 -18.626465 -0.078313164 -18.621595 -30.861195 -106.39639
92917000 -30.184298 -100.55244 -0.081691869 -18.822483 -0.080159336 -18.819628 -30.793814 -106.5751
93916000 -30.10149 -100.95908 -0.080578089 -19.015863 -0.079475664 -19.013861 -30.705399 -107.19976
94915000 -30.029058 -101.59608 -0.081882313 -19.216711 -0.080522448 -19.21146 -30.639618 -107.10014
95914000 -29.96476 -101.82977 -0.082910679 -19.414312 -0.081262991 -19.412134 -30.550642 -107.39307
96913000 -29.880503 -102.13 -0.084264435 -19.610828 -0.082400158 -19.60993 -30.495268 -107.7728
97912000 -29.804777 -102.57162 -0.085328996 -19.806108 -0.082488276 -19.809044 -30.411291 -108.00531
98911000 -29.697956 -102.82352 -0.085841708 -20.009331 -0.08395116 -20.006989 -30.367891 -108.26868
99910000 -29.631369 -102.97676 -0.086243838 -20.209482 -0.084164672 -20.206957 -30.256868 -108.59293
100909000 -29.538486 -103.26547 -0.086051352 -20.415487 -0.08403904 -20.409735 -30.176468 -108.77535
101908000 -29.456121 -103.535 -0.086937033 -20.61665 -0.085119918 -20.610979 -30.058285 -108.59962
102907000 -29.320286 -103.60918 -0.087818928 -20.815449 -0.08498133 -20.816195 -29.980764 -108.51628
103906000 -29.221949 -103.66014 -0.08796104 -21.023142 -0.084439687 -21.016275 -29.830687 -108.52006
104905000 -29.080568 -103.54746 -0.088396922 -21.219067 -0.085387342 -21.222595 -29.690907 -108.18714
105904000 -28.9415 -103.76002 -0.0885306 -21.423029 -0.085406877 -21.413971 -29.570219 -108.06041
106903000 -28.825596 -103.85365 -0.088625975 -21.626818 -0.085629173 -21.620249 -29.442829 -107.98508
107902000 -28.665937 -104.23521 -0.089268282 -21.827688 -0.0866336 -21.816534 -29.302473 -107.97318
108901000 -28.555082 -104.52339 -0.089972794 -22.025629 -0.087643273 -22.020441 -29.162407 -107.91962
109900000 -28.428795 -105.0155 -0.092035979 -22.230883 -0.088880405 -22.220253 -29.017616 -108.07729
110899000 -28.313616 -105.70306 -0.092936367 -22.426859 -0.08937636 -22.41394 -28.886034 -108.36515
111898000 -28.232742 -106.40943 -0.094259657 -22.627703 -0.090645432 -22.619646 -28.775223 -108.55975
112897000 -28.113005 -106.9466 -0.09585724 -22.824085 -0.091484204 -22.814695 -28.632608 -108.77448
113896000 -28.009811 -107.60272 -0.096725859 -23.026789 -0.09342961 -23.014921 -28.522934 -108.99252
114895000 -27.907745 -108.29398 -0.09808287 -23.223135 -0.094627909 -23.21118 -28.410816 -109.09712
115894000 -27.774889 -108.70389 -0.099393956 -23.428959 -0.096059956 -23.41226 -28.342905 -109.30332
116893000 -27.697723 -109.29015 -0.10005111 -23.618864 -0.096810825 -23.602861 -28.209747 -109.48578
117892000 -27.625031 -109.81354 -0.099882372 -23.817629 -0.097160503 -23.804296 -28.144176 -109.6825
118891000 -27.555794 -110.26619 -0.10069034 -24.018185 -0.097248919 -24.00181 -28.042458 -109.89689
119890000 -27.47669 -110.67307 -0.10097833 -24.218229 -0.098140329 -24.203381 -28.032711 -110.03114
120889000 -27.425314 -111.14297 -0.10232554 -24.424438 -0.098440334 -24.404339 -27.957788 -110.00956
121888000 -27.386202 -111.50106 -0.10208146 -24.617899 -0.098761275 -24.603157 -27.896835 -110.37505
122887000 -27.346088 -111.72229 -0.10297147 -24.820086 -0.099719211 -24.805891 -27.847481 -110.40318
123886000 -27.289831 -112.15771 -0.10339666 -25.021441 -0.099508375 -25.004948 -27.835154 -110.55733
124885000 -27.254688 -112.66853 -0.10422862 -25.219128 -0.10111319 -25.20507 -27.809013 -110.63008
125884000 -27.206127 -112.89449 -0.10465818 -25.415573 -0.10094972 -25.40414 -27.77165 -110.84232
126883000 -27.181257 -113.23997 -0.10507611 -25.620838 -0.10169879 -25.605722 -27.735641 -110.89271
127882000 -27.133259 -113.55885 -0.10541292 -25.818901 -0.10246468 -25.802069 -27.691385 -111.03786
128881000 -27.099567 -113.88611 -0.10581449 -26.020124 -0.10185725 -26.00309 -27.649479 -111.18898
129880000 -27.040911 -114.22402 -0.10687851 -26.223261 -0.10248536 -26.204464 -27.607897 -111.15764
130879000 -26.985691 -114.37019 -0.10602563 -26.419575 -0.10320845 -26.402878 -27.528728 -111.19767
131878000 -26.917925 -114.61127 -0.10648613 -26.624285 -0.10365912 -26.604158 -27.461174 -111.14003
132877000 -26.848753 -114.66737 -0.10645722 -26.825447 -0.10392582 -26.806202 -27.375908 -111.16074
133876000 -26.760445 -114.84379 -0.10660393 -27.025385 -0.10330812 -27.003826 -27.281834 -111.02924
134875000 -26.660954 -114.99618 -0.10701542 -27.225664 -0.10470034 -27.2069 -27.171375 -110.88008
135874000 -26.581142 -115.02589 -0.10631529 -27.424063 -0.10456855 -27.410616 -27.069464 -110.93599
136873000 -26.468523 -114.98681 -0.1071157 -27.630226 -0.10425911 -27.609808 -26.982046 -110.90467
137872000 -26.386848 -115.10767 -0.10740969 -27.830315 -0.10351596 -27.810452 -26.874456 -110.85836
138871000 -26.317955 -115.2835 -0.10835256 -28.030153 -0.10462715 -28.01141 -26.779602 -111.04028
139870000 -26.212753 -115.57102 -0.10856169 -28.228739 -0.10624739 -28.213715 -26.694105 -111.23181
140869000 -26.121687 -116.04636 -0.11039661 -28.423206 -0.10746913 -28.403992 -26.587177 -111.36335
141868000 -26.034355 -116.5683 -0.11064488 -28.61603 -0.10811689 -28.600777 -26.520439 -111.73045
142867000 -25.958391 -116.81545 -0.10892294 -28.81398 -0.10686604 -28.799282 -26.441654 -111.94724
143866000 -25.892601 -117.35015 -0.11104348 -29.013643 -0.10819756 -28.992737 -26.369314 -112.45547
144865000 -25.834892 -117.87663 -0.11248811 -29.209335 -0.1096978 -29.196539 -26.309145 -112.76951
145864000 -25.777798 -118.20425 -0.1129695 -29.408627 -0.11032943 -29.397678 -26.279202 -113.07085
146863000 -25.734289 -118.60199 -0.11349957 -29.609554 -0.1108451 -29.594097 -26.224033 -113.37576
147862000 -25.690418 -118.98232 -0.1144597 -29.807598 -0.11150771 -29.795847 -26.198006 -113.75497
148861000 -25.668369 -119.52499 -0.11515794 -30.004387 -0.11160066 -29.988451 -26.167847 -114.00332
149860000 -25.645309 -119.7229 -0.11545035 -30.201874 -0.11247563 -30.191721 -26.142115 -114.17699
150859000 -25.629328 -120.09374 -0.11629818 -30.403034 -0.11295462 -30.386621 -26.127207 -114.46717
151858000 -25.611834 -120.45657 -0.11540277 -30.602165 -0.11322563 -30.588261 -26.127968 -114.74643
152857000 -25.5963 -120.76842 -0.11628355 -30.800789 -0.11401402 -30.787607 -26.108583 -114.91049
153856000 -25.588217 -120.98215 -0.11620697 -30.99585 -0.11306063 -30.983873 -26.127119 -115.207
154855000 -25.579426 -121.12924 -0.1160884 -31.194691 -0.1131499 -31.187416 -26.114384 -115.39391
155854000 -25.591755 -121.37693 -0.11667601 -31.397827 -0.1134916 -31.383995 -26.108957 -115.6797
156853000 -25.579815 -122.10637 -0.11468269 -31.585869 -0.11291876 -31.57217 -26.105387 -116.01566
157852000 -25.585642 -122.33453 -0.11600943 -31.783276 -0.115058 -31.774092 -26.096289 -116.34878
158851000 -25.576523 -122.57832 -0.11660581 -31.982763 -0.11481877 -31.970261 -26.085413 -116.60073
159850000 -25.558193 -122.722 -0.11765653 -32.181122 -0.11513003 -32.174076 -26.078011 -116.73252
160849000 -25.542624 -122.79104 -0.1173536 -32.379486 -0.11589485 -32.37532 -26.051407 -117.032
161848000 -25.522179 -122.9183 -0.11780468 -32.580517 -0.11552531 -32.572578 -26.012482 -117.17091
162847000 -25.475557 -123.12105 -0.11807598 -32.778061 -0.11627584 -32.772114 -25.980146 -117.43034
163846000 -25.434269 -123.38039 -0.11807811 -32.981594 -0.11575394 -32.972523 -25.896109 -117.42038
164845000 -25.36904 -123.36073 -0.11883041 -33.175205 -0.11636624 -33.17136 -25.828125 -117.52837
165844000 -25.314713 -123.43401 -0.11843322 -33.377243 -0.11712276 -33.365784 -25.743664 -117.67726
166843000 -25.250309 -123.53339 -0.11840157 -33.57185 -0.11626653 -33.567448 -25.678915 -117.85214
167842000 -25.188156 -123.66431 -0.11988325 -33.771595 -0.11679354 -33.767639 -25.597439 -117.78293
168841000 -25.118347 -123.87232 -0.11920394 -33.97546 -0.11796161 -33.969673 -25.514631 -117.87772
169840000 -25.052607 -124.12619 -0.11965441 -34.170269 -0.11853431 -34.168198 -25.426056 -118.08367
170839000 -24.990263 -124.4276 -0.12040618 -34.366436 -0.11857661 -34.361458 -25.339264 -118.30003
171838000 -24.931936 -124.83933 -0.12015602 -34.568241 -0.1200368 -34.558231 -25.275116 -118.52656
172837000 -24.862314 -125.22437 -0.1220443 -34.758835 -0.1208802 -34.755985 -25.207403 -118.77127
173836000 -24.801086 -125.65093 -0.1228074 -34.961437 -0.12155205 -34.953621 -25.16317 -119.02987
174835000 -24.74172 -126.08458 -0.12348595 -35.155926 -0.12221576 -35.157276 -25.116396 -119.36749
175834000 -24.693289 -126.50961 -0.12407297 -35.354168 -0.12290699 -35.350647 -25.052589 -119.68391
176833000 -24.642334 -126.87614 -0.12527229 -35.552574 -0.12359674 -35.54966 -25.000696 -119.89612
177832000 -24.598373 -127.38068 -0.12564719 -35.746426 -0.1238178 -35.746735 -24.979309 -120.03704
178831000 -24.561211 -127.77115 -0.12573564 -35.942585 -0.12455564 -35.94212 -24.938637 -120.27901
179830000 -24.525932 -128.21115 -0.12649594 -36.139332 -0.12562826 -36.14476 -24.911551 -120.46613
180829000 -24.490068 -128.42365 -0.12762262 -36.3368 -0.12632698 -36.337936 -24.888023 -120.60616
181828000 -24.461508 -128.78809 -0.12751892 -36.537796 -0.12570395 -36.5327 -24.869267 -120.74537
182827000 -24.441467 -129.16225 -0.12703486 -36.73098 -0.12677498 -36.728477 -24.854401 -120.81088
183826000 -24.398205 -129.46208 -0.12814702 -36.93 -0.12740377 -36.924145 -24.841742 -120.95419
184825000 -24.402145 -129.79497 -0.12770472 -37.125187 -0.12707856 -37.126301 -24.831635 -121.04697
185824000 -24.372812 -130.18608 -0.1273915 -37.318348 -0.12749386 -37.322662 -24.826733 -121.11057
186823000 -24.359192 -130.51927 -0.12812781 -37.520977 -0.12680377 -37.517097 -24.822302 -121.10587
187822000 -24.339777 -130.83328 -0.12902851 -37.713936 -0.12796998 -37.717667 -24.787836 -121.17155
188821000 -24.323975 -131.13019 -0.12919679 -37.910187 -0.12853949 -37.913887 -24.773798 -121.26221
189820000 -24.303225 -131.36343 -0.12913573 -38.11377 -0.12832671 -38.112095 -24.764502 -121.40495
190819000 -24.274733 -131.59465 -0.13066296 -38.310715 -0.12951602 -38.309177 -24.729372 -121.38498
191818000 -24.236704 -131.77461 -0.13193294 -38.503178 -0.13023882 -38.504902 -24.6959 -121.28441
192817000 -24.166405 -132.06497 -0.13227773 -38.68885 -0.13093747 -38.691917 -24.623896 -121.35882
193816000 -24.130611 -132.40202 -0.13191853 -38.885227 -0.12981525 -38.882362 -24.563271 -121.61834
194815000 -24.071823 -132.8546 -0.13071524 -39.077839 -0.13036419 -39.084293 -24.501301 -121.74964
195814000 -24.01709 -133.06566 -0.13173923 -39.280628 -0.13021427 -39.276894 -24.4445 -121.86485
196813000 -23.964808 -133.43094 -0.1308585 -39.470703 -0.13075766 -39.47237 -24.368538 -122.01279
197812000 -23.903074 -133.66682 -0.13208826 -39.668007 -0.13100711 -39.667171 -24.294676 -122.11225
198811000 -23.853817 -133.83612 -0.13216777 -39.864872 -0.13125522 -39.871334 -24.223677 -122.30936
199810000 -23.783518 -134.25345 -0.13243891 -40.0616 -0.13052638 -40.061008 -24.1457 -122.42484
200809000 -23.724463 -134.53883 -0.13226731 -40.256119 -0.13112609 -40.259682 -24.067965 -122.63467
201808000 -23.668528 -134.75261 -0.1334585 -40.455891 -0.13192362 -40.46347 -23.996786 -122.69278
202807000 -23.613268 -135.13756 -0.1343272 -40.661903 -0.1326188 -40.662247 -23.943108 -122.93822
203806000 -23.55979 -135.60258 -0.13528207 -40.859066 -0.13292946 -40.860046 -23.875013 -123.13032
