!Keysight Technologies,E5080B,MY59205177,A.15.75.32
!Date: Friday, February 23, 2024 03:29:50
!Correction: S11(Cdelta 2-Port  ) 
!S21(Cdelta 2-Port  ) 
!S12(Cdelta 2-Port  ) 
!S22(Cdelta 2-Port  ) 
!S2P File: Measurements: S11, S21, S12, S22:
# Hz S  dB   R 50
10000000 -46.004623 -1.8961523 -0.016091499 -2.0482101 -0.018511884 -2.1040616 -46.017178 -158.40903
10999000 -45.223282 -3.7118151 -0.016708618 -2.2681744 -0.019045625 -2.3231246 -46.025944 -151.71184
11998000 -44.284958 -6.6398749 -0.01714728 -2.4930005 -0.018730519 -2.5419428 -46.180134 -147.76634
12997000 -43.496117 -12.145499 -0.016900916 -2.6772699 -0.018211633 -2.7117641 -45.785229 -142.1526
13996000 -43.233925 -16.335167 -0.015506683 -2.8562469 -0.018442994 -2.8754449 -45.662331 -136.74902
14995000 -42.841812 -20.358473 -0.018069964 -3.0646133 -0.018119093 -3.0928431 -45.281212 -133.09383
15994000 -42.720848 -24.817434 -0.018915629 -3.2853479 -0.020275326 -3.3075361 -45.188354 -129.67603
16993000 -42.670963 -29.78664 -0.018203055 -3.4841304 -0.020334363 -3.4901443 -44.338757 -129.40636
17992000 -42.770699 -34.814198 -0.018377483 -3.6835053 -0.020589765 -3.6830215 -43.804485 -129.50493
18991000 -43.033142 -40.114353 -0.019804884 -3.8931239 -0.021348773 -3.8870292 -43.186131 -128.11852
19990000 -42.77346 -45.707829 -0.022114679 -4.1022196 -0.023915766 -4.0972505 -42.528465 -129.08559
20989000 -42.606892 -49.032528 -0.024288775 -4.3079219 -0.02599285 -4.2965064 -41.924068 -128.35347
21988000 -42.464325 -54.429684 -0.025018491 -4.5057092 -0.026410572 -4.4911461 -41.679668 -127.83448
22987000 -42.139595 -59.064507 -0.026251968 -4.7056146 -0.027141685 -4.6972756 -41.452297 -127.27148
23986000 -42.115471 -63.229385 -0.02589155 -4.9005113 -0.025856134 -4.8978391 -41.322922 -126.84578
24985000 -41.721252 -66.101776 -0.027420672 -5.1119061 -0.02641448 -5.102293 -41.097736 -124.63929
25984000 -41.374493 -68.165497 -0.028141011 -5.3136582 -0.027229208 -5.3131061 -40.758625 -123.15568
26983000 -41.08733 -70.302132 -0.02912415 -5.5178747 -0.02783801 -5.5301571 -40.701298 -122.45332
27982000 -40.897575 -70.976051 -0.030385904 -5.7132864 -0.029881002 -5.7475128 -40.410217 -120.7893
28981000 -40.887375 -72.739723 -0.027927373 -5.911828 -0.029326381 -5.9395657 -40.190006 -120.0625
29980000 -40.47596 -74.055748 -0.028351273 -6.1071882 -0.029957373 -6.1139469 -39.900143 -119.30148
30979000 -40.072632 -72.953392 -0.025935559 -6.461103 -0.02452801 -6.4542561 -39.405495 -119.4853
31978000 -39.869102 -73.782433 -0.024976574 -6.6581988 -0.026423074 -6.6448317 -39.16309 -118.79898
32977000 -39.677673 -75.515938 -0.025200743 -6.8707962 -0.026342077 -6.8643842 -38.933479 -118.8632
33976000 -39.504749 -76.500854 -0.02544966 -7.0685229 -0.026787184 -7.0640173 -38.639381 -118.26987
34975000 -39.217766 -77.295204 -0.025819156 -7.270956 -0.027982084 -7.2697835 -38.409824 -117.94199
35974000 -39.026638 -77.971497 -0.024987249 -7.468246 -0.027860938 -7.4669757 -38.131741 -116.89007
36973000 -38.787334 -78.551414 -0.025258023 -7.6637292 -0.028193381 -7.6697392 -37.862022 -116.01451
37972000 -38.601761 -78.302406 -0.025420237 -7.8793354 -0.027411293 -7.8862758 -37.65979 -115.18494
38971000 -38.273281 -77.874771 -0.026674405 -8.0765772 -0.028751506 -8.0902672 -37.487495 -113.56052
39970000 -37.935341 -78.036041 -0.025072904 -8.275444 -0.027113553 -8.2858896 -37.224613 -112.9399
40969000 -37.661304 -77.840202 -0.025407739 -8.465951 -0.027121628 -8.4872942 -36.981289 -111.57931
41968000 -37.296127 -77.6605 -0.025714476 -8.6739035 -0.027768191 -8.6875734 -36.790085 -110.23566
42967000 -37.03862 -77.804375 -0.025448358 -8.8890591 -0.028025072 -8.9055672 -36.59977 -108.44759
43966000 -36.73241 -78.449783 -0.025940767 -9.0866251 -0.028587082 -9.1045046 -36.304085 -107.52787
44965000 -36.499336 -79.295769 -0.027259165 -9.2970095 -0.02893183 -9.3109055 -36.106617 -107.4239
45964000 -36.284306 -80.3284 -0.027618134 -9.4881144 -0.030662492 -9.5109711 -35.852886 -106.97603
46963000 -36.084568 -82.163605 -0.028345803 -9.6867666 -0.030848632 -9.7123728 -35.690887 -107.24609
47962000 -35.91814 -83.69397 -0.029499171 -9.887845 -0.031936169 -9.9042177 -35.471668 -107.28661
48961000 -35.712681 -85.10865 -0.032249365 -10.088041 -0.033411074 -10.109664 -35.266975 -107.45752
49960000 -35.457851 -86.473602 -0.032619439 -10.283854 -0.034888048 -10.308832 -35.112404 -107.54649
50959000 -35.237289 -87.775764 -0.03359133 -10.500857 -0.036225088 -10.511218 -34.936592 -107.78161
51958000 -35.021626 -88.860451 -0.035308976 -10.697189 -0.037227288 -10.70743 -34.745129 -108.2227
52957000 -34.813904 -89.852158 -0.036952633 -10.899497 -0.038151115 -10.908703 -34.593197 -108.04061
53956000 -34.655502 -90.553391 -0.037885543 -11.104459 -0.039176486 -11.103457 -34.455811 -107.95459
54955000 -34.488262 -91.06266 -0.039269216 -11.301659 -0.040129207 -11.30092 -34.304291 -107.84463
55954000 -34.318161 -91.891006 -0.039527822 -11.501324 -0.040703241 -11.500992 -34.207806 -107.49373
56953000 -34.194103 -91.949623 -0.040010337 -11.70165 -0.039611418 -11.691719 -34.137608 -107.75951
57952000 -34.037285 -92.429237 -0.041329876 -11.896736 -0.040331692 -11.891558 -34.022285 -107.82311
58951000 -33.919964 -92.805107 -0.042715956 -12.106478 -0.041526143 -12.085191 -33.866539 -107.87582
59950000 -33.790524 -93.232048 -0.042647202 -12.30576 -0.042858955 -12.285651 -33.808819 -108.19991
60949000 -33.674988 -93.793175 -0.043312553 -12.509084 -0.043531921 -12.485845 -33.712582 -108.45064
61948000 -33.614655 -94.154289 -0.043513615 -12.709311 -0.043207187 -12.689964 -33.627739 -108.59743
62947000 -33.521496 -94.269325 -0.043886222 -12.918415 -0.043420795 -12.89915 -33.493561 -108.77553
63946000 -33.454536 -95.032524 -0.044620804 -13.116775 -0.044414461 -13.099036 -33.382236 -108.88633
64945000 -33.341003 -95.204254 -0.045110162 -13.319955 -0.045393966 -13.303995 -33.268452 -109.37972
65944000 -33.241287 -95.464806 -0.046334445 -13.519081 -0.045750774 -13.50459 -33.184898 -109.8616
66943000 -33.091503 -95.926231 -0.044213619 -13.722071 -0.044178836 -13.705119 -33.076748 -110.08167
67942000 -33.041275 -95.826225 -0.046395931 -13.919575 -0.046204679 -13.909299 -32.953552 -110.37645
68941000 -32.918575 -95.902748 -0.046149474 -14.114469 -0.044812776 -14.10511 -32.841709 -110.31597
69940000 -32.825275 -95.873558 -0.045920033 -14.313972 -0.046547424 -14.304903 -32.697384 -110.67711
70939000 -32.713623 -95.80616 -0.046535388 -14.507394 -0.046670664 -14.503497 -32.568256 -110.53864
71938000 -32.567467 -95.351028 -0.046823472 -14.702964 -0.046381541 -14.698585 -32.430222 -110.37981
72937000 -32.416855 -95.202492 -0.045707349 -14.90759 -0.046252817 -14.897502 -32.292809 -110.06361
73936000 -32.277214 -94.859291 -0.044991937 -15.105211 -0.04478636 -15.09542 -32.173805 -109.89432
74935000 -32.150169 -95.011116 -0.044469643 -15.300155 -0.043964408 -15.298033 -32.017673 -109.52129
75934000 -32.026562 -95.344887 -0.044909548 -15.507933 -0.044296779 -15.506879 -31.930923 -109.50815
76933000 -31.885212 -95.643005 -0.04627087 -15.703495 -0.045800742 -15.694899 -31.762045 -109.75133
77932000 -31.782824 -96.519493 -0.047319617 -15.900665 -0.047472712 -15.892085 -31.651892 -109.73476
78931000 -31.704687 -97.151001 -0.046438839 -16.102274 -0.046357211 -16.095169 -31.549509 -109.57832
79930000 -31.590588 -98.023506 -0.04894767 -16.292257 -0.048834052 -16.29187 -31.45252 -109.9038
80929000 -31.475861 -98.789284 -0.050732683 -16.493208 -0.0504192 -16.486101 -31.350925 -110.11714
81928000 -31.38398 -99.613266 -0.050326232 -16.686916 -0.050809424 -16.682739 -31.215944 -110.11466
82927000 -31.280226 -100.30521 -0.052227087 -16.885651 -0.052389264 -16.879366 -31.104389 -110.4297
83926000 -31.168358 -101.02218 -0.053814784 -17.081249 -0.053241115 -17.078611 -30.982433 -110.64933
84925000 -31.063316 -101.42674 -0.055004563 -17.280516 -0.05311795 -17.277628 -30.896046 -110.68874
85924000 -30.966816 -101.86524 -0.055500071 -17.481153 -0.054751847 -17.476408 -30.804647 -110.61629
86923000 -30.86244 -102.29714 -0.055339877 -17.680857 -0.054911233 -17.673454 -30.708696 -110.45764
87922000 -30.738256 -102.71684 -0.055678625 -17.884409 -0.054971531 -17.873459 -30.621298 -110.49483
88921000 -30.676861 -102.93215 -0.056415733 -18.082663 -0.055799503 -18.082584 -30.525421 -110.50342
89920000 -30.567692 -103.49982 -0.057413947 -18.283789 -0.056269404 -18.27808 -30.478146 -110.6552
90919000 -30.463367 -103.78596 -0.058750331 -18.482658 -0.056897238 -18.476921 -30.376945 -110.75953
91918000 -30.374182 -104.13002 -0.059542023 -18.683575 -0.057602812 -18.678675 -30.315998 -110.78352
92917000 -30.272673 -104.40279 -0.059907869 -18.880775 -0.059106667 -18.878006 -30.252897 -110.9552
93916000 -30.187962 -104.7716 -0.059721269 -19.075459 -0.058819078 -19.072042 -30.16103 -111.51617
94915000 -30.104004 -105.38587 -0.061210103 -19.276829 -0.059801314 -19.269411 -30.099712 -111.39855
95914000 -30.040783 -105.5559 -0.062515885 -19.4702 -0.060879324 -19.469679 -30.002632 -111.67625
96913000 -29.959852 -105.79696 -0.063580908 -19.671982 -0.061736777 -19.668472 -29.943134 -112.03286
97912000 -29.880917 -106.28014 -0.064477779 -19.868217 -0.062348336 -19.869577 -29.855776 -112.21912
98911000 -29.770731 -106.44089 -0.064560018 -20.070122 -0.063419364 -20.065687 -29.821751 -112.4632
99910000 -29.704844 -106.59524 -0.065983757 -20.269341 -0.063866183 -20.269552 -29.715576 -112.78268
100909000 -29.614445 -106.84176 -0.06519641 -20.477806 -0.063644998 -20.47493 -29.628593 -112.95704
101908000 -29.517931 -107.08867 -0.066876397 -20.680721 -0.064749718 -20.676786 -29.511944 -112.73415
102907000 -29.388721 -107.07134 -0.066385105 -20.878374 -0.06522505 -20.87714 -29.436594 -112.7004
103906000 -29.287495 -107.14101 -0.066559114 -21.085676 -0.064330652 -21.08235 -29.29752 -112.68657
104905000 -29.147602 -106.9733 -0.067427151 -21.281744 -0.065316498 -21.281111 -29.161657 -112.29757
105904000 -28.997431 -107.08728 -0.068172306 -21.48625 -0.065133348 -21.482704 -29.057564 -112.2099
106903000 -28.885258 -107.16855 -0.067974038 -21.691734 -0.066125944 -21.687347 -28.922636 -112.12138
107902000 -28.718744 -107.46905 -0.068878397 -21.891954 -0.065986648 -21.884169 -28.787603 -112.06483
108901000 -28.611168 -107.69877 -0.069785044 -22.095955 -0.067723989 -22.0861 -28.661497 -112.04437
109900000 -28.486185 -108.16313 -0.070525341 -22.297655 -0.068818696 -22.288647 -28.512959 -112.06844
110899000 -28.358305 -108.80689 -0.072057888 -22.48991 -0.068809755 -22.485851 -28.379803 -112.36691
111898000 -28.277712 -109.47095 -0.073380098 -22.694258 -0.070500083 -22.690176 -28.260921 -112.49494
112897000 -28.147951 -110.00133 -0.074985027 -22.891659 -0.07131128 -22.883642 -28.126152 -112.61876
113896000 -28.040638 -110.59146 -0.076108173 -23.096283 -0.073342711 -23.084791 -28.012362 -112.75719
114895000 -27.937679 -111.24306 -0.076401651 -23.291771 -0.074009888 -23.280605 -27.907011 -112.89748
115894000 -27.817856 -111.615 -0.077840351 -23.496 -0.075284228 -23.480793 -27.834179 -113.03788
116893000 -27.736956 -112.03308 -0.07823199 -23.689081 -0.07662981 -23.678802 -27.709778 -113.11994
117892000 -27.65729 -112.59884 -0.078954481 -23.887386 -0.076443806 -23.875603 -27.637728 -113.34634
118891000 -27.600599 -112.98492 -0.07944192 -24.08926 -0.076808974 -24.076168 -27.542528 -113.40334
119890000 -27.513012 -113.34863 -0.079863764 -24.291275 -0.077976868 -24.279186 -27.528322 -113.57485
120889000 -27.458344 -113.82975 -0.081580289 -24.493048 -0.078020349 -24.478806 -27.453823 -113.51627
121888000 -27.421015 -114.23579 -0.080925405 -24.689457 -0.078589924 -24.676943 -27.399315 -113.75578
122887000 -27.379923 -114.37469 -0.082247145 -24.893307 -0.079767786 -24.878773 -27.352932 -113.79913
123886000 -27.329212 -114.81236 -0.08307822 -25.096081 -0.08004833 -25.078281 -27.33408 -113.93071
124885000 -27.297234 -115.30984 -0.083329163 -25.296667 -0.079840295 -25.278868 -27.301973 -113.94294
125884000 -27.243069 -115.466 -0.084452093 -25.491661 -0.080322824 -25.479033 -27.277546 -114.11803
126883000 -27.222174 -115.8865 -0.085357249 -25.696146 -0.081538878 -25.683113 -27.23918 -114.15791
127882000 -27.178278 -116.16393 -0.085070558 -25.894703 -0.082255326 -25.879347 -27.19841 -114.26651
128881000 -27.142675 -116.49468 -0.084909528 -26.097029 -0.081872553 -26.082003 -27.158024 -114.35634
129880000 -27.091763 -116.85497 -0.085979797 -26.2983 -0.081820063 -26.280396 -27.115448 -114.31239
130879000 -27.030092 -116.9895 -0.085228942 -26.499643 -0.083111204 -26.486582 -27.050102 -114.31189
131878000 -26.967834 -117.20497 -0.085682504 -26.701725 -0.08286266 -26.684147 -26.984089 -114.20896
132877000 -26.899008 -117.30096 -0.08545994 -26.903524 -0.082832843 -26.885094 -26.904408 -114.19144
133876000 -26.815235 -117.44633 -0.085996434 -27.110403 -0.083155274 -27.08489 -26.818996 -114.03398
134875000 -26.714508 -117.56131 -0.086063236 -27.304369 -0.083553463 -27.288279 -26.721151 -113.91478
135874000 -26.633633 -117.60411 -0.086370587 -27.506306 -0.083643712 -27.487474 -26.617428 -113.86146
136873000 -26.525423 -117.51204 -0.087319456 -27.708298 -0.083310165 -27.689798 -26.535082 -113.82726
137872000 -26.442142 -117.68581 -0.086783595 -27.910772 -0.083897054 -27.893883 -26.433357 -113.73426
138871000 -26.366501 -117.86626 -0.087075949 -28.109299 -0.084372118 -28.097368 -26.336433 -113.92097
139870000 -26.266148 -118.11951 -0.087938853 -28.310434 -0.085573733 -28.294647 -26.254995 -114.07826
140869000 -26.188057 -118.67637 -0.088973939 -28.507586 -0.085746393 -28.488543 -26.150505 -114.2933
141868000 -26.107195 -119.08029 -0.089529619 -28.705629 -0.086908244 -28.690548 -26.106432 -114.56636
142867000 -26.029394 -119.29613 -0.088358879 -28.904299 -0.086229056 -28.886539 -26.021254 -114.64912
143866000 -25.95808 -119.7562 -0.090159908 -29.10121 -0.087881267 -29.085194 -25.954821 -115.12742
144865000 -25.898619 -120.30347 -0.091265835 -29.300863 -0.09003067 -29.287285 -25.896427 -115.41315
145864000 -25.84376 -120.58418 -0.09239056 -29.504713 -0.090729751 -29.489349 -25.858631 -115.67728
146863000 -25.797678 -120.98828 -0.093319848 -29.703485 -0.091185473 -29.68767 -25.810947 -115.94724
147862000 -25.760153 -121.33551 -0.09398745 -29.900488 -0.09165895 -29.885647 -25.781246 -116.25975
148861000 -25.724119 -121.7645 -0.094781622 -30.09878 -0.092836931 -30.082315 -25.758497 -116.39948
149860000 -25.692825 -121.92184 -0.096082978 -30.292252 -0.093518212 -30.283457 -25.705204 -116.53811
150859000 -25.671185 -122.42191 -0.095653474 -30.49194 -0.093746476 -30.471954 -25.684235 -116.89893
151858000 -25.656778 -122.77835 -0.095039852 -30.691542 -0.092992432 -30.675947 -25.68083 -117.22644
152857000 -25.649416 -123.08008 -0.095261842 -30.886755 -0.092642829 -30.874517 -25.659546 -117.40106
153856000 -25.640242 -123.29322 -0.095327467 -31.087992 -0.092678793 -31.075476 -25.682339 -117.74132
154855000 -25.638802 -123.45652 -0.096180372 -31.286337 -0.093006976 -31.277523 -25.66704 -117.97294
155854000 -25.652302 -123.70502 -0.096348964 -31.487139 -0.093711831 -31.478378 -25.657564 -118.24397
156853000 -25.642454 -124.39415 -0.094075806 -31.678431 -0.092952766 -31.666645 -25.657949 -118.58281
157852000 -25.655489 -124.61923 -0.095190138 -31.879721 -0.095087744 -31.869425 -25.646303 -118.90308
158851000 -25.645945 -124.81963 -0.096035868 -32.074959 -0.09474273 -32.070171 -25.631414 -119.16911
159850000 -25.634371 -124.92587 -0.096684836 -32.27869 -0.095057048 -32.269707 -25.626978 -119.33245
160849000 -25.618647 -125.03131 -0.096805796 -32.473835 -0.09591572 -32.470802 -25.601156 -119.64785
161848000 -25.602085 -125.11031 -0.097487703 -32.680157 -0.095675968 -32.670151 -25.562407 -119.71751
162847000 -25.562504 -125.29958 -0.096604638 -32.875233 -0.096126914 -32.869881 -25.534582 -119.96232
163846000 -25.523497 -125.49119 -0.096912473 -33.077934 -0.0964543 -33.06744 -25.453657 -119.99355
164845000 -25.4625 -125.47337 -0.098428942 -33.276531 -0.096174546 -33.270367 -25.393881 -120.08006
165844000 -25.41441 -125.49358 -0.09803389 -33.475689 -0.097002469 -33.469059 -25.312271 -120.21329
166843000 -25.346289 -125.56687 -0.098189846 -33.673496 -0.096862711 -33.670555 -25.243361 -120.40083
167842000 -25.288488 -125.66409 -0.098828271 -33.874973 -0.09733893 -33.869286 -25.167088 -120.28462
168841000 -25.208326 -125.82915 -0.099145003 -34.075943 -0.09824571 -34.062775 -25.093349 -120.37319
169840000 -25.14221 -126.06821 -0.098742738 -34.270012 -0.097823933 -34.266907 -25.00631 -120.58169
170839000 -25.088875 -126.29917 -0.099609293 -34.467117 -0.098371223 -34.467674 -24.926397 -120.74538
171838000 -25.026688 -126.7006 -0.10017958 -34.670914 -0.09989509 -34.664276 -24.861111 -120.97123
172837000 -24.954792 -127.05992 -0.10084824 -34.863815 -0.099985681 -34.861565 -24.79464 -121.19885
173836000 -24.886648 -127.43383 -0.10251717 -35.069328 -0.10138398 -35.06134 -24.753033 -121.38941
174835000 -24.838945 -127.84124 -0.10287128 -35.262161 -0.10210318 -35.263302 -24.70879 -121.73226
175834000 -24.785788 -128.21553 -0.10385159 -35.463566 -0.10335849 -35.456963 -24.647297 -121.99564
176833000 -24.731297 -128.55692 -0.10511907 -35.660385 -0.10400457 -35.658455 -24.6008 -122.10328
177832000 -24.690725 -128.9993 -0.10614287 -35.859215 -0.10481569 -35.858986 -24.5755 -122.24785
178831000 -24.645067 -129.22903 -0.10723855 -36.057888 -0.10673843 -36.055134 -24.538944 -122.3419
179830000 -24.578169 -129.59805 -0.10890143 -36.24139 -0.10740253 -36.244522 -24.476938 -122.38408
180829000 -24.522844 -129.94464 -0.10727941 -36.434471 -0.10648401 -36.43457 -24.43503 -122.69608
181828000 -24.502373 -130.3777 -0.1061312 -36.635994 -0.1060487 -36.63168 -24.413956 -122.90993
182827000 -24.476521 -130.76805 -0.10683527 -36.830189 -0.10672888 -36.833809 -24.396698 -123.02713
183826000 -24.436464 -131.09752 -0.10766257 -37.030548 -0.10656625 -37.028362 -24.395288 -123.20106
184825000 -24.446413 -131.427 -0.10760738 -37.226303 -0.10664451 -37.227993 -24.373953 -123.30952
185824000 -24.417583 -131.79417 -0.10712022 -37.422878 -0.1069918 -37.428879 -24.369667 -123.36736
186823000 -24.397324 -132.17134 -0.1070316 -37.626312 -0.1070324 -37.624569 -24.363153 -123.36205
187822000 -24.370594 -132.519 -0.10784142 -37.823818 -0.10752671 -37.819962 -24.324162 -123.46228
188821000 -24.351849 -132.78046 -0.10807443 -38.016907 -0.1077167 -38.020187 -24.303284 -123.60099
189820000 -24.331575 -133.05707 -0.10863176 -38.217056 -0.10733779 -38.217503 -24.28809 -123.76751
190819000 -24.295116 -133.37497 -0.10923881 -38.414219 -0.10816253 -38.412827 -24.253185 -123.8055
191818000 -24.26507 -133.65814 -0.1093503 -38.612469 -0.10829735 -38.614334 -24.220533 -123.86793
192817000 -24.221678 -133.95532 -0.10999728 -38.806477 -0.10877403 -38.808147 -24.178928 -123.93694
193816000 -24.190571 -134.21701 -0.10990621 -39.001602 -0.10849216 -39.004086 -24.127132 -124.09219
194815000 -24.130779 -134.59401 -0.11013534 -39.198116 -0.1096909 -39.20208 -24.058395 -124.17944
195814000 -24.069311 -134.78894 -0.11076358 -39.396137 -0.10961338 -39.400036 -24.002161 -124.24487
196813000 -24.01515 -135.12524 -0.11090432 -39.592854 -0.10995533 -39.592789 -23.926765 -124.42605
197812000 -23.957563 -135.34738 -0.11116404 -39.791477 -0.10953427 -39.789051 -23.850832 -124.53132
198811000 -23.905252 -135.48871 -0.11070728 -39.989307 -0.11037643 -39.992184 -23.786543 -124.6746
199810000 -23.834435 -135.85263 -0.11193453 -40.180084 -0.11058939 -40.1796 -23.704027 -124.77316
200809000 -23.773281 -136.10486 -0.11245836 -40.379539 -0.11049964 -40.380066 -23.623104 -124.94176
201808000 -23.715681 -136.3103 -0.11274766 -40.582012 -0.11148433 -40.578743 -23.556484 -125.00668
202807000 -23.657784 -136.65179 -0.11293709 -40.781788 -0.11223868 -40.781971 -23.499662 -125.1974
