!Keysight Technologies,E5080B,MY59205177,A.15.75.32
!Date: Friday, February 23, 2024 02:51:34
!Correction: S11(Cdelta 2-Port  ) 
!S21(Cdelta 2-Port  ) 
!S12(Cdelta 2-Port  ) 
!S22(Cdelta 2-Port  ) 
!S2P File: Measurements: S11, S21, S12, S22:
# Hz S  dB   R 50
10000000 -42.766228 -3.6566141 -0.037237469 -2.0469465 -0.040408507 -2.10412 -50.404465 -140.90198
10999000 -42.201572 -5.162694 -0.038623288 -2.2645402 -0.039674375 -2.3172541 -49.826641 -131.42201
11998000 -41.500721 -7.15416 -0.038244344 -2.4888482 -0.039642762 -2.5301201 -49.7701 -125.27116
12997000 -40.976856 -11.532366 -0.037454441 -2.6665266 -0.039472181 -2.6978245 -48.784016 -118.37399
13996000 -40.742313 -14.320263 -0.036804084 -2.8443305 -0.039409749 -2.8698764 -48.167786 -112.43002
14995000 -40.49411 -17.647804 -0.039142791 -3.0557823 -0.039179884 -3.0780108 -47.4758 -109.40246
15994000 -40.372704 -21.128193 -0.039850187 -3.2746236 -0.041978817 -3.2981064 -47.256672 -105.58123
16993000 -40.38657 -24.439173 -0.039463039 -3.4683974 -0.040852442 -3.4808314 -46.306984 -107.86975
17992000 -40.526428 -28.530758 -0.039962266 -3.6679509 -0.042064026 -3.6715615 -45.6329 -109.72489
18991000 -40.824261 -32.379524 -0.040978655 -3.8821771 -0.042356521 -3.8765733 -44.901211 -110.04555
19990000 -40.714306 -36.859085 -0.043043789 -4.0866346 -0.044864561 -4.0838447 -44.180733 -112.47571
20989000 -40.658798 -39.693851 -0.045362316 -4.2939105 -0.047030192 -4.281271 -43.52116 -112.7756
21988000 -40.656719 -43.752682 -0.046369769 -4.4907026 -0.047122829 -4.4776583 -43.240646 -112.43953
22987000 -40.552776 -48.105049 -0.04761456 -4.6862721 -0.048712064 -4.6827893 -42.977535 -112.40395
23986000 -40.570183 -51.376034 -0.046774279 -4.8799257 -0.047216512 -4.8810468 -42.768295 -112.60027
24985000 -40.351952 -54.196896 -0.047920253 -5.093657 -0.047156587 -5.0864353 -42.470242 -110.00166
25984000 -40.116108 -56.461987 -0.049046367 -5.299953 -0.048236959 -5.2994561 -42.152626 -109.06307
26983000 -39.867554 -58.264629 -0.049539104 -5.4953184 -0.048878297 -5.5146279 -41.950138 -108.22256
27982000 -39.745182 -59.196514 -0.051351864 -5.6970325 -0.050994068 -5.7332335 -41.62413 -107.08327
28981000 -39.798565 -60.656696 -0.049304772 -5.8929133 -0.050614309 -5.9191794 -41.363472 -106.7151
29980000 -39.397457 -62.295341 -0.048955001 -6.0843525 -0.051035453 -6.092062 -40.953186 -106.12728
30979000 -39.094166 -61.862026 -0.047254194 -6.442637 -0.045946196 -6.42733 -40.461918 -107.21309
31978000 -38.916039 -62.982609 -0.045764118 -6.6339855 -0.046490122 -6.6265306 -40.183506 -106.52391
32977000 -38.777382 -64.690315 -0.045708396 -6.846725 -0.047386613 -6.8423982 -39.923008 -107.21751
33976000 -38.616947 -65.881454 -0.046970271 -7.0465961 -0.047700927 -7.0400743 -39.612274 -106.93602
34975000 -38.388626 -67.030457 -0.047067873 -7.2479401 -0.04900448 -7.2437587 -39.313625 -106.8252
35974000 -38.195778 -67.844734 -0.045825593 -7.4454603 -0.048431966 -7.442636 -38.993515 -106.21406
36973000 -37.986797 -68.512672 -0.046863507 -7.6441154 -0.048977777 -7.6461964 -38.68985 -105.44444
37972000 -37.838223 -68.643539 -0.045932591 -7.8523555 -0.048510496 -7.8563776 -38.432163 -104.82716
38971000 -37.502613 -68.635475 -0.046883918 -8.0483437 -0.048424114 -8.0617008 -38.202549 -103.44313
39970000 -37.200546 -69.171494 -0.045612391 -8.2470474 -0.048333809 -8.2632418 -37.918365 -103.08501
40969000 -36.934814 -69.359665 -0.045502 -8.4438953 -0.048077032 -8.4607496 -37.635414 -101.82146
41968000 -36.592468 -69.631577 -0.045441575 -8.6454649 -0.048151106 -8.666852 -37.38702 -100.85242
42967000 -36.360638 -69.908623 -0.044930212 -8.8592167 -0.04866913 -8.8823566 -37.159901 -99.025391
43966000 -36.072712 -70.885788 -0.047185108 -9.0618992 -0.050267313 -9.0743275 -36.84763 -98.400177
44965000 -35.864941 -71.809288 -0.046754133 -9.2606316 -0.050115429 -9.2807703 -36.636292 -98.511604
45964000 -35.68084 -73.018555 -0.048848715 -9.4598894 -0.050625306 -9.4815807 -36.370991 -98.609352
46963000 -35.519207 -75.063728 -0.048931438 -9.6548834 -0.051485453 -9.6759272 -36.200726 -98.90448
47962000 -35.400082 -76.524628 -0.050612736 -9.8575535 -0.052784119 -9.8757477 -36.003914 -99.154694
48961000 -35.202972 -78.002197 -0.052840978 -10.051262 -0.054334272 -10.075794 -35.777061 -99.600075
49960000 -35.023884 -79.563927 -0.053959724 -10.253022 -0.055181261 -10.275239 -35.625965 -99.912674
50959000 -34.819595 -81.010063 -0.054138739 -10.466193 -0.056979857 -10.476296 -35.460785 -100.31791
51958000 -34.652027 -82.139679 -0.056403145 -10.665394 -0.058553547 -10.674196 -35.28265 -100.95116
52957000 -34.460438 -83.379967 -0.058075529 -10.868336 -0.05955068 -10.871992 -35.101574 -100.83685
53956000 -34.311409 -84.20771 -0.058705729 -11.068719 -0.06022545 -11.069335 -34.964008 -100.93081
54955000 -34.147846 -84.813324 -0.059475888 -11.26483 -0.061248433 -11.263415 -34.811638 -101.07802
55954000 -34.001274 -85.713684 -0.060499221 -11.466784 -0.062186051 -11.466562 -34.707924 -100.77358
56953000 -33.887314 -85.836571 -0.060487408 -11.667674 -0.0609187 -11.653291 -34.627522 -101.06837
57952000 -33.722668 -86.537079 -0.062097821 -11.865976 -0.0619043 -11.854579 -34.536205 -101.25834
58951000 -33.614353 -86.940956 -0.06297075 -12.069761 -0.062759332 -12.048827 -34.377495 -101.36871
59950000 -33.509502 -87.403458 -0.063943677 -12.26833 -0.063629769 -12.244827 -34.307751 -101.79622
60949000 -33.403175 -88.067184 -0.064318568 -12.46813 -0.064403951 -12.449343 -34.210068 -102.13683
61948000 -33.352303 -88.352341 -0.065061606 -12.672705 -0.064519554 -12.651937 -34.130474 -102.23974
62947000 -33.265839 -88.627083 -0.064652763 -12.881261 -0.064894758 -12.859403 -33.983017 -102.60212
63946000 -33.20079 -89.298676 -0.065905958 -13.078131 -0.065678626 -13.059301 -33.887115 -102.7891
64945000 -33.098202 -89.505707 -0.06644924 -13.278672 -0.065959573 -13.259049 -33.782402 -103.30978
65944000 -32.992489 -89.862343 -0.067171611 -13.478543 -0.066937909 -13.460388 -33.690777 -103.83438
66943000 -32.862694 -90.350449 -0.064937845 -13.677097 -0.065140963 -13.661907 -33.584911 -104.11957
67942000 -32.803581 -90.374992 -0.067323305 -13.876139 -0.066471845 -13.865073 -33.463875 -104.45564
68941000 -32.686123 -90.452354 -0.066531509 -14.06916 -0.066455811 -14.060927 -33.356518 -104.50247
69940000 -32.590805 -90.442703 -0.067134544 -14.26759 -0.06678623 -14.258306 -33.224438 -104.75618
70939000 -32.479877 -90.469513 -0.067412697 -14.463887 -0.066492081 -14.459099 -33.084267 -104.7553
71938000 -32.326828 -90.130127 -0.066582508 -14.660687 -0.066052355 -14.650949 -32.946125 -104.6889
72937000 -32.167847 -90.028496 -0.066598281 -14.861016 -0.066174045 -14.850283 -32.803818 -104.36742
73936000 -32.030499 -89.726883 -0.065573245 -15.056158 -0.065504916 -15.048276 -32.682049 -104.25562
74935000 -31.911211 -90.025841 -0.065283656 -15.252984 -0.064680085 -15.253597 -32.519882 -103.96787
75934000 -31.789408 -90.330887 -0.065598473 -15.464443 -0.064916827 -15.457909 -32.433514 -103.83293
76933000 -31.666782 -90.787827 -0.067255214 -15.655272 -0.065565102 -15.64954 -32.252159 -104.34046
77932000 -31.577206 -91.585289 -0.067555457 -15.855392 -0.067584381 -15.850264 -32.168755 -104.37993
78931000 -31.519846 -92.360268 -0.066920295 -16.053165 -0.066773087 -16.048265 -32.069942 -104.24232
79930000 -31.410095 -93.247658 -0.069799513 -16.246017 -0.06954094 -16.24481 -31.967781 -104.61485
80929000 -31.283146 -94.119972 -0.070920527 -16.439892 -0.071432069 -16.437347 -31.867973 -105.03437
81928000 -31.213285 -95.114151 -0.071396276 -16.633781 -0.070849754 -16.626781 -31.745747 -105.14448
82927000 -31.130745 -95.70961 -0.073100515 -16.830978 -0.072559826 -16.828094 -31.642078 -105.49634
83926000 -31.01428 -96.56559 -0.074218169 -17.02788 -0.073615469 -17.027676 -31.530321 -105.76013
84925000 -30.920839 -97.085228 -0.075269476 -17.230991 -0.073498309 -17.2222 -31.436476 -105.80671
85924000 -30.824951 -97.520477 -0.075559996 -17.429363 -0.075382993 -17.424845 -31.351151 -105.93224
86923000 -30.723179 -98.134926 -0.07631392 -17.628199 -0.074910231 -17.621042 -31.241842 -105.89175
87922000 -30.624611 -98.543434 -0.075905859 -17.831118 -0.075326368 -17.822062 -31.150835 -105.92523
88921000 -30.561214 -98.894958 -0.077137016 -18.027569 -0.075664572 -18.024889 -31.062742 -106.02685
89920000 -30.462387 -99.470131 -0.077860638 -18.228256 -0.077040836 -18.220661 -31.008493 -106.18229
90919000 -30.353373 -99.822464 -0.078890949 -18.425137 -0.077748902 -18.41691 -30.923899 -106.3914
91918000 -30.266043 -100.21057 -0.079185933 -18.626003 -0.077840351 -18.621656 -30.846201 -106.51469
92917000 -30.179258 -100.59779 -0.080205485 -18.823826 -0.079369947 -18.82041 -30.788336 -106.55234
93916000 -30.099264 -101.00925 -0.079901204 -19.016611 -0.07912425 -19.011759 -30.697605 -107.25153
94915000 -30.03071 -101.71802 -0.081801072 -19.217052 -0.080493174 -19.212692 -30.634089 -107.11426
95914000 -29.960123 -101.95506 -0.082623094 -19.41116 -0.081477419 -19.408335 -30.553703 -107.44032
96913000 -29.876274 -102.18776 -0.084232233 -19.611969 -0.082536027 -19.606533 -30.48233 -107.85072
97912000 -29.808521 -102.66914 -0.085063159 -19.806414 -0.082483262 -19.810051 -30.398167 -108.06547
98911000 -29.701132 -102.89494 -0.085577428 -20.009422 -0.084067017 -20.007275 -30.365738 -108.3115
99910000 -29.639263 -103.00572 -0.086033665 -20.205475 -0.084362619 -20.204187 -30.260078 -108.58229
100909000 -29.543848 -103.33268 -0.085287817 -20.41748 -0.083481155 -20.410431 -30.169424 -108.90324
101908000 -29.457394 -103.57112 -0.086921975 -20.618109 -0.084882602 -20.611652 -30.05426 -108.61746
102907000 -29.322477 -103.60204 -0.087251581 -20.817375 -0.084720001 -20.814644 -29.975763 -108.5919
103906000 -29.226316 -103.70808 -0.087503813 -21.01981 -0.084791534 -21.01655 -29.823959 -108.54273
104905000 -29.082504 -103.61839 -0.087158613 -21.218994 -0.085446477 -21.220284 -29.675201 -108.23994
105904000 -28.941246 -103.7758 -0.088207506 -21.421782 -0.085223928 -21.413521 -29.56773 -108.1551
106903000 -28.825811 -103.89864 -0.087926969 -21.625927 -0.085792333 -21.61978 -29.435545 -108.02367
107902000 -28.667967 -104.28444 -0.089662015 -21.826849 -0.085805804 -21.816681 -29.299698 -107.99173
108901000 -28.556391 -104.51519 -0.090518564 -22.030966 -0.087163895 -22.019995 -29.16338 -107.99957
109900000 -28.434162 -105.08297 -0.090365268 -22.228153 -0.088657945 -22.219769 -29.00926 -108.11542
110899000 -28.321373 -105.72978 -0.092487074 -22.425028 -0.088856362 -22.417397 -28.879095 -108.4363
111898000 -28.228542 -106.43236 -0.09340845 -22.626074 -0.090960249 -22.61981 -28.763132 -108.61063
112897000 -28.112192 -107.05918 -0.095196225 -22.82362 -0.091548972 -22.816238 -28.632111 -108.8188
113896000 -28.008539 -107.67347 -0.096169516 -23.026546 -0.093685642 -23.01329 -28.518839 -108.99258
114895000 -27.908876 -108.33157 -0.097085588 -23.225084 -0.094739556 -23.211311 -28.407646 -109.10588
115894000 -27.774136 -108.70079 -0.098087378 -23.423302 -0.096269824 -23.411558 -28.333797 -109.34096
116893000 -27.707462 -109.31927 -0.098936848 -23.621424 -0.096790448 -23.604059 -28.197552 -109.51308
117892000 -27.625559 -109.84935 -0.09927319 -23.811777 -0.097153887 -23.805414 -28.13316 -109.75728
118891000 -27.573359 -110.29877 -0.099651933 -24.016987 -0.097693942 -24.006346 -28.035772 -109.88954
119890000 -27.477451 -110.69415 -0.099811651 -24.222105 -0.098356657 -24.200201 -28.024378 -110.11425
120889000 -27.42811 -111.22356 -0.10116804 -24.422686 -0.098705135 -24.404615 -27.951271 -110.05009
121888000 -27.388918 -111.53857 -0.10219382 -24.609127 -0.098490641 -24.602888 -27.893618 -110.38675
122887000 -27.344334 -111.75565 -0.10286094 -24.818016 -0.099643722 -24.805304 -27.847898 -110.45892
123886000 -27.292011 -112.186 -0.10304463 -25.015972 -0.10030594 -25.000051 -27.825287 -110.59901
124885000 -27.252327 -112.74222 -0.10370418 -25.218494 -0.10044131 -25.202995 -27.801348 -110.67594
125884000 -27.200741 -112.91137 -0.10435297 -25.415524 -0.10062252 -25.4023 -27.774141 -110.87897
126883000 -27.182711 -113.31169 -0.10465235 -25.620298 -0.10111213 -25.603676 -27.72353 -110.90708
127882000 -27.127993 -113.59657 -0.10498011 -25.817696 -0.10180055 -25.799942 -27.68449 -111.08198
128881000 -27.094675 -113.8884 -0.10528297 -26.020874 -0.1016654 -26.002693 -27.644161 -111.22652
129880000 -27.045227 -114.25048 -0.10619406 -26.221348 -0.10226644 -26.200159 -27.599983 -111.18586
130879000 -26.983603 -114.43635 -0.10546888 -26.420225 -0.10326571 -26.404161 -27.523228 -111.26463
131878000 -26.911259 -114.67691 -0.10577443 -26.623131 -0.10365964 -26.602722 -27.456619 -111.11831
132877000 -26.851988 -114.7161 -0.10563572 -26.829424 -0.10400404 -26.807779 -27.37233 -111.17994
133876000 -26.757431 -114.87979 -0.1060174 -27.025747 -0.10347222 -27.00588 -27.281013 -111.07082
134875000 -26.665258 -115.03214 -0.10561927 -27.222416 -0.10366283 -27.206869 -27.169376 -110.95031
135874000 -26.577843 -115.04107 -0.10679149 -27.423365 -0.10405574 -27.409555 -27.070984 -110.93726
136873000 -26.466976 -114.9913 -0.10685649 -27.627007 -0.10355175 -27.608095 -26.980497 -110.94006
137872000 -26.393145 -115.11562 -0.10655962 -27.830936 -0.10454309 -27.812613 -26.869631 -110.9366
138871000 -26.312145 -115.34884 -0.10767053 -28.026773 -0.10477141 -28.011385 -26.773539 -111.0472
139870000 -26.217993 -115.59545 -0.10814873 -28.227892 -0.10569805 -28.210262 -26.693279 -111.26183
140869000 -26.130512 -116.07211 -0.11009817 -28.420235 -0.10689257 -28.401932 -26.583229 -111.42547
141868000 -26.038946 -116.61483 -0.10969462 -28.616514 -0.10812352 -28.599644 -26.518675 -111.72992
142867000 -25.960258 -116.84187 -0.10852905 -28.812111 -0.10733354 -28.797049 -26.437954 -111.96751
143866000 -25.894394 -117.36451 -0.11061461 -29.0096 -0.1080524 -28.996462 -26.364658 -112.48405
144865000 -25.841446 -117.92892 -0.11245544 -29.209864 -0.10933729 -29.194832 -26.302607 -112.82842
145864000 -25.779924 -118.25687 -0.11219697 -29.410231 -0.11106392 -29.398664 -26.277124 -113.10233
146863000 -25.733959 -118.6397 -0.11305452 -29.607836 -0.11082811 -29.593058 -26.225601 -113.4023
147862000 -25.699625 -119.01695 -0.11364784 -29.807182 -0.11095425 -29.791363 -26.1915 -113.79113
148861000 -25.660841 -119.55738 -0.11399329 -30.004488 -0.11212206 -29.991262 -26.170635 -114.02992
149860000 -25.645334 -119.75473 -0.1136784 -30.204348 -0.11236459 -30.1887 -26.133879 -114.20078
150859000 -25.631271 -120.16969 -0.11557902 -30.400656 -0.11281594 -30.386894 -26.134287 -114.4949
151858000 -25.615997 -120.46846 -0.11577787 -30.598969 -0.11335635 -30.582821 -26.122272 -114.79463
152857000 -25.595137 -120.80685 -0.11596503 -30.798317 -0.11324449 -30.785091 -26.107481 -114.91053
153856000 -25.589218 -121.00952 -0.11578797 -30.996929 -0.11298438 -30.982452 -26.121174 -115.24218
154855000 -25.586346 -121.20914 -0.11579754 -31.197142 -0.11340763 -31.18187 -26.112574 -115.45306
155854000 -25.59556 -121.44926 -0.11598364 -31.393801 -0.11347858 -31.384579 -26.10486 -115.73481
156853000 -25.583166 -122.12089 -0.11368185 -31.583103 -0.11278034 -31.57686 -26.101931 -116.0393
157852000 -25.586246 -122.38094 -0.11562102 -31.78212 -0.11436641 -31.774105 -26.09276 -116.36483
158851000 -25.580914 -122.62715 -0.11666325 -31.984426 -0.1144217 -31.97344 -26.073318 -116.6139
159850000 -25.562111 -122.71635 -0.11691268 -32.181866 -0.11519197 -32.173336 -26.074423 -116.76514
160849000 -25.540052 -122.84115 -0.11701532 -32.378315 -0.11558912 -32.374786 -26.047123 -117.08185
161848000 -25.522619 -122.95062 -0.11729137 -32.581402 -0.11598152 -32.572445 -26.006239 -117.20722
162847000 -25.475998 -123.14898 -0.11786957 -32.775879 -0.11599029 -32.773907 -25.971796 -117.44819
163846000 -25.43272 -123.3635 -0.11737328 -32.977482 -0.11608733 -32.970783 -25.892212 -117.42976
164845000 -25.372082 -123.38184 -0.11784697 -33.174381 -0.11682918 -33.167835 -25.82555 -117.53545
165844000 -25.317421 -123.47085 -0.11802384 -33.37524 -0.11687385 -33.363609 -25.73996 -117.70592
166843000 -25.254074 -123.54023 -0.11826085 -33.573841 -0.11685524 -33.567951 -25.671761 -117.86019
167842000 -25.198437 -123.69955 -0.11804832 -33.771114 -0.1173778 -33.767563 -25.588884 -117.81753
168841000 -25.116077 -123.87671 -0.11873144 -33.973045 -0.11773366 -33.969002 -25.508263 -117.89215
169840000 -25.050718 -124.15888 -0.11932953 -34.166233 -0.11903606 -34.163425 -25.420483 -118.12024
170839000 -24.993973 -124.43134 -0.11951046 -34.363964 -0.11849574 -34.3573 -25.331919 -118.31556
171838000 -24.936514 -124.87659 -0.11935454 -34.564377 -0.11900014 -34.557327 -25.268122 -118.56823
172837000 -24.867252 -125.23936 -0.12131993 -34.758469 -0.12031224 -34.755947 -25.200275 -118.80572
173836000 -24.798216 -125.67599 -0.12272219 -34.9618 -0.12162499 -34.956791 -25.155731 -119.04714
174835000 -24.7474 -126.11848 -0.12353335 -35.15416 -0.12220377 -35.152504 -25.107126 -119.41955
175834000 -24.698151 -126.53747 -0.12376666 -35.35405 -0.12228817 -35.351391 -25.048429 -119.70885
176833000 -24.647726 -126.92525 -0.12457749 -35.55122 -0.12318607 -35.547523 -24.998848 -119.88593
177832000 -24.596746 -127.40068 -0.12451088 -35.745445 -0.12352323 -35.746639 -24.974716 -120.07656
178831000 -24.565071 -127.79792 -0.12560534 -35.944542 -0.12407297 -35.940887 -24.936111 -120.31089
179830000 -24.526821 -128.22971 -0.12547745 -36.140202 -0.12411212 -36.140808 -24.909599 -120.42324
180829000 -24.48719 -128.46823 -0.12630086 -36.338951 -0.12554567 -36.334232 -24.8806 -120.62826
181828000 -24.463268 -128.84305 -0.12661533 -36.536613 -0.12535276 -36.532093 -24.867252 -120.76104
182827000 -24.439274 -129.17525 -0.12647036 -36.729164 -0.12560321 -36.726761 -24.85384 -120.82717
183826000 -24.397953 -129.49156 -0.12826006 -36.926716 -0.1259768 -36.926777 -24.844435 -120.99264
184825000 -24.400549 -129.83757 -0.12751892 -37.124245 -0.12672195 -37.122681 -24.83153 -121.11967
185824000 -24.377138 -130.19325 -0.1274728 -37.318703 -0.12641865 -37.320629 -24.822821 -121.13792
186823000 -24.360752 -130.53976 -0.12757224 -37.520771 -0.12591977 -37.516403 -24.813875 -121.10417
187822000 -24.343033 -130.86812 -0.12834752 -37.71447 -0.12726621 -37.712444 -24.788713 -121.21658
188821000 -24.320042 -131.10158 -0.12814541 -37.90818 -0.12751412 -37.911869 -24.770132 -121.28169
189820000 -24.304581 -131.38084 -0.12834431 -38.112274 -0.12744641 -38.112099 -24.756178 -121.45221
190819000 -24.27367 -131.63498 -0.12965684 -38.31123 -0.12863813 -38.310902 -24.723543 -121.38832
191818000 -24.238342 -131.81863 -0.13120133 -38.504833 -0.13022602 -38.50605 -24.695761 -121.28997
192817000 -24.168676 -132.07397 -0.13116184 -38.690495 -0.13081555 -38.692062 -24.613453 -121.38951
193816000 -24.128815 -132.42599 -0.13063627 -38.881828 -0.12910773 -38.885853 -24.562916 -121.65614
194815000 -24.074194 -132.89191 -0.13069096 -39.080132 -0.1293944 -39.083706 -24.498611 -121.75239
195814000 -24.018528 -133.1057 -0.13106926 -39.278667 -0.13012092 -39.278606 -24.441748 -121.88316
196813000 -23.971169 -133.45099 -0.13146093 -39.472057 -0.12976192 -39.472389 -24.365026 -122.03694
197812000 -23.908127 -133.68286 -0.13146733 -39.669582 -0.12956722 -39.670563 -24.293074 -122.17247
198811000 -23.858118 -133.88385 -0.13138808 -39.863468 -0.12924665 -39.870224 -24.223904 -122.37305
199810000 -23.786255 -134.26109 -0.13197351 -40.065357 -0.12932053 -40.060696 -24.142809 -122.46637
200809000 -23.724169 -134.55762 -0.13182782 -40.256256 -0.12942961 -40.261406 -24.063007 -122.68024
201808000 -23.667871 -134.80322 -0.13258703 -40.460548 -0.13101563 -40.46019 -23.993162 -122.74484
202807000 -23.617281 -135.16217 -0.13305384 -40.660286 -0.13181928 -40.661335 -23.939226 -122.96775
203806000 -23.559589 -135.61546 -0.13425966 -40.856613 -0.13189292 -40.862 -23.871677 -123.16786
