!Keysight Technologies,E5080B,MY59205177,A.15.75.32
!Date: Friday, February 23, 2024 02:51:41
!Correction: S11(Cdelta 2-Port  ) 
!S21(Cdelta 2-Port  ) 
!S12(Cdelta 2-Port  ) 
!S22(Cdelta 2-Port  ) 
!S2P File: Measurements: S11, S21, S12, S22:
# Hz S  dB   R 50
10000000 -42.77354 -3.770906 -0.037052885 -2.0451493 -0.040282834 -2.101985 -50.442249 -141.8929
10999000 -42.241096 -5.1518903 -0.037828878 -2.2645528 -0.040120848 -2.3168631 -49.794174 -131.96544
11998000 -41.54903 -7.2116947 -0.03771764 -2.4880877 -0.039710425 -2.5291934 -49.690968 -124.9003
12997000 -41.001938 -11.331385 -0.037779525 -2.6658442 -0.039185107 -2.7004259 -48.775692 -118.58057
13996000 -40.827728 -14.215963 -0.035780318 -2.8456516 -0.039547674 -2.8642044 -48.130413 -113.06496
14995000 -40.511616 -17.70174 -0.0385896 -3.0551341 -0.039657656 -3.0807242 -47.457535 -109.31652
15994000 -40.421242 -21.35581 -0.039645899 -3.2716627 -0.041787758 -3.2948959 -47.102951 -106.72816
16993000 -40.443748 -24.476046 -0.039300822 -3.4719779 -0.04056371 -3.4812763 -46.237984 -108.1312
17992000 -40.561958 -28.731293 -0.039752223 -3.6710055 -0.041668318 -3.6755993 -45.596817 -109.6068
18991000 -40.7943 -32.338505 -0.040779799 -3.874505 -0.042162567 -3.8752415 -44.779716 -110.22387
19990000 -40.763546 -37.035091 -0.043080911 -4.0882707 -0.044804405 -4.0845995 -44.12294 -112.6011
20989000 -40.691444 -39.792595 -0.044631004 -4.2929349 -0.046776112 -4.283462 -43.496136 -113.19794
21988000 -40.695221 -43.817543 -0.046192121 -4.487607 -0.046652608 -4.4781561 -43.193115 -112.96435
22987000 -40.545765 -48.073551 -0.047095351 -4.6878796 -0.048829865 -4.6799417 -42.98085 -112.79183
23986000 -40.595612 -51.706905 -0.046685576 -4.8858528 -0.047608279 -4.8800235 -42.779747 -112.72249
24985000 -40.320225 -54.213043 -0.047937527 -5.0920515 -0.047831003 -5.0887828 -42.464149 -110.5406
25984000 -40.146709 -56.500565 -0.048744261 -5.2985005 -0.047929149 -5.3000989 -42.086727 -109.35965
26983000 -39.905182 -58.491917 -0.04925555 -5.4967599 -0.049399026 -5.5133514 -41.9548 -108.28761
27982000 -39.811714 -59.492252 -0.050417367 -5.6944485 -0.05083378 -5.7287459 -41.565262 -107.03155
28981000 -39.810032 -60.81707 -0.048892956 -5.892343 -0.050579473 -5.9165926 -41.327122 -106.79924
29980000 -39.457424 -62.667526 -0.048464164 -6.0886064 -0.050269406 -6.090888 -40.928127 -106.25331
30979000 -39.080425 -62.09724 -0.046299126 -6.4400287 -0.045809112 -6.4295425 -40.463387 -107.41447
31978000 -38.922604 -63.186134 -0.0458235 -6.635303 -0.046341248 -6.6248608 -40.194916 -106.9819
32977000 -38.787727 -64.782982 -0.045925789 -6.8457046 -0.047602259 -6.8452277 -39.895546 -107.20448
33976000 -38.637905 -66.118134 -0.046473116 -7.048296 -0.048043266 -7.0424333 -39.575825 -107.22484
34975000 -38.392681 -67.125008 -0.046782915 -7.2448125 -0.048602641 -7.2449865 -39.331699 -106.78922
35974000 -38.216007 -67.872467 -0.045648754 -7.4439654 -0.048739027 -7.4409275 -39.012608 -106.25097
36973000 -38.002663 -68.738235 -0.046425235 -7.6403737 -0.04933174 -7.6481614 -38.690907 -105.52464
37972000 -37.814182 -68.758713 -0.045952212 -7.8489752 -0.049460292 -7.8597379 -38.428883 -105.07575
38971000 -37.512005 -68.711517 -0.047329564 -8.0475712 -0.048881698 -8.0617332 -38.227139 -103.47753
39970000 -37.217113 -69.297043 -0.045517173 -8.249301 -0.048730388 -8.2603836 -37.912415 -103.21838
40969000 -36.924679 -69.312012 -0.046549778 -8.4408417 -0.047848538 -8.4614992 -37.652973 -101.83528
41968000 -36.588654 -69.681198 -0.046239734 -8.6492977 -0.048425946 -8.6574659 -37.398163 -100.87639
42967000 -36.346653 -69.981461 -0.045588847 -8.8590546 -0.049832098 -8.8774519 -37.145157 -99.073532
43966000 -36.094135 -70.967552 -0.046155229 -9.0578823 -0.049795967 -9.074441 -36.851986 -98.704247
44965000 -35.876484 -71.897232 -0.047032811 -9.2632732 -0.04979125 -9.2783861 -36.626472 -98.692207
45964000 -35.682091 -73.103874 -0.048192985 -9.461524 -0.051771771 -9.4796305 -36.377235 -98.579147
46963000 -35.526684 -75.102623 -0.048653424 -9.6551218 -0.051850885 -9.6747379 -36.193371 -98.962593
47962000 -35.395561 -76.67511 -0.050303448 -9.8593016 -0.053110354 -9.87047 -35.983025 -99.249763
48961000 -35.215015 -78.169525 -0.052501928 -10.054048 -0.054982804 -10.07439 -35.764862 -99.665184
49960000 -35.018112 -79.580917 -0.053694751 -10.254683 -0.055878427 -10.276099 -35.629539 -99.916069
50959000 -34.829433 -81.130806 -0.053939015 -10.465356 -0.057025231 -10.47648 -35.4571 -100.29547
51958000 -34.636848 -82.303261 -0.056050703 -10.6655 -0.058582671 -10.672925 -35.283932 -101.00769
52957000 -34.454853 -83.563889 -0.057951182 -10.866879 -0.059911016 -10.871177 -35.104511 -100.95216
53956000 -34.311401 -84.295052 -0.058535971 -11.069839 -0.060165606 -11.066749 -34.966705 -101.05513
54955000 -34.160526 -84.912201 -0.059937 -11.266969 -0.061385743 -11.265669 -34.808079 -101.1043
55954000 -34.017818 -85.806656 -0.060987219 -11.468592 -0.061510455 -11.462821 -34.692902 -100.96094
56953000 -33.890705 -85.931816 -0.060245663 -11.662727 -0.060812909 -11.648673 -34.62875 -101.25543
57952000 -33.737942 -86.658455 -0.061999355 -11.86266 -0.062077604 -11.85499 -34.521133 -101.34022
58951000 -33.624256 -87.028534 -0.063025646 -12.068892 -0.062776923 -12.045776 -34.373096 -101.54942
59950000 -33.510639 -87.459854 -0.063035883 -12.266227 -0.063842013 -12.245459 -34.294037 -101.87838
60949000 -33.390823 -88.096191 -0.063327953 -12.469791 -0.063555166 -12.446174 -34.208462 -102.2159
61948000 -33.348827 -88.409492 -0.064775728 -12.671035 -0.063627668 -12.652325 -34.117699 -102.32687
62947000 -33.267822 -88.687515 -0.064511932 -12.880912 -0.064625964 -12.857011 -33.983505 -102.64551
63946000 -33.206924 -89.38121 -0.065934606 -13.078473 -0.065314136 -13.054219 -33.877548 -102.85612
64945000 -33.098511 -89.525185 -0.066308618 -13.279665 -0.065915681 -13.258346 -33.768654 -103.35851
65944000 -32.997982 -89.965645 -0.06705305 -13.47684 -0.066870607 -13.460828 -33.682125 -103.8702
66943000 -32.858658 -90.345718 -0.064236596 -13.67825 -0.065206394 -13.66089 -33.577126 -104.1955
67942000 -32.801006 -90.370033 -0.066805944 -13.877007 -0.067001261 -13.864296 -33.45573 -104.62214
68941000 -32.69458 -90.543671 -0.066231079 -14.06893 -0.06580162 -14.057397 -33.350796 -104.54983
69940000 -32.593784 -90.559219 -0.066774659 -14.269907 -0.066101767 -14.261012 -33.22031 -104.9539
70939000 -32.483536 -90.553146 -0.066967085 -14.462844 -0.065862596 -14.459251 -33.073261 -104.80985
71938000 -32.339058 -90.154587 -0.066325441 -14.659057 -0.065789007 -14.650978 -32.937992 -104.73016
72937000 -32.177784 -90.105835 -0.065425031 -14.85804 -0.066387206 -14.853898 -32.795967 -104.48266
73936000 -32.040348 -89.792236 -0.065858126 -15.054087 -0.064907633 -15.053339 -32.670761 -104.26303
74935000 -31.912546 -90.106293 -0.064908944 -15.25595 -0.06472265 -15.247025 -32.520046 -104.03475
75934000 -31.796385 -90.46891 -0.065283388 -15.463892 -0.064598113 -15.455721 -32.431309 -103.94268
76933000 -31.663671 -90.878899 -0.066118322 -15.65739 -0.066100448 -15.648093 -32.260197 -104.41614
77932000 -31.574032 -91.635193 -0.067877278 -15.851737 -0.067947745 -15.846103 -32.160324 -104.47301
78931000 -31.518026 -92.504822 -0.066164844 -16.054426 -0.066753633 -16.045263 -32.060661 -104.38372
79930000 -31.405111 -93.310791 -0.069227934 -16.242163 -0.069267653 -16.242157 -31.959387 -104.64341
80929000 -31.283674 -94.228806 -0.070853695 -16.438841 -0.070680045 -16.437044 -31.85935 -105.10246
81928000 -31.220179 -95.098389 -0.070895799 -16.633108 -0.071404703 -16.630219 -31.734676 -105.20303
82927000 -31.12207 -95.89753 -0.07273829 -16.826429 -0.072769351 -16.826603 -31.632542 -105.59371
83926000 -31.013006 -96.641052 -0.074260823 -17.028112 -0.073409587 -17.026115 -31.514336 -105.84261
84925000 -30.911726 -97.131264 -0.075662993 -17.229271 -0.074435681 -17.222013 -31.428207 -105.97818
85924000 -30.830576 -97.657249 -0.075677745 -17.427574 -0.075017683 -17.422804 -31.334038 -105.97992
86923000 -30.727753 -98.221329 -0.075955644 -17.626402 -0.075650349 -17.620476 -31.240225 -105.9629
87922000 -30.622728 -98.610588 -0.07574939 -17.831141 -0.0751715 -17.820414 -31.144659 -106.02026
88921000 -30.552795 -99.000282 -0.076933861 -18.030092 -0.076419301 -18.025873 -31.050514 -106.09336
89920000 -30.458229 -99.566078 -0.077681176 -18.229702 -0.076360554 -18.219936 -31.001022 -106.29484
90919000 -30.364014 -99.918678 -0.078323707 -18.421143 -0.077473253 -18.418941 -30.91074 -106.46359
91918000 -30.270859 -100.27179 -0.07954026 -18.625072 -0.077559687 -18.616716 -30.846298 -106.5438
92917000 -30.18187 -100.64647 -0.08030621 -18.824768 -0.07950519 -18.817265 -30.776955 -106.68261
93916000 -30.094515 -101.07379 -0.079804175 -19.013941 -0.079506248 -19.012453 -30.68943 -107.32236
94915000 -30.029257 -101.74393 -0.081180699 -19.217241 -0.079987951 -19.208857 -30.633167 -107.18428
95914000 -29.966352 -101.96094 -0.082170643 -19.411156 -0.081503801 -19.407736 -30.549446 -107.52853
96913000 -29.881332 -102.27248 -0.083489075 -19.611498 -0.082468756 -19.6091 -30.479317 -107.90244
97912000 -29.807192 -102.73624 -0.084457107 -19.80864 -0.08259882 -19.809008 -30.399773 -108.16999
98911000 -29.693159 -102.94327 -0.084763028 -20.010605 -0.083805218 -20.005278 -30.352575 -108.37405
99910000 -29.62974 -103.0763 -0.086136371 -20.206627 -0.084132999 -20.205841 -30.2575 -108.64857
100909000 -29.551304 -103.34975 -0.085114375 -20.414694 -0.083422571 -20.406485 -30.159872 -108.90631
101908000 -29.462307 -103.65223 -0.08600039 -20.616026 -0.084730826 -20.610701 -30.043259 -108.6609
102907000 -29.320478 -103.64379 -0.087050326 -20.813324 -0.084224313 -20.814013 -29.966999 -108.63765
103906000 -29.226557 -103.76109 -0.087086774 -21.022028 -0.084696509 -21.015556 -29.811087 -108.5995
104905000 -29.077749 -103.69137 -0.088158108 -21.215649 -0.08518935 -21.219162 -29.67555 -108.28979
105904000 -28.943655 -103.86292 -0.087386012 -21.419168 -0.08551459 -21.415104 -29.562922 -108.14848
106903000 -28.830297 -103.95098 -0.088369973 -21.624775 -0.085595377 -21.618502 -29.424547 -108.09458
107902000 -28.666903 -104.34091 -0.089384548 -21.826971 -0.085807651 -21.817215 -29.29175 -108.12047
108901000 -28.554781 -104.58854 -0.089866027 -22.027416 -0.087539472 -22.018602 -29.158424 -108.05337
109900000 -28.433308 -105.12866 -0.090529665 -22.228235 -0.088821486 -22.216213 -29.001249 -108.19389
110899000 -28.321068 -105.80635 -0.092335291 -22.425175 -0.089736007 -22.415472 -28.877125 -108.53699
111898000 -28.228004 -106.52629 -0.092940331 -22.628387 -0.090697244 -22.616751 -28.759094 -108.67834
112897000 -28.110102 -107.09493 -0.094276585 -22.823982 -0.091941848 -22.811798 -28.618793 -108.88976
113896000 -28.002085 -107.68365 -0.09509965 -23.025419 -0.093362957 -23.01441 -28.509047 -109.05006
114895000 -27.9118 -108.37085 -0.096320376 -23.223846 -0.09439113 -23.209196 -28.401735 -109.19495
115894000 -27.779453 -108.74525 -0.097915277 -23.425234 -0.09622854 -23.41156 -28.331985 -109.40323
116893000 -27.698299 -109.41965 -0.098325409 -23.620611 -0.096685894 -23.60186 -28.196829 -109.59615
117892000 -27.625959 -109.91576 -0.098700099 -23.811558 -0.096376486 -23.806019 -28.129011 -109.86967
118891000 -27.566053 -110.31956 -0.099254116 -24.01524 -0.097330458 -24.002731 -28.03562 -109.96555
119890000 -27.47603 -110.7036 -0.10008237 -24.220306 -0.097845376 -24.202127 -28.016138 -110.12181
120889000 -27.422762 -111.23074 -0.10101781 -24.415798 -0.09769129 -24.402121 -27.943661 -110.10271
121888000 -27.383966 -111.59662 -0.10100377 -24.609791 -0.09880285 -24.600937 -27.885952 -110.46519
122887000 -27.347046 -111.82249 -0.10164128 -24.813028 -0.099684514 -24.805302 -27.838457 -110.45425
123886000 -27.291292 -112.26196 -0.10251053 -25.017179 -0.10026038 -24.995489 -27.829536 -110.65205
124885000 -27.256519 -112.77189 -0.10316815 -25.217136 -0.099702522 -25.205414 -27.794773 -110.7282
125884000 -27.205647 -112.96893 -0.10418832 -25.41374 -0.10042277 -25.400179 -27.767292 -110.93738
126883000 -27.183424 -113.36331 -0.10385583 -25.618666 -0.10148441 -25.601444 -27.72612 -110.95559
127882000 -27.133833 -113.67107 -0.10471784 -25.817284 -0.10163227 -25.799517 -27.685793 -111.10125
128881000 -27.104488 -113.99282 -0.10484327 -26.020084 -0.1019675 -26.000038 -27.642309 -111.24895
129880000 -27.042713 -114.28018 -0.10581926 -26.220045 -0.10190284 -26.20186 -27.596827 -111.21979
130879000 -26.985476 -114.46666 -0.10555509 -26.41877 -0.1033736 -26.40258 -27.52397 -111.3078
131878000 -26.92049 -114.69122 -0.10570149 -26.622286 -0.10302369 -26.603199 -27.45393 -111.18848
132877000 -26.850794 -114.78435 -0.10501114 -26.820984 -0.10289725 -26.802814 -27.365602 -111.20517
133876000 -26.76828 -114.95815 -0.10574022 -27.023176 -0.10342715 -27.004286 -27.273949 -111.10547
134875000 -26.668886 -115.075 -0.1063458 -27.226624 -0.10380308 -27.206709 -27.171804 -111.00015
135874000 -26.583511 -115.08939 -0.10569168 -27.423567 -0.10382057 -27.407892 -27.06658 -110.98881
136873000 -26.469158 -115.04383 -0.10629991 -27.625633 -0.10407855 -27.605171 -26.977545 -110.9855
137872000 -26.392014 -115.19718 -0.10594048 -27.826521 -0.10414086 -27.813637 -26.868723 -110.96253
138871000 -26.318079 -115.38667 -0.10735317 -28.023602 -0.10509414 -28.009592 -26.775129 -111.11526
139870000 -26.22348 -115.6484 -0.10763709 -28.229111 -0.10563147 -28.208836 -26.688482 -111.3288
140869000 -26.131668 -116.12518 -0.10945436 -28.421022 -0.10673657 -28.403797 -26.581207 -111.43961
141868000 -26.040466 -116.6544 -0.10944083 -28.614128 -0.10775385 -28.597303 -26.514767 -111.8247
142867000 -25.960218 -116.92014 -0.10830054 -28.81332 -0.10592191 -28.796186 -26.433386 -112.0649
143866000 -25.892471 -117.45759 -0.10968187 -29.010939 -0.1075559 -28.991161 -26.357401 -112.5266
144865000 -25.841572 -117.95984 -0.11116298 -29.209738 -0.10937924 -29.194012 -26.302202 -112.85593
145864000 -25.782703 -118.30162 -0.11190505 -29.409542 -0.10995374 -29.395201 -26.2684 -113.17194
146863000 -25.733896 -118.68508 -0.11282922 -29.607321 -0.11013374 -29.593269 -26.21875 -113.48737
147862000 -25.690655 -119.06507 -0.11346901 -29.807787 -0.11069666 -29.793255 -26.181276 -113.84824
148861000 -25.664919 -119.60361 -0.11340524 -29.998798 -0.11188459 -29.987492 -26.164751 -114.0908
149860000 -25.655815 -119.79272 -0.11415593 -30.202209 -0.11221477 -30.190037 -26.129038 -114.26845
150859000 -25.637455 -120.1695 -0.1142718 -30.401907 -0.11240948 -30.382898 -26.124374 -114.52398
151858000 -25.61138 -120.50822 -0.1145987 -30.601963 -0.11250618 -30.582964 -26.114388 -114.79195
152857000 -25.596699 -120.82587 -0.11529936 -30.79763 -0.11276573 -30.782734 -26.098682 -114.96569
153856000 -25.586071 -121.05825 -0.11487167 -30.994173 -0.11224797 -30.983313 -26.117439 -115.2399
154855000 -25.578564 -121.22904 -0.11460561 -31.194643 -0.1128805 -31.183027 -26.106281 -115.50955
155854000 -25.593102 -121.47142 -0.11537804 -31.393698 -0.1135644 -31.379608 -26.095314 -115.75893
156853000 -25.581032 -122.18168 -0.11338957 -31.579552 -0.11295622 -31.572758 -26.094791 -116.04079
157852000 -25.589363 -122.39851 -0.11494742 -31.782167 -0.11427393 -31.772436 -26.086464 -116.40176
158851000 -25.575748 -122.6131 -0.11529829 -31.978861 -0.11496869 -31.971382 -26.078665 -116.6934
159850000 -25.56563 -122.75401 -0.11619741 -32.178226 -0.11515183 -32.172398 -26.072613 -116.85421
160849000 -25.54561 -122.86758 -0.11598205 -32.377296 -0.11591478 -32.370178 -26.04303 -117.10174
161848000 -25.520742 -122.98263 -0.11664809 -32.579117 -0.11607856 -32.570934 -25.998352 -117.2236
162847000 -25.479906 -123.17197 -0.11644308 -32.774681 -0.11646861 -32.772053 -25.967379 -117.48625
163846000 -25.437204 -123.39962 -0.11703447 -32.974487 -0.11575394 -32.966129 -25.886879 -117.49825
164845000 -25.37398 -123.39207 -0.11791532 -33.172585 -0.11615168 -33.169228 -25.823479 -117.60508
165844000 -25.31991 -123.49138 -0.11736371 -33.377258 -0.11658348 -33.369011 -25.740295 -117.76447
166843000 -25.255407 -123.59629 -0.11754828 -33.572735 -0.11695842 -33.5709 -25.6668 -117.9423
167842000 -25.196447 -123.7536 -0.11821935 -33.776691 -0.11700629 -33.76368 -25.581842 -117.86695
168841000 -25.117193 -123.94706 -0.11825792 -33.973236 -0.11753498 -33.964458 -25.504417 -117.96506
169840000 -25.05044 -124.19837 -0.11872984 -34.167187 -0.11829995 -34.162922 -25.416538 -118.15388
170839000 -24.994024 -124.47015 -0.11978613 -34.362396 -0.1187631 -34.359734 -25.327536 -118.3476
171838000 -24.929991 -124.89433 -0.11948917 -34.560104 -0.11990215 -34.556602 -25.264715 -118.59517
172837000 -24.866934 -125.29208 -0.12101941 -34.760124 -0.12033193 -34.753025 -25.194771 -118.86834
173836000 -24.799969 -125.71854 -0.12216624 -34.958809 -0.12106252 -34.954254 -25.148863 -119.11585
174835000 -24.745901 -126.14186 -0.12255657 -35.152149 -0.12192822 -35.154514 -25.109278 -119.4518
175834000 -24.698536 -126.57547 -0.12328194 -35.351013 -0.12315811 -35.348885 -25.045973 -119.76414
176833000 -24.641418 -126.95963 -0.12429912 -35.549301 -0.12309553 -35.545078 -24.987789 -119.96706
177832000 -24.604624 -127.44375 -0.12474425 -35.745487 -0.12340605 -35.746735 -24.963978 -120.13596
178831000 -24.562515 -127.81938 -0.12498855 -35.942425 -0.12440433 -35.940166 -24.930086 -120.37382
179830000 -24.527082 -128.26558 -0.12551422 -36.13689 -0.1244973 -36.139313 -24.905434 -120.47958
180829000 -24.486811 -128.48413 -0.12596348 -36.339294 -0.12467765 -36.335556 -24.874622 -120.67108
181828000 -24.463688 -128.8676 -0.12610099 -36.533741 -0.12626301 -36.5308 -24.861286 -120.81195
182827000 -24.434412 -129.19746 -0.12601838 -36.729874 -0.126166 -36.726524 -24.845779 -120.8899
183826000 -24.39682 -129.52348 -0.12728915 -36.927448 -0.12551582 -36.923855 -24.837767 -121.00923
184825000 -24.401125 -129.8484 -0.12607168 -37.122131 -0.12677792 -37.125942 -24.822353 -121.11777
185824000 -24.375891 -130.22861 -0.12604183 -37.317722 -0.12680003 -37.320953 -24.823517 -121.15456
186823000 -24.363289 -130.58524 -0.12700607 -37.516117 -0.12702259 -37.51363 -24.812193 -121.16126
187822000 -24.341145 -130.90614 -0.12747601 -37.715099 -0.12726782 -37.714783 -24.775831 -121.24425
188821000 -24.324533 -131.14668 -0.12812196 -37.909203 -0.12816514 -37.914295 -24.765882 -121.33601
189820000 -24.304138 -131.41316 -0.12790814 -38.10899 -0.1277951 -38.108402 -24.755716 -121.4733
190819000 -24.277073 -131.65808 -0.12887892 -38.310043 -0.12945575 -38.306133 -24.721258 -121.44125
191818000 -24.240223 -131.87053 -0.13082142 -38.50312 -0.13019533 -38.504623 -24.686472 -121.36178
192817000 -24.168022 -132.12093 -0.13109674 -38.68972 -0.13088171 -38.688221 -24.613529 -121.41486
193816000 -24.134167 -132.49385 -0.13019907 -38.880806 -0.12915705 -38.878651 -24.557158 -121.66243
194815000 -24.076124 -132.92418 -0.12978593 -39.074242 -0.12970431 -39.08028 -24.489498 -121.78912
195814000 -24.025217 -133.14581 -0.13065976 -39.277206 -0.13033965 -39.274525 -24.439072 -121.90173
196813000 -23.968975 -133.51497 -0.12955122 -39.466587 -0.12899786 -39.469406 -24.354218 -122.10805
197812000 -23.909592 -133.75072 -0.1305013 -39.66547 -0.1298414 -39.666069 -24.290045 -122.21094
198811000 -23.86236 -133.9388 -0.13002917 -39.866879 -0.12990594 -39.865757 -24.21764 -122.40092
199810000 -23.78833 -134.28755 -0.13103858 -40.058353 -0.12929599 -40.060894 -24.136417 -122.50827
200809000 -23.732065 -134.58617 -0.13170987 -40.255257 -0.12991847 -40.256771 -24.055916 -122.67942
201808000 -23.672356 -134.84305 -0.13183208 -40.45845 -0.13137101 -40.455933 -23.989338 -122.76797
202807000 -23.617249 -135.19263 -0.13318944 -40.657898 -0.13234711 -40.660511 -23.934259 -122.99366
203806000 -23.564833 -135.66019 -0.13431546 -40.859772 -0.13254192 -40.859222 -23.867968 -123.17641
204805000 -23.514696 -135.99921 -0.13536005 -41.057476 -0.1331179 -41.05949 -23.81196 -123.3848
