!Keysight Technologies,E5080B,MY59205177,A.15.75.32
!Date: Friday, February 23, 2024 03:29:57
!Correction: S11(Cdelta 2-Port  ) 
!S21(Cdelta 2-Port  ) 
!S12(Cdelta 2-Port  ) 
!S22(Cdelta 2-Port  ) 
!S2P File: Measurements: S11, S21, S12, S22:
# Hz S  dB   R 50
10000000 -46.036671 -1.898198 -0.016113844 -2.0483162 -0.018074384 -2.1071198 -46.017319 -158.30933
10999000 -45.253605 -3.9167686 -0.017416267 -2.2719123 -0.018442733 -2.3255084 -45.9883 -151.82455
11998000 -44.292606 -7.1630092 -0.017312568 -2.493762 -0.018146388 -2.5369203 -46.130898 -147.82509
12997000 -43.562057 -12.513922 -0.016774103 -2.6709149 -0.018228531 -2.7062328 -45.846436 -142.03806
13996000 -43.256126 -16.212004 -0.015933271 -2.8562591 -0.01792934 -2.8735461 -45.648563 -136.86305
14995000 -42.843781 -20.515274 -0.0187352 -3.0661764 -0.018512404 -3.089921 -45.296776 -132.8029
15994000 -42.664936 -24.942291 -0.020038668 -3.2836733 -0.021001507 -3.3059201 -45.198109 -129.62555
16993000 -42.648586 -29.678713 -0.018236589 -3.4811246 -0.020371294 -3.4909964 -44.391834 -129.36856
17992000 -42.686794 -34.828407 -0.019159766 -3.6835048 -0.020332543 -3.6881247 -43.816734 -129.68495
18991000 -43.012356 -39.96896 -0.020494053 -3.8946645 -0.021173965 -3.8899913 -43.15313 -128.31752
19990000 -42.756161 -45.451221 -0.022642879 -4.1006947 -0.023176348 -4.0983448 -42.479069 -129.00075
20989000 -42.63023 -48.92416 -0.024549356 -4.3095574 -0.025466325 -4.295352 -41.933918 -128.42975
21988000 -42.429302 -54.145782 -0.025362173 -4.5019574 -0.025896497 -4.4937949 -41.673489 -127.86926
22987000 -42.169346 -59.081383 -0.026535325 -4.7034502 -0.027768712 -4.694881 -41.473198 -127.09258
23986000 -42.074245 -63.072918 -0.026192071 -4.8972692 -0.026300408 -4.8970966 -41.300621 -127.05963
24985000 -41.710392 -66.105553 -0.027415982 -5.1072192 -0.027451411 -5.1064539 -41.105465 -124.66781
25984000 -41.366451 -67.990433 -0.027971663 -5.3138351 -0.027069792 -5.3146768 -40.76165 -123.1228
26983000 -41.095551 -70.265144 -0.029404044 -5.5163918 -0.028001102 -5.5316124 -40.662292 -122.31744
27982000 -40.933311 -70.937996 -0.030073103 -5.7117128 -0.030098647 -5.7458196 -40.415226 -120.69567
28981000 -40.82811 -72.638351 -0.02794118 -5.9132586 -0.029695425 -5.9360938 -40.174145 -120.09776
29980000 -40.439671 -74.032669 -0.027620479 -6.1075268 -0.030273294 -6.1146016 -39.900524 -119.16801
30979000 -40.071449 -72.877251 -0.025421539 -6.4647484 -0.024551438 -6.4547219 -39.392078 -119.4675
31978000 -39.846001 -73.779068 -0.024813857 -6.6567597 -0.02503177 -6.6498694 -39.164536 -118.73813
32977000 -39.671627 -75.441574 -0.025527254 -6.8684578 -0.026363954 -6.8626499 -38.908489 -118.92164
33976000 -39.489906 -76.48317 -0.025680885 -7.068295 -0.026367079 -7.0631242 -38.646988 -118.16835
34975000 -39.204975 -77.399872 -0.026310826 -7.2678995 -0.027903404 -7.2695761 -38.403954 -117.85449
35974000 -39.005913 -77.955009 -0.025207773 -7.4658594 -0.027532687 -7.4711318 -38.119614 -116.8829
36973000 -38.78336 -78.626213 -0.025645472 -7.6632972 -0.027987555 -7.6684251 -37.874352 -115.95248
37972000 -38.607868 -78.222412 -0.025336396 -7.8740554 -0.028039662 -7.8838801 -37.642647 -115.21341
38971000 -38.250866 -77.835213 -0.026260301 -8.0758371 -0.027575672 -8.0881672 -37.466629 -113.63403
39970000 -37.928154 -78.074013 -0.025038017 -8.2732687 -0.027074741 -8.2911234 -37.211655 -112.95753
40969000 -37.649982 -77.735275 -0.02457591 -8.4672508 -0.027165389 -8.4876165 -36.964775 -111.54996
41968000 -37.291965 -77.725716 -0.025397323 -8.672678 -0.027144291 -8.6896963 -36.773277 -110.28973
42967000 -37.043934 -77.846214 -0.025265055 -8.8860636 -0.027392277 -8.9051132 -36.593079 -108.31122
43966000 -36.726227 -78.515884 -0.026097797 -9.0846472 -0.028374203 -9.1013355 -36.320381 -107.6556
44965000 -36.505611 -79.318169 -0.02730423 -9.2873564 -0.029045448 -9.3081102 -36.098991 -107.43332
45964000 -36.252548 -80.390938 -0.028058941 -9.4875793 -0.030262085 -9.5064077 -35.871708 -107.02501
46963000 -36.073841 -82.30883 -0.028093854 -9.6868725 -0.03111873 -9.7111063 -35.693012 -107.23179
47962000 -35.906929 -83.819832 -0.029921664 -9.8868675 -0.032227978 -9.9045572 -35.469677 -107.27291
48961000 -35.695034 -85.117538 -0.0315625 -10.084695 -0.033677679 -10.107521 -35.244617 -107.51602
49960000 -35.471069 -86.465019 -0.033342469 -10.283699 -0.034981988 -10.308701 -35.112682 -107.4986
50959000 -35.240665 -87.777893 -0.033629678 -10.497234 -0.035963282 -10.507814 -34.933228 -107.76325
51958000 -35.028645 -88.858459 -0.03565295 -10.698359 -0.037274547 -10.707365 -34.755577 -108.17139
52957000 -34.820625 -89.924171 -0.037269846 -10.89931 -0.038738467 -10.908049 -34.597317 -107.94944
53956000 -34.644073 -90.621132 -0.038516995 -11.102671 -0.039846793 -11.100542 -34.451313 -107.97852
54955000 -34.489208 -91.085724 -0.039383106 -11.304624 -0.040447176 -11.299051 -34.306011 -107.88434
55954000 -34.316982 -92.013718 -0.040342927 -11.502915 -0.041231353 -11.500804 -34.204201 -107.53722
56953000 -34.194019 -91.924713 -0.039847575 -11.699844 -0.039923601 -11.692434 -34.123642 -107.81725
57952000 -34.030045 -92.575691 -0.041080307 -11.897375 -0.040961672 -11.891772 -34.03516 -107.85309
58951000 -33.907299 -92.857307 -0.041576844 -12.107045 -0.041612912 -12.083106 -33.877903 -107.95873
59950000 -33.78944 -93.226639 -0.042422391 -12.301356 -0.042355999 -12.286986 -33.803135 -108.24503
60949000 -33.671116 -93.742546 -0.043165881 -12.504633 -0.043109931 -12.485588 -33.700974 -108.46298
61948000 -33.613373 -94.081589 -0.044151381 -12.70724 -0.043059733 -12.686964 -33.621277 -108.58739
62947000 -33.52317 -94.31443 -0.04336746 -12.92062 -0.043678865 -12.896924 -33.477367 -108.89787
63946000 -33.447693 -95.039963 -0.044696651 -13.118952 -0.044943027 -13.099867 -33.370255 -108.94739
64945000 -33.342693 -95.250656 -0.044587068 -13.316772 -0.045536529 -13.301854 -33.268169 -109.46051
65944000 -33.232895 -95.507851 -0.046224821 -13.519822 -0.045543592 -13.502059 -33.170105 -109.87496
66943000 -33.093922 -95.966385 -0.044073977 -13.722124 -0.044439569 -13.70266 -33.064911 -110.13569
67942000 -33.031956 -95.744591 -0.046271391 -13.918582 -0.045632008 -13.907345 -32.941013 -110.46883
68941000 -32.924549 -96.011955 -0.045647707 -14.113166 -0.045188632 -14.101197 -32.835056 -110.39871
69940000 -32.821404 -95.909492 -0.04662592 -14.313415 -0.045895968 -14.30031 -32.692261 -110.68031
70939000 -32.71711 -95.826286 -0.04604901 -14.508806 -0.046045873 -14.503884 -32.561047 -110.53245
71938000 -32.570602 -95.402184 -0.046549778 -14.702006 -0.046080407 -14.69655 -32.416843 -110.39352
72937000 -32.409683 -95.159607 -0.045525543 -14.904646 -0.046154443 -14.899213 -32.282516 -110.09848
73936000 -32.261868 -94.900146 -0.045049481 -15.102691 -0.045833442 -15.097355 -32.166378 -109.88567
74935000 -32.142071 -95.103279 -0.044717051 -15.299329 -0.044301748 -15.299364 -32.01091 -109.58768
75934000 -32.018127 -95.355064 -0.044849131 -15.508965 -0.043693509 -15.505327 -31.926588 -109.43559
76933000 -31.883066 -95.619492 -0.046049535 -15.704284 -0.04518 -15.694598 -31.748896 -109.80319
77932000 -31.78253 -96.525925 -0.047179613 -15.901054 -0.047037259 -15.89495 -31.645845 -109.74883
78931000 -31.709085 -97.184662 -0.045942273 -16.100994 -0.04605189 -16.094549 -31.552502 -109.60384
79930000 -31.595905 -98.047333 -0.04813854 -16.294912 -0.049058411 -16.29501 -31.450129 -109.91068
80929000 -31.474018 -98.881485 -0.050244004 -16.491451 -0.050909996 -16.486153 -31.350143 -110.14339
81928000 -31.372988 -99.59108 -0.050172515 -16.681482 -0.050915234 -16.681242 -31.221947 -110.14805
82927000 -31.283854 -100.30268 -0.051839884 -16.882002 -0.052498519 -16.880499 -31.11281 -110.491
83926000 -31.165171 -101.02177 -0.052929543 -17.079159 -0.0529547 -17.082153 -30.998585 -110.59345
84925000 -31.059586 -101.47095 -0.054362059 -17.279562 -0.053120047 -17.277 -30.889978 -110.63054
85924000 -30.962074 -101.83667 -0.054922245 -17.481731 -0.055344071 -17.480894 -30.804195 -110.64169
86923000 -30.851099 -102.2996 -0.055544905 -17.679424 -0.054675564 -17.675152 -30.701933 -110.4474
87922000 -30.747591 -102.69299 -0.055359803 -17.884523 -0.055239726 -17.874998 -30.619957 -110.52384
88921000 -30.672302 -102.9489 -0.056406289 -18.083292 -0.055517115 -18.079094 -30.524708 -110.45849
89920000 -30.568802 -103.50847 -0.057119388 -18.288097 -0.056273598 -18.27809 -30.471224 -110.63174
90919000 -30.462133 -103.76028 -0.057897665 -18.479408 -0.056588817 -18.47477 -30.387331 -110.80463
91918000 -30.366646 -104.15302 -0.058720946 -18.681612 -0.057084505 -18.678505 -30.310246 -110.8124
92917000 -30.279369 -104.43277 -0.0603811 -18.881498 -0.058669783 -18.873848 -30.245424 -110.95726
93916000 -30.187008 -104.78628 -0.059247583 -19.073021 -0.058585558 -19.068666 -30.160088 -111.53999
94915000 -30.101387 -105.4371 -0.061170198 -19.278053 -0.059269886 -19.267927 -30.093376 -111.42722
95914000 -30.038498 -105.60837 -0.061813187 -19.474022 -0.060027286 -19.469067 -30.001413 -111.67471
96913000 -29.954468 -105.83612 -0.063300379 -19.670347 -0.061483935 -19.671453 -29.932955 -112.00227
97912000 -29.869429 -106.27707 -0.064189836 -19.865263 -0.061309867 -19.87063 -29.856956 -112.24964
98911000 -29.772842 -106.46984 -0.064681143 -20.067751 -0.062483579 -20.068354 -29.818899 -112.50678
99910000 -29.695965 -106.63207 -0.065549329 -20.268074 -0.062909558 -20.268309 -29.704578 -112.73772
100909000 -29.60767 -106.86598 -0.064822234 -20.475365 -0.062065523 -20.471905 -29.612303 -112.97261
101908000 -29.510525 -107.0922 -0.066435046 -20.676285 -0.063773453 -20.674444 -29.504589 -112.74702
102907000 -29.374775 -107.08549 -0.066698432 -20.87569 -0.063961282 -20.882584 -29.42947 -112.73833
103906000 -29.288368 -107.07489 -0.067606986 -21.088333 -0.0638851 -21.081242 -29.288956 -112.6976
104905000 -29.137344 -106.97869 -0.067797877 -21.283861 -0.064492494 -21.279995 -29.167498 -112.36701
105904000 -28.999695 -107.09775 -0.068166524 -21.488432 -0.064587601 -21.482237 -29.051264 -112.23727
106903000 -28.88312 -107.17226 -0.067794979 -21.692202 -0.065034278 -21.684298 -28.920391 -112.09264
107902000 -28.719646 -107.52654 -0.069212154 -21.890678 -0.065755896 -21.88625 -28.780769 -112.057
108901000 -28.611309 -107.72896 -0.069721915 -22.093414 -0.066936068 -22.084412 -28.652557 -111.96633
109900000 -28.476654 -108.19228 -0.070410892 -22.293335 -0.068018742 -22.286118 -28.5012 -112.1029
110899000 -28.361946 -108.80976 -0.072086312 -22.49015 -0.068783984 -22.482244 -28.378061 -112.3893
111898000 -28.270653 -109.46924 -0.073835313 -22.69253 -0.070083357 -22.686516 -28.253429 -112.47368
112897000 -28.140169 -110.0197 -0.075054824 -22.892099 -0.070900008 -22.882261 -28.124348 -112.64434
113896000 -28.040661 -110.60184 -0.076131888 -23.093994 -0.072087631 -23.080711 -28.011072 -112.77969
114895000 -27.942045 -111.24294 -0.077087216 -23.290695 -0.073627315 -23.279308 -27.899372 -112.90249
115894000 -27.822632 -111.62405 -0.077613972 -23.492821 -0.074758008 -23.47938 -27.830444 -113.04269
116893000 -27.742998 -112.05256 -0.078487128 -23.691412 -0.075824462 -23.676489 -27.710306 -113.11726
117892000 -27.655228 -112.5694 -0.078566991 -23.886435 -0.076042846 -23.878639 -27.631424 -113.28192
118891000 -27.603287 -112.98163 -0.079286642 -24.088125 -0.075871617 -24.07815 -27.537912 -113.42755
119890000 -27.507542 -113.37971 -0.079519957 -24.291557 -0.07693439 -24.275867 -27.525272 -113.58141
120889000 -27.45949 -113.85663 -0.081174366 -24.491676 -0.077295117 -24.477882 -27.448002 -113.51959
121888000 -27.430965 -114.20028 -0.082122631 -24.69013 -0.077756017 -24.672142 -27.395288 -113.7728
122887000 -27.383234 -114.41138 -0.082330778 -24.888823 -0.079134002 -24.879368 -27.350887 -113.81227
123886000 -27.324389 -114.84067 -0.082571909 -25.094511 -0.079706885 -25.074474 -27.335403 -113.94696
124885000 -27.295042 -115.33747 -0.083421521 -25.291609 -0.079632796 -25.277771 -27.308542 -113.97227
125884000 -27.245808 -115.52715 -0.08419238 -25.490801 -0.080278791 -25.477976 -27.274128 -114.13515
126883000 -27.225409 -115.92922 -0.084438629 -25.69425 -0.0805889 -25.681273 -27.237423 -114.16732
127882000 -27.172304 -116.20576 -0.084415406 -25.894949 -0.081467137 -25.879282 -27.199123 -114.28913
128881000 -27.145336 -116.53277 -0.084541045 -26.09857 -0.081473202 -26.081102 -27.156219 -114.37726
129880000 -27.083443 -116.87028 -0.086054519 -26.300495 -0.081456587 -26.281622 -27.117289 -114.28902
130879000 -27.030104 -116.99047 -0.085754842 -26.497509 -0.081704266 -26.484138 -27.050097 -114.31651
131878000 -26.9636 -117.20039 -0.085993789 -26.702662 -0.08267507 -26.684746 -26.98909 -114.26049
132877000 -26.890491 -117.29513 -0.085429579 -26.905121 -0.083103821 -26.885557 -26.901447 -114.18928
133876000 -26.813541 -117.43811 -0.085905604 -27.102556 -0.08306846 -27.088682 -26.81616 -114.07195
134875000 -26.714243 -117.59084 -0.085974514 -27.306007 -0.083119385 -27.284876 -26.716347 -113.89502
135874000 -26.63143 -117.5872 -0.086488359 -27.504505 -0.083395131 -27.48671 -26.620378 -113.86166
136873000 -26.51981 -117.54696 -0.086981662 -27.70763 -0.083144456 -27.68984 -26.542408 -113.81991
137872000 -26.437078 -117.64868 -0.086261004 -27.90724 -0.08352074 -27.895487 -26.43816 -113.75935
138871000 -26.373882 -117.88655 -0.086693808 -28.112194 -0.084126137 -28.094126 -26.335569 -113.88002
139870000 -26.270061 -118.16875 -0.087369375 -28.310154 -0.084335171 -28.292904 -26.25839 -114.07341
140869000 -26.191555 -118.71657 -0.088308424 -28.508015 -0.085354872 -28.485714 -26.152321 -114.28175
141868000 -26.107454 -119.10217 -0.089543894 -28.706545 -0.086609304 -28.693205 -26.10655 -114.5689
142867000 -26.02548 -119.30055 -0.088308156 -28.903326 -0.086097561 -28.888824 -26.023615 -114.69363
143866000 -25.95723 -119.79966 -0.090144843 -29.099636 -0.087483473 -29.085907 -25.951376 -115.13034
144865000 -25.898012 -120.329 -0.091303378 -29.299026 -0.08896865 -29.287565 -25.893909 -115.46581
145864000 -25.840914 -120.58706 -0.091954544 -29.5012 -0.09056323 -29.49066 -25.860516 -115.67262
146863000 -25.798208 -121.01527 -0.09249527 -29.702724 -0.090326674 -29.690287 -25.808809 -115.9663
147862000 -25.75725 -121.32675 -0.094418116 -29.900038 -0.091114625 -29.887945 -25.776316 -116.30929
148861000 -25.729856 -121.77752 -0.094932698 -30.097191 -0.09242361 -30.084558 -25.75156 -116.45763
149860000 -25.692051 -121.96441 -0.096520998 -30.291422 -0.092835344 -30.280466 -25.702393 -116.54021
150859000 -25.667818 -122.39426 -0.096240185 -30.486864 -0.092654459 -30.473211 -25.684799 -116.90716
151858000 -25.657339 -122.76831 -0.095272958 -30.691919 -0.092974447 -30.670759 -25.670536 -117.25732
152857000 -25.639277 -123.09445 -0.095527776 -30.891771 -0.093560003 -30.873405 -25.658016 -117.42377
153856000 -25.64024 -123.31949 -0.095362663 -31.085295 -0.092900664 -31.0749 -25.671743 -117.76163
154855000 -25.639048 -123.48075 -0.096322231 -31.286051 -0.092733793 -31.273397 -25.664314 -118.00475
155854000 -25.650686 -123.7081 -0.096662603 -31.48777 -0.093044795 -31.475195 -25.651571 -118.26139
156853000 -25.64278 -124.42243 -0.093776107 -31.675056 -0.092745692 -31.669271 -25.64436 -118.54296
157852000 -25.643665 -124.65296 -0.096001469 -31.875158 -0.094100408 -31.867132 -25.640333 -118.91802
158851000 -25.64694 -124.88281 -0.095701367 -32.074398 -0.094427109 -32.068123 -25.624472 -119.18277
159850000 -25.63175 -124.95006 -0.096386805 -32.273865 -0.09425886 -32.26614 -25.629042 -119.33318
160849000 -25.612776 -125.06635 -0.095896669 -32.474537 -0.095300213 -32.469139 -25.591351 -119.66337
161848000 -25.591923 -125.17377 -0.096722953 -32.674549 -0.09502583 -32.672882 -25.55582 -119.74787
162847000 -25.556469 -125.30105 -0.09693259 -32.869995 -0.095095947 -32.868004 -25.526253 -120.01382
163846000 -25.518759 -125.51192 -0.096930474 -33.076492 -0.095254704 -33.068001 -25.452152 -120.0162
164845000 -25.458857 -125.45547 -0.097701356 -33.274212 -0.096209221 -33.265514 -25.3853 -120.13657
165844000 -25.400518 -125.52779 -0.097324364 -33.475895 -0.09621954 -33.468609 -25.313019 -120.25219
166843000 -25.344324 -125.5974 -0.098075196 -33.675201 -0.096490033 -33.667252 -25.241104 -120.413
167842000 -25.282692 -125.65957 -0.098262131 -33.872177 -0.097044826 -33.867264 -25.161652 -120.34698
168841000 -25.206181 -125.84059 -0.098632045 -34.072941 -0.096986592 -34.067238 -25.087 -120.39591
169840000 -25.145714 -126.06468 -0.09877266 -34.267437 -0.097326219 -34.265812 -24.999887 -120.60384
170839000 -25.085165 -126.31796 -0.099683717 -34.466354 -0.098290727 -34.466476 -24.919668 -120.75947
171838000 -25.022722 -126.72419 -0.099593662 -34.666889 -0.09921439 -34.661476 -24.855928 -120.9903
172837000 -24.95442 -127.03798 -0.101101 -34.864143 -0.099466532 -34.860798 -24.789942 -121.21967
173836000 -24.884914 -127.47857 -0.10241141 -35.064903 -0.10130926 -35.062908 -24.751204 -121.41477
174835000 -24.831749 -127.83507 -0.10278248 -35.260651 -0.10145023 -35.261879 -24.708296 -121.75165
175834000 -24.781925 -128.22098 -0.10380811 -35.461254 -0.10234912 -35.457542 -24.642839 -122.02871
176833000 -24.730373 -128.59981 -0.10489843 -35.661358 -0.10375138 -35.659283 -24.59421 -122.13007
177832000 -24.6915 -128.99669 -0.10573279 -35.859802 -0.10431426 -35.861687 -24.57382 -122.24723
178831000 -24.642431 -129.20877 -0.10695041 -36.055584 -0.10588451 -36.057423 -24.534201 -122.35948
179830000 -24.577114 -129.61702 -0.10884782 -36.241943 -0.10696208 -36.247009 -24.472986 -122.39949
180829000 -24.521845 -129.95633 -0.10727517 -36.432629 -0.10625853 -36.432632 -24.429462 -122.68348
181828000 -24.499306 -130.39766 -0.10624924 -36.635899 -0.10573094 -36.629356 -24.416178 -122.94338
182827000 -24.480749 -130.78351 -0.10633678 -36.832428 -0.10576992 -36.83371 -24.400471 -123.03442
183826000 -24.439875 -131.14775 -0.10743065 -37.027386 -0.10600175 -37.026741 -24.392937 -123.2126
184825000 -24.440178 -131.45381 -0.1071701 -37.226082 -0.10648136 -37.229488 -24.372356 -123.32032
185824000 -24.414379 -131.82941 -0.10716107 -37.421288 -0.10680449 -37.426754 -24.367359 -123.39668
186823000 -24.396212 -132.2025 -0.10737865 -37.621616 -0.10623624 -37.623028 -24.359587 -123.3926
187822000 -24.372721 -132.53285 -0.1079566 -37.818016 -0.1069971 -37.819626 -24.319626 -123.44686
188821000 -24.348969 -132.79489 -0.10860549 -38.012897 -0.10775173 -38.019081 -24.304445 -123.611
189820000 -24.330433 -133.06718 -0.10799454 -38.215771 -0.10752751 -38.214191 -24.281435 -123.80904
190819000 -24.294933 -133.37581 -0.10892798 -38.411152 -0.10803302 -38.412182 -24.248537 -123.83528
191818000 -24.265144 -133.66763 -0.1088104 -38.611263 -0.10807496 -38.609592 -24.223085 -123.86421
192817000 -24.217922 -133.94473 -0.10976922 -38.804905 -0.10866945 -38.807182 -24.173328 -123.94334
193816000 -24.186903 -134.20853 -0.10979922 -39.005486 -0.10831486 -38.999672 -24.125469 -124.11172
194815000 -24.123619 -134.60797 -0.11039024 -39.196117 -0.10976259 -39.198891 -24.057463 -124.18687
195814000 -24.072205 -134.81026 -0.11114413 -39.396641 -0.11002675 -39.395432 -24.001211 -124.27083
196813000 -24.015224 -135.1386 -0.11076146 -39.590652 -0.10949419 -39.592869 -23.920551 -124.41919
197812000 -23.954775 -135.36678 -0.11100842 -39.786446 -0.10974028 -39.787231 -23.847975 -124.50785
198811000 -23.901382 -135.50021 -0.11093194 -39.985195 -0.11022508 -39.992088 -23.776043 -124.66687
199810000 -23.831261 -135.87279 -0.11080182 -40.178963 -0.11027022 -40.181049 -23.702433 -124.77256
200809000 -23.771875 -136.12242 -0.11149389 -40.380032 -0.11087803 -40.379768 -23.625248 -124.95512
201808000 -23.713455 -136.32657 -0.11216138 -40.575459 -0.11101002 -40.585316 -23.554445 -125.01234
202807000 -23.658445 -136.64136 -0.11351551 -40.782757 -0.11194223 -40.782146 -23.499603 -125.21419
