!Keysight Technologies,E5080B,MY59205177,A.15.75.32
!Date: Friday, February 23, 2024 02:51:47
!Correction: S11(Cdelta 2-Port  ) 
!S21(Cdelta 2-Port  ) 
!S12(Cdelta 2-Port  ) 
!S22(Cdelta 2-Port  ) 
!S2P File: Measurements: S11, S21, S12, S22:
# Hz S  dB   R 50
10000000 -42.841518 -3.692203 -0.036680084 -2.0469043 -0.040322285 -2.1019311 -50.285225 -141.2916
10999000 -42.258625 -4.9791365 -0.037734091 -2.2609925 -0.040544897 -2.3185818 -49.727036 -131.80614
11998000 -41.552391 -7.2437835 -0.038307283 -2.4892766 -0.039832424 -2.5316622 -49.77039 -125.14944
12997000 -41.013515 -11.521083 -0.037567761 -2.6671295 -0.039768159 -2.7006993 -48.841736 -118.48637
13996000 -40.792824 -14.314515 -0.036707755 -2.8451781 -0.039273657 -2.8684177 -48.060158 -113.39369
14995000 -40.547478 -17.673864 -0.038210656 -3.054621 -0.039097343 -3.0784521 -47.487682 -110.19824
15994000 -40.466068 -21.163548 -0.039561521 -3.2741222 -0.041181963 -3.2953711 -47.176102 -106.30846
16993000 -40.436951 -24.558813 -0.039147492 -3.47047 -0.040251482 -3.4794223 -46.211761 -108.46196
17992000 -40.569511 -28.841686 -0.039718263 -3.6676741 -0.041332226 -3.670115 -45.513687 -110.26352
18991000 -40.849937 -32.52985 -0.040506225 -3.8797903 -0.042198118 -3.8777769 -44.843922 -110.59135
19990000 -40.776596 -36.898964 -0.042479642 -4.086854 -0.044254415 -4.0815978 -44.154491 -113.17841
20989000 -40.695152 -39.814766 -0.044624206 -4.2915945 -0.046253603 -4.2842083 -43.507683 -113.45086
21988000 -40.70216 -44.064846 -0.045650583 -4.4900422 -0.046853565 -4.4760385 -43.199989 -112.77133
22987000 -40.544262 -48.217342 -0.046416339 -4.6837573 -0.047048248 -4.6801543 -42.923988 -112.85636
23986000 -40.610958 -51.564236 -0.045760717 -4.8817153 -0.046861939 -4.8823857 -42.781494 -112.89689
24985000 -40.343975 -54.394547 -0.047254719 -5.0904698 -0.047473758 -5.0863566 -42.467152 -110.45014
25984000 -40.177383 -56.776608 -0.048403699 -5.3015895 -0.047659837 -5.3015943 -42.059139 -109.61483
26983000 -39.939884 -58.572956 -0.048579343 -5.4956326 -0.048775677 -5.5133448 -41.932724 -108.72746
27982000 -39.78273 -59.601326 -0.049772661 -5.6965647 -0.050302666 -5.729054 -41.573971 -107.349
28981000 -39.80854 -60.841488 -0.04814142 -5.8919349 -0.050153922 -5.9159517 -41.347538 -107.06473
29980000 -39.441074 -62.984432 -0.048278838 -6.0847592 -0.051231112 -6.0948162 -40.895432 -106.55401
30979000 -39.11132 -62.19112 -0.045982298 -6.4407449 -0.046144504 -6.4304223 -40.445766 -107.62998
31978000 -38.942184 -63.282722 -0.045255855 -6.6361189 -0.046775326 -6.6265016 -40.147858 -107.08591
32977000 -38.795261 -64.984192 -0.045041632 -6.8473425 -0.047544159 -6.8401937 -39.89035 -107.39674
33976000 -38.664696 -66.16143 -0.045610297 -7.0488849 -0.047692552 -7.0394821 -39.549965 -107.14402
34975000 -38.392445 -67.175209 -0.045775365 -7.2443209 -0.048498195 -7.2468519 -39.319691 -107.13477
35974000 -38.231773 -68.058418 -0.045037448 -7.4418888 -0.048086453 -7.4444838 -38.957176 -106.38943
36973000 -38.028152 -68.917343 -0.045743451 -7.6399012 -0.049690444 -7.6401772 -38.679245 -105.82825
37972000 -37.852791 -68.911743 -0.045257423 -7.8510995 -0.049320742 -7.8614402 -38.419144 -105.23389
38971000 -37.520523 -68.978065 -0.046021279 -8.0507994 -0.049213137 -8.0618248 -38.204746 -103.67686
39970000 -37.204865 -69.515266 -0.044422567 -8.2429991 -0.047270421 -8.2639713 -37.894753 -103.4606
40969000 -36.953304 -69.494591 -0.045317061 -8.4443645 -0.04838014 -8.4628954 -37.620384 -102.03766
41968000 -36.601799 -69.795975 -0.045577075 -8.6495523 -0.048246119 -8.6621504 -37.370728 -101.00586
42967000 -36.346748 -70.179253 -0.045260824 -8.8589783 -0.049052387 -8.873044 -37.120373 -99.271767
43966000 -36.09853 -71.138802 -0.045956399 -9.0574951 -0.049023069 -9.0771179 -36.829323 -98.828842
44965000 -35.889465 -72.120476 -0.046818502 -9.2577486 -0.049672116 -9.2762718 -36.621532 -98.842537
45964000 -35.691181 -73.243736 -0.048095092 -9.4592705 -0.051189989 -9.4797344 -36.362698 -98.699562
46963000 -35.532997 -75.206177 -0.048315223 -9.6500282 -0.051531818 -9.6742601 -36.204811 -99.08699
47962000 -35.413109 -76.754044 -0.049505327 -9.8577948 -0.052625071 -9.8754997 -35.995895 -99.490967
48961000 -35.231789 -78.242027 -0.051735096 -10.053123 -0.053705495 -10.074896 -35.744213 -99.967712
49960000 -35.038651 -79.755035 -0.052857224 -10.25022 -0.055173658 -10.274809 -35.625095 -100.04285
50959000 -34.841248 -81.154167 -0.053829201 -10.469041 -0.056454808 -10.475142 -35.42461 -100.53686
51958000 -34.66201 -82.336647 -0.055518426 -10.665464 -0.058200672 -10.673128 -35.265663 -101.17233
52957000 -34.473766 -83.520157 -0.057373293 -10.866203 -0.059236299 -10.870084 -35.096298 -101.0104
53956000 -34.327156 -84.386566 -0.058253404 -11.069385 -0.060078204 -11.067035 -34.942089 -101.14343
54955000 -34.161999 -84.924896 -0.058842693 -11.265475 -0.060861997 -11.26102 -34.807053 -101.19234
55954000 -34.017002 -85.902069 -0.060769595 -11.466625 -0.060925789 -11.463736 -34.673393 -100.97756
56953000 -33.90181 -86.087318 -0.060380574 -11.663857 -0.060103666 -11.651063 -34.611744 -101.27496
57952000 -33.747536 -86.722862 -0.060738355 -11.863588 -0.061440613 -11.853782 -34.52478 -101.45786
58951000 -33.632645 -87.091537 -0.061472908 -12.070871 -0.062393244 -12.043397 -34.34861 -101.72537
59950000 -33.514286 -87.5466 -0.062855452 -12.270761 -0.063428819 -12.245384 -34.293686 -101.93718
60949000 -33.409977 -88.191559 -0.06360402 -12.468974 -0.063666277 -12.446643 -34.204346 -102.22324
61948000 -33.344139 -88.622704 -0.063932911 -12.670968 -0.064063475 -12.650951 -34.120327 -102.43707
62947000 -33.271255 -88.777695 -0.063952088 -12.877455 -0.064834587 -12.857853 -33.97332 -102.81249
63946000 -33.214771 -89.582664 -0.06440448 -13.07716 -0.065233201 -13.056081 -33.867962 -102.88561
64945000 -33.098465 -89.763069 -0.065570094 -13.279127 -0.066022657 -13.258606 -33.759132 -103.5351
65944000 -32.993889 -90.048325 -0.065800048 -13.47825 -0.066361971 -13.457471 -33.67012 -104.04558
66943000 -32.866405 -90.519974 -0.06445466 -13.679242 -0.06456212 -13.658899 -33.571136 -104.34664
67942000 -32.808346 -90.479218 -0.066546232 -13.872133 -0.066988118 -13.861618 -33.455582 -104.70539
68941000 -32.685081 -90.618843 -0.06610807 -14.067538 -0.065740913 -14.057906 -33.341007 -104.61663
69940000 -32.597973 -90.679939 -0.066778868 -14.265369 -0.06658119 -14.257915 -33.200203 -104.96927
70939000 -32.484566 -90.634865 -0.066123053 -14.464428 -0.066636391 -14.45532 -33.075047 -104.94836
71938000 -32.341789 -90.248566 -0.066164844 -14.658504 -0.06562344 -14.650401 -32.932781 -104.81929
72937000 -32.176941 -90.237663 -0.065275505 -14.863422 -0.065604255 -14.852211 -32.787949 -104.57386
73936000 -32.033363 -89.923851 -0.064943887 -15.055352 -0.065296263 -15.047148 -32.658638 -104.40128
74935000 -31.912004 -90.159988 -0.064970694 -15.252658 -0.064704262 -15.248843 -32.511906 -104.109
75934000 -31.785357 -90.530853 -0.064658806 -15.459205 -0.065033227 -15.451913 -32.418346 -104.0397
76933000 -31.670431 -90.879585 -0.06580478 -15.656889 -0.066156961 -15.64845 -32.251667 -104.54831
77932000 -31.578022 -91.727028 -0.067094058 -15.852398 -0.067285448 -15.842557 -32.146778 -104.55645
78931000 -31.517088 -92.500336 -0.066526257 -16.052132 -0.066950791 -16.047024 -32.056599 -104.44708
79930000 -31.408382 -93.339478 -0.068844207 -16.244005 -0.069750063 -16.240108 -31.944128 -104.77486
80929000 -31.289347 -94.298927 -0.070291981 -16.440596 -0.071195237 -16.433411 -31.853785 -105.15561
81928000 -31.225084 -95.231117 -0.070554808 -16.630272 -0.071295761 -16.627302 -31.73497 -105.33224
82927000 -31.127167 -95.88298 -0.072253183 -16.82976 -0.072907552 -16.82873 -31.625225 -105.62808
83926000 -31.018391 -96.694588 -0.073420376 -17.029642 -0.073861122 -17.02615 -31.504253 -105.97776
84925000 -30.919605 -97.239944 -0.074688487 -17.225986 -0.074063867 -17.222054 -31.419497 -105.98488
85924000 -30.839817 -97.730125 -0.074913919 -17.428629 -0.07509011 -17.420603 -31.335541 -106.10153
86923000 -30.733469 -98.287704 -0.075431727 -17.625566 -0.075452268 -17.618452 -31.231133 -106.00187
87922000 -30.628183 -98.71286 -0.075013734 -17.830231 -0.075080372 -17.821686 -31.133249 -106.13064
88921000 -30.560337 -99.03923 -0.076614529 -18.029911 -0.075980939 -18.025507 -31.03932 -106.15134
89920000 -30.466967 -99.636429 -0.077279568 -18.2265 -0.07703162 -18.218555 -30.986872 -106.38663
90919000 -30.365038 -99.95887 -0.07804855 -18.421335 -0.077538602 -18.419506 -30.909559 -106.54872
91918000 -30.271105 -100.3995 -0.079139538 -18.621899 -0.077837713 -18.618759 -30.840313 -106.58215
92917000 -30.181168 -100.73823 -0.08016514 -18.824949 -0.079220206 -18.814835 -30.774616 -106.8007
93916000 -30.100756 -101.12666 -0.078865647 -19.017117 -0.078927852 -19.009432 -30.692001 -107.45198
94915000 -30.028103 -101.79369 -0.080111876 -19.216812 -0.080306478 -19.210423 -30.626965 -107.30165
95914000 -29.961748 -102.02756 -0.082017109 -19.411427 -0.080818854 -19.406809 -30.535309 -107.59164
96913000 -29.88088 -102.29335 -0.082994051 -19.609888 -0.082167216 -19.605986 -30.466122 -108.00591
97912000 -29.801516 -102.79122 -0.083700448 -19.808025 -0.082877435 -19.805084 -30.401361 -108.18604
98911000 -29.705124 -102.99827 -0.084166251 -20.004286 -0.083949573 -20.003199 -30.35099 -108.46914
99910000 -29.636421 -103.11011 -0.084895007 -20.20437 -0.084302701 -20.207937 -30.237028 -108.77025
100909000 -29.547379 -103.43654 -0.084841423 -20.413658 -0.083516784 -20.406237 -30.151215 -108.98137
101908000 -29.455582 -103.71661 -0.085792072 -20.612986 -0.085056297 -20.613447 -30.032959 -108.81728
102907000 -29.323153 -103.70892 -0.085803427 -20.811655 -0.085184596 -20.812675 -29.966415 -108.68581
103906000 -29.228991 -103.79764 -0.086435549 -21.017971 -0.08429531 -21.015646 -29.804836 -108.69724
104905000 -29.078783 -103.74725 -0.086451128 -21.215014 -0.084557407 -21.216511 -29.671043 -108.43781
105904000 -28.938509 -103.86883 -0.086701199 -21.421534 -0.085725799 -21.412827 -29.557335 -108.25071
106903000 -28.832527 -104.0464 -0.08742246 -21.622683 -0.085479215 -21.620184 -29.425344 -108.17176
107902000 -28.664907 -104.37489 -0.088146485 -21.82341 -0.086003296 -21.817657 -29.28557 -108.18362
108901000 -28.56352 -104.67311 -0.08921174 -22.027773 -0.087522566 -22.016172 -29.146862 -108.11887
109900000 -28.432476 -105.16943 -0.08979626 -22.224377 -0.088140413 -22.21809 -28.99334 -108.28207
110899000 -28.315687 -105.8243 -0.091565892 -22.422359 -0.089139342 -22.41324 -28.869715 -108.5535
111898000 -28.231323 -106.55925 -0.092395313 -22.625988 -0.090266153 -22.615877 -28.751476 -108.716
112897000 -28.109705 -107.12894 -0.094082154 -22.823629 -0.091604225 -22.811882 -28.613483 -108.97929
113896000 -28.010521 -107.73822 -0.095101498 -23.025028 -0.092901722 -23.011116 -28.503866 -109.17565
114895000 -27.907318 -108.46388 -0.095787905 -23.222084 -0.0938171 -23.209042 -28.396824 -109.27417
115894000 -27.782021 -108.79944 -0.09702497 -23.422432 -0.09534467 -23.406805 -28.323351 -109.42122
116893000 -27.704247 -109.44529 -0.097671174 -23.614904 -0.096172698 -23.603916 -28.195673 -109.63157
117892000 -27.629372 -109.92608 -0.097507559 -23.812519 -0.095494173 -23.799561 -28.121353 -109.8252
118891000 -27.56996 -110.33292 -0.098255776 -24.014912 -0.096999824 -24.002487 -28.028111 -110.02734
119890000 -27.479467 -110.75268 -0.099026889 -24.218172 -0.097927988 -24.202532 -28.011709 -110.19557
120889000 -27.426294 -111.32404 -0.10047972 -24.419998 -0.097769924 -24.400883 -27.937611 -110.14587
121888000 -27.388746 -111.62203 -0.10046913 -24.608713 -0.098314293 -24.59988 -27.886438 -110.50096
122887000 -27.348227 -111.86538 -0.10142453 -24.812056 -0.098987959 -24.803534 -27.837749 -110.49822
123886000 -27.291647 -112.26603 -0.10133841 -25.020372 -0.099226043 -24.997959 -27.821409 -110.70687
124885000 -27.259007 -112.81538 -0.1024562 -25.218983 -0.099795491 -25.201944 -27.788933 -110.7429
125884000 -27.205673 -113.0014 -0.10312866 -25.415245 -0.099491954 -25.401361 -27.760939 -110.95589
126883000 -27.187702 -113.41543 -0.1034587 -25.620956 -0.10064265 -25.603228 -27.718697 -111.03124
127882000 -27.136751 -113.69134 -0.10404991 -25.814468 -0.101994 -25.799709 -27.678009 -111.1584
128881000 -27.102392 -114.00624 -0.10394836 -26.022009 -0.10175894 -26.003134 -27.633923 -111.29005
129880000 -27.051319 -114.38874 -0.10422172 -26.223213 -0.10177988 -26.199177 -27.594624 -111.28176
130879000 -26.988281 -114.49216 -0.10462158 -26.419548 -0.10309552 -26.400881 -27.518494 -111.36108
131878000 -26.917883 -114.74386 -0.10557047 -26.622639 -0.10307617 -26.601311 -27.446547 -111.22543
132877000 -26.851229 -114.82582 -0.10479819 -26.822048 -0.10287923 -26.799549 -27.36603 -111.2673
133876000 -26.769888 -114.95767 -0.10546252 -27.026402 -0.10333543 -27.002985 -27.269081 -111.1786
134875000 -26.672291 -115.1273 -0.10482842 -27.223726 -0.10376675 -27.203442 -27.160263 -111.06969
135874000 -26.583794 -115.10202 -0.10524345 -27.421001 -0.10374448 -27.405676 -27.053864 -111.03837
136873000 -26.473137 -115.10869 -0.10592642 -27.624142 -0.10351861 -27.611225 -26.97201 -111.04492
137872000 -26.391315 -115.20717 -0.10548612 -27.828985 -0.10375615 -27.809156 -26.866991 -110.9753
138871000 -26.317532 -115.42051 -0.10674745 -28.029169 -0.10428456 -28.01042 -26.76753 -111.19741
139870000 -26.220341 -115.67391 -0.1078125 -28.226824 -0.10524319 -28.210356 -26.685699 -111.35838
140869000 -26.129089 -116.17699 -0.10869016 -28.420227 -0.10672596 -28.398399 -26.573187 -111.47749
141868000 -26.042053 -116.70582 -0.10921306 -28.613634 -0.10753626 -28.598709 -26.507532 -111.87469
142867000 -25.966949 -116.97333 -0.10773899 -28.810791 -0.1061381 -28.792328 -26.428953 -112.05489
143866000 -25.895229 -117.44165 -0.10932694 -29.009007 -0.10736114 -28.993092 -26.355873 -112.57877
144865000 -25.840717 -117.99507 -0.11124849 -29.206661 -0.1089455 -29.188404 -26.295578 -112.9572
145864000 -25.78739 -118.34791 -0.11158951 -29.407572 -0.110061 -29.395864 -26.266922 -113.19363
146863000 -25.742704 -118.74616 -0.11235689 -29.606514 -0.11062497 -29.593824 -26.214348 -113.52236
147862000 -25.698755 -119.10614 -0.11323493 -29.803364 -0.11048529 -29.786896 -26.183086 -113.89549
148861000 -25.669535 -119.62488 -0.11299926 -30.002188 -0.11162829 -29.9855 -26.159382 -114.16051
149860000 -25.657015 -119.82179 -0.11381977 -30.200289 -0.11134464 -30.18989 -26.123203 -114.31506
150859000 -25.632778 -120.22268 -0.11438023 -30.399696 -0.11179695 -30.384869 -26.121241 -114.56727
151858000 -25.618303 -120.51736 -0.11417347 -30.601027 -0.11260314 -30.585495 -26.110905 -114.90333
152857000 -25.599703 -120.88312 -0.11400871 -30.794554 -0.11268337 -30.785995 -26.092911 -114.96624
153856000 -25.592812 -121.09176 -0.1146104 -30.99645 -0.11194489 -30.981804 -26.111618 -115.33581
154855000 -25.584076 -121.24489 -0.11477119 -31.189365 -0.11202405 -31.181234 -26.098463 -115.54655
155854000 -25.59531 -121.50768 -0.115243 -31.393827 -0.1123011 -31.377377 -26.099827 -115.82489
156853000 -25.579197 -122.23446 -0.1135094 -31.579582 -0.11218555 -31.575336 -26.092165 -116.13095
157852000 -25.581163 -122.43293 -0.11461465 -31.781874 -0.11372012 -31.773006 -26.077499 -116.48058
158851000 -25.583542 -122.68445 -0.11554074 -31.979107 -0.1140305 -31.969172 -26.063152 -116.74664
159850000 -25.558104 -122.82769 -0.11675073 -32.179062 -0.11386308 -32.170135 -26.062128 -116.86964
160849000 -25.542206 -122.90544 -0.11610169 -32.376118 -0.11440521 -32.37392 -26.036613 -117.18803
161848000 -25.523146 -123.03656 -0.11646914 -32.577854 -0.11504471 -32.56963 -25.990721 -117.27759
162847000 -25.479019 -123.24615 -0.11612057 -32.776348 -0.11550564 -32.768864 -25.96685 -117.53492
163846000 -25.437395 -123.45538 -0.11652764 -32.973919 -0.11532062 -32.965023 -25.881153 -117.54954
164845000 -25.374908 -123.46764 -0.11689407 -33.174347 -0.11600173 -33.167259 -25.816832 -117.66558
165844000 -25.323116 -123.52399 -0.11657896 -33.373669 -0.11627451 -33.368286 -25.731394 -117.79015
166843000 -25.254251 -123.60442 -0.11704458 -33.572315 -0.11644947 -33.564644 -25.662367 -117.98088
167842000 -25.198444 -123.77895 -0.11716399 -33.772259 -0.11677068 -33.762245 -25.580164 -117.91293
168841000 -25.116812 -123.98051 -0.11761131 -33.969841 -0.11710043 -33.96373 -25.499737 -118.01047
169840000 -25.051025 -124.26323 -0.1181345 -34.161781 -0.11769775 -34.160324 -25.411299 -118.18758
170839000 -24.99424 -124.52705 -0.11871388 -34.360802 -0.11807971 -34.358059 -25.326405 -118.4351
171838000 -24.933266 -124.96413 -0.11853138 -34.560654 -0.11869925 -34.554543 -25.266327 -118.65221
172837000 -24.870798 -125.31617 -0.12037691 -34.759315 -0.1199559 -34.750053 -25.189074 -118.87842
173836000 -24.802174 -125.7409 -0.12112348 -34.958206 -0.12099412 -34.953457 -25.151731 -119.12089
174835000 -24.748089 -126.18995 -0.12158373 -35.151226 -0.12102073 -35.149734 -25.099705 -119.48354
175834000 -24.704309 -126.60062 -0.12285347 -35.351265 -0.12204935 -35.347641 -25.045101 -119.80279
176833000 -24.650362 -126.98543 -0.12375441 -35.550331 -0.12283216 -35.545242 -24.986654 -119.95151
177832000 -24.604448 -127.47388 -0.12402689 -35.744682 -0.1232878 -35.747185 -24.965359 -120.14677
178831000 -24.566662 -127.85856 -0.12426209 -35.942471 -0.12358502 -35.935265 -24.926151 -120.36685
179830000 -24.529057 -128.30962 -0.12448265 -36.134663 -0.12429672 -36.137913 -24.904806 -120.53791
180829000 -24.493492 -128.55606 -0.12580839 -36.333443 -0.12503837 -36.333347 -24.869705 -120.72936
181828000 -24.465948 -128.88121 -0.12565064 -36.531399 -0.12516305 -36.52879 -24.853128 -120.85091
182827000 -24.444069 -129.21629 -0.12549877 -36.726151 -0.12495578 -36.730099 -24.842093 -120.92812
183826000 -24.404409 -129.55727 -0.12675552 -36.924675 -0.12549025 -36.920155 -24.836412 -121.05084
184825000 -24.403143 -129.89769 -0.12572898 -37.121513 -0.12539646 -37.124023 -24.817211 -121.1553
185824000 -24.377447 -130.25986 -0.12597707 -37.315586 -0.12600611 -37.318466 -24.815651 -121.22406
186823000 -24.363636 -130.63312 -0.1266665 -37.521347 -0.12633097 -37.516685 -24.809351 -121.1889
187822000 -24.344769 -130.95195 -0.12731473 -37.712376 -0.12711854 -37.709797 -24.775259 -121.257
188821000 -24.324846 -131.19327 -0.12692878 -37.907597 -0.12721558 -37.909046 -24.760439 -121.36936
189820000 -24.308746 -131.45042 -0.12737711 -38.11068 -0.12734112 -38.109749 -24.746933 -121.52086
190819000 -24.280859 -131.71565 -0.1292616 -38.305794 -0.12834032 -38.305046 -24.715717 -121.49349
191818000 -24.23978 -131.90022 -0.13003717 -38.502312 -0.12953629 -38.504108 -24.685446 -121.35127
192817000 -24.174465 -132.14943 -0.13046876 -38.687809 -0.13018493 -38.687744 -24.606775 -121.4496
193816000 -24.133791 -132.50372 -0.13052104 -38.880711 -0.1293032 -38.878967 -24.548594 -121.72315
194815000 -24.072229 -132.96294 -0.12923172 -39.078194 -0.12972751 -39.078808 -24.486341 -121.83443
195814000 -24.019506 -133.1718 -0.13011159 -39.274078 -0.12987873 -39.275055 -24.433819 -121.95847
196813000 -23.96876 -133.52457 -0.12902053 -39.468758 -0.12886345 -39.469616 -24.355333 -122.14888
197812000 -23.915848 -133.75 -0.1301588 -39.66888 -0.13011052 -39.667374 -24.285124 -122.21932
198811000 -23.861217 -133.94888 -0.13024949 -39.867531 -0.12961736 -39.865505 -24.213587 -122.42681
199810000 -23.792858 -134.31984 -0.13070457 -40.062962 -0.12914826 -40.056973 -24.133089 -122.53194
200809000 -23.733408 -134.62569 -0.1312072 -40.259075 -0.12935174 -40.252842 -24.052744 -122.73819
201808000 -23.677317 -134.85439 -0.13183369 -40.4562 -0.13109674 -40.458038 -23.982889 -122.81404
202807000 -23.617023 -135.22664 -0.13227506 -40.657097 -0.13169894 -40.660088 -23.930016 -123.02521
203806000 -23.566189 -135.68272 -0.13365389 -40.85725 -0.13194096 -40.861076 -23.865261 -123.21157
