!Keysight Technologies,E5080B,MY59205177,A.15.75.32
!Date: Friday, February 23, 2024 03:30:03
!Correction: S11(Cdelta 2-Port  ) 
!S21(Cdelta 2-Port  ) 
!S12(Cdelta 2-Port  ) 
!S22(Cdelta 2-Port  ) 
!S2P File: Measurements: S11, S21, S12, S22:
# Hz S  dB   R 50
10000000 -46.054218 -1.9963553 -0.015751408 -2.0525665 -0.018774977 -2.1048582 -46.051334 -158.27478
10999000 -45.288383 -3.5726261 -0.016393682 -2.273684 -0.018587274 -2.3231666 -45.915428 -151.98274
11998000 -44.321602 -6.8118091 -0.016687309 -2.4954236 -0.018082961 -2.5389469 -46.211689 -147.39754
12997000 -43.511353 -12.710047 -0.016242458 -2.676363 -0.01809076 -2.7088845 -45.773891 -141.84286
13996000 -43.292004 -16.189291 -0.015528506 -2.8557985 -0.018140409 -2.878999 -45.605549 -136.61946
14995000 -42.859539 -20.620569 -0.017647065 -3.0661089 -0.018320033 -3.0909081 -45.287388 -133.3326
15994000 -42.729336 -25.12274 -0.018969188 -3.2873273 -0.020653486 -3.308881 -45.25087 -129.84047
16993000 -42.687336 -29.52268 -0.018570635 -3.4817078 -0.019393776 -3.4913366 -44.346336 -129.57851
17992000 -42.761246 -34.855465 -0.018270383 -3.6811109 -0.019993939 -3.686605 -43.83276 -129.50276
18991000 -43.00111 -40.039284 -0.020080278 -3.8962474 -0.021015553 -3.8915827 -43.208946 -128.35933
19990000 -42.782169 -45.905235 -0.021436179 -4.1020603 -0.023151884 -4.0991521 -42.50285 -129.29233
20989000 -42.644424 -48.890591 -0.024348129 -4.3059697 -0.02498829 -4.2953005 -41.938709 -128.45386
21988000 -42.478607 -54.253185 -0.02501771 -4.5045719 -0.026493654 -4.4929757 -41.706001 -127.89232
22987000 -42.145412 -59.638714 -0.026251968 -4.7036896 -0.027438385 -4.6948757 -41.438396 -127.14629
23986000 -42.12561 -63.20673 -0.025908997 -4.8997068 -0.02600665 -4.8998218 -41.34124 -127.22394
24985000 -41.693394 -65.989281 -0.02721983 -5.1080737 -0.026407707 -5.1052084 -41.121067 -124.70522
25984000 -41.369339 -68.09874 -0.027520705 -5.31248 -0.027122671 -5.3165483 -40.7915 -123.07785
26983000 -41.035938 -70.018097 -0.028556596 -5.5159583 -0.027573587 -5.5300364 -40.680115 -122.27654
27982000 -40.900936 -71.144791 -0.029658675 -5.7122192 -0.029338369 -5.7438636 -40.41563 -120.86141
28981000 -40.81855 -72.456718 -0.027643925 -5.9146342 -0.029023036 -5.9374657 -40.152653 -119.8378
29980000 -40.453156 -73.831177 -0.02808734 -6.1033111 -0.029351922 -6.111908 -39.906727 -119.35184
30979000 -40.088844 -72.872314 -0.025787648 -6.4635019 -0.024117494 -6.453033 -39.393955 -119.4534
31978000 -39.88953 -73.859253 -0.024494948 -6.6582155 -0.025779836 -6.6472688 -39.170815 -118.8982
32977000 -39.669147 -75.347229 -0.02489222 -6.868844 -0.026927574 -6.8651323 -38.924374 -118.82524
33976000 -39.509388 -76.409782 -0.025643649 -7.0666952 -0.026801769 -7.0630832 -38.630531 -118.22439
34975000 -39.200081 -77.360558 -0.02625926 -7.2697034 -0.028285615 -7.2705555 -38.38298 -117.92861
35974000 -38.999023 -77.972633 -0.024601681 -7.4641938 -0.027429529 -7.4692049 -38.129787 -117.08553
36973000 -38.783684 -78.608566 -0.025039319 -7.6665263 -0.028060766 -7.6716294 -37.85564 -115.96914
37972000 -38.621742 -78.405083 -0.025171321 -7.8750572 -0.02825018 -7.8834448 -37.640629 -115.2642
38971000 -38.269386 -77.894157 -0.025900403 -8.0762892 -0.027968535 -8.0879316 -37.466373 -113.64697
39970000 -37.938591 -78.211571 -0.024881026 -8.270443 -0.02732507 -8.2880154 -37.20575 -112.849
40969000 -37.638313 -77.744125 -0.025093995 -8.4694014 -0.026758794 -8.4847212 -36.968113 -111.50347
41968000 -37.308949 -77.741798 -0.024884149 -8.6745729 -0.027868493 -8.6882448 -36.778725 -110.22035
42967000 -37.035179 -77.81604 -0.025354883 -8.8860407 -0.028522201 -8.9022703 -36.575588 -108.36295
43966000 -36.73946 -78.616722 -0.025363214 -9.0853596 -0.028734047 -9.1093702 -36.304546 -107.51012
44965000 -36.498138 -79.365074 -0.027834103 -9.2902842 -0.029485879 -9.308733 -36.084049 -107.28356
45964000 -36.254223 -80.345261 -0.027613444 -9.4960117 -0.030666141 -9.5079479 -35.862999 -107.0611
46963000 -36.067471 -82.334488 -0.027706709 -9.6852093 -0.030871835 -9.7080355 -35.681423 -107.2463
47962000 -35.895973 -83.751411 -0.029389972 -9.886837 -0.032358114 -9.9058619 -35.481171 -107.24265
48961000 -35.694256 -85.146339 -0.031277511 -10.08434 -0.033954736 -10.1042 -35.259537 -107.4137
49960000 -35.444664 -86.548828 -0.032575622 -10.283181 -0.035390139 -10.307677 -35.117386 -107.48256
50959000 -35.238071 -87.729362 -0.033514377 -10.499421 -0.035992518 -10.509866 -34.937668 -107.80748
51958000 -35.014172 -88.847008 -0.035331421 -10.694635 -0.037533555 -10.708194 -34.751125 -108.27255
52957000 -34.819717 -89.90107 -0.037077948 -10.899229 -0.038978238 -10.904004 -34.586517 -107.96447
53956000 -34.656296 -90.610718 -0.037443995 -11.101865 -0.039484981 -11.098748 -34.452961 -107.96085
54955000 -34.478809 -91.128479 -0.038871411 -11.301923 -0.040335611 -11.297835 -34.298275 -107.93788
55954000 -34.305744 -91.867462 -0.039674636 -11.500394 -0.041402787 -11.498912 -34.196423 -107.64562
56953000 -34.198723 -92.008469 -0.039935879 -11.697636 -0.040597416 -11.68996 -34.127033 -107.81523
57952000 -34.02887 -92.491577 -0.040887196 -11.89925 -0.040480882 -11.889928 -34.027058 -107.82124
58951000 -33.898067 -92.901405 -0.04184578 -12.101831 -0.042210404 -12.085692 -33.869797 -107.96526
59950000 -33.77758 -93.23613 -0.041646365 -12.305852 -0.042926401 -12.281512 -33.799755 -108.18648
60949000 -33.657623 -93.800125 -0.042527739 -12.508748 -0.043021042 -12.487395 -33.701519 -108.47221
61948000 -33.600613 -94.149841 -0.043361444 -12.706119 -0.042972155 -12.691792 -33.618587 -108.60181
62947000 -33.516167 -94.285522 -0.043309677 -12.919703 -0.043859549 -12.899241 -33.474369 -108.84113
63946000 -33.438499 -95.09993 -0.04467259 -13.117785 -0.044440877 -13.097972 -33.373459 -108.98065
64945000 -33.331429 -95.313019 -0.045293 -13.318092 -0.045255594 -13.301485 -33.269577 -109.43594
65944000 -33.241463 -95.500656 -0.045798127 -13.517631 -0.045742664 -13.504371 -33.16053 -109.86712
66943000 -33.075661 -95.891411 -0.043831833 -13.719438 -0.043842293 -13.70424 -33.056061 -110.12159
67942000 -33.034016 -95.853432 -0.046544544 -13.913671 -0.045873731 -13.904145 -32.935627 -110.43884
68941000 -32.912704 -95.987732 -0.046308022 -14.109575 -0.044546269 -14.103182 -32.83411 -110.3798
69940000 -32.83004 -95.946609 -0.04639253 -14.30857 -0.045845475 -14.30109 -32.684994 -110.64774
70939000 -32.707951 -95.855103 -0.046209648 -14.506738 -0.045455698 -14.498294 -32.541698 -110.55362
71938000 -32.564548 -95.4375 -0.046443813 -14.704689 -0.045570798 -14.699002 -32.422928 -110.41287
72937000 -32.409389 -95.320824 -0.045276258 -14.902809 -0.045225512 -14.896496 -32.283978 -110.12527
73936000 -32.258163 -94.832687 -0.045469303 -15.103918 -0.044428322 -15.095452 -32.161411 -109.88032
74935000 -32.142536 -95.100739 -0.04503588 -15.300585 -0.043823987 -15.296733 -32.015118 -109.53638
75934000 -32.020615 -95.355995 -0.045434773 -15.5069 -0.044512011 -15.50552 -31.918356 -109.43871
76933000 -31.870737 -95.722992 -0.045517433 -15.70051 -0.045557193 -15.696177 -31.746172 -109.75742
77932000 -31.77795 -96.434929 -0.047326423 -15.897916 -0.04781713 -15.892608 -31.652332 -109.67339
78931000 -31.70895 -97.18663 -0.046176422 -16.099775 -0.046693426 -16.096134 -31.542801 -109.58138
79930000 -31.587708 -98.024376 -0.048546098 -16.292492 -0.049130931 -16.295912 -31.456087 -109.93548
80929000 -31.469519 -98.856705 -0.050526835 -16.492153 -0.050879613 -16.486523 -31.348354 -110.14306
81928000 -31.378271 -99.642517 -0.049908821 -16.681374 -0.051072907 -16.681314 -31.208447 -110.16936
82927000 -31.276789 -100.35725 -0.052060466 -16.879925 -0.052260622 -16.880344 -31.09548 -110.45035
83926000 -31.153845 -101.01809 -0.053651508 -17.079315 -0.053542484 -17.082767 -30.982716 -110.62234
84925000 -31.057673 -101.49801 -0.054274771 -17.281481 -0.053823695 -17.27356 -30.888554 -110.67007
85924000 -30.965696 -101.84464 -0.055323359 -17.478109 -0.05485094 -17.475727 -30.806292 -110.62558
86923000 -30.855742 -102.36381 -0.054928012 -17.677588 -0.054627068 -17.672535 -30.698626 -110.51406
87922000 -30.743036 -102.73232 -0.055589218 -17.883236 -0.054873746 -17.879305 -30.614302 -110.59591
88921000 -30.662701 -102.95206 -0.056694768 -18.085773 -0.055755451 -18.077896 -30.51203 -110.50869
89920000 -30.559139 -103.5226 -0.056867864 -18.282225 -0.055727132 -18.272379 -30.460318 -110.65055
90919000 -30.458248 -103.79221 -0.057536446 -18.480822 -0.056380328 -18.473894 -30.380238 -110.82082
91918000 -30.361135 -104.12607 -0.058463294 -18.683418 -0.057432309 -18.675472 -30.301922 -110.81258
92917000 -30.27297 -104.45618 -0.059545957 -18.879622 -0.058228217 -18.873644 -30.2388 -110.94503
93916000 -30.182144 -104.81056 -0.058988586 -19.072451 -0.05797689 -19.069637 -30.153765 -111.55612
94915000 -30.102472 -105.4361 -0.061094854 -19.273872 -0.059580863 -19.272467 -30.085533 -111.4062
95914000 -30.031385 -105.63662 -0.061746232 -19.470028 -0.060379788 -19.465897 -30.001539 -111.70631
96913000 -29.944242 -105.85277 -0.063146986 -19.671751 -0.06146083 -19.668928 -29.931238 -112.0459
97912000 -29.870621 -106.32111 -0.063783437 -19.866247 -0.061685581 -19.869402 -29.848217 -112.21789
98911000 -29.759449 -106.45569 -0.064499848 -20.068043 -0.06307476 -20.065094 -29.810652 -112.47264
99910000 -29.693457 -106.63421 -0.065101549 -20.270002 -0.063291974 -20.266685 -29.692568 -112.75686
100909000 -29.604717 -106.91093 -0.064191416 -20.477421 -0.063117832 -20.470343 -29.610703 -112.97578
101908000 -29.514198 -107.12945 -0.065867327 -20.678307 -0.063781336 -20.675081 -29.502436 -112.78266
102907000 -29.380024 -107.09563 -0.065598212 -20.877628 -0.064757332 -20.873091 -29.428394 -112.77003
103906000 -29.275723 -107.14822 -0.06673155 -21.083984 -0.063851736 -21.078449 -29.285027 -112.68121
104905000 -29.132519 -107.03045 -0.067308322 -21.280434 -0.064800955 -21.279598 -29.151268 -112.38069
105904000 -28.988983 -107.08698 -0.06723576 -21.482662 -0.06475471 -21.473354 -29.043921 -112.19389
106903000 -28.881311 -107.16973 -0.067202374 -21.690626 -0.065485999 -21.686634 -28.916405 -112.13594
107902000 -28.714043 -107.49751 -0.068170205 -21.889587 -0.066228189 -21.882353 -28.778782 -112.04941
108901000 -28.602558 -107.759 -0.068777144 -22.091293 -0.066824347 -22.082878 -28.649439 -111.98323
109900000 -28.473957 -108.22663 -0.069959976 -22.293692 -0.068006121 -22.28455 -28.497261 -112.13249
110899000 -28.354839 -108.80723 -0.071417861 -22.491585 -0.069126673 -22.484095 -28.376381 -112.32455
111898000 -28.268589 -109.53514 -0.072441638 -22.696947 -0.070299871 -22.68865 -28.252981 -112.4881
112897000 -28.1488 -110.06823 -0.074383803 -22.892912 -0.070979729 -22.882589 -28.115656 -112.64426
113896000 -28.037159 -110.6176 -0.074904963 -23.092236 -0.072227389 -23.082735 -28.014174 -112.78463
114895000 -27.936525 -111.28375 -0.075795487 -23.291111 -0.073629946 -23.275301 -27.90189 -112.89698
115894000 -27.815834 -111.63156 -0.077252164 -23.496599 -0.075001091 -23.478178 -27.833136 -113.09317
116893000 -27.735992 -112.10423 -0.077871971 -23.692669 -0.076086044 -23.673368 -27.708521 -113.12138
117892000 -27.651468 -112.60538 -0.078381434 -23.887299 -0.07676734 -23.873173 -27.633757 -113.31413
118891000 -27.594439 -113.01017 -0.07867717 -24.08695 -0.076869838 -24.076302 -27.53286 -113.46972
119890000 -27.506371 -113.39276 -0.079580858 -24.289452 -0.077694878 -24.273333 -27.526102 -113.58776
120889000 -27.46277 -113.85438 -0.080682777 -24.4923 -0.077464819 -24.478207 -27.44681 -113.50034
121888000 -27.419888 -114.21258 -0.080835469 -24.689056 -0.077616341 -24.672489 -27.397247 -113.80562
122887000 -27.377989 -114.41275 -0.082548693 -24.8929 -0.078603894 -24.873325 -27.344463 -113.80323
123886000 -27.324709 -114.81792 -0.082457148 -25.092861 -0.078566462 -25.071815 -27.33017 -113.97316
124885000 -27.28956 -115.32864 -0.083477728 -25.29212 -0.079856113 -25.27759 -27.303116 -114.00894
125884000 -27.246164 -115.53205 -0.083697543 -25.490395 -0.080585204 -25.474966 -27.277174 -114.13172
126883000 -27.222857 -115.92155 -0.083776712 -25.69413 -0.081101574 -25.68029 -27.233957 -114.13693
127882000 -27.170736 -116.2016 -0.083937697 -25.892878 -0.081225008 -25.876955 -27.195665 -114.30723
128881000 -27.143023 -116.54696 -0.084365256 -26.095018 -0.08169134 -26.080956 -27.150005 -114.36797
129880000 -27.085295 -116.85979 -0.085270658 -26.297302 -0.08144366 -26.276598 -27.118258 -114.31113
130879000 -27.027653 -116.99874 -0.084971033 -26.497368 -0.08207541 -26.482294 -27.044233 -114.39446
131878000 -26.966808 -117.25935 -0.085493997 -26.697582 -0.082991943 -26.683825 -26.984308 -114.24281
132877000 -26.895689 -117.30769 -0.084986083 -26.901958 -0.082781918 -26.883535 -26.90258 -114.20708
133876000 -26.807863 -117.45743 -0.086039208 -27.106499 -0.083076641 -27.084064 -26.815653 -114.06097
134875000 -26.714264 -117.58817 -0.086003825 -27.301987 -0.083175063 -27.286695 -26.713848 -113.90779
135874000 -26.633835 -117.65076 -0.085945211 -27.50411 -0.082399368 -27.487473 -26.619202 -113.89647
136873000 -26.522642 -117.57314 -0.086564414 -27.704954 -0.082809098 -27.68881 -26.532213 -113.82159
137872000 -26.440552 -117.68879 -0.086405441 -27.90913 -0.083799146 -27.893261 -26.430382 -113.76727
138871000 -26.37114 -117.87402 -0.086934127 -28.110693 -0.083524957 -28.094229 -26.335358 -113.93129
139870000 -26.265488 -118.15543 -0.087286443 -28.307491 -0.084869668 -28.290915 -26.253422 -114.05338
140869000 -26.191019 -118.74684 -0.088518448 -28.507442 -0.084814236 -28.487675 -26.153896 -114.31275
141868000 -26.112555 -119.14814 -0.089287311 -28.705284 -0.08667136 -28.690639 -26.100992 -114.55929
142867000 -26.024767 -119.36325 -0.088456102 -28.901833 -0.086410724 -28.887403 -26.026844 -114.64074
143866000 -25.952511 -119.81789 -0.090123966 -29.096981 -0.087702177 -29.081003 -25.950216 -115.14686
144865000 -25.898842 -120.3214 -0.091524385 -29.297054 -0.088476181 -29.280874 -25.889194 -115.46101
145864000 -25.842045 -120.62211 -0.091960624 -29.500008 -0.089494474 -29.486256 -25.862099 -115.67659
146863000 -25.794762 -121.0019 -0.09341982 -29.69919 -0.090645701 -29.685751 -25.812435 -115.9716
147862000 -25.75548 -121.35996 -0.094037712 -29.898777 -0.090971351 -29.884537 -25.77636 -116.31539
148861000 -25.722887 -121.73195 -0.095172413 -30.097837 -0.092129312 -30.083794 -25.746338 -116.4603
149860000 -25.690372 -121.97162 -0.096489765 -30.289755 -0.093001425 -30.277666 -25.700346 -116.54557
150859000 -25.664934 -122.46011 -0.095753767 -30.486546 -0.092321277 -30.474907 -25.681709 -116.90714
151858000 -25.652182 -122.79604 -0.094709657 -30.687351 -0.092603162 -30.673679 -25.674721 -117.24745
152857000 -25.644323 -123.11388 -0.095516138 -30.88673 -0.092790119 -30.873341 -25.654764 -117.42722
153856000 -25.635698 -123.32487 -0.095525928 -31.085571 -0.092005834 -31.071117 -25.668837 -117.75939
154855000 -25.633562 -123.4694 -0.095343076 -31.286444 -0.092661075 -31.27631 -25.661568 -118.01451
155854000 -25.653677 -123.71508 -0.095661677 -31.485312 -0.092867605 -31.470999 -25.655426 -118.25318
156853000 -25.633913 -124.43584 -0.094016552 -31.675259 -0.091943964 -31.664379 -25.649326 -118.55464
157852000 -25.642632 -124.62 -0.094806224 -31.87521 -0.094013378 -31.869816 -25.640198 -118.91827
158851000 -25.641071 -124.82653 -0.095368482 -32.075386 -0.094014965 -32.067146 -25.620251 -119.21387
159850000 -25.629829 -124.98888 -0.096213721 -32.272301 -0.094160981 -32.264729 -25.621851 -119.37811
160849000 -25.613482 -125.05668 -0.096261889 -32.471157 -0.094986938 -32.469406 -25.588099 -119.62939
161848000 -25.596117 -125.1451 -0.096674778 -32.673992 -0.095212892 -32.666389 -25.556879 -119.77943
162847000 -25.550283 -125.3326 -0.096639313 -32.869133 -0.095737621 -32.869591 -25.519012 -120.02444
163846000 -25.514519 -125.4988 -0.097064152 -33.072571 -0.095859088 -33.068001 -25.445206 -119.98299
164845000 -25.455288 -125.48078 -0.097240977 -33.273972 -0.096109442 -33.267647 -25.383986 -120.1328
165844000 -25.402594 -125.52045 -0.097268246 -33.472916 -0.096241243 -33.470005 -25.304255 -120.28717
166843000 -25.339897 -125.62145 -0.09753827 -33.670483 -0.096342877 -33.667095 -25.232563 -120.41729
167842000 -25.282862 -125.72108 -0.097355604 -33.869972 -0.09660437 -33.868282 -25.162861 -120.33206
168841000 -25.206079 -125.86573 -0.098230086 -34.073547 -0.097145416 -34.067226 -25.084757 -120.41242
169840000 -25.13612 -126.07378 -0.098507851 -34.266415 -0.097779453 -34.262589 -24.997028 -120.60905
170839000 -25.07811 -126.32777 -0.099177845 -34.465084 -0.098656677 -34.463718 -24.916193 -120.78753
171838000 -25.018736 -126.72289 -0.098929964 -34.667759 -0.099109516 -34.6628 -24.850187 -120.97459
172837000 -24.952801 -127.08303 -0.10080241 -34.865078 -0.099272661 -34.860718 -24.789583 -121.21957
173836000 -24.880964 -127.46719 -0.10220601 -35.064243 -0.10115002 -35.060867 -24.74341 -121.40992
174835000 -24.82795 -127.9137 -0.10246601 -35.260883 -0.10185619 -35.262241 -24.702291 -121.73744
175834000 -24.778683 -128.24022 -0.10363526 -35.46233 -0.10272629 -35.455139 -24.63908 -122.00144
176833000 -24.730728 -128.57994 -0.10454044 -35.659676 -0.10325564 -35.65937 -24.594227 -122.16153
177832000 -24.68478 -129.00291 -0.10541584 -35.858002 -0.10379671 -35.858982 -24.576485 -122.25791
178831000 -24.640303 -129.24576 -0.10703478 -36.056168 -0.10558267 -36.054897 -24.534464 -122.35233
179830000 -24.572845 -129.59233 -0.10838175 -36.241722 -0.106371 -36.241802 -24.472225 -122.38903
180829000 -24.517689 -129.99875 -0.10726508 -36.433468 -0.10615242 -36.433529 -24.428595 -122.7282
181828000 -24.499771 -130.41591 -0.10639329 -36.632133 -0.10491646 -36.632446 -24.408897 -122.94511
182827000 -24.473547 -130.79268 -0.10656227 -36.829659 -0.1054421 -36.830658 -24.400242 -123.04137
183826000 -24.432096 -131.14714 -0.10765859 -37.029743 -0.10555084 -37.023411 -24.388241 -123.1858
184825000 -24.435333 -131.49408 -0.10747072 -37.227665 -0.10606594 -37.226524 -24.371746 -123.32495
185824000 -24.408676 -131.83446 -0.10766788 -37.420948 -0.10591793 -37.429115 -24.368429 -123.38797
186823000 -24.395477 -132.19016 -0.10733725 -37.625591 -0.10624155 -37.62096 -24.358742 -123.40667
187822000 -24.369013 -132.56445 -0.10852454 -37.817757 -0.10636039 -37.818661 -24.321096 -123.50079
188821000 -24.352068 -132.80208 -0.10799003 -38.01255 -0.10697854 -38.015949 -24.30056 -123.62919
189820000 -24.328655 -133.08672 -0.10796297 -38.21619 -0.10689469 -38.214912 -24.283499 -123.79329
190819000 -24.288044 -133.41426 -0.10838493 -38.413044 -0.10722608 -38.410309 -24.241968 -123.85284
191818000 -24.258951 -133.69914 -0.10891232 -38.608295 -0.10776632 -38.611336 -24.213863 -123.89343
192817000 -24.215841 -133.97768 -0.10960276 -38.806549 -0.1083791 -38.806927 -24.171919 -124.00405
193816000 -24.184132 -134.24152 -0.11038812 -39.002052 -0.10813998 -39.00127 -24.120371 -124.09473
194815000 -24.123823 -134.59352 -0.1103674 -39.197994 -0.1091759 -39.199577 -24.051352 -124.17535
195814000 -24.066919 -134.82062 -0.11085546 -39.392948 -0.10949658 -39.394852 -23.997023 -124.29523
196813000 -24.013021 -135.14871 -0.110416 -39.590153 -0.10989852 -39.596188 -23.915617 -124.44322
197812000 -23.954014 -135.35718 -0.11089104 -39.788052 -0.10990011 -39.786602 -23.847427 -124.52682
198811000 -23.901117 -135.52013 -0.11054371 -39.984734 -0.1090899 -39.991077 -23.777838 -124.69408
199810000 -23.832823 -135.84041 -0.1111505 -40.180046 -0.10981568 -40.177952 -23.695946 -124.76615
200809000 -23.772875 -136.12517 -0.11170691 -40.375347 -0.10945463 -40.378296 -23.619946 -124.97998
201808000 -23.712484 -136.34891 -0.11220069 -40.576374 -0.11071897 -40.579044 -23.551933 -125.0071
202807000 -23.653696 -136.68607 -0.11300803 -40.775864 -0.11184768 -40.781551 -23.497684 -125.19778
