!Keysight Technologies,E5080B,MY59205177,A.15.75.32
!Date: Friday, February 23, 2024 02:51:54
!Correction: S11(Cdelta 2-Port  ) 
!S21(Cdelta 2-Port  ) 
!S12(Cdelta 2-Port  ) 
!S22(Cdelta 2-Port  ) 
!S2P File: Measurements: S11, S21, S12, S22:
# Hz S  dB   R 50
10000000 -42.879398 -3.4897416 -0.036014181 -2.0447004 -0.039780699 -2.1015134 -50.135262 -142.22125
10999000 -42.31319 -5.0957637 -0.037626509 -2.2621317 -0.039012194 -2.3175614 -49.716763 -132.82957
11998000 -41.630383 -7.3059049 -0.037448958 -2.4831145 -0.038910065 -2.5293646 -49.657288 -126.24888
12997000 -41.060711 -11.520763 -0.037065677 -2.66642 -0.038741078 -2.6997359 -48.693985 -119.0898
13996000 -40.863567 -14.439095 -0.036197416 -2.8473971 -0.038965698 -2.8652797 -48.068951 -113.34716
14995000 -40.554108 -17.628248 -0.038351942 -3.0555398 -0.038598999 -3.0786736 -47.502888 -110.3884
15994000 -40.479168 -21.349468 -0.039092381 -3.2717617 -0.041210707 -3.2984633 -47.141228 -106.89063
16993000 -40.481766 -24.85697 -0.038485393 -3.4713516 -0.041007139 -3.476578 -46.151695 -108.63618
17992000 -40.580585 -28.860245 -0.038503412 -3.6671772 -0.041368291 -3.6700635 -45.523258 -110.68564
18991000 -40.879742 -32.531704 -0.040106218 -3.875855 -0.041742805 -3.8803902 -44.833534 -110.57822
19990000 -40.819351 -37.268223 -0.041516997 -4.0900226 -0.044226956 -4.0846972 -44.090725 -113.33947
20989000 -40.726799 -40.012028 -0.043418966 -4.2910862 -0.046048488 -4.2825561 -43.463619 -113.95567
21988000 -40.718319 -44.248672 -0.045021232 -4.4898405 -0.046460297 -4.4728131 -43.133877 -113.22665
22987000 -40.581379 -48.481647 -0.046726394 -4.685041 -0.047266234 -4.6775761 -42.906357 -113.13274
23986000 -40.637062 -52.002689 -0.04589675 -4.8814678 -0.046909038 -4.8798571 -42.757572 -113.46591
24985000 -40.347759 -54.38987 -0.046808295 -5.089891 -0.047350239 -5.0898733 -42.46106 -110.95075
25984000 -40.197407 -56.754829 -0.047915015 -5.2996883 -0.04783519 -5.2996411 -42.036926 -109.60493
26983000 -39.935448 -58.802307 -0.048601594 -5.497416 -0.048444271 -5.5117588 -41.908012 -108.87772
27982000 -39.801132 -59.361454 -0.049416307 -5.6927958 -0.050454292 -5.7271051 -41.566193 -107.55873
28981000 -39.85371 -60.935696 -0.048054524 -5.8957105 -0.04945977 -5.9157658 -41.250515 -107.20627
29980000 -39.45607 -63.013939 -0.04769988 -6.0853949 -0.050005969 -6.0942464 -40.920055 -106.50609
30979000 -39.101906 -62.394012 -0.045271289 -6.4397421 -0.045065437 -6.4339476 -40.432255 -107.79658
31978000 -38.94323 -63.454144 -0.044818006 -6.6343117 -0.0461118 -6.6259189 -40.145725 -107.3091
32977000 -38.807251 -65.18502 -0.044518024 -6.8444524 -0.046595566 -6.8432646 -39.867268 -107.60992
33976000 -38.689217 -66.502701 -0.045494415 -7.045197 -0.047237448 -7.0408416 -39.542156 -107.31634
34975000 -38.422531 -67.338966 -0.045613959 -7.2458482 -0.04774411 -7.2451344 -39.287125 -107.21243
35974000 -38.239285 -68.155281 -0.044648789 -7.4404058 -0.047634974 -7.4435487 -38.963306 -106.521
36973000 -38.007744 -69.160187 -0.045272857 -7.6426086 -0.048547667 -7.6447134 -38.670185 -105.91584
37972000 -37.866734 -69.136559 -0.044989582 -7.8493395 -0.048685361 -7.8614607 -38.409485 -105.24242
38971000 -37.542404 -68.88755 -0.045567919 -8.0550117 -0.047731549 -8.0631905 -38.195354 -103.90352
39970000 -37.220982 -69.644806 -0.04394035 -8.2446365 -0.047477163 -8.2575626 -37.890038 -103.60512
40969000 -36.938381 -69.688957 -0.044478271 -8.4463358 -0.047588129 -8.4612141 -37.605171 -102.25795
41968000 -36.627548 -69.881783 -0.044780865 -8.6464043 -0.048152413 -8.6627817 -37.370453 -101.17666
42967000 -36.379948 -70.254143 -0.04488444 -8.8571701 -0.047838069 -8.8741665 -37.112896 -99.414131
43966000 -36.104309 -71.281662 -0.045371469 -9.0529957 -0.04955586 -9.0752783 -36.808983 -98.886215
44965000 -35.90057 -72.177116 -0.046204153 -9.2610531 -0.04868798 -9.2774038 -36.598034 -98.925407
45964000 -35.695656 -73.385002 -0.047309153 -9.4590902 -0.05064233 -9.4798479 -36.368027 -98.751091
46963000 -35.530525 -75.376541 -0.047570329 -9.6531534 -0.051067669 -9.6763926 -36.18309 -99.277496
47962000 -35.404709 -76.839325 -0.049598016 -9.8584108 -0.052779663 -9.8708982 -35.978943 -99.439346
48961000 -35.24297 -78.32534 -0.051600188 -10.052086 -0.053865891 -10.071312 -35.756432 -99.988029
49960000 -35.024456 -79.925392 -0.052719139 -10.250322 -0.054471888 -10.274407 -35.607323 -100.11424
50959000 -34.837463 -81.330544 -0.052951295 -10.46405 -0.056243703 -10.47443 -35.439938 -100.71368
51958000 -34.658146 -82.468925 -0.054736644 -10.663424 -0.05753592 -10.673656 -35.255196 -101.25781
52957000 -34.458771 -83.656761 -0.056144055 -10.866401 -0.058784444 -10.87113 -35.092594 -101.19873
53956000 -34.315002 -84.447487 -0.05783733 -11.066319 -0.059059434 -11.066507 -34.955544 -101.20408
54955000 -34.167896 -85.030037 -0.058950275 -11.266826 -0.060489509 -11.261619 -34.799381 -101.39951
55954000 -34.019173 -86.01786 -0.059918366 -11.465681 -0.060502894 -11.459637 -34.689606 -101.13521
56953000 -33.905323 -86.06469 -0.05914839 -11.66465 -0.059884246 -11.65025 -34.616219 -101.44054
57952000 -33.740833 -86.758728 -0.060499746 -11.864127 -0.060919225 -11.853874 -34.498001 -101.59099
58951000 -33.629864 -87.279076 -0.061118219 -12.066289 -0.060913187 -12.048491 -34.348434 -101.70786
59950000 -33.513168 -87.636375 -0.062105436 -12.266214 -0.062364094 -12.243695 -34.293144 -102.10748
60949000 -33.419239 -88.272972 -0.062584162 -12.469522 -0.0631743 -12.44283 -34.184971 -102.38274
61948000 -33.349365 -88.525307 -0.063498162 -12.665978 -0.063207395 -12.647865 -34.093758 -102.59478
62947000 -33.260872 -88.813866 -0.063783437 -12.878282 -0.062961295 -12.85564 -33.960995 -102.83128
63946000 -33.213028 -89.610825 -0.064173549 -13.075065 -0.064594962 -13.054955 -33.866093 -103.09632
64945000 -33.10257 -89.79248 -0.065044791 -13.275295 -0.065539084 -13.260891 -33.763268 -103.63441
65944000 -33.003006 -90.222618 -0.065847881 -13.478366 -0.065539606 -13.460272 -33.663528 -104.09207
66943000 -32.868362 -90.631241 -0.063684665 -13.677834 -0.064513251 -13.66015 -33.565659 -104.29074
67942000 -32.8144 -90.546936 -0.065777443 -13.875081 -0.06572488 -13.864835 -33.451656 -104.76559
68941000 -32.705601 -90.683601 -0.065548807 -14.071814 -0.065466553 -14.05676 -33.32832 -104.78465
69940000 -32.598267 -90.758553 -0.065528832 -14.263976 -0.066311248 -14.256995 -33.186832 -105.13686
70939000 -32.489193 -90.641006 -0.065188788 -14.463561 -0.065309145 -14.452156 -33.051785 -105.01048
71938000 -32.349884 -90.385063 -0.06599085 -14.660729 -0.065466814 -14.652771 -32.9221 -104.86623
72937000 -32.183277 -90.215408 -0.065128617 -14.860147 -0.065172233 -14.854294 -32.77499 -104.58173
73936000 -32.048088 -90.044289 -0.064644352 -15.056522 -0.064468056 -15.049248 -32.662842 -104.48453
74935000 -31.924496 -90.281235 -0.064094998 -15.251578 -0.064268127 -15.247128 -32.50132 -104.20909
75934000 -31.808811 -90.63694 -0.063981771 -15.459525 -0.063905589 -15.453485 -32.414742 -104.19632
76933000 -31.67514 -91.104874 -0.064967014 -15.654348 -0.065821595 -15.649258 -32.244568 -104.59263
77932000 -31.585217 -91.845993 -0.066807255 -15.853221 -0.067197643 -15.844222 -32.147137 -104.53536
78931000 -31.516111 -92.652596 -0.065080263 -16.051441 -0.06602712 -16.042631 -32.039925 -104.51584
79930000 -31.413866 -93.51252 -0.068081059 -16.243641 -0.06898544 -16.240698 -31.957785 -104.84355
80929000 -31.294384 -94.356453 -0.070419312 -16.436117 -0.070476137 -16.432316 -31.848312 -105.24419
81928000 -31.216681 -95.281136 -0.069731645 -16.630028 -0.070794761 -16.625534 -31.732401 -105.39169
82927000 -31.133184 -96.050827 -0.071867608 -16.828512 -0.07226266 -16.828478 -31.631548 -105.75074
83926000 -31.01959 -96.775856 -0.073054709 -17.026161 -0.073287688 -17.024563 -31.497717 -106.0378
84925000 -30.918097 -97.341217 -0.074426465 -17.226936 -0.072913609 -17.22131 -31.417133 -106.10962
85924000 -30.834736 -97.786339 -0.074463591 -17.424475 -0.073929839 -17.420858 -31.330101 -106.13585
86923000 -30.733868 -98.332298 -0.075177558 -17.62464 -0.07472983 -17.616198 -31.225542 -106.07858
87922000 -30.63081 -98.782127 -0.074541278 -17.826509 -0.074849136 -17.820969 -31.135956 -106.22663
88921000 -30.553011 -99.086075 -0.076183781 -18.030867 -0.076024666 -18.026434 -31.034941 -106.21553
89920000 -30.467165 -99.677681 -0.076705687 -18.226879 -0.076484904 -18.218004 -30.986937 -106.39675
90919000 -30.371096 -100.05992 -0.077507511 -18.42141 -0.077396832 -18.416105 -30.90251 -106.65804
91918000 -30.268047 -100.44189 -0.077967905 -18.62158 -0.077838242 -18.61762 -30.832808 -106.64465
92917000 -30.188824 -100.79781 -0.079496495 -18.818527 -0.078736745 -18.814363 -30.765116 -106.86338
93916000 -30.104734 -101.22036 -0.078385122 -19.013731 -0.078643963 -19.011694 -30.685238 -107.47688
94915000 -30.037558 -101.86964 -0.080244243 -19.212204 -0.079581127 -19.208242 -30.623737 -107.39735
95914000 -29.963879 -102.09048 -0.081384316 -19.411703 -0.08062239 -19.406219 -30.526907 -107.67294
96913000 -29.887888 -102.36742 -0.082794055 -19.608053 -0.081753589 -19.6078 -30.463625 -108.0913
97912000 -29.80645 -102.79245 -0.08332283 -19.806044 -0.082291469 -19.806793 -30.386131 -108.26912
98911000 -29.704941 -103.08739 -0.084241204 -20.008509 -0.082818598 -20.007261 -30.339132 -108.5294
99910000 -29.640009 -103.18259 -0.084896855 -20.2078 -0.08354871 -20.200401 -30.232706 -108.8427
100909000 -29.552235 -103.53959 -0.084509633 -20.414385 -0.082420476 -20.406237 -30.148241 -109.06272
101908000 -29.464636 -103.76305 -0.085162684 -20.617065 -0.084239095 -20.607428 -30.028967 -108.81361
102907000 -29.329647 -103.80875 -0.085615441 -20.813292 -0.083860636 -20.810987 -29.949015 -108.77182
103906000 -29.224504 -103.88925 -0.08659108 -21.017849 -0.083996817 -21.01232 -29.798576 -108.79517
104905000 -29.079679 -103.79357 -0.086193934 -21.215752 -0.084414616 -21.213308 -29.669415 -108.46024
105904000 -28.944035 -103.95438 -0.087210909 -21.420061 -0.084262058 -21.41301 -29.551401 -108.32392
106903000 -28.834532 -104.07922 -0.086668983 -21.627048 -0.084760122 -21.617493 -29.413969 -108.20357
107902000 -28.671406 -104.42995 -0.087472908 -21.82456 -0.085122824 -21.816132 -29.279148 -108.18742
108901000 -28.562134 -104.70972 -0.088751473 -22.027411 -0.086766168 -22.017466 -29.142521 -108.19974
109900000 -28.434185 -105.24037 -0.089192182 -22.223511 -0.087995388 -22.218843 -28.98488 -108.31447
110899000 -28.315784 -105.9426 -0.090271965 -22.421968 -0.088234983 -22.412975 -28.868778 -108.59347
111898000 -28.230934 -106.59183 -0.09202937 -22.625128 -0.089631625 -22.61688 -28.745253 -108.76751
112897000 -28.108341 -107.19185 -0.093316145 -22.822399 -0.090640411 -22.810499 -28.605663 -109.06197
113896000 -28.009296 -107.82466 -0.094600663 -23.022827 -0.091969609 -23.013418 -28.49888 -109.19753
114895000 -27.904282 -108.46655 -0.095304184 -23.222219 -0.093487002 -23.209263 -28.390463 -109.3322
115894000 -27.784651 -108.8483 -0.097534567 -23.420807 -0.094561242 -23.408911 -28.322363 -109.50234
116893000 -27.704103 -109.45878 -0.097476326 -23.618977 -0.095466651 -23.601267 -28.188828 -109.66763
117892000 -27.620056 -109.97543 -0.096765831 -23.815935 -0.096341282 -23.804068 -28.11558 -109.92348
118891000 -27.568888 -110.40155 -0.098309256 -24.013985 -0.095827863 -24.001875 -28.023602 -110.10248
119890000 -27.482601 -110.83019 -0.098899774 -24.215336 -0.097290479 -24.200592 -28.011953 -110.25796
120889000 -27.428514 -111.33639 -0.10027733 -24.414574 -0.097566865 -24.399202 -27.931461 -110.23936
121888000 -27.388981 -111.69062 -0.099822775 -24.609913 -0.098392934 -24.600729 -27.876423 -110.54204
122887000 -27.350786 -111.88686 -0.10058782 -24.817909 -0.098886006 -24.800787 -27.830944 -110.60394
123886000 -27.299406 -112.35448 -0.10122766 -25.017942 -0.099227637 -24.997126 -27.818367 -110.77983
124885000 -27.259327 -112.85812 -0.10194736 -25.21871 -0.099663056 -25.200853 -27.780867 -110.84641
125884000 -27.211103 -113.07172 -0.1027687 -25.414059 -0.099355556 -25.39974 -27.754618 -111.04412
126883000 -27.188004 -113.45715 -0.10299744 -25.612411 -0.10059153 -25.600918 -27.712757 -111.06255
127882000 -27.136961 -113.74652 -0.10379061 -25.815825 -0.10130238 -25.796543 -27.666553 -111.24435
128881000 -27.104959 -114.07074 -0.10338606 -26.013912 -0.10127376 -26.000591 -27.633608 -111.36205
129880000 -27.052259 -114.38966 -0.10435907 -26.218386 -0.10119321 -26.200935 -27.578924 -111.34203
130879000 -26.988667 -114.54914 -0.10452931 -26.415823 -0.10210583 -26.400036 -27.510527 -111.41041
131878000 -26.927986 -114.77071 -0.10458658 -26.618477 -0.10236847 -26.599768 -27.440472 -111.26327
132877000 -26.854639 -114.84825 -0.10442271 -26.820919 -0.10300646 -26.803074 -27.351824 -111.28732
133876000 -26.76413 -115.03077 -0.10518219 -27.024279 -0.10230327 -27.00461 -27.265907 -111.23016
134875000 -26.671021 -115.18191 -0.10484062 -27.218386 -0.10350323 -27.201803 -27.149645 -111.09554
135874000 -26.59145 -115.23931 -0.10466745 -27.417027 -0.10280554 -27.406477 -27.053562 -111.11069
136873000 -26.475237 -115.16994 -0.10589353 -27.625927 -0.10278725 -27.605829 -26.964205 -111.08257
137872000 -26.393892 -115.2547 -0.10577311 -27.825161 -0.10357136 -27.808935 -26.857574 -111.0062
138871000 -26.319584 -115.44311 -0.10665672 -28.02142 -0.10354485 -28.010958 -26.75721 -111.20672
139870000 -26.222969 -115.73372 -0.10686047 -28.223772 -0.10432089 -28.211533 -26.675831 -111.40012
140869000 -26.139227 -116.20675 -0.10901982 -28.421259 -0.10603491 -28.401529 -26.569874 -111.52401
141868000 -26.041656 -116.71076 -0.10905034 -28.609159 -0.10655007 -28.597786 -26.503298 -111.9241
142867000 -25.966019 -117.00125 -0.10708837 -28.811142 -0.1058182 -28.791426 -26.418594 -112.12203
143866000 -25.896305 -117.47785 -0.10865273 -29.006281 -0.10727119 -28.989407 -26.351013 -112.60806
144865000 -25.838385 -118.02213 -0.11076013 -29.207672 -0.10857019 -29.194349 -26.28879 -112.99325
145864000 -25.786396 -118.37817 -0.11102329 -29.406942 -0.10913369 -29.393929 -26.260748 -113.24213
146863000 -25.73794 -118.77508 -0.11206442 -29.60368 -0.10983772 -29.594906 -26.208469 -113.58369
147862000 -25.699974 -119.15524 -0.11295702 -29.800673 -0.11060292 -29.791029 -26.176159 -113.93181
148861000 -25.672237 -119.66347 -0.11269719 -29.999783 -0.11145193 -29.984838 -26.154802 -114.18216
149860000 -25.653503 -119.89688 -0.11352003 -30.200106 -0.11137173 -30.185738 -26.122051 -114.37096
150859000 -25.633165 -120.25903 -0.11406292 -30.395893 -0.1114445 -30.382652 -26.120281 -114.64301
151858000 -25.617571 -120.57339 -0.11395237 -30.596909 -0.11177968 -30.584167 -26.103289 -114.90588
152857000 -25.600328 -120.93371 -0.11449718 -30.795837 -0.1127219 -30.783789 -26.084217 -115.09974
153856000 -25.593449 -121.13277 -0.11407515 -30.992308 -0.11148965 -30.98311 -26.104603 -115.35278
154855000 -25.584173 -121.26853 -0.11469544 -31.192217 -0.11194808 -31.181078 -26.096699 -115.58352
155854000 -25.599453 -121.52262 -0.1151 -31.393822 -0.11258349 -31.375895 -26.092005 -115.85576
156853000 -25.583435 -122.24408 -0.11242303 -31.58243 -0.11215792 -31.573332 -26.079472 -116.16424
157852000 -25.584007 -122.45887 -0.11367761 -31.778517 -0.11287864 -31.772619 -26.079796 -116.4886
158851000 -25.589212 -122.70159 -0.11449106 -31.978113 -0.11372358 -31.969742 -26.058989 -116.7719
159850000 -25.563427 -122.84468 -0.11545566 -32.178673 -0.11410464 -32.170067 -26.058971 -116.94279
160849000 -25.548197 -122.92439 -0.11531052 -32.376865 -0.11457106 -32.372757 -26.029655 -117.21842
161848000 -25.525434 -123.05733 -0.11567365 -32.577972 -0.11479644 -32.568371 -25.985952 -117.34293
162847000 -25.482138 -123.25636 -0.11590016 -32.77396 -0.11525231 -32.771282 -25.957954 -117.56461
163846000 -25.437439 -123.48737 -0.11629844 -32.973106 -0.11511753 -32.968502 -25.875877 -117.57072
164845000 -25.376257 -123.47019 -0.11625165 -33.171947 -0.11576883 -33.164421 -25.807779 -117.71825
165844000 -25.32062 -123.57764 -0.11605994 -33.371841 -0.11644947 -33.368458 -25.726416 -117.83795
166843000 -25.261889 -123.64129 -0.1161671 -33.571236 -0.11572656 -33.568531 -25.652925 -118.00526
167842000 -25.203091 -123.83369 -0.11632237 -33.768929 -0.11598843 -33.76482 -25.571308 -117.93961
168841000 -25.121532 -124.01732 -0.11715627 -33.966938 -0.11638379 -33.961006 -25.49877 -118.04309
169840000 -25.049788 -124.29801 -0.11710361 -34.162186 -0.11736743 -34.161057 -25.407175 -118.22278
170839000 -24.99379 -124.56493 -0.11826165 -34.358719 -0.11740546 -34.358707 -25.324942 -118.41522
171838000 -24.939833 -124.97965 -0.11817334 -34.559933 -0.11881577 -34.554268 -25.256912 -118.67229
172837000 -24.866117 -125.36023 -0.119693 -34.757126 -0.11926035 -34.752171 -25.19095 -118.9332
173836000 -24.798756 -125.81425 -0.12096058 -34.95245 -0.11995271 -34.952332 -25.144058 -119.18213
174835000 -24.749426 -126.23625 -0.12168755 -35.150806 -0.12039287 -35.152363 -25.099524 -119.51534
175834000 -24.701065 -126.63123 -0.12214387 -35.348854 -0.122105 -35.345806 -25.035427 -119.83007
176833000 -24.650579 -127.02282 -0.12318341 -35.547264 -0.12230628 -35.545631 -24.983232 -119.99187
177832000 -24.604527 -127.52201 -0.12347183 -35.74173 -0.12266254 -35.745022 -24.966137 -120.17258
178831000 -24.567841 -127.87722 -0.12426821 -35.940033 -0.12356771 -35.936909 -24.926006 -120.43015
179830000 -24.531324 -128.33266 -0.12490863 -36.136406 -0.12323614 -36.13773 -24.900112 -120.58773
180829000 -24.491465 -128.57619 -0.12501758 -36.337948 -0.12464568 -36.335922 -24.871752 -120.71984
181828000 -24.469656 -128.92067 -0.12528695 -36.531597 -0.12478314 -36.533722 -24.85137 -120.86767
182827000 -24.444948 -129.29439 -0.12559682 -36.728394 -0.12482204 -36.725765 -24.837349 -120.97102
183826000 -24.403616 -129.6022 -0.12663132 -36.925312 -0.12528615 -36.921478 -24.832727 -121.09807
184825000 -24.407915 -129.95253 -0.12674166 -37.120312 -0.12609939 -37.121181 -24.815807 -121.2272
185824000 -24.383436 -130.28145 -0.12640426 -37.313305 -0.12619959 -37.319016 -24.809172 -121.25343
186823000 -24.363485 -130.64105 -0.12596267 -37.514519 -0.12589847 -37.515862 -24.807692 -121.23982
187822000 -24.34701 -130.98695 -0.12684828 -37.711056 -0.1266156 -37.709976 -24.767178 -121.29993
188821000 -24.325869 -131.20386 -0.12685947 -37.904785 -0.12666517 -37.910847 -24.756035 -121.41097
189820000 -24.310236 -131.49538 -0.12707163 -38.107609 -0.12734565 -38.105152 -24.74353 -121.58346
190819000 -24.281195 -131.71146 -0.12805477 -38.306274 -0.12834537 -38.303745 -24.707811 -121.52639
191818000 -24.246487 -131.9077 -0.12950775 -38.500278 -0.12949789 -38.503033 -24.678331 -121.42667
192817000 -24.172178 -132.17227 -0.13015933 -38.688446 -0.12996276 -38.686729 -24.603214 -121.47994
193816000 -24.133484 -132.56607 -0.12905945 -38.879379 -0.12872507 -38.879539 -24.544111 -121.75227
194815000 -24.079342 -132.98213 -0.12873094 -39.075787 -0.12936747 -39.076843 -24.47893 -121.86701
195814000 -24.024944 -133.20769 -0.12909518 -39.275246 -0.12935546 -39.275257 -24.429064 -122.00146
196813000 -23.974751 -133.56187 -0.12936987 -39.470142 -0.12892826 -39.472946 -24.350731 -122.19138
197812000 -23.915009 -133.80963 -0.12988541 -39.665405 -0.12944187 -39.665943 -24.276134 -122.24977
198811000 -23.861763 -133.99373 -0.12929893 -39.86478 -0.12917759 -39.866474 -24.210632 -122.4669
199810000 -23.793062 -134.36313 -0.13035832 -40.059063 -0.12890106 -40.055077 -24.126556 -122.57838
200809000 -23.734396 -134.65605 -0.13048263 -40.257088 -0.12959629 -40.255939 -24.050016 -122.75082
201808000 -23.678476 -134.91594 -0.13104925 -40.450615 -0.13070671 -40.460175 -23.980148 -122.84148
202807000 -23.619486 -135.25099 -0.13145052 -40.65572 -0.13134433 -40.65773 -23.923458 -123.07009
203806000 -23.566593 -135.71777 -0.13318089 -40.85548 -0.13124561 -40.858574 -23.860754 -123.25466
