!Keysight Technologies,E5080B,MY59205177,A.15.75.32
!Date: Friday, February 23, 2024 03:30:09
!Correction: S11(Cdelta 2-Port  ) 
!S21(Cdelta 2-Port  ) 
!S12(Cdelta 2-Port  ) 
!S22(Cdelta 2-Port  ) 
!S2P File: Measurements: S11, S21, S12, S22:
# Hz S  dB   R 50
10000000 -46.070782 -2.0992715 -0.016691728 -2.0491631 -0.017999262 -2.1041546 -46.020996 -158.5708
10999000 -45.253937 -4.1432452 -0.017257212 -2.2689412 -0.018544899 -2.3209665 -45.983528 -152.11244
11998000 -44.282616 -6.8663712 -0.017862018 -2.4951737 -0.017285539 -2.5388908 -46.16721 -147.40617
12997000 -43.544106 -12.381637 -0.016938858 -2.6773851 -0.017008763 -2.7078652 -45.786552 -142.00301
13996000 -43.258621 -16.45063 -0.015679443 -2.8552129 -0.017447455 -2.8766742 -45.592258 -136.63379
14995000 -42.882996 -20.451029 -0.018443773 -3.0662892 -0.017178986 -3.0891342 -45.313297 -133.16071
15994000 -42.702526 -24.922373 -0.019433558 -3.2874203 -0.019833229 -3.3071113 -45.188839 -129.83347
16993000 -42.699284 -29.805614 -0.018631209 -3.4843504 -0.019353993 -3.4928401 -44.360722 -129.36526
17992000 -42.749233 -34.960735 -0.019432779 -3.6846242 -0.019763017 -3.6838076 -43.779415 -129.63519
18991000 -43.007488 -39.960827 -0.02004361 -3.8931844 -0.020881595 -3.8900967 -43.135395 -128.17537
19990000 -42.771049 -45.85318 -0.022844288 -4.1006389 -0.02298273 -4.0996814 -42.467552 -129.12875
20989000 -42.643658 -49.19994 -0.024587104 -4.3075342 -0.024494426 -4.2946095 -41.964668 -128.45128
21988000 -42.45549 -54.408684 -0.025520746 -4.5037012 -0.025536628 -4.4971371 -41.680698 -127.68454
22987000 -42.13398 -58.91547 -0.026983837 -4.7032533 -0.026328536 -4.694881 -41.462025 -127.09274
23986000 -42.087528 -63.396961 -0.025632452 -4.8993664 -0.025125498 -4.8974519 -41.341812 -127.02779
24985000 -41.691647 -65.933479 -0.027194824 -5.1086574 -0.025684791 -5.1069012 -41.11311 -124.46736
25984000 -41.349918 -68.311066 -0.027578015 -5.3136663 -0.026211081 -5.3162913 -40.786671 -123.11823
26983000 -41.046852 -70.070915 -0.029180178 -5.5174766 -0.027115116 -5.5316262 -40.633152 -122.41844
27982000 -40.875919 -71.260002 -0.030389294 -5.7171965 -0.029198943 -5.7457132 -40.420738 -121.06883
28981000 -40.875626 -72.473648 -0.028486766 -5.9101448 -0.029332636 -5.9376845 -40.150524 -119.84277
29980000 -40.444626 -74.289642 -0.028408857 -6.1079946 -0.029926354 -6.1111293 -39.923992 -118.92271
30979000 -40.066399 -73.091667 -0.026937993 -6.4606109 -0.024303094 -6.4522014 -39.402523 -119.56403
31978000 -39.859638 -73.964729 -0.025339261 -6.6545057 -0.025422841 -6.647356 -39.147503 -118.89548
32977000 -39.654949 -75.502518 -0.025219489 -6.8675508 -0.025724111 -6.8636966 -38.912296 -118.86674
33976000 -39.500725 -76.581039 -0.026175143 -7.0690603 -0.025929049 -7.0605192 -38.634197 -118.25059
34975000 -39.200874 -77.468185 -0.02601837 -7.2688122 -0.02711121 -7.2698622 -38.387432 -117.84713
35974000 -38.998383 -78.013809 -0.02535983 -7.4626212 -0.026762178 -7.4697428 -38.130451 -116.99316
36973000 -38.768959 -78.457726 -0.025778012 -7.6666379 -0.027395664 -7.6698661 -37.859966 -116.01727
37972000 -38.580978 -78.417862 -0.025542617 -7.8781939 -0.027856508 -7.8831525 -37.641285 -115.30436
38971000 -38.267544 -77.970612 -0.02672337 -8.0778675 -0.027579319 -8.0919752 -37.469608 -113.65442
39970000 -37.93227 -78.158661 -0.024051638 -8.2688065 -0.026635338 -8.2872801 -37.197037 -112.99714
40969000 -37.653931 -77.908882 -0.025261149 -8.4695101 -0.026023578 -8.4873981 -36.962566 -111.54227
41968000 -37.305099 -77.804123 -0.02491409 -8.6723671 -0.026948672 -8.6909924 -36.785816 -110.31358
42967000 -37.028397 -77.951691 -0.024599079 -8.8812294 -0.027576452 -8.9053087 -36.585411 -108.37837
43966000 -36.739307 -78.529671 -0.026271241 -9.0865784 -0.027966451 -9.1040258 -36.294956 -107.67226
44965000 -36.50975 -79.382423 -0.026770253 -9.2869873 -0.028713722 -9.3076286 -36.092827 -107.36672
45964000 -36.264652 -80.449112 -0.028099585 -9.4878206 -0.029951898 -9.5099573 -35.860218 -107.02679
46963000 -36.064957 -82.326256 -0.028369773 -9.6829071 -0.030748783 -9.705348 -35.668968 -107.27451
47962000 -35.905071 -83.794289 -0.029788995 -9.8863811 -0.03166315 -9.9041805 -35.480953 -107.28639
48961000 -35.683418 -85.127899 -0.031850114 -10.082056 -0.033427767 -10.107033 -35.241383 -107.51206
49960000 -35.460506 -86.50032 -0.032927729 -10.284855 -0.034734089 -10.30697 -35.108459 -107.58872
50959000 -35.232037 -87.783775 -0.033825599 -10.49656 -0.035664696 -10.506645 -34.922714 -107.81338
51958000 -35.034412 -88.956352 -0.036012616 -10.69595 -0.037177421 -10.706401 -34.738697 -108.24757
52957000 -34.819824 -89.867874 -0.037080299 -10.895419 -0.038049009 -10.905976 -34.595371 -107.96978
53956000 -34.648426 -90.53521 -0.038611799 -11.09917 -0.038837194 -11.098998 -34.459076 -108.0067
54955000 -34.478943 -91.062828 -0.039146189 -11.300165 -0.039543234 -11.297258 -34.307789 -107.8631
55954000 -34.301868 -91.953011 -0.040271599 -11.498834 -0.040269248 -11.501062 -34.196262 -107.63382
56953000 -34.191166 -91.950356 -0.03978749 -11.696611 -0.038786266 -11.693743 -34.135418 -107.81789
57952000 -34.036373 -92.496933 -0.041118201 -11.893186 -0.040307652 -11.889501 -34.019913 -107.84925
58951000 -33.897564 -92.842499 -0.042305026 -12.108001 -0.041349739 -12.085138 -33.865219 -108.05098
59950000 -33.770714 -93.224419 -0.04320588 -12.308138 -0.041886553 -12.283192 -33.787827 -108.22528
60949000 -33.651943 -93.833252 -0.04294784 -12.508661 -0.042621322 -12.483849 -33.692001 -108.49649
61948000 -33.604004 -94.125565 -0.043838371 -12.706782 -0.042133816 -12.684689 -33.617821 -108.55331
62947000 -33.499489 -94.335213 -0.044096462 -12.914144 -0.042697918 -12.901118 -33.470242 -108.82183
63946000 -33.437012 -95.069725 -0.045580737 -13.116495 -0.044330254 -13.09736 -33.368423 -108.96886
64945000 -33.321774 -95.22876 -0.045830827 -13.320978 -0.04496238 -13.301208 -33.258106 -109.50146
65944000 -33.212727 -95.567078 -0.046736076 -13.518404 -0.045503832 -13.502878 -33.156826 -109.92106
66943000 -33.088627 -95.932182 -0.043701354 -13.719717 -0.043591797 -13.703554 -33.060513 -110.1687
67942000 -33.024639 -95.878151 -0.046590857 -13.914001 -0.045538098 -13.905367 -32.935574 -110.37175
68941000 -32.908665 -95.970573 -0.046030436 -14.108952 -0.044607729 -14.101809 -32.823338 -110.37302
69940000 -32.83205 -95.940231 -0.045857247 -14.308466 -0.045954566 -14.301951 -32.679436 -110.64668
70939000 -32.707054 -95.908287 -0.046023894 -14.506841 -0.045165874 -14.503588 -32.549568 -110.53132
71938000 -32.570339 -95.388191 -0.046577513 -14.69875 -0.045714151 -14.697494 -32.419651 -110.38802
72937000 -32.408783 -95.275681 -0.046154443 -14.90479 -0.044598576 -14.899489 -32.281902 -110.14454
73936000 -32.274975 -94.913017 -0.046296772 -15.101077 -0.043849092 -15.094288 -32.168339 -109.90796
74935000 -32.143867 -95.116417 -0.045103885 -15.299482 -0.04333007 -15.291745 -32.005325 -109.58889
75934000 -32.012005 -95.427017 -0.045054972 -15.510177 -0.043179736 -15.504422 -31.924915 -109.49435
76933000 -31.885872 -95.758263 -0.045939133 -15.703486 -0.045159075 -15.693382 -31.73769 -109.74839
77932000 -31.773121 -96.452324 -0.0473416 -15.899607 -0.046338111 -15.894134 -31.645454 -109.74862
78931000 -31.707312 -97.280441 -0.045566089 -16.098009 -0.045403123 -16.096489 -31.541906 -109.69267
79930000 -31.587902 -98.122902 -0.04830737 -16.292299 -0.048028871 -16.292013 -31.442198 -109.93149
80929000 -31.468256 -98.852913 -0.05047315 -16.489985 -0.049756426 -16.487997 -31.342731 -110.15945
81928000 -31.375944 -99.563118 -0.050684758 -16.68408 -0.050095789 -16.677792 -31.212112 -110.13846
82927000 -31.284534 -100.36707 -0.052755035 -16.881212 -0.050835613 -16.880253 -31.102962 -110.39651
83926000 -31.161108 -101.05962 -0.052724376 -17.076803 -0.052309617 -17.076992 -30.982731 -110.66457
84925000 -31.046614 -101.48668 -0.05397702 -17.27795 -0.052933477 -17.274529 -30.884377 -110.67474
85924000 -30.957573 -101.91197 -0.055114932 -17.47859 -0.054431781 -17.473494 -30.797764 -110.62586
86923000 -30.854559 -102.37558 -0.055264633 -17.67498 -0.054587487 -17.673998 -30.700745 -110.51653
87922000 -30.742788 -102.7866 -0.055803698 -17.885019 -0.0539896 -17.874403 -30.599134 -110.57031
88921000 -30.670214 -102.986 -0.056147989 -18.083532 -0.054672156 -18.077518 -30.515333 -110.49416
89920000 -30.558384 -103.56462 -0.057195716 -18.279579 -0.055906482 -18.275661 -30.457006 -110.69451
90919000 -30.458614 -103.8073 -0.05831847 -18.483503 -0.055603638 -18.47867 -30.367645 -110.87439
91918000 -30.359966 -104.13535 -0.059121624 -18.680878 -0.055959973 -18.673944 -30.290777 -110.85199
92917000 -30.263706 -104.49146 -0.060238048 -18.878075 -0.058028046 -18.874475 -30.226654 -110.97631
93916000 -30.184168 -104.85484 -0.059846453 -19.073961 -0.058391403 -19.067461 -30.145441 -111.5338
94915000 -30.104897 -105.45145 -0.061131343 -19.274622 -0.059257817 -19.265987 -30.083342 -111.39502
95914000 -30.032707 -105.66258 -0.062531114 -19.469265 -0.059962198 -19.464918 -29.997885 -111.66931
96913000 -29.945545 -105.84445 -0.063337147 -19.669876 -0.061404385 -19.668159 -29.926617 -112.04883
97912000 -29.869839 -106.30418 -0.063940264 -19.86717 -0.061526205 -19.866861 -29.845858 -112.2837
98911000 -29.761692 -106.48219 -0.064766005 -20.06617 -0.062572345 -20.066088 -29.811008 -112.49013
99910000 -29.689396 -106.61357 -0.065699652 -20.268507 -0.063581958 -20.263807 -29.696978 -112.8278
100909000 -29.602375 -106.8717 -0.064550817 -20.47608 -0.062620401 -20.468916 -29.613155 -113.01167
101908000 -29.511461 -107.12693 -0.066379324 -20.678074 -0.063842542 -20.672422 -29.50305 -112.74013
102907000 -29.368908 -107.08281 -0.067019403 -20.871193 -0.063554637 -20.874468 -29.425858 -112.72728
103906000 -29.282928 -107.13112 -0.067026235 -21.082333 -0.063265182 -21.081909 -29.283655 -112.70382
104905000 -29.132311 -107.00101 -0.06716793 -21.280975 -0.063769251 -21.284365 -29.152569 -112.41641
105904000 -28.985155 -107.12939 -0.067605413 -21.484814 -0.063769773 -21.478107 -29.043983 -112.2579
106903000 -28.883026 -107.1954 -0.067790508 -21.688789 -0.064262606 -21.681713 -28.91173 -112.14895
107902000 -28.714371 -107.47723 -0.068659849 -21.890259 -0.064706624 -21.881796 -28.771891 -112.09305
108901000 -28.60762 -107.74209 -0.069593549 -22.091539 -0.066676877 -22.088617 -28.647339 -112.0378
109900000 -28.472023 -108.21822 -0.069986552 -22.291729 -0.067592792 -22.283775 -28.487988 -112.12061
110899000 -28.355593 -108.82472 -0.072209224 -22.491251 -0.067860454 -22.480389 -28.372631 -112.35496
111898000 -28.270164 -109.48183 -0.073598884 -22.692974 -0.069434412 -22.68384 -28.251411 -112.49626
112897000 -28.138071 -110.0676 -0.07508669 -22.890682 -0.070650838 -22.87919 -28.114368 -112.62652
113896000 -28.036625 -110.6355 -0.076152958 -23.089197 -0.07159812 -23.078566 -28.003597 -112.79992
114895000 -27.93343 -111.27245 -0.076634549 -23.290586 -0.072708808 -23.276285 -27.896788 -112.92643
115894000 -27.814434 -111.65508 -0.078179277 -23.492041 -0.074324027 -23.475815 -27.826771 -113.06142
116893000 -27.727146 -112.08366 -0.078868546 -23.689837 -0.075829208 -23.673653 -27.710938 -113.12556
117892000 -27.644863 -112.61807 -0.078699581 -23.886543 -0.075819723 -23.873436 -27.623878 -113.35459
118891000 -27.58918 -113.02851 -0.079283737 -24.089256 -0.07582631 -24.0737 -27.533007 -113.47302
119890000 -27.502642 -113.39604 -0.079892762 -24.290386 -0.077203944 -24.275824 -27.52014 -113.60066
120889000 -27.456512 -113.91051 -0.080883734 -24.489216 -0.076974966 -24.474676 -27.447359 -113.52364
121888000 -27.424171 -114.26582 -0.081341058 -24.683537 -0.077495649 -24.674519 -27.388369 -113.79402
122887000 -27.385439 -114.41731 -0.082394093 -24.891125 -0.078210905 -24.874952 -27.341318 -113.76561
123886000 -27.321407 -114.85088 -0.083520472 -25.093546 -0.078515068 -25.067749 -27.329458 -113.93155
124885000 -27.291473 -115.34722 -0.083069518 -25.290073 -0.079011418 -25.275318 -27.302809 -113.99426
125884000 -27.23926 -115.55659 -0.084213495 -25.489777 -0.079525493 -25.477621 -27.273506 -114.15219
126883000 -27.22056 -115.87975 -0.084480338 -25.693119 -0.080542222 -25.68013 -27.232098 -114.1572
127882000 -27.175688 -116.24993 -0.084764875 -25.890451 -0.080489747 -25.875284 -27.193031 -114.29756
128881000 -27.144537 -116.55178 -0.085191458 -26.097992 -0.08032836 -26.077337 -27.155807 -114.39661
129880000 -27.089228 -116.88481 -0.085547857 -26.297583 -0.080936216 -26.277596 -27.118109 -114.34416
130879000 -27.030298 -117.05092 -0.085004032 -26.494675 -0.081656784 -26.480749 -27.045279 -114.3729
131878000 -26.966093 -117.24976 -0.085684881 -26.698471 -0.082101263 -26.68165 -26.982014 -114.23101
132877000 -26.903294 -117.34253 -0.08534009 -26.900646 -0.082138725 -26.88332 -26.900681 -114.21769
133876000 -26.813959 -117.48202 -0.086283445 -27.104334 -0.0816494 -27.083179 -26.819206 -114.06102
134875000 -26.717115 -117.60325 -0.086618021 -27.306711 -0.082342647 -27.286659 -26.715857 -113.93153
135874000 -26.636551 -117.65568 -0.086423926 -27.503168 -0.082330249 -27.485264 -26.621229 -113.89825
136873000 -26.525936 -117.57448 -0.0874708 -27.704561 -0.082208894 -27.68869 -26.537743 -113.85532
137872000 -26.44009 -117.69177 -0.086019665 -27.906494 -0.082847357 -27.895035 -26.434942 -113.79185
138871000 -26.36853 -117.91057 -0.087538943 -28.107119 -0.083023869 -28.088322 -26.334314 -113.93238
139870000 -26.265575 -118.18673 -0.087850891 -28.305639 -0.083920546 -28.289915 -26.250252 -114.10684
140869000 -26.186546 -118.70425 -0.089076981 -28.504759 -0.084658235 -28.487669 -26.150295 -114.33125
141868000 -26.105913 -119.12376 -0.089254811 -28.70689 -0.086304307 -28.68993 -26.103937 -114.55527
142867000 -26.026781 -119.33241 -0.088600345 -28.903309 -0.085371763 -28.885973 -26.022245 -114.67551
143866000 -25.950857 -119.81052 -0.090222545 -29.099771 -0.086660795 -29.081972 -25.949202 -115.15762
144865000 -25.893936 -120.33139 -0.092186689 -29.295507 -0.087966852 -29.284321 -25.884844 -115.46089
145864000 -25.836098 -120.65368 -0.092171088 -29.501692 -0.08915361 -29.486746 -25.856075 -115.69456
146863000 -25.795277 -121.02702 -0.093190521 -29.700508 -0.089242391 -29.684454 -25.804974 -115.97862
147862000 -25.760309 -121.35963 -0.093960471 -29.896257 -0.090769403 -29.882589 -25.776592 -116.3029
148861000 -25.72138 -121.81886 -0.095088005 -30.096256 -0.091722406 -30.081738 -25.749269 -116.47621
149860000 -25.689775 -121.94972 -0.095722012 -30.287798 -0.092350364 -30.278276 -25.698944 -116.59377
150859000 -25.665161 -122.42849 -0.095813572 -30.485374 -0.092151791 -30.466797 -25.677612 -116.94552
151858000 -25.65036 -122.79291 -0.095544182 -30.686411 -0.091707863 -30.673294 -25.668533 -117.28212
152857000 -25.640997 -123.10445 -0.095787637 -30.882612 -0.092258081 -30.874369 -25.648916 -117.43296
153856000 -25.635595 -123.33535 -0.095740534 -31.084229 -0.091699138 -31.074295 -25.669897 -117.77341
154855000 -25.635689 -123.51676 -0.095897466 -31.287663 -0.092201233 -31.27688 -25.662628 -118.00037
155854000 -25.64847 -123.75613 -0.096901089 -31.487555 -0.092650227 -31.473989 -25.64875 -118.24583
156853000 -25.635935 -124.45598 -0.094303831 -31.67407 -0.091854863 -31.663227 -25.645451 -118.58546
157852000 -25.636333 -124.64693 -0.095556885 -31.874287 -0.093434632 -31.866341 -25.639585 -118.95594
158851000 -25.636406 -124.89463 -0.096334405 -32.072163 -0.093468487 -32.064552 -25.618959 -119.20964
159850000 -25.62755 -124.99503 -0.096598811 -32.271412 -0.093786158 -32.265587 -25.620378 -119.37341
160849000 -25.609566 -125.05268 -0.09696912 -32.473877 -0.094308592 -32.469265 -25.592066 -119.65456
161848000 -25.594791 -125.10926 -0.096932061 -32.672157 -0.094307005 -32.667564 -25.548056 -119.77147
162847000 -25.551855 -125.30149 -0.096959323 -32.869087 -0.094943017 -32.868092 -25.518915 -120.02728
163846000 -25.511236 -125.51797 -0.096934177 -33.072132 -0.09453664 -33.065681 -25.448256 -120.02768
164845000 -25.454933 -125.53475 -0.097552568 -33.271851 -0.095464796 -33.267097 -25.386103 -120.12817
165844000 -25.400238 -125.56747 -0.097211592 -33.4739 -0.09654852 -33.466686 -25.302588 -120.26667
166843000 -25.342287 -125.59803 -0.096913531 -33.669704 -0.096192807 -33.668922 -25.240078 -120.44696
167842000 -25.281572 -125.71748 -0.098258421 -33.873184 -0.096297614 -33.867523 -25.161999 -120.3242
168841000 -25.202278 -125.83838 -0.098588355 -34.068657 -0.096529201 -34.067139 -25.082615 -120.42826
169840000 -25.136984 -126.11309 -0.098114379 -34.26543 -0.097041123 -34.263386 -25.001959 -120.60191
170839000 -25.076981 -126.34771 -0.099846348 -34.462734 -0.098257892 -34.462097 -24.912796 -120.75541
171838000 -25.020605 -126.69942 -0.1000323 -34.667446 -0.098821916 -34.658749 -24.848925 -121.01542
172837000 -24.950953 -127.08325 -0.10092746 -34.861122 -0.099224456 -34.856262 -24.784475 -121.22712
173836000 -24.884399 -127.50996 -0.10252299 -35.065727 -0.10027865 -35.061264 -24.742121 -121.44595
174835000 -24.832125 -127.87375 -0.10280474 -35.25943 -0.10116671 -35.26067 -24.69915 -121.77619
175834000 -24.779335 -128.25166 -0.10382243 -35.460983 -0.10251822 -35.457088 -24.642483 -122.02638
176833000 -24.730356 -128.57289 -0.10474011 -35.65765 -0.10261072 -35.65807 -24.592449 -122.18021
177832000 -24.687668 -129.01347 -0.10554474 -35.861626 -0.10388739 -35.857727 -24.574949 -122.29879
178831000 -24.640144 -129.27512 -0.10681351 -36.054611 -0.10624897 -36.05204 -24.534195 -122.36047
179830000 -24.570997 -129.636 -0.10827135 -36.237595 -0.10690186 -36.239738 -24.475698 -122.41069
180829000 -24.516983 -129.98843 -0.10766708 -36.430824 -0.10559646 -36.429283 -24.426018 -122.74374
181828000 -24.497074 -130.44118 -0.10670368 -36.631954 -0.10515036 -36.628662 -24.410496 -122.93928
182827000 -24.476542 -130.82037 -0.10699047 -36.827385 -0.1052469 -36.831554 -24.396694 -123.091
183826000 -24.432142 -131.16487 -0.10747656 -37.027836 -0.1053986 -37.024944 -24.385614 -123.1907
184825000 -24.440163 -131.49199 -0.10731682 -37.221962 -0.10577417 -37.225216 -24.369326 -123.31828
185824000 -24.408142 -131.84431 -0.10673817 -37.418839 -0.10612165 -37.422909 -24.364281 -123.38425
186823000 -24.393288 -132.22102 -0.10794518 -37.621914 -0.10612934 -37.62027 -24.360298 -123.41129
187822000 -24.371569 -132.54205 -0.10804125 -37.818237 -0.1061694 -37.815369 -24.317932 -123.48835
188821000 -24.347206 -132.841 -0.10791732 -38.012524 -0.10650179 -38.017265 -24.298594 -123.61343
189820000 -24.322388 -133.11827 -0.10840139 -38.212238 -0.10639488 -38.212399 -24.281948 -123.80746
190819000 -24.293671 -133.41505 -0.10903282 -38.411057 -0.10760631 -38.410763 -24.242426 -123.83368
191818000 -24.261538 -133.67972 -0.10931314 -38.607346 -0.10747205 -38.609806 -24.216574 -123.89475
192817000 -24.217781 -133.95815 -0.10930225 -38.805382 -0.10802772 -38.808361 -24.170177 -123.9951
193816000 -24.184261 -134.21355 -0.10976099 -39.000114 -0.10800224 -38.998989 -24.119661 -124.11473
194815000 -24.125252 -134.62968 -0.10993197 -39.191704 -0.10890675 -39.196896 -24.052536 -124.21638
195814000 -24.067781 -134.81476 -0.11134384 -39.391624 -0.10865989 -39.394505 -23.996414 -124.26915
196813000 -24.010057 -135.18146 -0.11101267 -39.589165 -0.10851737 -39.59486 -23.918659 -124.44922
197812000 -23.953049 -135.35214 -0.11139297 -39.788765 -0.10970417 -39.783207 -23.847942 -124.53693
198811000 -23.898693 -135.50473 -0.11090538 -39.984097 -0.10915891 -39.988636 -23.77186 -124.71308
199810000 -23.826874 -135.8802 -0.11101639 -40.177471 -0.10916528 -40.173534 -23.695131 -124.8125
200809000 -23.770126 -136.15155 -0.11136747 -40.37476 -0.10945994 -40.375477 -23.619623 -124.97958
201808000 -23.711327 -136.32539 -0.11222858 -40.577286 -0.11018101 -40.579159 -23.552298 -125.03373
202807000 -23.654312 -136.66736 -0.1131786 -40.779167 -0.11172204 -40.782604 -23.50178 -125.23318
