!Keysight Technologies,E5080B,MY59205177,A.15.75.32
!Date: Friday, February 23, 2024 02:52:00
!Correction: S11(Cdelta 2-Port  ) 
!S21(Cdelta 2-Port  ) 
!S12(Cdelta 2-Port  ) 
!S22(Cdelta 2-Port  ) 
!S2P File: Measurements: S11, S21, S12, S22:
# Hz S  dB   R 50
10000000 -42.911068 -3.7631998 -0.036222737 -2.0498316 -0.0400571 -2.1005554 -50.101166 -142.356
10999000 -42.349537 -4.9418364 -0.037454441 -2.2639968 -0.0395738 -2.3160958 -49.629601 -133.05586
11998000 -41.641785 -7.2821021 -0.03751136 -2.4897742 -0.039548982 -2.5290084 -49.655663 -126.21138
12997000 -41.062576 -11.508732 -0.036900159 -2.6658411 -0.039324854 -2.6962109 -48.670403 -119.54425
13996000 -40.836067 -14.550197 -0.035992257 -2.8443787 -0.039381277 -2.8652794 -48.05489 -113.86088
14995000 -40.577133 -17.776361 -0.037751585 -3.0527542 -0.039002791 -3.0795126 -47.447086 -110.46202
15994000 -40.520752 -21.292336 -0.038931485 -3.2760777 -0.041601673 -3.2979004 -47.127361 -106.87939
16993000 -40.511791 -24.814457 -0.038420103 -3.472729 -0.040687039 -3.4829056 -46.142303 -108.99442
17992000 -40.589569 -29.050055 -0.039467219 -3.6689084 -0.04151595 -3.670408 -45.565018 -110.49185
18991000 -40.910625 -32.756104 -0.039310489 -3.8814702 -0.04237508 -3.8753674 -44.773949 -110.86234
19990000 -40.820679 -37.630341 -0.042304765 -4.088449 -0.04382294 -4.0842023 -44.048641 -113.13126
20989000 -40.7794 -40.222576 -0.044002064 -4.2943101 -0.045591988 -4.2832766 -43.435959 -113.57494
21988000 -40.724327 -44.400848 -0.044927858 -4.4906287 -0.046913225 -4.4747691 -43.224152 -113.32922
22987000 -40.579311 -48.469013 -0.046332352 -4.688158 -0.04758865 -4.6767941 -42.877533 -113.16784
23986000 -40.664284 -52.069618 -0.045702904 -4.8794875 -0.046034623 -4.8802776 -42.750748 -113.54523
24985000 -40.380013 -54.984024 -0.046487246 -5.0860815 -0.047062904 -5.0856361 -42.45195 -111.28529
25984000 -40.204285 -56.917446 -0.047744632 -5.299696 -0.047764786 -5.2972341 -42.053322 -109.98564
26983000 -39.972588 -58.958984 -0.048308678 -5.4947209 -0.048953693 -5.513689 -41.887081 -109.30164
27982000 -39.814178 -59.896824 -0.050151043 -5.6970949 -0.050703876 -5.7322297 -41.536736 -107.82859
28981000 -39.840919 -61.157871 -0.047940668 -5.893908 -0.050396156 -5.9180956 -41.244862 -107.56113
29980000 -39.478123 -63.15432 -0.048120219 -6.0892997 -0.050730851 -6.0891666 -40.919533 -106.68959
30979000 -39.114315 -62.514797 -0.045095254 -6.4389544 -0.044477489 -6.4313512 -40.400166 -107.87241
31978000 -38.959393 -63.665642 -0.044440612 -6.6346898 -0.046110231 -6.6226311 -40.098217 -107.56216
32977000 -38.799355 -65.205627 -0.044864301 -6.839426 -0.046417125 -6.842155 -39.865444 -107.84828
33976000 -38.658947 -66.463463 -0.045544378 -7.0445385 -0.047363061 -7.0378819 -39.523449 -107.45438
34975000 -38.431381 -67.412537 -0.045961108 -7.2434559 -0.048533272 -7.2429399 -39.275505 -107.46665
35974000 -38.246563 -68.212578 -0.044607729 -7.441721 -0.047914494 -7.4414144 -38.954178 -106.7812
36973000 -38.021622 -69.296928 -0.045194123 -7.6391277 -0.048415739 -7.6452599 -38.647648 -106.10264
37972000 -37.870617 -69.254417 -0.045088451 -7.8484759 -0.048090644 -7.8587313 -38.397964 -105.5865
38971000 -37.540283 -69.111549 -0.04606314 -8.050684 -0.048751067 -8.065011 -38.176937 -103.955
39970000 -37.249855 -69.725319 -0.044649314 -8.2414389 -0.047156587 -8.2575321 -37.85862 -103.60958
40969000 -36.960613 -69.724754 -0.044056453 -8.438077 -0.047528457 -8.4608479 -37.583324 -102.32993
41968000 -36.626389 -69.996216 -0.044868484 -8.6466846 -0.048028085 -8.6586981 -37.368855 -101.27722
42967000 -36.368565 -70.255486 -0.044356667 -8.8577127 -0.048311558 -8.8693895 -37.113308 -99.470863
43966000 -36.10857 -71.417847 -0.045580477 -9.055563 -0.048610494 -9.0723705 -36.806206 -99.005951
44965000 -35.899788 -72.212555 -0.046104997 -9.2588892 -0.048646096 -9.280282 -36.615082 -98.994431
45964000 -35.707829 -73.546928 -0.047659576 -9.4567728 -0.050592046 -9.4769325 -36.358246 -98.979378
46963000 -35.540512 -75.447205 -0.047961868 -9.6533089 -0.051171131 -9.6716967 -36.185093 -99.294495
47962000 -35.411701 -76.9869 -0.048920706 -9.856554 -0.052340534 -9.8701906 -35.96854 -99.607552
48961000 -35.238354 -78.426155 -0.051095434 -10.049042 -0.054197449 -10.069788 -35.726822 -100.01622
49960000 -35.039913 -79.976997 -0.052601229 -10.252282 -0.056125175 -10.27198 -35.609993 -100.26243
50959000 -34.848217 -81.323021 -0.053485092 -10.463428 -0.056516435 -10.473365 -35.423695 -100.8011
51958000 -34.677532 -82.500916 -0.055459958 -10.661973 -0.057736333 -10.672824 -35.26405 -101.37296
52957000 -34.466549 -83.771225 -0.056206465 -10.865075 -0.058487695 -10.86844 -35.083469 -101.34066
53956000 -34.33707 -84.586685 -0.05821405 -11.062259 -0.059394274 -11.06754 -34.945484 -101.37563
54955000 -34.177986 -85.143982 -0.057972167 -11.264877 -0.060870662 -11.263321 -34.797955 -101.42387
55954000 -34.026936 -86.050957 -0.059601333 -11.461993 -0.060974617 -11.462513 -34.67841 -101.3004
56953000 -33.915955 -86.261253 -0.059379578 -11.663557 -0.060409188 -11.652456 -34.601322 -101.5285
57952000 -33.74715 -86.872238 -0.060302358 -11.85955 -0.061262347 -11.853898 -34.505997 -101.68252
58951000 -33.656399 -87.31044 -0.06141961 -12.065209 -0.061821062 -12.042517 -34.354469 -101.83666
59950000 -33.529812 -87.757233 -0.062504329 -12.269073 -0.063085787 -12.24153 -34.282726 -102.24375
60949000 -33.41769 -88.393272 -0.06252376 -12.468493 -0.063041925 -12.445139 -34.187901 -102.45494
61948000 -33.35817 -88.685631 -0.063317448 -12.666127 -0.063389421 -12.649237 -34.092533 -102.66599
62947000 -33.275799 -88.968094 -0.063095242 -12.87464 -0.063746922 -12.858283 -33.967545 -103.00619
63946000 -33.225338 -89.73008 -0.064024858 -13.076132 -0.064368747 -13.054884 -33.856865 -103.11012
64945000 -33.095181 -89.912071 -0.064716086 -13.277033 -0.065065816 -13.25737 -33.749065 -103.68262
65944000 -33.006775 -90.269737 -0.066035531 -13.478724 -0.065700702 -13.457452 -33.655827 -104.12902
66943000 -32.874115 -90.658981 -0.063201621 -13.677627 -0.063724332 -13.662197 -33.554199 -104.43907
67942000 -32.814968 -90.629089 -0.065367483 -13.871108 -0.065850504 -13.859924 -33.432438 -104.74896
68941000 -32.696198 -90.761086 -0.06464199 -14.065731 -0.064965963 -14.059687 -33.32753 -104.82349
69940000 -32.597492 -90.816818 -0.065428443 -14.267125 -0.066293374 -14.25643 -33.188564 -105.13436
70939000 -32.494389 -90.82869 -0.065150954 -14.461365 -0.065772191 -14.458798 -33.059856 -105.16187
71938000 -32.340946 -90.420624 -0.065821074 -14.657443 -0.065497033 -14.654782 -32.918056 -105.00581
72937000 -32.182846 -90.324692 -0.065067127 -14.859661 -0.065174334 -14.850443 -32.769299 -104.67783
73936000 -32.042076 -90.025871 -0.065028504 -15.059121 -0.065312557 -15.04685 -32.649555 -104.55782
74935000 -31.915312 -90.309563 -0.064057954 -15.253691 -0.064077131 -15.247079 -32.486088 -104.23524
75934000 -31.796906 -90.598389 -0.06425105 -15.458093 -0.063465334 -15.453534 -32.395229 -104.2671
76933000 -31.673441 -91.031647 -0.06610781 -15.651811 -0.06552358 -15.646345 -32.225571 -104.69733
77932000 -31.579775 -91.835976 -0.066776238 -15.85311 -0.067026235 -15.843883 -32.138203 -104.64661
78931000 -31.519489 -92.679306 -0.064999595 -16.054836 -0.066263936 -16.044989 -32.046963 -104.57537
79930000 -31.418318 -93.486977 -0.067897789 -16.241362 -0.06902726 -16.239773 -31.938335 -104.92189
80929000 -31.292091 -94.442444 -0.07020279 -16.43602 -0.070227787 -16.431684 -31.841225 -105.30817
81928000 -31.221237 -95.2966 -0.070122026 -16.627094 -0.070499294 -16.627682 -31.717709 -105.51888
82927000 -31.138048 -96.044029 -0.071462333 -16.826622 -0.071908668 -16.82556 -31.620644 -105.82653
83926000 -31.03047 -96.795471 -0.073063917 -17.023167 -0.072695382 -17.023611 -31.506977 -106.03493
84925000 -30.922203 -97.349915 -0.073585719 -17.224331 -0.073086299 -17.217712 -31.408823 -106.17146
85924000 -30.845032 -97.817307 -0.074698232 -17.42342 -0.074894428 -17.424353 -31.323355 -106.21357
86923000 -30.736412 -98.38723 -0.075003728 -17.623686 -0.075116977 -17.619604 -31.221445 -106.1778
87922000 -30.629147 -98.823936 -0.074185781 -17.829212 -0.074427254 -17.821487 -31.133852 -106.2948
88921000 -30.567509 -99.162354 -0.075851329 -18.02846 -0.075238399 -18.022448 -31.026619 -106.28574
89920000 -30.466555 -99.744232 -0.076916471 -18.227116 -0.076187998 -18.216879 -30.98345 -106.53196
90919000 -30.366611 -100.13512 -0.077432409 -18.421488 -0.076738358 -18.416998 -30.90443 -106.75951
91918000 -30.271639 -100.46442 -0.078033 -18.623133 -0.0775415 -18.617144 -30.824287 -106.79376
92917000 -30.196161 -100.86195 -0.07942874 -18.818607 -0.078639477 -18.81443 -30.761154 -106.89494
93916000 -30.100624 -101.26315 -0.078870654 -19.014273 -0.078242533 -19.011274 -30.674498 -107.5591
94915000 -30.031527 -101.92176 -0.080098957 -19.211493 -0.079501241 -19.208258 -30.608564 -107.43114
95914000 -29.9645 -102.18279 -0.081564724 -19.408796 -0.080669068 -19.406252 -30.519159 -107.76762
96913000 -29.88274 -102.43621 -0.082137935 -19.609436 -0.081372976 -19.605875 -30.453218 -108.14197
97912000 -29.806465 -102.89815 -0.083419405 -19.803593 -0.081209451 -19.803736 -30.366686 -108.35005
98911000 -29.708073 -103.12421 -0.083937436 -20.005909 -0.082671903 -20.001745 -30.337355 -108.56338
99910000 -29.639164 -103.26809 -0.084661402 -20.206892 -0.083152629 -20.200691 -30.224295 -108.85538
100909000 -29.548273 -103.53036 -0.083451599 -20.410915 -0.082412556 -20.406357 -30.132925 -109.1756
101908000 -29.464102 -103.82819 -0.084914811 -20.612074 -0.084030069 -20.610867 -30.018839 -108.88078
102907000 -29.325525 -103.85822 -0.085534655 -20.812384 -0.084086016 -20.809835 -29.937445 -108.86258
103906000 -29.231306 -103.91918 -0.085891083 -21.015574 -0.08328826 -21.012777 -29.792189 -108.83033
104905000 -29.079323 -103.83978 -0.086337581 -21.217339 -0.085302599 -21.210651 -29.657482 -108.51363
105904000 -28.942768 -104.03074 -0.086803928 -21.418688 -0.08396963 -21.412035 -29.547144 -108.36853
106903000 -28.828539 -104.13378 -0.086611152 -21.62278 -0.083961979 -21.621611 -29.413326 -108.2618
107902000 -28.666445 -104.55441 -0.087202981 -21.824814 -0.085608579 -21.815678 -29.270943 -108.22843
108901000 -28.562674 -104.75829 -0.089025192 -22.026125 -0.085881576 -22.017153 -29.140144 -108.21464
109900000 -28.439049 -105.30824 -0.089496329 -22.222368 -0.087653838 -22.21681 -28.987078 -108.37907
110899000 -28.323038 -105.9207 -0.091439255 -22.422768 -0.088273287 -22.414482 -28.85766 -108.66545
111898000 -28.236082 -106.64562 -0.092463538 -22.621836 -0.089781724 -22.616497 -28.739656 -108.83812
112897000 -28.110859 -107.22729 -0.093886144 -22.819765 -0.090608694 -22.812374 -28.612249 -109.0502
113896000 -28.013838 -107.82593 -0.094783738 -23.023842 -0.091817059 -23.013615 -28.495449 -109.27185
114895000 -27.913332 -108.50953 -0.095648706 -23.220549 -0.09327171 -23.205088 -28.386671 -109.33685
115894000 -27.77972 -108.89002 -0.097133771 -23.418488 -0.09499196 -23.407511 -28.310442 -109.56885
116893000 -27.711395 -109.54916 -0.097750328 -23.61338 -0.095437542 -23.598003 -28.185818 -109.71407
117892000 -27.630703 -110.05183 -0.097267188 -23.815901 -0.095841892 -23.799261 -28.109619 -109.95866
118891000 -27.573978 -110.45838 -0.098215528 -24.015135 -0.096187778 -23.998226 -28.01519 -110.11429
119890000 -27.482431 -110.89158 -0.098584644 -24.212185 -0.096585311 -24.200516 -28.00222 -110.31532
120889000 -27.427795 -111.38348 -0.099941447 -24.415817 -0.096924387 -24.404516 -27.929922 -110.2793
121888000 -27.386507 -111.71669 -0.099928997 -24.616068 -0.097478703 -24.598972 -27.871813 -110.61714
122887000 -27.355536 -111.97719 -0.10133682 -24.812187 -0.098440334 -24.801172 -27.823858 -110.62906
123886000 -27.294304 -112.3989 -0.10166566 -25.017845 -0.098960683 -24.997208 -27.812027 -110.83788
124885000 -27.258121 -112.90585 -0.10240823 -25.21282 -0.099386543 -25.198454 -27.780155 -110.92429
125884000 -27.209579 -113.13264 -0.10316709 -25.411272 -0.099387601 -25.399916 -27.748549 -111.08401
126883000 -27.193617 -113.50455 -0.10305921 -25.61331 -0.10044581 -25.601 -27.706606 -111.11546
127882000 -27.133596 -113.79153 -0.10326783 -25.815544 -0.10093541 -25.797848 -27.659704 -111.2807
128881000 -27.106422 -114.09586 -0.10355785 -26.013498 -0.10108987 -25.998722 -27.621029 -111.397
129880000 -27.052874 -114.43365 -0.1044768 -26.217552 -0.10079101 -26.199299 -27.579849 -111.38788
130879000 -26.987366 -114.59705 -0.1044137 -26.415358 -0.10177828 -26.399307 -27.499544 -111.49054
131878000 -26.920742 -114.81738 -0.10454787 -26.620235 -0.10175762 -26.598537 -27.438427 -111.33129
132877000 -26.85107 -114.88736 -0.1042477 -26.821531 -0.10249755 -26.804312 -27.352831 -111.34637
133876000 -26.770887 -115.06554 -0.10452824 -27.02075 -0.10194603 -27.001387 -27.255342 -111.26274
134875000 -26.671494 -115.23111 -0.10487377 -27.22455 -0.10301706 -27.202402 -27.151262 -111.13326
135874000 -26.590693 -115.23698 -0.10508831 -27.42141 -0.10265975 -27.406967 -27.050499 -111.12406
136873000 -26.473162 -115.20475 -0.10531957 -27.624432 -0.10232262 -27.604389 -26.959707 -111.11738
137872000 -26.397659 -115.30376 -0.10563837 -27.822838 -0.10244454 -27.80817 -26.852417 -111.08956
138871000 -26.32375 -115.50571 -0.10624102 -28.025455 -0.10319573 -28.004711 -26.752474 -111.26642
139870000 -26.222641 -115.75985 -0.10676151 -28.224123 -0.10472049 -28.206539 -26.671463 -111.42585
140869000 -26.139242 -116.25191 -0.10928792 -28.419525 -0.10511006 -28.400911 -26.562725 -111.5811
141868000 -26.043594 -116.77289 -0.10889082 -28.61071 -0.10596674 -28.595844 -26.495697 -111.97789
142867000 -25.965107 -117.03177 -0.10734919 -28.807673 -0.10529862 -28.794159 -26.417959 -112.15821
143866000 -25.898315 -117.52413 -0.10919289 -29.007042 -0.10677345 -28.990728 -26.350807 -112.65995
144865000 -25.843945 -118.09454 -0.1104991 -29.205479 -0.10815563 -29.188166 -26.288891 -113.00793
145864000 -25.789373 -118.37151 -0.11092503 -29.403381 -0.10912573 -29.39587 -26.265335 -113.28982
146863000 -25.738863 -118.78774 -0.111095 -29.605585 -0.10940234 -29.592587 -26.210369 -113.61572
147862000 -25.699955 -119.17741 -0.11246128 -29.798315 -0.10993914 -29.789652 -26.171719 -113.97983
148861000 -25.67169 -119.70758 -0.11343155 -29.998262 -0.1109022 -29.98214 -26.151247 -114.25357
149860000 -25.6528 -119.90378 -0.11378442 -30.198414 -0.11083049 -30.187309 -26.115406 -114.38225
150859000 -25.633081 -120.30678 -0.11335423 -30.397665 -0.11206283 -30.382881 -26.110153 -114.65567
151858000 -25.618889 -120.63282 -0.11401056 -30.597496 -0.11190876 -30.583313 -26.104614 -114.95612
152857000 -25.59691 -120.97522 -0.11464043 -30.794153 -0.11172178 -30.783054 -26.080448 -115.09979
153856000 -25.589607 -121.17777 -0.11319082 -30.992544 -0.11154595 -30.979095 -26.108969 -115.39013
154855000 -25.590431 -121.35524 -0.11426755 -31.195772 -0.1114915 -31.182583 -26.091623 -115.66531
155854000 -25.602409 -121.59885 -0.11506039 -31.391542 -0.11226524 -31.377718 -26.080904 -115.92683
156853000 -25.581089 -122.30892 -0.11236193 -31.579548 -0.11095797 -31.570463 -26.076733 -116.18641
157852000 -25.590353 -122.54739 -0.11373793 -31.777893 -0.1131972 -31.769974 -26.070585 -116.543
158851000 -25.583464 -122.7697 -0.11448202 -31.977365 -0.11349585 -31.969213 -26.052792 -116.83639
159850000 -25.569746 -122.88392 -0.11544237 -32.174366 -0.11358991 -32.167164 -26.050533 -116.9506
160849000 -25.545908 -123.00208 -0.11515608 -32.376236 -0.11445997 -32.371212 -26.022278 -117.23979
161848000 -25.524916 -123.11877 -0.11571699 -32.572685 -0.11450727 -32.569645 -25.978725 -117.38715
162847000 -25.484638 -123.27418 -0.11596503 -32.772861 -0.11515024 -32.768417 -25.950071 -117.62426
163846000 -25.439539 -123.52499 -0.11616284 -32.974598 -0.11484616 -32.964348 -25.872797 -117.62315
164845000 -25.374361 -123.53356 -0.11668558 -33.171284 -0.11493121 -33.165337 -25.802031 -117.70047
165844000 -25.319094 -123.58644 -0.11658348 -33.374863 -0.11567259 -33.366642 -25.723179 -117.85648
166843000 -25.258202 -123.67294 -0.1165513 -33.566536 -0.11496975 -33.563602 -25.650505 -118.07529
167842000 -25.200304 -123.84569 -0.11655104 -33.76889 -0.1159762 -33.763203 -25.568048 -117.95298
168841000 -25.117893 -124.04073 -0.11754642 -33.966011 -0.11633115 -33.961308 -25.485209 -118.06076
169840000 -25.05694 -124.32796 -0.11742035 -34.158329 -0.11673611 -34.157246 -25.398088 -118.28081
170839000 -24.997517 -124.58382 -0.11822494 -34.358654 -0.11775468 -34.358059 -25.318468 -118.48668
171838000 -24.941879 -124.99578 -0.11840051 -34.561501 -0.11816429 -34.554115 -25.251673 -118.73052
172837000 -24.871799 -125.37856 -0.12017678 -34.754704 -0.12013952 -34.751595 -25.179096 -118.94251
173836000 -24.805199 -125.80198 -0.12129038 -34.956059 -0.1205193 -34.953564 -25.138552 -119.19841
174835000 -24.757566 -126.2302 -0.1214634 -35.149868 -0.12151744 -35.151043 -25.095602 -119.56123
175834000 -24.701645 -126.66452 -0.12219499 -35.35096 -0.12179085 -35.346691 -25.029085 -119.86479
176833000 -24.653 -127.0526 -0.12357596 -35.548439 -0.12249879 -35.543674 -24.979233 -120.00391
177832000 -24.60751 -127.53566 -0.12374216 -35.739616 -0.12253048 -35.741013 -24.957516 -120.20116
178831000 -24.56592 -127.92148 -0.12374163 -35.940041 -0.12320791 -35.936859 -24.919676 -120.4276
179830000 -24.533237 -128.35333 -0.12453406 -36.136692 -0.1235749 -36.138542 -24.893173 -120.58859
180829000 -24.495512 -128.58163 -0.12520382 -36.330772 -0.12396695 -36.336731 -24.86109 -120.81138
181828000 -24.470306 -128.97093 -0.12544309 -36.534664 -0.12390143 -36.526867 -24.844137 -120.90568
182827000 -24.450464 -129.3019 -0.12515746 -36.723808 -0.12482311 -36.723312 -24.833334 -121.00432
183826000 -24.405527 -129.67323 -0.12626487 -36.927822 -0.12525684 -36.917534 -24.825352 -121.14182
184825000 -24.41118 -129.99046 -0.12676778 -37.117802 -0.12504023 -37.119488 -24.809483 -121.21826
185824000 -24.378429 -130.35876 -0.12602584 -37.314339 -0.12591551 -37.318016 -24.804644 -121.31242
186823000 -24.370893 -130.70021 -0.12617347 -37.511627 -0.12574418 -37.510551 -24.801065 -121.25412
187822000 -24.343138 -130.98431 -0.12652259 -37.709229 -0.12615801 -37.706394 -24.771729 -121.31669
188821000 -24.323936 -131.26479 -0.12682642 -37.903835 -0.12603116 -37.909096 -24.746349 -121.43833
189820000 -24.309895 -131.50745 -0.12725395 -38.108646 -0.126856 -38.10667 -24.742601 -121.58942
190819000 -24.277979 -131.79405 -0.12864187 -38.307236 -0.12750986 -38.305328 -24.706755 -121.55192
191818000 -24.247007 -131.9406 -0.12961896 -38.49966 -0.12893413 -38.503002 -24.670948 -121.4428
192817000 -24.176441 -132.21393 -0.13011345 -38.685169 -0.12959923 -38.686928 -24.598082 -121.51848
193816000 -24.135387 -132.56781 -0.12896346 -38.879307 -0.1282094 -38.878761 -24.545078 -121.78942
194815000 -24.082623 -133.0383 -0.12923972 -39.074654 -0.12854294 -39.079929 -24.481327 -121.90552
195814000 -24.024323 -133.24364 -0.12978272 -39.271702 -0.12910905 -39.274746 -24.42551 -122.00056
196813000 -23.973387 -133.56708 -0.1294136 -39.468758 -0.12850322 -39.467918 -24.345474 -122.1896
197812000 -23.91691 -133.83543 -0.12923492 -39.66642 -0.12951121 -39.664288 -24.274857 -122.2785
198811000 -23.860746 -133.99918 -0.12958962 -39.862789 -0.1293536 -39.861935 -24.204254 -122.45584
199810000 -23.792267 -134.38971 -0.13002169 -40.058071 -0.12844083 -40.054996 -24.12578 -122.58746
200809000 -23.733263 -134.68045 -0.13072538 -40.255672 -0.12867653 -40.25491 -24.043728 -122.78201
201808000 -23.675098 -134.91223 -0.13102311 -40.455906 -0.12957895 -40.455677 -23.975866 -122.8952
202807000 -23.622116 -135.29303 -0.13110101 -40.656948 -0.13035725 -40.656891 -23.923794 -123.11749
203806000 -23.569736 -135.73242 -0.13309014 -40.856251 -0.13087237 -40.855724 -23.852926 -123.27463
