!Keysight Technologies,E5080B,MY59205177,A.15.75.32
!Date: Friday, February 23, 2024 03:30:15
!Correction: S11(Cdelta 2-Port  ) 
!S21(Cdelta 2-Port  ) 
!S12(Cdelta 2-Port  ) 
!S22(Cdelta 2-Port  ) 
!S2P File: Measurements: S11, S21, S12, S22:
# Hz S  dB   R 50
10000000 -45.991508 -1.9967401 -0.015690355 -2.048718 -0.018965026 -2.1064951 -46.032639 -157.9415
10999000 -45.197365 -3.7102249 -0.016816979 -2.273175 -0.018985046 -2.3210053 -45.968334 -151.96758
11998000 -44.300983 -6.7385869 -0.017382741 -2.4979446 -0.017919462 -2.5379329 -46.147083 -147.5938
12997000 -43.516853 -12.265913 -0.016451107 -2.6739867 -0.018507725 -2.7062025 -45.814602 -141.61652
13996000 -43.246658 -16.412088 -0.015632162 -2.852236 -0.018802015 -2.874248 -45.59045 -136.62193
14995000 -42.885071 -20.594654 -0.017874235 -3.0653427 -0.018510064 -3.0892055 -45.267517 -132.99767
15994000 -42.707054 -25.095243 -0.019370634 -3.2835884 -0.020586124 -3.3073845 -45.220543 -129.56331
16993000 -42.603191 -29.543884 -0.019032106 -3.4805818 -0.020229034 -3.4901097 -44.378292 -129.18965
17992000 -42.728123 -34.749096 -0.019552389 -3.6820753 -0.02035673 -3.6875381 -43.786903 -129.60202
18991000 -42.995953 -40.192581 -0.020123187 -3.8916297 -0.021682279 -3.8865664 -43.160732 -128.00903
19990000 -42.735729 -46.089756 -0.022086579 -4.1004419 -0.023844447 -4.0963483 -42.495907 -128.98674
20989000 -42.615685 -49.303108 -0.023867093 -4.3058014 -0.02554418 -4.2968249 -41.961914 -128.45453
21988000 -42.476711 -54.498413 -0.025286404 -4.5027871 -0.025995454 -4.4897094 -41.682983 -127.64662
22987000 -42.12923 -59.190392 -0.026305357 -4.7015018 -0.027766889 -4.6937938 -41.401081 -127.11486
23986000 -42.102257 -63.250278 -0.025566053 -4.8961763 -0.026281917 -4.8977652 -41.319351 -127.0856
24985000 -41.7355 -66.203911 -0.026846047 -5.1088858 -0.026195977 -5.1012025 -41.095383 -124.56727
25984000 -41.389359 -68.440689 -0.028130589 -5.3108392 -0.027138298 -5.315567 -40.801781 -123.08196
26983000 -41.082066 -70.130119 -0.028834891 -5.5169706 -0.027642623 -5.5298758 -40.676857 -122.26838
27982000 -40.906853 -71.079697 -0.029813234 -5.7116117 -0.028754633 -5.7501259 -40.415836 -120.67839
28981000 -40.84166 -72.676392 -0.028661346 -5.9148932 -0.028849224 -5.9342599 -40.158875 -119.92904
29980000 -40.423828 -73.650787 -0.028157426 -6.1062074 -0.029300319 -6.1109872 -39.889091 -119.26971
30979000 -40.077183 -73.104195 -0.02601264 -6.4649715 -0.024817761 -6.4525304 -39.391529 -119.5884
31978000 -39.849739 -73.905334 -0.025152056 -6.6548457 -0.025691301 -6.6463523 -39.135612 -118.81204
32977000 -39.670734 -75.501175 -0.024719352 -6.8704405 -0.025946235 -6.8623247 -38.890507 -118.95908
33976000 -39.489899 -76.672897 -0.026144153 -7.070178 -0.0261866 -7.0630937 -38.596569 -118.25473
34975000 -39.220303 -77.462906 -0.026085557 -7.2679977 -0.027371177 -7.268002 -38.391731 -117.92737
35974000 -39.004742 -78.083008 -0.025789991 -7.4653602 -0.027932843 -7.4667869 -38.112892 -116.93937
36973000 -38.738892 -78.778313 -0.025937121 -7.6640024 -0.027952122 -7.6678734 -37.835552 -115.96525
37972000 -38.592125 -78.40139 -0.025330147 -7.871531 -0.028017776 -7.8818002 -37.620304 -115.19193
38971000 -38.257442 -77.759857 -0.026824951 -8.0738239 -0.028550604 -8.0893078 -37.456764 -113.66152
39970000 -37.914707 -78.396225 -0.024858115 -8.2686262 -0.026829379 -8.2887774 -37.200615 -113.0499
40969000 -37.63316 -78.01577 -0.024603765 -8.4713593 -0.027075002 -8.4860764 -36.957115 -111.58907
41968000 -37.299229 -77.880432 -0.025504861 -8.6748323 -0.027255779 -8.6886444 -36.761375 -110.28872
42967000 -37.01577 -77.998993 -0.025708748 -8.8806868 -0.028322874 -8.902029 -36.562553 -108.31725
43966000 -36.719517 -78.570282 -0.026418647 -9.0837507 -0.029726962 -9.1035757 -36.303982 -107.55067
44965000 -36.494625 -79.24437 -0.027312044 -9.2850237 -0.028978737 -9.3084164 -36.082581 -107.35245
45964000 -36.240112 -80.41021 -0.028617831 -9.4875021 -0.030600186 -9.5096931 -35.849957 -106.99197
46963000 -36.049057 -82.367538 -0.028632943 -9.6824656 -0.031181565 -9.7076683 -35.665005 -107.246
47962000 -35.901421 -83.810509 -0.029775441 -9.8848934 -0.032866694 -9.902422 -35.462444 -107.2471
48961000 -35.675457 -85.235489 -0.032130446 -10.080662 -0.034250077 -10.105068 -35.232567 -107.40017
49960000 -35.4426 -86.48243 -0.033474986 -10.279305 -0.035522718 -10.305573 -35.105076 -107.53152
50959000 -35.221539 -87.803787 -0.034070574 -10.495989 -0.036364738 -10.508378 -34.928448 -107.78025
51958000 -35.021168 -88.926575 -0.035976335 -10.695323 -0.037927322 -10.70822 -34.745281 -108.29062
52957000 -34.807407 -89.981476 -0.037791014 -10.895627 -0.03875649 -10.903376 -34.569424 -107.98564
53956000 -34.646805 -90.647713 -0.038618065 -11.096642 -0.039643809 -11.101384 -34.437286 -107.99824
54955000 -34.479317 -91.129898 -0.039437179 -11.299514 -0.04010883 -11.2955 -34.285191 -107.88574
55954000 -34.310829 -91.896408 -0.040422615 -11.495931 -0.04083154 -11.495644 -34.181221 -107.68784
56953000 -34.185982 -92.069092 -0.040855579 -11.699441 -0.039106485 -11.689896 -34.11311 -107.78588
57952000 -34.030258 -92.673103 -0.041631207 -11.896989 -0.040799659 -11.888354 -34.010231 -107.90585
58951000 -33.905991 -92.886932 -0.042469446 -12.103045 -0.04120731 -12.082144 -33.863468 -107.97752
59950000 -33.78146 -93.332588 -0.043694295 -12.303373 -0.042411413 -12.282546 -33.800991 -108.29208
60949000 -33.671741 -93.936241 -0.043710768 -12.503329 -0.043378439 -12.483717 -33.706841 -108.49228
61948000 -33.602848 -94.150696 -0.044330254 -12.706058 -0.042610344 -12.687665 -33.615112 -108.54385
62947000 -33.514568 -94.339218 -0.044296779 -12.914394 -0.043713644 -12.89685 -33.481953 -108.86549
63946000 -33.437637 -95.229294 -0.045129254 -13.117488 -0.044743467 -13.09496 -33.365047 -109.03934
64945000 -33.334869 -95.329506 -0.04665418 -13.316009 -0.045120101 -13.297745 -33.262501 -109.46825
65944000 -33.229984 -95.556213 -0.046808295 -13.519421 -0.045634102 -13.5005 -33.151413 -109.94057
66943000 -33.082104 -95.952019 -0.044405833 -13.719171 -0.044223554 -13.701999 -33.048893 -110.19305
67942000 -33.029007 -95.913658 -0.046568617 -13.915962 -0.0457513 -13.903678 -32.93158 -110.45078
68941000 -32.912518 -95.954559 -0.046128806 -14.11028 -0.044883918 -14.104586 -32.823547 -110.43455
69940000 -32.807907 -96.008179 -0.046360873 -14.311528 -0.045493629 -14.299487 -32.688499 -110.7355
70939000 -32.700439 -95.910744 -0.046564955 -14.507588 -0.045443665 -14.499635 -32.562607 -110.63966
71938000 -32.56245 -95.468231 -0.046303313 -14.703095 -0.045227345 -14.697937 -32.432343 -110.36323
72937000 -32.400707 -95.254501 -0.046233978 -14.903669 -0.044833437 -14.895962 -32.277416 -110.13258
73936000 -32.262768 -94.872681 -0.046213049 -15.098191 -0.045064911 -15.09049 -32.154465 -109.90332
74935000 -32.135136 -95.145348 -0.045466948 -15.297938 -0.043796793 -15.29333 -32.009121 -109.58047
75934000 -32.006557 -95.351234 -0.044982258 -15.507209 -0.044038672 -15.503614 -31.927938 -109.50916
76933000 -31.88517 -95.665253 -0.046562076 -15.704271 -0.045580477 -15.694332 -31.752937 -109.79115
77932000 -31.778954 -96.549484 -0.047724217 -15.899497 -0.046940178 -15.894846 -31.641895 -109.74232
78931000 -31.704433 -97.192886 -0.046622258 -16.101379 -0.045942795 -16.092659 -31.539618 -109.60386
79930000 -31.590538 -98.109169 -0.048311818 -16.290855 -0.048305277 -16.293095 -31.44068 -109.95197
80929000 -31.476688 -98.92054 -0.050921783 -16.488022 -0.049743336 -16.486525 -31.335752 -110.12342
81928000 -31.374903 -99.618294 -0.050585497 -16.679636 -0.05078873 -16.679005 -31.210199 -110.16283
82927000 -31.279428 -100.35026 -0.052350488 -16.880661 -0.051118482 -16.879034 -31.099915 -110.47153
83926000 -31.161936 -101.08263 -0.05348378 -17.078867 -0.052057322 -17.077467 -30.985813 -110.71893
84925000 -31.055088 -101.48862 -0.054361794 -17.276112 -0.052887883 -17.27503 -30.878662 -110.70509
85924000 -30.962749 -101.89583 -0.055236578 -17.478661 -0.054095753 -17.476883 -30.792559 -110.62717
86923000 -30.849895 -102.37395 -0.056006912 -17.673311 -0.055275906 -17.669451 -30.691736 -110.58252
87922000 -30.732729 -102.75562 -0.055288751 -17.889442 -0.054191157 -17.876995 -30.603745 -110.5232
88921000 -30.667986 -103.01853 -0.056966741 -18.081587 -0.055188864 -18.077009 -30.513561 -110.59384
89920000 -30.556364 -103.58515 -0.057304829 -18.282949 -0.055251785 -18.270796 -30.445362 -110.66962
90919000 -30.466188 -103.86385 -0.058750857 -18.479961 -0.05686865 -18.473558 -30.361666 -110.84538
91918000 -30.358118 -104.21785 -0.058448076 -18.67881 -0.05719519 -18.672441 -30.294001 -110.89557
92917000 -30.268705 -104.51688 -0.059887398 -18.881159 -0.058782868 -18.87524 -30.227291 -110.95855
93916000 -30.17584 -104.89642 -0.059877686 -19.071634 -0.058525212 -19.063337 -30.142632 -111.58282
94915000 -30.089861 -105.50346 -0.061163634 -19.272985 -0.059561968 -19.270502 -30.079227 -111.42437
95914000 -30.031311 -105.66132 -0.061711572 -19.467823 -0.060780618 -19.462864 -29.987646 -111.73093
96913000 -29.942738 -105.85704 -0.063032471 -19.668518 -0.061653282 -19.666399 -29.924173 -112.05941
97912000 -29.869528 -106.36887 -0.064888448 -19.864458 -0.061628602 -19.866129 -29.845001 -112.28139
98911000 -29.755363 -106.51482 -0.064516664 -20.069731 -0.063349761 -20.06823 -29.79661 -112.52158
99910000 -29.691896 -106.64515 -0.065456301 -20.266237 -0.063992016 -20.263079 -29.69558 -112.79007
100909000 -29.601707 -106.89976 -0.064692177 -20.474976 -0.062946327 -20.470995 -29.60601 -112.96712
101908000 -29.507803 -107.09908 -0.065998212 -20.676128 -0.063932382 -20.674683 -29.495003 -112.77354
102907000 -29.371426 -107.11665 -0.066548601 -20.875153 -0.064484611 -20.874844 -29.416416 -112.76466
103906000 -29.271227 -107.12758 -0.067302801 -21.080584 -0.06388142 -21.074654 -29.275438 -112.73033
104905000 -29.130066 -107.03075 -0.067956164 -21.28145 -0.064790182 -21.282803 -29.149986 -112.37587
105904000 -28.99061 -107.10831 -0.068146273 -21.485748 -0.064383462 -21.482212 -29.034912 -112.2514
106903000 -28.875376 -107.16757 -0.067887798 -21.687735 -0.064374 -21.683004 -28.906004 -112.16956
107902000 -28.710299 -107.5222 -0.068822645 -21.889009 -0.065031655 -21.880329 -28.777231 -112.10312
108901000 -28.597147 -107.75237 -0.070056528 -22.093885 -0.066531248 -22.085161 -28.643326 -112.0434
109900000 -28.471344 -108.23961 -0.070441149 -22.291121 -0.068050824 -22.283936 -28.49003 -112.12487
110899000 -28.350342 -108.82971 -0.071938142 -22.48908 -0.068675108 -22.480343 -28.364454 -112.39546
111898000 -28.258232 -109.47874 -0.073254779 -22.689253 -0.069887899 -22.687376 -28.249514 -112.519
112897000 -28.138273 -110.07232 -0.074839652 -22.89098 -0.071226291 -22.88019 -28.115324 -112.70113
113896000 -28.037865 -110.62225 -0.075837374 -23.091946 -0.0723432 -23.08214 -28.006186 -112.79827
114895000 -27.937645 -111.28771 -0.077040315 -23.287224 -0.073890872 -23.277134 -27.894041 -112.89356
115894000 -27.810341 -111.65746 -0.077936545 -23.491425 -0.074375108 -23.481533 -27.826859 -113.08259
116893000 -27.732302 -112.15549 -0.07883507 -23.689581 -0.075681694 -23.669687 -27.700308 -113.12368
117892000 -27.656809 -112.62727 -0.078549333 -23.88575 -0.075887948 -23.868782 -27.632616 -113.3645
118891000 -27.59391 -113.04514 -0.079607226 -24.082518 -0.076692253 -24.068142 -27.533855 -113.48878
119890000 -27.50399 -113.37948 -0.080454938 -24.285557 -0.076524422 -24.275948 -27.516949 -113.58318
120889000 -27.457224 -113.94283 -0.081587411 -24.489649 -0.077715434 -24.47336 -27.446672 -113.53961
121888000 -27.413364 -114.25789 -0.08094307 -24.682297 -0.07767722 -24.674129 -27.386875 -113.83595
122887000 -27.375662 -114.46555 -0.082148217 -24.888895 -0.078720398 -24.874575 -27.339897 -113.85156
123886000 -27.323734 -114.846 -0.082595654 -25.092474 -0.078939453 -25.069916 -27.32885 -113.97591
124885000 -27.292997 -115.36861 -0.082429968 -25.289318 -0.079089187 -25.274691 -27.29826 -114.00272
125884000 -27.239046 -115.60059 -0.083865918 -25.488138 -0.07955265 -25.474646 -27.272194 -114.15961
126883000 -27.218082 -115.97909 -0.084527582 -25.690275 -0.080337852 -25.677063 -27.228407 -114.17802
127882000 -27.168177 -116.26382 -0.084598057 -25.892145 -0.081280924 -25.873274 -27.197886 -114.32428
128881000 -27.141083 -116.58447 -0.08465296 -26.09576 -0.081412539 -26.079987 -27.152321 -114.41134
129880000 -27.085413 -116.88929 -0.085572675 -26.293734 -0.081709273 -26.276022 -27.110487 -114.35822
130879000 -27.021324 -117.03858 -0.085091673 -26.496067 -0.082262181 -26.481073 -27.037075 -114.36782
131878000 -26.960785 -117.3147 -0.085684612 -26.699335 -0.082407281 -26.679199 -26.977676 -114.24187
132877000 -26.890951 -117.34488 -0.08522208 -26.899958 -0.08267612 -26.881237 -26.894646 -114.20389
133876000 -26.804239 -117.48315 -0.085670888 -27.099476 -0.082304396 -27.08609 -26.806587 -114.12066
134875000 -26.714577 -117.65232 -0.086504206 -27.305172 -0.082832843 -27.28388 -26.711817 -113.89655
135874000 -26.627769 -117.64437 -0.086121589 -27.499617 -0.082788251 -27.485966 -26.608603 -113.88314
136873000 -26.518681 -117.58263 -0.086430266 -27.708279 -0.083468489 -27.685766 -26.532068 -113.84874
137872000 -26.437263 -117.70908 -0.086913526 -27.906435 -0.083156593 -27.895357 -26.422497 -113.77751
138871000 -26.362612 -117.89075 -0.086493112 -28.106644 -0.083652683 -28.093775 -26.331713 -113.91094
139870000 -26.263653 -118.18686 -0.087713011 -28.305683 -0.085265905 -28.292265 -26.248796 -114.10401
140869000 -26.189665 -118.74352 -0.088891238 -28.507399 -0.085359097 -28.484507 -26.153091 -114.30975
141868000 -26.10408 -119.12982 -0.088852927 -28.702261 -0.086705431 -28.687721 -26.099173 -114.54809
142867000 -26.021961 -119.32936 -0.088483579 -28.901863 -0.086097561 -28.884871 -26.02002 -114.68161
143866000 -25.953726 -119.80525 -0.090822794 -29.100159 -0.087275617 -29.080452 -25.942459 -115.13
144865000 -25.89522 -120.33367 -0.092037827 -29.297266 -0.088813826 -29.281315 -25.885981 -115.43874
145864000 -25.838623 -120.60709 -0.092089124 -29.498873 -0.089956142 -29.485859 -25.855772 -115.70987
146863000 -25.792366 -121.06232 -0.092725068 -29.698393 -0.089875802 -29.684406 -25.802008 -116.01052
147862000 -25.752533 -121.39143 -0.094016552 -29.89665 -0.090703055 -29.88312 -25.768379 -116.33353
148861000 -25.722469 -121.80204 -0.094751462 -30.094629 -0.091922283 -30.080454 -25.749573 -116.49613
149860000 -25.687138 -121.98218 -0.096570492 -30.288095 -0.093045592 -30.278532 -25.695808 -116.58439
150859000 -25.665335 -122.44591 -0.095932662 -30.483473 -0.09197358 -30.4732 -25.676235 -116.94566
151858000 -25.656235 -122.81792 -0.094870523 -30.685244 -0.092888497 -30.669899 -25.669659 -117.29556
152857000 -25.639198 -123.14979 -0.095489144 -30.884169 -0.092538111 -30.870144 -25.648071 -117.46667
153856000 -25.634678 -123.35702 -0.095948011 -31.086733 -0.091318183 -31.069401 -25.67107 -117.77006
154855000 -25.627848 -123.5055 -0.095589697 -31.287199 -0.091875486 -31.270523 -25.657887 -118.02522
155854000 -25.649202 -123.77091 -0.096340224 -31.486462 -0.092710257 -31.473679 -25.649523 -118.29282
156853000 -25.631899 -124.45464 -0.0935928 -31.671551 -0.09170866 -31.664135 -25.645754 -118.60017
157852000 -25.639431 -124.68938 -0.095459774 -31.874441 -0.093585923 -31.867016 -25.6385 -118.97061
158851000 -25.640171 -124.85242 -0.095511369 -32.069664 -0.093530908 -32.064304 -25.622437 -119.23631
159850000 -25.627499 -124.98957 -0.096677423 -32.273949 -0.093680091 -32.262497 -25.620918 -119.39326
160849000 -25.616211 -125.09281 -0.096946351 -32.472584 -0.095388852 -32.467014 -25.590004 -119.67646
161848000 -25.599285 -125.2028 -0.097178772 -32.673122 -0.09472765 -32.665421 -25.551922 -119.80859
162847000 -25.551918 -125.32569 -0.097187243 -32.871616 -0.095780231 -32.866161 -25.522116 -120.03358
163846000 -25.515415 -125.53555 -0.097789519 -33.072239 -0.095426433 -33.064846 -25.444454 -120.03689
164845000 -25.455431 -125.52963 -0.098685011 -33.274147 -0.095489673 -33.264641 -25.379372 -120.12362
165844000 -25.400467 -125.55998 -0.097848289 -33.472683 -0.095884494 -33.465816 -25.305086 -120.28554
166843000 -25.339935 -125.60162 -0.097993113 -33.672195 -0.096008345 -33.66151 -25.234837 -120.44195
167842000 -25.278765 -125.71828 -0.098938964 -33.877918 -0.095962301 -33.865868 -25.160759 -120.38315
168841000 -25.202124 -125.85611 -0.098994315 -34.070404 -0.097125828 -34.070652 -25.084164 -120.44912
169840000 -25.142521 -126.12273 -0.099299408 -34.264137 -0.096813478 -34.262581 -25.001835 -120.60696
170839000 -25.078503 -126.34617 -0.099954426 -34.462101 -0.097450115 -34.463509 -24.914907 -120.78728
171838000 -25.020744 -126.72604 -0.10050277 -34.667191 -0.098656677 -34.659172 -24.850985 -121.02554
172837000 -24.947563 -127.0966 -0.10170355 -34.859131 -0.099163547 -34.856659 -24.782257 -121.23782
173836000 -24.881948 -127.45073 -0.10317982 -35.062473 -0.10064106 -35.061108 -24.744013 -121.46188
174835000 -24.829403 -127.86732 -0.10320606 -35.255566 -0.10121971 -35.257236 -24.694525 -121.74627
175834000 -24.782272 -128.26762 -0.10408464 -35.45956 -0.10210318 -35.454323 -24.640644 -122.03423
176833000 -24.726707 -128.63469 -0.10510581 -35.657425 -0.10290626 -35.655525 -24.592005 -122.17803
177832000 -24.681528 -129.03448 -0.1060999 -35.854336 -0.10432513 -35.857063 -24.575277 -122.29459
178831000 -24.639288 -129.23544 -0.10688567 -36.05088 -0.105266 -36.052521 -24.532698 -122.36949
179830000 -24.570436 -129.63757 -0.10856329 -36.240593 -0.10668192 -36.241104 -24.467278 -122.40616
180829000 -24.515509 -129.98796 -0.10771883 -36.426292 -0.10590839 -36.428825 -24.426903 -122.75809
181828000 -24.495035 -130.42436 -0.10768539 -36.632229 -0.10496923 -36.626202 -24.411371 -122.95505
182827000 -24.469173 -130.82387 -0.10711756 -36.832638 -0.10583518 -36.82732 -24.394865 -123.09303
183826000 -24.434824 -131.16475 -0.10788176 -37.024036 -0.1058922 -37.021252 -24.386757 -123.25342
184825000 -24.436956 -131.49939 -0.10793961 -37.222687 -0.10564579 -37.224777 -24.371807 -123.36427
185824000 -24.409405 -131.84686 -0.10835706 -37.418999 -0.1060678 -37.422955 -24.366018 -123.42414
186823000 -24.397581 -132.2419 -0.10760419 -37.618553 -0.10640814 -37.618813 -24.355167 -123.44401
187822000 -24.371546 -132.58917 -0.10888975 -37.815712 -0.10659756 -37.81554 -24.318068 -123.5244
188821000 -24.343172 -132.81183 -0.10801604 -38.013638 -0.10731284 -38.016354 -24.292873 -123.64996
189820000 -24.3274 -133.12141 -0.10868962 -38.211433 -0.10671747 -38.20821 -24.284578 -123.83613
190819000 -24.294027 -133.41423 -0.1089808 -38.411587 -0.10739032 -38.408604 -24.241007 -123.87507
191818000 -24.261982 -133.73041 -0.10954701 -38.605644 -0.10786584 -38.609436 -24.212952 -123.90685
192817000 -24.212944 -133.98918 -0.10997763 -38.804298 -0.10838281 -38.80521 -24.169416 -123.99396
193816000 -24.177584 -134.25266 -0.11002967 -39.000298 -0.10810149 -38.998318 -24.116018 -124.14243
194815000 -24.122869 -134.64749 -0.11013906 -39.193111 -0.10942861 -39.198414 -24.052433 -124.17252
195814000 -24.059851 -134.82227 -0.11102197 -39.387882 -0.10964312 -39.394245 -23.992283 -124.30909
196813000 -24.010223 -135.16557 -0.11036634 -39.587788 -0.10908618 -39.587231 -23.910393 -124.4396
197812000 -23.953918 -135.37329 -0.11133268 -39.787979 -0.11017968 -39.785706 -23.843868 -124.53602
198811000 -23.894625 -135.5266 -0.11070038 -39.98299 -0.10955764 -39.983856 -23.775276 -124.72176
199810000 -23.82703 -135.88026 -0.11114014 -40.173382 -0.10921094 -40.173676 -23.694199 -124.79601
200809000 -23.766785 -136.14032 -0.11175392 -40.371353 -0.11003286 -40.377254 -23.617733 -125.01736
201808000 -23.71081 -136.32924 -0.1124836 -40.577122 -0.11112659 -40.578938 -23.547541 -125.07102
202807000 -23.650436 -136.67946 -0.11328515 -40.776409 -0.11078005 -40.779461 -23.495573 -125.25525
