!Keysight Technologies,E5080B,MY59205177,A.15.75.32
!Date: Friday, February 23, 2024 02:46:20
!Correction: S11(Cdelta 2-Port  ) 
!S21(Cdelta 2-Port  ) 
!S12(Cdelta 2-Port  ) 
!S22(Cdelta 2-Port  ) 
!S2P File: Measurements: S11, S21, S12, S22:
# Hz S  dB   R 50
10000000 -39.213593 -3.386873 -0.070297502 -2.0555258 -0.073349029 -2.1103504 -52.824921 -51.626503
10999000 -38.80994 -4.4608011 -0.071253128 -2.2748132 -0.073591508 -2.3275471 -51.118664 -53.464588
11998000 -38.368736 -6.0689316 -0.072019204 -2.498183 -0.073039703 -2.5410738 -50.052742 -51.465889
12997000 -37.953491 -9.1568336 -0.071318649 -2.6748919 -0.072725393 -2.7075219 -48.707355 -54.788475
13996000 -37.84486 -11.335351 -0.070507713 -2.8581316 -0.072369255 -2.8761346 -47.667946 -55.865803
14995000 -37.672775 -13.965999 -0.073000744 -3.0653696 -0.07230451 -3.0964353 -47.058342 -56.891659
15994000 -37.613293 -16.389669 -0.07392589 -3.2860219 -0.074835435 -3.3072033 -46.34293 -56.392948
16993000 -37.669582 -18.995682 -0.072433479 -3.4830801 -0.074258983 -3.4914989 -46.058334 -61.801914
17992000 -37.765606 -21.933733 -0.073206082 -3.6853554 -0.07568828 -3.6880708 -45.892296 -65.605743
18991000 -38.009754 -24.637426 -0.07389877 -3.8940296 -0.076190628 -3.8917108 -45.325142 -69.267662
19990000 -38.041687 -27.971775 -0.077108294 -4.1039209 -0.078238845 -4.0996623 -44.962147 -74.498215
20989000 -38.015602 -29.812834 -0.07980866 -4.3098803 -0.080371082 -4.298193 -44.468361 -77.63678
21988000 -38.088753 -33.122868 -0.079964481 -4.5082998 -0.081026152 -4.4911947 -44.219059 -78.298508
22987000 -38.068081 -36.44854 -0.080939911 -4.7010021 -0.082149535 -4.6989532 -43.946621 -79.416
23986000 -38.200581 -39.101009 -0.080296196 -4.9038873 -0.080593646 -4.900456 -43.814236 -80.234909
24985000 -38.064835 -41.347607 -0.081614316 -5.1101308 -0.081822701 -5.1071749 -43.341782 -79.133865
25984000 -37.958679 -43.142548 -0.082691163 -5.3174028 -0.081473991 -5.3204498 -42.822876 -79.573982
26983000 -37.827812 -45.270752 -0.084017664 -5.5202188 -0.082825452 -5.5359249 -42.664078 -79.465996
27982000 -37.760338 -46.084053 -0.084411711 -5.715981 -0.085477896 -5.7525554 -42.195503 -79.483612
28981000 -37.780052 -47.273479 -0.082820438 -5.9169116 -0.084957838 -5.9382858 -41.91029 -79.678444
29980000 -37.542953 -49.257423 -0.082832843 -6.1113639 -0.084962584 -6.1162872 -41.568508 -80.130936
30979000 -37.26083 -49.233528 -0.080516383 -6.4665389 -0.079878263 -6.4528041 -41.187717 -83.063324
31978000 -37.130569 -50.486965 -0.080040686 -6.6614594 -0.081251383 -6.649971 -40.873417 -83.388519
32977000 -37.05109 -52.03738 -0.079226799 -6.8703327 -0.081535451 -6.8652706 -40.637459 -84.226379
33976000 -36.974689 -53.125843 -0.080659047 -7.0727797 -0.082107067 -7.0648284 -40.279396 -84.847435
34975000 -36.783772 -54.444469 -0.080605775 -7.2707629 -0.082851574 -7.2709866 -40.039345 -85.566628
35974000 -36.662594 -55.355885 -0.079956308 -7.4667082 -0.083399616 -7.4704313 -39.64896 -85.611076
36973000 -36.490993 -56.44701 -0.080697812 -7.6674194 -0.084306397 -7.6728854 -39.326324 -85.668449
37972000 -36.332077 -56.609173 -0.080136664 -7.8763294 -0.083840579 -7.8882675 -39.023411 -85.642174
38971000 -36.060665 -56.955341 -0.081799753 -8.078517 -0.083178759 -8.0927677 -38.759903 -84.627945
39970000 -35.812447 -57.937851 -0.079678148 -8.2755413 -0.083253168 -8.2908669 -38.434761 -84.961739
40969000 -35.572659 -58.336674 -0.079816833 -8.4699936 -0.082343966 -8.4883537 -38.088932 -84.39933
41968000 -35.295673 -58.979488 -0.080235541 -8.6773872 -0.08353842 -8.6923828 -37.789433 -83.570427
42967000 -35.077248 -59.756779 -0.079601951 -8.8864136 -0.082868464 -8.906476 -37.480831 -82.426521
43966000 -34.867493 -60.745682 -0.08132761 -9.0905209 -0.084105551 -9.1055241 -37.152691 -82.440567
44965000 -34.693272 -61.809483 -0.082504898 -9.2883377 -0.08545202 -9.3092155 -36.925995 -82.826324
45964000 -34.536793 -63.205273 -0.082971893 -9.4915285 -0.086179942 -9.5097084 -36.690678 -83.1595
46963000 -34.455658 -65.0755 -0.083218597 -9.6865196 -0.08670675 -9.7044907 -36.547119 -83.918495
47962000 -34.359398 -66.515404 -0.08523792 -9.8890724 -0.087957345 -9.9031982 -36.327045 -84.493835
48961000 -34.231583 -68.077202 -0.087292254 -10.083688 -0.08999341 -10.106693 -36.12323 -85.26886
49960000 -34.080872 -69.513885 -0.088442363 -10.28163 -0.091020785 -10.308916 -36.023651 -85.693237
50959000 -33.950447 -71.13269 -0.089132473 -10.499542 -0.092129052 -10.50816 -35.868839 -86.505569
51958000 -33.810974 -72.419693 -0.09123306 -10.694912 -0.093697809 -10.707136 -35.719147 -87.409882
52957000 -33.645729 -73.764938 -0.092838779 -10.898515 -0.095063403 -10.905472 -35.538097 -87.497505
53956000 -33.531635 -74.578369 -0.093505785 -11.096489 -0.096141465 -11.100051 -35.403828 -87.799454
54955000 -33.386951 -75.274399 -0.095401555 -11.303667 -0.096991621 -11.298437 -35.244873 -88.138573
55954000 -33.280895 -76.304604 -0.096469916 -11.501772 -0.097714588 -11.497637 -35.126961 -88.061714
56953000 -33.168865 -76.521744 -0.095995113 -11.705395 -0.095942982 -11.691162 -35.073116 -88.482285
57952000 -33.036671 -77.374123 -0.097455673 -11.896265 -0.09769579 -11.890752 -34.971142 -88.735939
58951000 -32.946186 -77.853951 -0.098143503 -12.104732 -0.099511817 -12.081767 -34.844078 -89.142326
59950000 -32.835838 -78.412743 -0.099405617 -12.30541 -0.099532746 -12.283332 -34.786385 -89.555183
60949000 -32.747784 -79.063408 -0.099463351 -12.505658 -0.099472091 -12.483391 -34.697639 -89.983376
61948000 -32.696609 -79.426834 -0.099803172 -12.703504 -0.099630214 -12.689982 -34.614277 -90.177109
62947000 -32.609821 -79.77961 -0.09944322 -12.916316 -0.10121334 -12.898359 -34.478447 -90.813721
63946000 -32.5695 -80.501251 -0.10164155 -13.115908 -0.10157504 -13.094832 -34.382599 -91.06662
64945000 -32.477631 -80.887833 -0.10124514 -13.317206 -0.10268202 -13.29773 -34.283291 -91.768997
65944000 -32.390751 -81.232529 -0.10237987 -13.517399 -0.10239975 -13.501337 -34.219227 -92.355896
66943000 -32.257252 -81.774017 -0.10041111 -13.717802 -0.10122713 -13.700798 -34.137104 -92.820724
67942000 -32.191643 -81.884872 -0.10278539 -13.91379 -0.10325457 -13.901779 -34.009789 -93.238945
68941000 -32.087082 -82.115585 -0.1026587 -14.11021 -0.10260303 -14.09721 -33.897812 -93.420395
69940000 -31.987726 -82.271591 -0.10272549 -14.308651 -0.10364745 -14.298691 -33.768002 -93.938705
70939000 -31.876123 -82.38063 -0.10309526 -14.503661 -0.10307723 -14.497926 -33.634972 -94.084778
71938000 -31.733505 -82.265495 -0.10273026 -14.703212 -0.10238173 -14.692245 -33.483261 -94.118767
72937000 -31.570663 -82.274261 -0.10211458 -14.904283 -0.10208304 -14.895256 -33.323696 -94.044968
73936000 -31.423288 -82.173798 -0.10278592 -15.09934 -0.10237218 -15.085941 -33.206791 -93.929909
74935000 -31.318384 -82.586586 -0.10175125 -15.294993 -0.10194577 -15.291786 -33.027756 -93.901611
75934000 -31.198568 -82.988411 -0.1015231 -15.505019 -0.10157477 -15.499357 -32.935799 -93.948166
76933000 -31.091127 -83.52549 -0.10340886 -15.702093 -0.10311858 -15.691444 -32.775055 -94.515633
77932000 -31.005054 -84.363365 -0.10443809 -15.895353 -0.10523126 -15.885386 -32.683163 -94.671936
78931000 -30.952629 -85.111511 -0.10291925 -16.093769 -0.1039595 -16.08993 -32.571793 -94.659767
79930000 -30.862957 -86.043556 -0.10600096 -16.28713 -0.1064811 -16.286831 -32.475086 -95.152084
80929000 -30.761404 -86.977318 -0.10754634 -16.483868 -0.10755245 -16.479004 -32.385384 -95.681053
81928000 -30.712931 -87.950447 -0.10764081 -16.675789 -0.10837962 -16.673283 -32.271549 -95.89122
82927000 -30.624023 -88.729218 -0.10930517 -16.87553 -0.11009419 -16.872768 -32.163548 -96.423721
83926000 -30.53791 -89.578583 -0.11053867 -17.075518 -0.11065418 -17.071075 -32.057549 -96.759239
84925000 -30.448576 -90.105888 -0.11205938 -17.274395 -0.11129444 -17.267887 -31.959738 -97.003586
85924000 -30.367268 -90.651901 -0.11216509 -17.472677 -0.11200093 -17.468237 -31.875929 -97.104004
86923000 -30.267317 -91.24324 -0.11285526 -17.67037 -0.11301361 -17.667147 -31.768599 -97.149269
87922000 -30.169512 -91.764587 -0.11269879 -17.876064 -0.11254124 -17.869839 -31.679558 -97.302376
88921000 -30.113062 -92.181755 -0.11388833 -18.078644 -0.11376609 -18.07268 -31.588123 -97.499512
89920000 -30.032835 -92.821854 -0.11471804 -18.274954 -0.11507022 -18.267649 -31.534685 -97.674248
90919000 -29.934561 -93.174171 -0.11516273 -18.47455 -0.11477997 -18.46591 -31.458616 -98.064453
91918000 -29.850956 -93.693504 -0.11702915 -18.669127 -0.11556173 -18.66765 -31.389294 -98.054283
92917000 -29.769012 -94.118591 -0.1175153 -18.873514 -0.11701586 -18.865824 -31.321596 -98.296524
93916000 -29.693609 -94.606857 -0.11719005 -19.063828 -0.11697438 -19.05991 -31.246639 -99.057236
94915000 -29.634544 -95.283829 -0.11930478 -19.265924 -0.11786665 -19.259539 -31.175161 -98.996895
95914000 -29.567383 -95.549217 -0.11996468 -19.458735 -0.11902037 -19.455059 -31.092588 -99.401489
96913000 -29.489628 -95.87825 -0.12117884 -19.66024 -0.12019248 -19.659048 -31.02923 -99.781425
97912000 -29.425844 -96.42054 -0.12178686 -19.85885 -0.12055761 -19.854994 -30.959499 -100.19167
98911000 -29.322775 -96.717377 -0.12166413 -20.060936 -0.12105428 -20.056129 -30.920448 -100.39719
99910000 -29.260475 -96.892708 -0.12367903 -20.259056 -0.12215825 -20.253998 -30.817179 -100.86062
100909000 -29.167089 -97.344292 -0.12258186 -20.463766 -0.12132631 -20.457663 -30.727823 -101.18678
101908000 -29.082191 -97.648575 -0.12278716 -20.666456 -0.12306517 -20.659979 -30.584993 -101.06282
102907000 -28.946083 -97.789749 -0.12376879 -20.864887 -0.12245033 -20.862864 -30.517462 -101.08686
103906000 -28.856428 -97.901634 -0.12432442 -21.073765 -0.12226768 -21.065149 -30.355213 -101.17786
104905000 -28.70425 -97.985977 -0.12547453 -21.270208 -0.12293176 -21.268064 -30.200495 -100.94807
105904000 -28.560486 -98.21727 -0.12596561 -21.471701 -0.12258533 -21.465055 -30.076672 -100.94659
106903000 -28.455605 -98.427002 -0.12599866 -21.677008 -0.12263539 -21.674438 -29.940794 -100.93506
107902000 -28.294748 -98.909012 -0.12682696 -21.87686 -0.12393073 -21.866514 -29.785892 -101.04612
108901000 -28.200596 -99.302704 -0.12788895 -22.080877 -0.12590192 -22.072477 -29.651724 -101.08261
109900000 -28.079161 -99.848244 -0.12848349 -22.281588 -0.12659401 -22.270878 -29.493414 -101.32684
110899000 -27.968525 -100.58628 -0.12982246 -22.476608 -0.12675606 -22.464436 -29.366753 -101.82409
111898000 -27.889639 -101.34016 -0.13091452 -22.679525 -0.12838991 -22.671434 -29.237333 -102.13704
112897000 -27.767481 -101.9269 -0.13271594 -22.878422 -0.12998489 -22.866262 -29.110607 -102.36909
113896000 -27.675703 -102.6068 -0.13341205 -23.078508 -0.13183768 -23.066105 -28.997002 -102.72717
114895000 -27.588673 -103.32401 -0.13479553 -23.276361 -0.13283391 -23.262762 -28.876892 -102.87505
115894000 -27.460617 -103.77821 -0.13569601 -23.476849 -0.13405327 -23.466234 -28.808361 -103.13406
116893000 -27.385735 -104.42252 -0.13682562 -23.672606 -0.13500862 -23.657373 -28.672352 -103.45274
117892000 -27.307716 -104.99613 -0.13654326 -23.867943 -0.13563886 -23.859755 -28.6021 -103.74256
118891000 -27.254126 -105.42484 -0.13770649 -24.069788 -0.13587762 -24.057718 -28.497028 -103.98516
119890000 -27.170591 -105.88006 -0.13829249 -24.272825 -0.13676605 -24.254601 -28.494032 -104.16843
120889000 -27.122578 -106.41728 -0.13995956 -24.472965 -0.13661298 -24.456953 -28.409643 -104.20317
121888000 -27.076468 -106.78676 -0.13979007 -24.668606 -0.13798919 -24.662739 -28.355957 -104.54747
122887000 -27.031994 -107.04797 -0.14079213 -24.871365 -0.1385691 -24.86215 -28.297235 -104.69201
123886000 -26.975815 -107.52904 -0.14160347 -25.077309 -0.13906194 -25.056229 -28.285202 -104.8286
124885000 -26.942184 -108.00316 -0.14190756 -25.272346 -0.1396091 -25.258377 -28.255602 -104.89461
125884000 -26.88826 -108.27499 -0.14347085 -25.4716 -0.13891387 -25.458565 -28.229589 -105.13644
126883000 -26.876585 -108.6423 -0.14322445 -25.673416 -0.14032529 -25.661427 -28.184038 -105.19865
127882000 -26.819313 -108.99187 -0.14354524 -25.873531 -0.14090417 -25.857931 -28.142132 -105.43751
128881000 -26.790464 -109.36189 -0.14395757 -26.077286 -0.14121355 -26.058283 -28.093813 -105.58051
129880000 -26.737822 -109.69548 -0.14468974 -26.278191 -0.14121276 -26.257339 -28.046333 -105.62578
130879000 -26.674276 -109.88462 -0.14420964 -26.477119 -0.14223467 -26.4587 -27.968149 -105.70064
131878000 -26.604044 -110.17239 -0.14472158 -26.680344 -0.14270893 -26.660465 -27.892832 -105.64061
132877000 -26.532291 -110.30169 -0.14415987 -26.883671 -0.14274825 -26.863115 -27.801081 -105.73431
133876000 -26.446413 -110.53155 -0.14523654 -27.085133 -0.14278784 -27.057837 -27.700762 -105.68311
134875000 -26.348286 -110.72086 -0.14498602 -27.280153 -0.14312734 -27.265276 -27.590153 -105.65263
135874000 -26.268074 -110.8047 -0.14545254 -27.479746 -0.14247219 -27.46244 -27.479259 -105.68402
136873000 -26.153194 -110.79567 -0.14587015 -27.683182 -0.14365655 -27.666414 -27.392118 -105.70459
137872000 -26.073034 -111.00204 -0.14635792 -27.885408 -0.14317709 -27.871834 -27.275337 -105.74631
138871000 -25.996273 -111.24036 -0.14690146 -28.085611 -0.1442851 -28.06815 -27.173637 -105.97791
139870000 -25.90197 -111.56613 -0.14801149 -28.285213 -0.14518729 -28.265833 -27.092848 -106.21482
140869000 -25.821669 -112.09156 -0.14929594 -28.477922 -0.1466203 -28.463423 -26.982365 -106.43392
141868000 -25.734972 -112.6188 -0.15032539 -28.675207 -0.146906 -28.65917 -26.917385 -106.81325
142867000 -25.661322 -112.92995 -0.14828603 -28.873184 -0.14625832 -28.856026 -26.841106 -107.08199
143866000 -25.596992 -113.49209 -0.15036343 -29.070164 -0.14763841 -29.051941 -26.771046 -107.6516
144865000 -25.546242 -114.05238 -0.1517684 -29.266111 -0.1487923 -29.256172 -26.719185 -108.00742
145864000 -25.493469 -114.37704 -0.15218018 -29.468967 -0.15101574 -29.458063 -26.690651 -108.32446
146863000 -25.449942 -114.82584 -0.15317303 -29.668037 -0.15077373 -29.656668 -26.643757 -108.686
147862000 -25.40971 -115.1874 -0.15366969 -29.864002 -0.15079652 -29.852087 -26.617819 -109.08312
148861000 -25.390381 -115.74578 -0.15465724 -30.06344 -0.15161642 -30.047512 -26.602074 -109.31924
149860000 -25.368624 -115.94663 -0.15522273 -30.26115 -0.15215418 -30.253494 -26.569931 -109.50874
150859000 -25.356367 -116.36433 -0.15579125 -30.465155 -0.15267296 -30.448696 -26.570124 -109.75891
151858000 -25.342224 -116.69099 -0.1557561 -30.660313 -0.15300088 -30.644518 -26.569485 -110.05939
152857000 -25.323698 -117.02402 -0.15619965 -30.858917 -0.15306953 -30.849024 -26.553726 -110.20502
153856000 -25.315264 -117.24408 -0.1564959 -31.058929 -0.15290783 -31.047567 -26.572426 -110.52982
154855000 -25.31175 -117.41134 -0.15626137 -31.257412 -0.15371822 -31.244461 -26.575607 -110.7851
155854000 -25.323603 -117.67802 -0.15692557 -31.458502 -0.15417202 -31.442766 -26.56962 -111.03388
156853000 -25.319603 -118.40688 -0.15447564 -31.641886 -0.15316901 -31.636156 -26.572975 -111.31849
157852000 -25.320457 -118.61423 -0.15613203 -31.845415 -0.15528363 -31.838221 -26.569118 -111.71154
158851000 -25.313755 -118.85816 -0.15639205 -32.044666 -0.15516882 -32.033226 -26.555992 -111.95415
159850000 -25.300083 -118.99715 -0.15797749 -32.241177 -0.15602845 -32.232567 -26.560898 -112.13206
160849000 -25.279531 -119.11515 -0.15746452 -32.441364 -0.1566537 -32.435764 -26.534977 -112.43109
161848000 -25.254898 -119.2695 -0.15803172 -32.642197 -0.15641433 -32.633324 -26.492615 -112.58273
162847000 -25.216812 -119.51983 -0.15859014 -32.841015 -0.15683351 -32.834274 -26.462914 -112.83231
163846000 -25.167343 -119.7536 -0.15811172 -33.039097 -0.15715128 -33.033009 -26.3829 -112.91491
164845000 -25.108467 -119.78602 -0.15850906 -33.238365 -0.15739822 -33.233562 -26.318251 -112.99097
165844000 -25.053608 -119.91912 -0.15861377 -33.438259 -0.15825078 -33.430958 -26.227526 -113.2352
166843000 -24.983837 -120.0248 -0.15891717 -33.635719 -0.1573534 -33.631584 -26.157253 -113.46574
167842000 -24.928841 -120.21453 -0.15947731 -33.837139 -0.1585539 -33.827579 -26.068409 -113.39335
168841000 -24.851818 -120.45824 -0.15989786 -34.035793 -0.15892173 -34.029903 -25.987873 -113.53716
169840000 -24.787348 -120.75862 -0.16015516 -34.228241 -0.15955411 -34.229771 -25.898029 -113.80673
170839000 -24.730211 -121.09059 -0.16095185 -34.424816 -0.15997548 -34.422829 -25.807941 -114.0817
171838000 -24.674372 -121.53427 -0.16003537 -34.629112 -0.16114634 -34.622272 -25.744102 -114.382
172837000 -24.608854 -121.92845 -0.162396 -34.82579 -0.16191958 -34.82037 -25.675793 -114.66386
173836000 -24.552294 -122.40177 -0.16362934 -35.025475 -0.16253977 -35.021183 -25.634985 -114.96144
174835000 -24.492939 -122.84836 -0.16386858 -35.219227 -0.16357128 -35.218994 -25.589741 -115.31664
175834000 -24.444977 -123.25023 -0.16455196 -35.419365 -0.16468935 -35.413315 -25.534042 -115.68132
176833000 -24.398676 -123.65849 -0.16616701 -35.616093 -0.16442236 -35.613373 -25.468782 -115.88912
177832000 -24.357594 -124.15359 -0.16662963 -35.810814 -0.16538657 -35.811512 -25.454203 -116.07192
178831000 -24.318436 -124.58877 -0.16697609 -36.008369 -0.16626437 -36.006313 -25.417683 -116.38042
179830000 -24.285683 -125.01679 -0.16809666 -36.203964 -0.16596045 -36.207355 -25.390715 -116.50281
180829000 -24.240191 -125.27661 -0.16806141 -36.406139 -0.16711007 -36.402756 -25.363222 -116.72047
181828000 -24.217346 -125.65494 -0.16834556 -36.602066 -0.16755182 -36.599022 -25.344948 -116.86257
182827000 -24.192415 -126.04031 -0.16828798 -36.79575 -0.1676414 -36.799103 -25.329882 -116.98074
183826000 -24.152281 -126.37052 -0.16973321 -36.995632 -0.16799198 -36.98925 -25.320513 -117.12802
184825000 -24.156429 -126.69759 -0.16914187 -37.195023 -0.16827236 -37.189812 -25.301588 -117.21978
185824000 -24.131857 -127.02673 -0.16919328 -37.385002 -0.16911954 -37.389061 -25.300476 -117.29302
186823000 -24.115717 -127.41375 -0.17001747 -37.58569 -0.16951841 -37.584934 -25.292683 -117.29793
187822000 -24.094221 -127.75582 -0.170158 -37.779133 -0.16976175 -37.779686 -25.256853 -117.35318
188821000 -24.069397 -127.99986 -0.17075324 -37.976913 -0.1697254 -37.980934 -25.237497 -117.46834
189820000 -24.054661 -128.27393 -0.1711652 -38.181004 -0.17008369 -38.177067 -25.229555 -117.64942
190819000 -24.021315 -128.54112 -0.17210585 -38.376823 -0.17074543 -38.376377 -25.194603 -117.63692
191818000 -23.987804 -128.74962 -0.17289208 -38.573246 -0.17247052 -38.571621 -25.156471 -117.55655
192817000 -23.914709 -129.0623 -0.17365257 -38.757435 -0.17311889 -38.760674 -25.08024 -117.64868
193816000 -23.874954 -129.42459 -0.17361432 -38.954433 -0.17172396 -38.949955 -25.016273 -117.94404
194815000 -23.819613 -129.89702 -0.17343974 -39.147209 -0.17233908 -39.149914 -24.952332 -118.10136
195814000 -23.762066 -130.144 -0.17383955 -39.346004 -0.1722389 -39.350613 -24.895971 -118.26574
196813000 -23.713348 -130.52888 -0.17342816 -39.543911 -0.17271699 -39.543331 -24.812801 -118.5013
197812000 -23.652184 -130.76405 -0.17418364 -39.739864 -0.17263645 -39.738636 -24.734739 -118.62823
198811000 -23.600569 -130.99074 -0.17357121 -39.932728 -0.17248453 -39.935051 -24.664587 -118.86385
199810000 -23.528954 -131.37206 -0.17406669 -40.129757 -0.17303888 -40.127247 -24.579201 -118.99609
200809000 -23.47455 -131.71544 -0.17451319 -40.33062 -0.17339772 -40.327522 -24.498749 -119.25937
201808000 -23.415457 -131.95453 -0.17541818 -40.528015 -0.17406859 -40.535122 -24.426418 -119.35867
202807000 -23.356596 -132.36897 -0.1760845 -40.727936 -0.17480342 -40.733517 -24.365904 -119.63082
203806000 -23.306183 -132.84387 -0.1776278 -40.928688 -0.17525592 -40.930874 -24.298853 -119.82851
204805000 -23.255962 -133.21362 -0.17831874 -41.128391 -0.1766644 -41.12888 -24.236895 -120.08339
