!Keysight Technologies,E5080B,MY59205177,A.15.75.32
!Date: Friday, February 23, 2024 03:25:45
!Correction: S11(Cdelta 2-Port  ) 
!S21(Cdelta 2-Port  ) 
!S12(Cdelta 2-Port  ) 
!S22(Cdelta 2-Port  ) 
!S2P File: Measurements: S11, S21, S12, S22:
# Hz S  dB   R 50
10000000 -45.895351 -0.19153731 -0.017155595 -2.0612261 -0.020328902 -2.1147149 -46.291851 -159.38622
10999000 -45.145607 -2.3320484 -0.018509544 -2.2803707 -0.019961173 -2.3337138 -46.232445 -153.16116
11998000 -44.180996 -5.1302042 -0.018572716 -2.5041065 -0.019841811 -2.5501041 -46.462421 -148.93062
12997000 -43.487896 -10.949004 -0.018190058 -2.6870043 -0.019568771 -2.7182174 -46.094879 -143.19547
13996000 -43.200012 -14.499674 -0.01733336 -2.8688605 -0.020028006 -2.8892355 -46.009228 -137.36972
14995000 -42.809635 -18.972326 -0.020281309 -3.0794201 -0.019968973 -3.0995512 -45.677238 -133.40213
15994000 -42.664234 -23.222292 -0.020514598 -3.2990277 -0.022696223 -3.3196256 -45.570465 -129.98883
16993000 -42.648125 -27.635664 -0.019647561 -3.4977832 -0.021696066 -3.5057354 -44.759403 -130.10342
17992000 -42.729568 -32.90694 -0.021068355 -3.6941197 -0.021607876 -3.6981542 -44.146423 -129.79941
18991000 -43.040047 -38.027691 -0.021604232 -3.9086304 -0.022972321 -3.9052315 -43.492207 -128.62172
19990000 -42.858173 -43.586029 -0.023554239 -4.1197319 -0.025218969 -4.1124806 -42.863506 -129.45088
20989000 -42.749424 -46.811916 -0.026074359 -4.3255615 -0.027437083 -4.3156409 -42.289635 -128.81537
21988000 -42.61541 -52.064404 -0.027032806 -4.5183973 -0.028000841 -4.5084848 -42.008167 -128.114
22987000 -42.27037 -56.882637 -0.02803888 -4.7230072 -0.028999584 -4.7123551 -41.782532 -127.42928
23986000 -42.305904 -61.151703 -0.027692121 -4.9151363 -0.028648056 -4.9166622 -41.67741 -127.27913
24985000 -41.866024 -63.929993 -0.028664473 -5.1260977 -0.028453413 -5.125495 -41.475037 -124.6312
25984000 -41.550011 -66.047714 -0.030067369 -5.3352728 -0.030475838 -5.3286471 -41.123764 -123.05051
26983000 -41.246483 -68.266518 -0.030622866 -5.5334873 -0.030227154 -5.5520129 -41.042282 -122.35653
27982000 -41.079269 -69.048843 -0.031623777 -5.7368665 -0.031591441 -5.766345 -40.730305 -120.6729
28981000 -41.069164 -70.504814 -0.02999673 -5.9296775 -0.031868108 -5.9548368 -40.527775 -119.8253
29980000 -40.662006 -71.915169 -0.029645383 -6.130023 -0.032051168 -6.1362491 -40.222954 -119.11131
30979000 -40.249107 -70.974297 -0.027899755 -6.4817381 -0.027642101 -6.4793124 -39.748295 -119.45672
31978000 -40.058941 -71.987953 -0.02712241 -6.6789145 -0.028312191 -6.6684141 -39.492661 -118.57951
32977000 -39.87875 -73.690964 -0.027314389 -6.8917403 -0.0291721 -6.8860607 -39.24424 -118.74693
33976000 -39.70681 -74.683334 -0.027917732 -7.0929956 -0.028833849 -7.089395 -38.96056 -118.13908
34975000 -39.420155 -75.580193 -0.027870055 -7.2926526 -0.029899508 -7.2934527 -38.735607 -117.56431
35974000 -39.212219 -76.126953 -0.027728593 -7.4884033 -0.029916711 -7.4917731 -38.461143 -116.71626
36973000 -38.984825 -76.953346 -0.028004229 -7.6886091 -0.030888258 -7.6963501 -38.156418 -115.72383
37972000 -38.782452 -76.759712 -0.027311003 -7.8994927 -0.030861666 -7.9081264 -37.926651 -114.99872
38971000 -38.468651 -76.207832 -0.028966749 -8.1033888 -0.030925279 -8.1128788 -37.765129 -113.27502
39970000 -38.129375 -76.758003 -0.026839796 -8.3007545 -0.029805414 -8.3150902 -37.492599 -112.75816
40969000 -37.82275 -76.159912 -0.027260467 -8.4935904 -0.030022275 -8.5166368 -37.262836 -111.15175
41968000 -37.462177 -76.313065 -0.027330279 -8.6970139 -0.030483138 -8.7169819 -37.05127 -109.75148
42967000 -37.19981 -76.390137 -0.027901579 -8.9111338 -0.0303846 -8.9305162 -36.837082 -107.82565
43966000 -36.883896 -77.184601 -0.029245852 -9.1130714 -0.031623777 -9.134182 -36.560638 -107.07148
44965000 -36.644608 -77.999008 -0.029845815 -9.3213577 -0.032233715 -9.3375931 -36.341099 -106.82079
45964000 -36.420628 -79.02713 -0.030767813 -9.5188313 -0.033382118 -9.5365372 -36.099911 -106.50287
46963000 -36.221737 -80.984383 -0.031369552 -9.7107744 -0.033852991 -9.7353001 -35.91275 -106.72484
47962000 -36.066158 -82.419861 -0.033004936 -9.9173832 -0.034595013 -9.9319553 -35.691238 -106.80396
48961000 -35.841167 -83.925591 -0.034665205 -10.113544 -0.036719501 -10.135136 -35.482483 -106.94815
49960000 -35.636436 -85.312523 -0.036660764 -10.31705 -0.037624944 -10.340326 -35.347702 -106.90167
50959000 -35.389771 -86.588081 -0.036767535 -10.52837 -0.039037529 -10.540042 -35.153027 -107.19381
51958000 -35.186699 -87.657761 -0.039144881 -10.727652 -0.040246777 -10.737267 -34.98027 -107.68508
52957000 -34.971611 -88.730354 -0.040211506 -10.927334 -0.041182745 -10.93611 -34.809483 -107.29249
53956000 -34.801025 -89.468857 -0.041390505 -11.13084 -0.042498723 -11.135414 -34.682625 -107.30246
54955000 -34.64043 -89.927711 -0.042406186 -11.33557 -0.043292683 -11.330817 -34.520733 -107.31171
55954000 -34.464588 -90.781609 -0.043256864 -11.535931 -0.043996047 -11.533401 -34.418411 -106.96124
56953000 -34.351055 -90.799973 -0.042902611 -11.733868 -0.043502636 -11.722499 -34.358166 -107.07146
57952000 -34.179447 -91.340752 -0.04485593 -11.935018 -0.044782698 -11.920089 -34.235065 -107.11487
58951000 -34.06118 -91.75798 -0.045809373 -12.139228 -0.045824546 -12.118635 -34.093548 -107.29178
59950000 -33.949928 -92.086967 -0.04597576 -12.338938 -0.045847047 -12.316176 -34.018639 -107.58493
60949000 -33.825779 -92.691483 -0.046263542 -12.541348 -0.046742618 -12.51776 -33.927883 -107.74506
61948000 -33.76273 -92.948975 -0.047118381 -12.743677 -0.046665169 -12.719847 -33.849728 -107.89135
62947000 -33.669708 -93.177521 -0.047718201 -12.954778 -0.048120745 -12.933766 -33.704453 -108.21139
63946000 -33.609745 -93.974777 -0.048196126 -13.153105 -0.048547145 -13.134244 -33.595261 -108.24638
64945000 -33.488739 -94.150513 -0.04902909 -13.355742 -0.048911281 -13.336437 -33.478157 -108.67509
65944000 -33.400383 -94.375565 -0.050093956 -13.554666 -0.049978476 -13.53778 -33.394653 -109.22922
66943000 -33.241135 -94.729858 -0.047525056 -13.757928 -0.048191413 -13.74119 -33.27594 -109.48073
67942000 -33.185093 -94.705101 -0.050136901 -13.954584 -0.050671399 -13.943811 -33.169495 -109.76323
68941000 -33.077286 -94.855133 -0.050119881 -14.147246 -0.049147163 -14.141955 -33.053413 -109.68741
69940000 -32.973919 -94.757393 -0.050426271 -14.348372 -0.04980382 -14.339789 -32.904003 -109.96157
70939000 -32.855305 -94.689186 -0.050422605 -14.545691 -0.050525527 -14.540232 -32.775162 -109.89187
71938000 -32.713825 -94.274216 -0.050487291 -14.742038 -0.049821366 -14.736473 -32.634529 -109.65798
72937000 -32.538361 -94.147057 -0.049474955 -14.940841 -0.049991567 -14.935092 -32.488853 -109.42644
73936000 -32.406651 -93.726753 -0.049071237 -15.143223 -0.04933776 -15.133634 -32.372643 -109.2422
74935000 -32.270718 -93.99308 -0.04950428 -15.337881 -0.048125718 -15.335705 -32.212776 -108.87561
75934000 -32.137264 -94.258522 -0.049925055 -15.547244 -0.048292711 -15.543995 -32.121433 -108.79999
76933000 -32.013058 -94.58947 -0.050440151 -15.744324 -0.050129831 -15.735454 -31.942991 -109.16096
77932000 -31.91601 -95.37677 -0.051511388 -15.943313 -0.051406611 -15.934627 -31.846197 -109.08202
78931000 -31.834942 -96.148315 -0.050150778 -16.142183 -0.050879091 -16.136183 -31.744108 -108.93925
79930000 -31.715975 -96.985664 -0.05274665 -16.334457 -0.053367689 -16.333223 -31.63043 -109.25837
80929000 -31.604767 -97.783409 -0.05531995 -16.531296 -0.054831803 -16.528484 -31.525675 -109.44544
81928000 -31.506094 -98.558403 -0.055031829 -16.725485 -0.056181293 -16.720039 -31.397686 -109.48974
82927000 -31.402807 -99.318718 -0.056923203 -16.920841 -0.05725316 -16.92029 -31.285479 -109.7801
83926000 -31.284931 -100.02152 -0.058561943 -17.12101 -0.058651939 -17.124315 -31.161221 -109.97751
84925000 -31.177496 -100.48151 -0.059557244 -17.320734 -0.058899634 -17.315313 -31.064117 -109.97507
85924000 -31.077049 -100.92377 -0.060221776 -17.52463 -0.05972914 -17.521257 -30.98217 -109.94963
86923000 -30.97246 -101.37492 -0.060584269 -17.718126 -0.060785346 -17.713966 -30.872593 -109.81501
87922000 -30.860106 -101.66609 -0.060595557 -17.929075 -0.059667729 -17.917356 -30.785851 -109.83644
88921000 -30.787746 -102.02959 -0.062156904 -18.123936 -0.061076477 -18.122087 -30.690331 -109.76505
89920000 -30.689825 -102.54675 -0.062545821 -18.328583 -0.062063947 -18.322205 -30.632393 -109.93362
90919000 -30.578934 -102.75358 -0.063271224 -18.523783 -0.062460471 -18.522856 -30.545473 -110.14125
91918000 -30.484709 -103.14253 -0.06430123 -18.725046 -0.063486084 -18.720985 -30.472832 -110.13691
92917000 -30.388256 -103.45528 -0.064973846 -18.92297 -0.064093158 -18.919182 -30.404964 -110.21457
93916000 -30.303944 -103.80331 -0.064579718 -19.116156 -0.064739205 -19.116673 -30.319633 -110.85077
94915000 -30.22513 -104.48099 -0.066138297 -19.319443 -0.065232411 -19.312107 -30.253515 -110.71231
95914000 -30.15176 -104.67727 -0.067853093 -19.51709 -0.06631992 -19.512014 -30.157003 -110.92232
96913000 -30.067966 -104.87778 -0.068387672 -19.714211 -0.067221828 -19.712809 -30.09956 -111.28213
97912000 -29.988829 -105.36513 -0.069170073 -19.912548 -0.067547046 -19.913782 -30.013874 -111.56622
98911000 -29.881062 -105.5521 -0.069869749 -20.116505 -0.068877086 -20.111582 -29.976704 -111.79545
99910000 -29.812729 -105.67079 -0.071028672 -20.313532 -0.069387853 -20.311472 -29.868359 -112.04767
100909000 -29.731215 -105.89684 -0.070185959 -20.521921 -0.067958266 -20.515388 -29.782965 -112.25483
101908000 -29.639019 -106.1535 -0.071326546 -20.72336 -0.070066519 -20.720442 -29.668566 -112.01782
102907000 -29.494495 -106.14005 -0.071857341 -20.92399 -0.07064268 -20.918688 -29.599716 -112.04255
103906000 -29.398445 -106.2168 -0.071900502 -21.130259 -0.069767684 -21.123714 -29.443333 -111.96907
104905000 -29.251677 -106.0957 -0.073323235 -21.329121 -0.070454828 -21.32897 -29.320147 -111.64646
105904000 -29.109337 -106.13681 -0.073447756 -21.535574 -0.070787132 -21.523527 -29.204586 -111.50121
106903000 -28.99617 -106.27032 -0.073711567 -21.738256 -0.070903428 -21.730728 -29.077112 -111.38415
107902000 -28.832739 -106.60384 -0.073847957 -21.939661 -0.07204368 -21.928366 -28.932138 -111.35218
108901000 -28.722769 -106.84898 -0.075233392 -22.141809 -0.072352409 -22.134932 -28.800613 -111.32008
109900000 -28.595573 -107.31961 -0.076562628 -22.341291 -0.0743393 -22.334011 -28.660112 -111.37979
110899000 -28.470671 -107.93773 -0.077939443 -22.53702 -0.074381433 -22.532101 -28.528496 -111.6488
111898000 -28.385624 -108.63181 -0.079371266 -22.740263 -0.075963549 -22.732504 -28.40864 -111.76569
112897000 -28.25947 -109.17033 -0.080491856 -22.939074 -0.077218965 -22.930981 -28.27718 -111.96789
113896000 -28.157959 -109.76844 -0.082229212 -23.143389 -0.078913882 -23.133568 -28.163031 -112.07307
114895000 -28.057764 -110.43513 -0.082955532 -23.33783 -0.080232382 -23.328215 -28.049992 -112.16766
115894000 -27.935564 -110.81063 -0.083541848 -23.544985 -0.081458434 -23.530434 -27.981195 -112.34518
116893000 -27.864988 -111.23884 -0.084509365 -23.741848 -0.082181193 -23.727083 -27.861128 -112.3981
117892000 -27.776194 -111.76657 -0.084845118 -23.936644 -0.082172751 -23.923693 -27.784098 -112.58947
118891000 -27.719324 -112.19232 -0.085442781 -24.137621 -0.083329424 -24.128515 -27.681381 -112.75117
119890000 -27.625923 -112.55473 -0.085820056 -24.342609 -0.0846036 -24.327528 -27.679762 -112.84107
120889000 -27.58255 -113.07139 -0.087578565 -24.53804 -0.084032975 -24.525455 -27.601051 -112.78955
121888000 -27.545862 -113.38857 -0.087692142 -24.737425 -0.084331475 -24.725676 -27.545689 -113.08296
122887000 -27.507364 -113.54861 -0.088295214 -24.942556 -0.085410044 -24.927116 -27.497536 -113.08084
123886000 -27.451536 -114.00993 -0.089713544 -25.147247 -0.086683773 -25.128763 -27.475426 -113.29652
124885000 -27.411686 -114.52957 -0.089695573 -25.343811 -0.086392239 -25.32667 -27.453825 -113.26074
125884000 -27.354919 -114.69696 -0.090994082 -25.540714 -0.086188652 -25.531502 -27.421925 -113.41246
126883000 -27.338499 -115.09411 -0.091267951 -25.744625 -0.087085716 -25.731981 -27.38632 -113.41006
127882000 -27.289705 -115.33519 -0.091472037 -25.945198 -0.087789871 -25.928963 -27.343311 -113.60475
128881000 -27.259756 -115.72028 -0.091751754 -26.147533 -0.088084139 -26.13275 -27.302876 -113.67648
129880000 -27.202785 -116.03439 -0.09262035 -26.351128 -0.088742487 -26.329214 -27.262436 -113.61868
130879000 -27.137846 -116.1898 -0.092194624 -26.54805 -0.089718305 -26.535254 -27.189039 -113.64368
131878000 -27.076328 -116.42075 -0.093020461 -26.751705 -0.089245297 -26.733641 -27.120108 -113.53746
132877000 -27.005262 -116.51699 -0.092006892 -26.957544 -0.089753449 -26.936935 -27.035927 -113.52856
133876000 -26.915295 -116.69079 -0.092953295 -27.155594 -0.089672059 -27.140238 -26.950106 -113.40997
134875000 -26.82029 -116.81572 -0.093474306 -27.358046 -0.089573227 -27.341112 -26.843016 -113.29061
135874000 -26.73164 -116.84467 -0.092889026 -27.560694 -0.090860859 -27.541477 -26.738533 -113.2179
136873000 -26.611624 -116.7588 -0.094099082 -27.762733 -0.090492927 -27.743206 -26.659134 -113.17376
137872000 -26.534719 -116.95207 -0.093665801 -27.963446 -0.090744294 -27.947548 -26.550024 -113.13071
138871000 -26.462437 -117.13407 -0.09462288 -28.160944 -0.091676667 -28.149385 -26.450783 -113.25643
139870000 -26.355883 -117.42809 -0.095582291 -28.361982 -0.092565082 -28.345171 -26.369579 -113.43309
140869000 -26.274288 -117.9657 -0.096864298 -28.56068 -0.092565082 -28.545942 -26.264275 -113.66035
141868000 -26.191591 -118.39265 -0.096762389 -28.760176 -0.093739867 -28.744646 -26.215136 -113.91042
142867000 -26.114155 -118.58117 -0.095775992 -28.956762 -0.093423791 -28.939436 -26.128551 -114.06464
143866000 -26.039358 -119.08681 -0.097731002 -29.153221 -0.095005721 -29.140062 -26.053671 -114.50294
144865000 -25.980648 -119.60227 -0.099408261 -29.347651 -0.096875682 -29.339119 -25.999861 -114.79421
145864000 -25.921747 -119.93116 -0.10014673 -29.555902 -0.097865768 -29.542324 -25.961384 -115.04565
146863000 -25.877312 -120.28824 -0.10100244 -29.755428 -0.098465219 -29.742794 -25.910923 -115.35952
147862000 -25.844334 -120.65048 -0.10221476 -29.953123 -0.098925993 -29.940613 -25.880512 -115.65068
148861000 -25.809349 -121.0911 -0.10267566 -30.153622 -0.10118261 -30.139631 -25.85692 -115.81
149860000 -25.777809 -121.21451 -0.10354459 -30.343637 -0.1012976 -30.332409 -25.810452 -115.86101
150859000 -25.752935 -121.70499 -0.10368934 -30.541899 -0.10053483 -30.531796 -25.788214 -116.21478
151858000 -25.734554 -122.07376 -0.10317505 -30.741705 -0.10104722 -30.729898 -25.774643 -116.54572
152857000 -25.72443 -122.39793 -0.10361405 -30.941511 -0.10140492 -30.929413 -25.762951 -116.75098
153856000 -25.724604 -122.58942 -0.10323549 -31.14488 -0.10082255 -31.129507 -25.780766 -117.02748
154855000 -25.723042 -122.78298 -0.1032885 -31.343712 -0.10143274 -31.331032 -25.774601 -117.30444
155854000 -25.742971 -123.02293 -0.10478599 -31.543108 -0.10108325 -31.531988 -25.769344 -117.55199
156853000 -25.729692 -123.69004 -0.10198817 -31.732038 -0.1009113 -31.724741 -25.762247 -117.82963
157852000 -25.739922 -123.93027 -0.10353054 -31.93111 -0.10206608 -31.923441 -25.754181 -118.21159
158851000 -25.735966 -124.14959 -0.10441104 -32.131474 -0.10250709 -32.122337 -25.742538 -118.48186
159850000 -25.725143 -124.2376 -0.10493185 -32.331387 -0.10244348 -32.323486 -25.744255 -118.6302
160849000 -25.710545 -124.31916 -0.10552803 -32.530933 -0.10420767 -32.524864 -25.71771 -118.93059
161848000 -25.696871 -124.41138 -0.10584472 -32.733345 -0.10355387 -32.725655 -25.678837 -119.06835
162847000 -25.655855 -124.61015 -0.10588027 -32.93124 -0.10411089 -32.922394 -25.646601 -119.29622
163846000 -25.615185 -124.80918 -0.10595719 -33.133369 -0.10454734 -33.122925 -25.573687 -119.31928
164845000 -25.561171 -124.79523 -0.1059243 -33.333813 -0.10467249 -33.323139 -25.509512 -119.38922
165844000 -25.505352 -124.84251 -0.10646439 -33.529896 -0.1047669 -33.524124 -25.433487 -119.56999
166843000 -25.443262 -124.89646 -0.10662382 -33.733135 -0.10515779 -33.72559 -25.364326 -119.7077
167842000 -25.382395 -125.00202 -0.10672516 -33.927883 -0.1058808 -33.924969 -25.284986 -119.63366
168841000 -25.306328 -125.18177 -0.10739882 -34.130409 -0.10559168 -34.125214 -25.207739 -119.72224
169840000 -25.24003 -125.42454 -0.1074625 -34.3297 -0.10639382 -34.322643 -25.122112 -119.90614
170839000 -25.176552 -125.67992 -0.10870263 -34.524075 -0.10678831 -34.521698 -25.038527 -120.09531
171838000 -25.122824 -126.0769 -0.10858452 -34.72744 -0.1074885 -34.72345 -24.976801 -120.35213
172837000 -25.048492 -126.44777 -0.10986029 -34.923862 -0.10842687 -34.917618 -24.909184 -120.56031
173836000 -24.981182 -126.8259 -0.11074871 -35.122372 -0.10948383 -35.118591 -24.863018 -120.76913
174835000 -24.927515 -127.23351 -0.11207744 -35.319859 -0.11046325 -35.321796 -24.818966 -121.08834
175834000 -24.878973 -127.61747 -0.11265203 -35.521072 -0.11118582 -35.515217 -24.752432 -121.36314
176833000 -24.820662 -127.95039 -0.11447166 -35.718506 -0.11249263 -35.716194 -24.702175 -121.49448
177832000 -24.775618 -128.39565 -0.1149639 -35.917641 -0.11342756 -35.917675 -24.679031 -121.6396
178831000 -24.734972 -128.68448 -0.11507129 -36.11668 -0.11463804 -36.111702 -24.649897 -121.7783
179830000 -24.680075 -128.96123 -0.11764855 -36.307789 -0.116266 -36.308426 -24.600433 -121.75856
180829000 -24.611073 -129.31248 -0.11763232 -36.489304 -0.11579887 -36.49221 -24.53915 -122.02458
181828000 -24.584522 -129.78131 -0.11638406 -36.690598 -0.11446156 -36.691471 -24.515869 -122.28732
182827000 -24.56275 -130.15788 -0.11620352 -36.884487 -0.11549103 -36.887054 -24.508522 -122.39912
183826000 -24.517241 -130.52168 -0.1174169 -37.086964 -0.11550139 -37.086678 -24.491125 -122.5648
184825000 -24.523762 -130.84019 -0.11705043 -37.286617 -0.11598205 -37.285782 -24.471697 -122.67349
185824000 -24.497351 -131.21915 -0.11729483 -37.48362 -0.1164827 -37.483662 -24.464632 -122.74809
186823000 -24.474909 -131.55846 -0.11745785 -37.685448 -0.1166675 -37.684128 -24.456158 -122.75404
187822000 -24.454264 -131.8779 -0.11728232 -37.879505 -0.11721478 -37.878841 -24.415333 -122.87226
188821000 -24.426319 -132.16599 -0.11801481 -38.071766 -0.11689938 -38.078068 -24.397062 -122.9847
189820000 -24.404753 -132.49091 -0.11821856 -38.274391 -0.11737328 -38.275887 -24.376593 -123.18803
190819000 -24.369976 -132.75311 -0.11854043 -38.473415 -0.11774217 -38.46978 -24.337482 -123.22593
191818000 -24.338018 -133.08658 -0.11922044 -38.66922 -0.11816616 -38.671856 -24.31185 -123.25805
192817000 -24.292198 -133.33116 -0.1198303 -38.867329 -0.11864046 -38.86771 -24.263374 -123.36236
193816000 -24.257681 -133.59674 -0.11971854 -39.063126 -0.11804513 -39.060986 -24.211233 -123.51519
194815000 -24.197443 -133.96581 -0.12070826 -39.260586 -0.11921086 -39.261757 -24.141254 -123.61084
195814000 -24.136599 -134.18192 -0.12096723 -39.455555 -0.11998411 -39.459118 -24.083248 -123.67944
196813000 -24.088381 -134.52509 -0.12049401 -39.6534 -0.11984148 -39.653477 -24.00145 -123.84337
197812000 -24.016129 -134.73314 -0.12137636 -39.845261 -0.11971083 -39.847664 -23.931116 -123.93505
198811000 -23.96911 -134.89523 -0.12080488 -40.049732 -0.11980795 -40.051586 -23.857805 -124.13515
199810000 -23.892651 -135.25478 -0.12101142 -40.244122 -0.11976271 -40.240402 -23.780775 -124.22188
200809000 -23.837463 -135.53093 -0.12158746 -40.442047 -0.12053712 -40.435368 -23.703135 -124.41547
201808000 -23.779776 -135.74144 -0.12253899 -40.638737 -0.12141682 -40.643932 -23.635586 -124.47447
202807000 -23.719133 -136.07999 -0.12306011 -40.84193 -0.12171897 -40.847595 -23.576742 -124.70158
203806000 -23.665699 -136.49327 -0.12484521 -41.04245 -0.12254086 -41.04792 -23.513031 -124.86453
