!Keysight Technologies,E5080B,MY59205177,A.15.75.32
!Date: Friday, February 23, 2024 02:52:06
!Correction: S11(Cdelta 2-Port  ) 
!S21(Cdelta 2-Port  ) 
!S12(Cdelta 2-Port  ) 
!S22(Cdelta 2-Port  ) 
!S2P File: Measurements: S11, S21, S12, S22:
# Hz S  dB   R 50
10000000 -42.947685 -3.7238824 -0.035609365 -2.0446069 -0.03922664 -2.1018529 -50.036388 -142.45219
10999000 -42.348118 -5.0690737 -0.037016336 -2.26512 -0.039456248 -2.3159871 -49.64473 -133.55389
11998000 -41.682449 -7.3685217 -0.036847945 -2.484354 -0.038296316 -2.5294468 -49.559818 -126.51174
12997000 -41.090946 -11.397449 -0.036685564 -2.6701193 -0.039055292 -2.6983352 -48.694443 -120.16556
13996000 -40.914963 -14.56273 -0.03515657 -2.8448429 -0.038811076 -2.8649111 -48.026955 -114.13038
14995000 -40.660908 -17.871494 -0.03728969 -3.0562084 -0.03840417 -3.0792487 -47.404613 -111.28938
15994000 -40.544941 -21.217598 -0.038494013 -3.2757597 -0.041167066 -3.2953973 -47.084007 -107.73483
16993000 -40.536556 -24.947819 -0.038284563 -3.4687855 -0.040017128 -3.475065 -46.128807 -109.52392
17992000 -40.648514 -28.977116 -0.038185064 -3.6708066 -0.040497344 -3.6707003 -45.541805 -111.40085
18991000 -40.895859 -32.745026 -0.039333735 -3.8828526 -0.041779395 -3.8762996 -44.782841 -111.47894
19990000 -40.854134 -37.416111 -0.042150285 -4.0871267 -0.044053055 -4.0827603 -44.072289 -113.27306
20989000 -40.800301 -40.377533 -0.043863472 -4.2897921 -0.045327786 -4.2804718 -43.451893 -113.88714
21988000 -40.774212 -44.394596 -0.044195574 -4.4867787 -0.045990147 -4.4774194 -43.147385 -113.75451
22987000 -40.60405 -48.746555 -0.046135869 -4.6831303 -0.047114454 -4.678421 -42.794926 -113.74774
23986000 -40.634449 -52.035484 -0.045586232 -4.8795738 -0.045995902 -4.8804607 -42.726978 -113.76637
24985000 -40.40884 -54.863388 -0.046503205 -5.0939622 -0.046055812 -5.084991 -42.375824 -111.09367
25984000 -40.202194 -56.890095 -0.047138792 -5.2973304 -0.047137484 -5.2977972 -42.02243 -110.12421
26983000 -39.987652 -59.083481 -0.047837809 -5.4934058 -0.04793046 -5.509203 -41.872906 -109.0512
27982000 -39.852425 -59.863056 -0.04931891 -5.692143 -0.049179364 -5.730247 -41.518887 -108.06525
28981000 -39.874371 -61.206768 -0.047642823 -5.8945818 -0.049332526 -5.9152565 -41.2425 -107.27912
29980000 -39.504726 -63.139637 -0.047227766 -6.0848022 -0.049830005 -6.091857 -40.92514 -106.66489
30979000 -39.140148 -62.634277 -0.045113824 -6.4369426 -0.04471888 -6.428494 -40.419468 -108.17471
31978000 -38.964825 -63.715031 -0.044250231 -6.6336398 -0.045257948 -6.6271954 -40.107914 -107.57298
32977000 -38.810474 -65.452309 -0.044111107 -6.8438864 -0.046488553 -6.8409815 -39.847172 -107.79604
33976000 -38.693245 -66.480316 -0.04473405 -7.0461497 -0.046278194 -7.0393004 -39.533905 -107.80019
34975000 -38.438385 -67.637627 -0.045321509 -7.2441406 -0.047273561 -7.2471604 -39.271473 -107.47619
35974000 -38.249847 -68.264458 -0.044223033 -7.4412255 -0.047411997 -7.4417868 -38.955429 -106.80733
36973000 -38.040482 -69.309937 -0.045033 -7.6388674 -0.047690194 -7.6406226 -38.650932 -106.24871
37972000 -37.881767 -69.358353 -0.044401385 -7.8476448 -0.047621101 -7.8597193 -38.387524 -105.47221
38971000 -37.554256 -69.317406 -0.045549348 -8.0511408 -0.047530811 -8.0578747 -38.171391 -104.09542
39970000 -37.241859 -69.867218 -0.044042073 -8.243782 -0.047204476 -8.2571688 -37.874187 -103.85559
40969000 -36.969112 -69.870155 -0.044291548 -8.4405422 -0.046628799 -8.4552135 -37.59465 -102.5228
41968000 -36.630474 -70.168785 -0.04434045 -8.6468887 -0.047542591 -8.6602602 -37.371185 -101.3353
42967000 -36.383133 -70.461815 -0.044778515 -8.8542747 -0.047313336 -8.8705559 -37.106388 -99.533051
43966000 -36.109077 -71.390907 -0.045591202 -9.0538101 -0.048459716 -9.0744009 -36.806805 -99.171936
44965000 -35.914272 -72.347214 -0.045737434 -9.2587824 -0.048181992 -9.2784891 -36.589592 -99.237122
45964000 -35.70385 -73.536423 -0.047419064 -9.4577131 -0.050203152 -9.4791746 -36.337559 -99.092163
46963000 -35.539368 -75.519859 -0.046679821 -9.6531296 -0.050445389 -9.6745234 -36.157669 -99.498856
47962000 -35.420578 -77.120667 -0.048915733 -9.8569927 -0.052079592 -9.8700666 -35.978043 -99.669983
48961000 -35.242123 -78.589127 -0.050999831 -10.051866 -0.053369783 -10.073272 -35.731792 -100.06969
49960000 -35.03743 -80.041283 -0.052272677 -10.251694 -0.05453375 -10.273182 -35.602962 -100.3208
50959000 -34.841049 -81.415565 -0.052878186 -10.465148 -0.055547267 -10.47286 -35.42907 -100.73889
51958000 -34.656048 -82.681442 -0.054737169 -10.662336 -0.056620024 -10.670738 -35.24757 -101.47131
52957000 -34.477402 -83.766411 -0.055991702 -10.863324 -0.057700917 -10.870724 -35.069355 -101.40787
53956000 -34.326286 -84.675499 -0.056936581 -11.06795 -0.059129495 -11.064232 -34.948273 -101.39706
54955000 -34.182259 -85.302689 -0.058342081 -11.265196 -0.05995065 -11.262122 -34.764008 -101.5774
55954000 -34.025932 -86.163605 -0.059656706 -11.467263 -0.06079926 -11.460592 -34.661469 -101.25115
56953000 -33.902077 -86.294083 -0.058707565 -11.662579 -0.059348874 -11.654531 -34.593456 -101.64536
57952000 -33.749557 -87.008965 -0.059429962 -11.85909 -0.060540956 -11.848631 -34.482624 -101.79206
58951000 -33.645084 -87.319809 -0.060667481 -12.062026 -0.061729427 -12.045197 -34.33614 -101.87695
59950000 -33.515793 -87.770988 -0.061216142 -12.263749 -0.062241986 -12.244344 -34.265327 -102.24909
60949000 -33.412094 -88.441154 -0.062283739 -12.467965 -0.062881455 -12.446801 -34.178886 -102.52177
61948000 -33.36512 -88.695686 -0.062426858 -12.663796 -0.062957622 -12.649239 -34.091583 -102.71032
62947000 -33.270607 -88.96048 -0.063072391 -12.875979 -0.063471638 -12.855906 -33.947159 -103.00923
63946000 -33.216042 -89.72139 -0.064210065 -13.074065 -0.064685345 -13.056451 -33.85965 -103.18217
64945000 -33.120731 -89.883568 -0.064582877 -13.277881 -0.065314926 -13.256185 -33.746864 -103.70204
65944000 -33.003113 -90.186356 -0.065474957 -13.474791 -0.065699391 -13.455137 -33.657654 -104.28594
66943000 -32.859863 -90.696945 -0.062805817 -13.677884 -0.063642114 -13.659219 -33.548351 -104.55501
67942000 -32.81662 -90.630569 -0.065758519 -13.871199 -0.065425292 -13.861415 -33.430367 -104.79916
68941000 -32.70332 -90.784042 -0.065448418 -14.066896 -0.064971216 -14.054819 -33.327839 -104.85735
69940000 -32.598782 -90.908905 -0.065269202 -14.265226 -0.065400854 -14.258305 -33.185471 -105.30656
70939000 -32.489082 -90.87149 -0.06545262 -14.463799 -0.065549329 -14.454566 -33.04443 -105.13937
71938000 -32.341854 -90.480736 -0.064799376 -14.65712 -0.065635532 -14.649793 -32.909595 -105.06951
72937000 -32.190804 -90.401619 -0.064463593 -14.85645 -0.064447306 -14.851393 -32.764244 -104.78422
73936000 -32.048317 -90.11834 -0.064584449 -15.055136 -0.064540833 -15.047856 -32.645847 -104.60193
74935000 -31.925791 -90.393463 -0.063764259 -15.250815 -0.064064786 -15.246092 -32.48204 -104.29286
75934000 -31.805618 -90.651505 -0.064029582 -15.462623 -0.063561469 -15.45665 -32.402565 -104.2712
76933000 -31.671898 -91.159966 -0.065034278 -15.653126 -0.064801216 -15.645604 -32.225399 -104.76868
77932000 -31.582956 -91.892128 -0.067073032 -15.850723 -0.066875868 -15.841345 -32.128124 -104.73628
78931000 -31.513065 -92.689743 -0.065112323 -16.046219 -0.065786906 -16.041174 -32.031887 -104.66808
79930000 -31.4132 -93.521057 -0.067771584 -16.240072 -0.068572544 -16.240263 -31.934715 -104.98297
80929000 -31.29236 -94.505302 -0.069264494 -16.43652 -0.070266724 -16.431208 -31.824697 -105.3894
81928000 -31.214132 -95.409149 -0.069371812 -16.626488 -0.07080476 -16.62467 -31.713783 -105.5302
82927000 -31.131172 -96.129105 -0.071179979 -16.823977 -0.072014466 -16.82143 -31.611349 -105.92224
83926000 -31.020735 -96.928322 -0.072404265 -17.025595 -0.072543502 -17.026123 -31.492229 -106.14201
84925000 -30.911896 -97.413841 -0.073576242 -17.222931 -0.072968625 -17.218136 -31.401741 -106.2324
85924000 -30.835577 -97.882576 -0.074160762 -17.422581 -0.07461264 -17.42338 -31.312403 -106.29821
86923000 -30.735088 -98.509453 -0.074695073 -17.621582 -0.074446999 -17.613804 -31.212788 -106.20618
87922000 -30.623405 -98.870132 -0.07397908 -17.82732 -0.074203424 -17.820387 -31.132591 -106.29209
88921000 -30.562887 -99.219673 -0.075484663 -18.023745 -0.074126534 -18.021534 -31.030807 -106.30463
89920000 -30.455736 -99.806145 -0.076115817 -18.227158 -0.076634288 -18.221643 -30.971382 -106.5559
90919000 -30.371746 -100.12476 -0.0775415 -18.419575 -0.077142283 -18.41626 -30.881224 -106.76646
91918000 -30.275572 -100.57103 -0.078155555 -18.620462 -0.077078253 -18.618427 -30.816135 -106.79415
92917000 -30.180918 -100.91131 -0.078943148 -18.817978 -0.078800537 -18.818298 -30.747536 -106.93505
93916000 -30.109486 -101.3408 -0.077953674 -19.014044 -0.078389078 -19.007643 -30.671833 -107.57124
94915000 -30.034199 -101.99329 -0.079769634 -19.215252 -0.079263702 -19.20755 -30.605562 -107.49955
95914000 -29.973183 -102.17457 -0.080742382 -19.406754 -0.080239236 -19.407732 -30.518118 -107.77152
96913000 -29.890501 -102.43563 -0.082049295 -19.610409 -0.081280924 -19.60741 -30.452082 -108.10835
97912000 -29.813745 -102.96637 -0.082664773 -19.802168 -0.081368752 -19.808424 -30.371382 -108.36566
98911000 -29.710733 -103.11017 -0.083248682 -20.004358 -0.082996167 -20.005054 -30.325832 -108.58744
99910000 -29.637184 -103.27262 -0.083917379 -20.201555 -0.082405701 -20.203732 -30.220455 -108.93993
100909000 -29.551155 -103.55745 -0.083859056 -20.413214 -0.082369819 -20.405672 -30.128113 -109.10181
101908000 -29.456034 -103.88105 -0.08535751 -20.61339 -0.083856679 -20.609604 -30.020721 -108.89639
102907000 -29.323637 -103.87522 -0.085469976 -20.809818 -0.083972536 -20.811773 -29.947357 -108.86231
103906000 -29.231369 -103.94951 -0.085563168 -21.015844 -0.083737656 -21.014439 -29.786043 -108.85951
104905000 -29.078308 -103.89368 -0.086477794 -21.215237 -0.08399602 -21.216515 -29.663549 -108.53103
105904000 -28.943514 -104.05049 -0.086909041 -21.417849 -0.084486671 -21.410625 -29.540592 -108.44122
106903000 -28.838673 -104.17115 -0.086156704 -21.622816 -0.084523618 -21.616148 -29.402306 -108.35695
107902000 -28.669086 -104.56583 -0.087021805 -21.822241 -0.08431194 -21.814493 -29.262064 -108.33922
108901000 -28.562757 -104.84864 -0.087859876 -22.024248 -0.086092278 -22.018261 -29.128138 -108.27451
109900000 -28.442839 -105.36398 -0.088505767 -22.224691 -0.087473176 -22.216949 -28.983967 -108.37823
110899000 -28.321007 -106.00484 -0.090018779 -22.422674 -0.087793574 -22.414282 -28.854389 -108.73344
111898000 -28.234041 -106.67361 -0.091806747 -22.622652 -0.088851079 -22.616516 -28.738796 -108.88778
112897000 -28.116106 -107.31629 -0.093244739 -22.820709 -0.090596803 -22.81134 -28.601934 -109.06612
113896000 -28.007875 -107.93814 -0.093424581 -23.02273 -0.091908008 -23.011665 -28.495884 -109.28189
114895000 -27.91304 -108.57996 -0.095221892 -23.22044 -0.093307681 -23.208311 -28.374607 -109.37632
115894000 -27.781418 -108.97654 -0.095908314 -23.420742 -0.094457537 -23.407192 -28.308466 -109.62949
116893000 -27.71048 -109.55743 -0.09719836 -23.616549 -0.095426433 -23.599735 -28.173094 -109.8009
117892000 -27.631504 -110.05106 -0.097040854 -23.811979 -0.096072659 -23.800325 -28.111689 -110.02975
118891000 -27.5686 -110.50144 -0.097411729 -24.01512 -0.095760912 -24.002731 -28.01363 -110.16319
119890000 -27.485588 -110.90487 -0.09857776 -24.21438 -0.096749946 -24.201054 -27.9991 -110.35061
120889000 -27.433666 -111.44333 -0.099850059 -24.414202 -0.096601196 -24.396358 -27.923431 -110.29406
121888000 -27.394691 -111.77303 -0.099456996 -24.612064 -0.097606309 -24.5973 -27.865126 -110.60755
122887000 -27.349831 -111.96879 -0.10091925 -24.810167 -0.098035216 -24.802347 -27.81496 -110.67782
123886000 -27.293833 -112.41498 -0.10062967 -25.013258 -0.098374397 -24.996069 -27.811546 -110.86517
124885000 -27.257555 -112.90713 -0.1011222 -25.213934 -0.098867998 -25.194756 -27.778135 -110.88329
125884000 -27.205593 -113.16983 -0.10215354 -25.415255 -0.099210687 -25.395601 -27.738138 -111.12857
126883000 -27.190399 -113.48948 -0.10210557 -25.615604 -0.10003257 -25.603268 -27.702055 -111.1424
127882000 -27.13526 -113.85811 -0.10250868 -25.814289 -0.10020448 -25.795994 -27.660213 -111.31461
128881000 -27.107365 -114.14886 -0.10344889 -26.01421 -0.10057907 -25.99785 -27.623421 -111.43803
129880000 -27.049276 -114.45058 -0.103907 -26.217157 -0.1009725 -26.196348 -27.574635 -111.44469
130879000 -26.988604 -114.63974 -0.10427316 -26.416458 -0.10117573 -26.399914 -27.498585 -111.46584
131878000 -26.921917 -114.88955 -0.10417823 -26.617912 -0.10140015 -26.599173 -27.438824 -111.37142
132877000 -26.852922 -114.91259 -0.10376251 -26.818869 -0.10200857 -26.801767 -27.34367 -111.36929
133876000 -26.766558 -115.12566 -0.10416578 -27.019205 -0.10211485 -26.99984 -27.256031 -111.31644
134875000 -26.670782 -115.21378 -0.10458287 -27.222359 -0.10236662 -27.204679 -27.14679 -111.17986
135874000 -26.585279 -115.28335 -0.10419706 -27.419514 -0.10228155 -27.403769 -27.039957 -111.17469
136873000 -26.475256 -115.22311 -0.10422517 -27.625408 -0.10179286 -27.604076 -26.951105 -111.14886
137872000 -26.394569 -115.35509 -0.10449536 -27.822609 -0.10289566 -27.808399 -26.848795 -111.13261
138871000 -26.318066 -115.55478 -0.10571528 -28.02347 -0.10328744 -28.007788 -26.751987 -111.30845
139870000 -26.225908 -115.81389 -0.10686551 -28.225489 -0.10432884 -28.205965 -26.665712 -111.4749
140869000 -26.133869 -116.29975 -0.10789264 -28.4186 -0.10547075 -28.398386 -26.559795 -111.6254
141868000 -26.044237 -116.7961 -0.10859407 -28.611212 -0.10645616 -28.595165 -26.489033 -112.00164
142867000 -25.969297 -117.02965 -0.10663895 -28.808809 -0.10481251 -28.793165 -26.40605 -112.16438
143866000 -25.893164 -117.55116 -0.10894921 -29.00362 -0.10649569 -28.988184 -26.337069 -112.71379
144865000 -25.841873 -118.11526 -0.1096763 -29.204937 -0.10817421 -29.189938 -26.282028 -113.07644
145864000 -25.784195 -118.42127 -0.11074499 -29.403582 -0.10906309 -29.3951 -26.251589 -113.34195
146863000 -25.738766 -118.86732 -0.11142298 -29.603365 -0.10925978 -29.589302 -26.197849 -113.63631
147862000 -25.700275 -119.21767 -0.11197624 -29.801329 -0.10967391 -29.790092 -26.160822 -114.00484
148861000 -25.664835 -119.73238 -0.11216324 -29.99894 -0.11063027 -29.98407 -26.145262 -114.26395
149860000 -25.653378 -119.96312 -0.11303779 -30.195082 -0.11058726 -30.185167 -26.113153 -114.41158
150859000 -25.637371 -120.32373 -0.11393988 -30.395439 -0.11091547 -30.384514 -26.106071 -114.6986
151858000 -25.61286 -120.64867 -0.1130617 -30.597816 -0.11152975 -30.583511 -26.094723 -114.98138
152857000 -25.596027 -120.95409 -0.11383119 -30.791269 -0.11116377 -30.782335 -26.078512 -115.11337
153856000 -25.593529 -121.17751 -0.11358593 -30.995728 -0.11169416 -30.982132 -26.098621 -115.44653
154855000 -25.585798 -121.3757 -0.114389 -31.190695 -0.1111173 -31.180101 -26.08317 -115.68509
155854000 -25.596792 -121.60757 -0.1144706 -31.389662 -0.11164051 -31.377554 -26.076233 -115.95958
156853000 -25.584776 -122.30474 -0.11229393 -31.575474 -0.11102143 -31.569725 -26.073555 -116.24881
157852000 -25.591181 -122.52257 -0.11296233 -31.780308 -0.11331782 -31.770126 -26.065235 -116.57322
158851000 -25.584417 -122.76536 -0.11452349 -31.97843 -0.11336592 -31.96698 -26.049448 -116.83646
159850000 -25.570662 -122.92148 -0.11519888 -32.17448 -0.11347725 -32.168625 -26.045229 -116.95967
160849000 -25.548466 -123.02535 -0.1151178 -32.375149 -0.11409959 -32.368176 -26.019411 -117.27576
161848000 -25.529003 -123.11654 -0.11520366 -32.576462 -0.11436827 -32.567577 -25.977734 -117.3834
162847000 -25.483503 -123.30605 -0.11507209 -32.773167 -0.11448601 -32.766296 -25.951712 -117.64203
163846000 -25.439631 -123.54725 -0.11518293 -32.974796 -0.11435579 -32.964897 -25.869139 -117.65684
164845000 -25.380135 -123.55862 -0.11552984 -33.171448 -0.11512285 -33.16544 -25.797255 -117.78684
165844000 -25.32548 -123.64397 -0.11602778 -33.373951 -0.11554525 -33.36285 -25.717886 -117.88638
166843000 -25.258137 -123.7386 -0.11549793 -33.564747 -0.11556173 -33.56123 -25.643894 -118.09195
167842000 -25.199224 -123.85567 -0.11636225 -33.765423 -0.11562261 -33.766499 -25.563921 -118.01588
168841000 -25.122005 -124.06576 -0.11667814 -33.96513 -0.11582067 -33.960419 -25.486422 -118.1015
169840000 -25.058775 -124.35625 -0.1171217 -34.160965 -0.11661033 -34.16153 -25.398287 -118.30595
170839000 -24.994999 -124.61935 -0.11784085 -34.358776 -0.11739376 -34.355118 -25.309568 -118.49063
171838000 -24.943773 -125.03843 -0.11705389 -34.562019 -0.11744828 -34.553215 -25.246164 -118.76053
172837000 -24.866041 -125.42891 -0.11879768 -34.755825 -0.11869898 -34.749065 -25.178499 -119.0088
173836000 -24.80398 -125.85149 -0.12064997 -34.953163 -0.11980582 -34.950123 -25.134558 -119.25547
174835000 -24.750605 -126.28688 -0.12073088 -35.152519 -0.12106838 -35.151257 -25.088264 -119.58231
175834000 -24.695013 -126.71526 -0.1217179 -35.347855 -0.12182439 -35.343624 -25.028543 -119.90427
176833000 -24.648401 -127.09528 -0.12249852 -35.543663 -0.12190426 -35.540909 -24.970522 -120.06559
177832000 -24.602943 -127.56691 -0.12313654 -35.738186 -0.12194952 -35.741474 -24.951624 -120.23586
178831000 -24.565643 -127.95104 -0.1234396 -35.939194 -0.12258479 -35.935238 -24.913715 -120.48656
179830000 -24.532602 -128.39056 -0.12440167 -36.133358 -0.12334906 -36.137783 -24.88858 -120.60404
180829000 -24.493126 -128.60236 -0.1242834 -36.335857 -0.12349207 -36.331684 -24.857626 -120.80463
181828000 -24.469973 -128.95399 -0.12418804 -36.527927 -0.12388332 -36.52837 -24.84441 -120.93452
182827000 -24.443096 -129.33907 -0.1245306 -36.723125 -0.12429778 -36.727699 -24.82596 -121.02321
183826000 -24.404007 -129.65576 -0.12563147 -36.924057 -0.1236745 -36.919384 -24.816687 -121.16541
184825000 -24.405602 -129.99527 -0.12528615 -37.117889 -0.12470429 -37.11832 -24.799208 -121.2505
185824000 -24.377207 -130.35532 -0.12517478 -37.31551 -0.12549397 -37.316566 -24.801424 -121.29807
186823000 -24.368689 -130.7005 -0.12556697 -37.516968 -0.12517691 -37.512115 -24.794468 -121.30214
187822000 -24.344637 -131.01999 -0.12655456 -37.710468 -0.12590326 -37.706875 -24.758884 -121.3761
188821000 -24.326361 -131.2744 -0.12621424 -37.902054 -0.12620439 -37.909706 -24.743349 -121.45686
189820000 -24.309525 -131.54788 -0.12677391 -38.104336 -0.12665531 -38.105068 -24.73612 -121.64231
190819000 -24.279211 -131.76018 -0.12785722 -38.301891 -0.12729394 -38.304062 -24.699039 -121.57834
191818000 -24.245424 -131.95621 -0.12918532 -38.499847 -0.12892506 -38.502888 -24.667383 -121.46187
192817000 -24.174173 -132.24487 -0.12951921 -38.68454 -0.12934373 -38.684784 -24.59383 -121.54922
193816000 -24.137896 -132.59325 -0.12831871 -38.87957 -0.12815395 -38.879333 -24.539049 -121.82901
194815000 -24.082146 -133.04527 -0.12803397 -39.07127 -0.1287128 -39.074394 -24.47455 -121.93109
195814000 -24.030184 -133.27063 -0.12870133 -39.274731 -0.12845203 -39.273151 -24.41769 -122.05047
196813000 -23.976578 -133.60864 -0.12836617 -39.466103 -0.12838857 -39.468884 -24.339403 -122.20143
197812000 -23.916391 -133.86667 -0.12868214 -39.666668 -0.12899572 -39.66243 -24.267126 -122.31815
198811000 -23.863558 -134.06221 -0.12840776 -39.860676 -0.12878533 -39.864845 -24.200972 -122.5174
199810000 -23.793077 -134.4194 -0.12916559 -40.05484 -0.12893732 -40.056938 -24.122881 -122.61959
200809000 -23.733253 -134.72769 -0.1294544 -40.250816 -0.12882532 -40.255695 -24.037367 -122.79753
201808000 -23.676783 -134.94991 -0.12993315 -40.454636 -0.13042234 -40.457165 -23.972509 -122.90133
202807000 -23.619913 -135.35509 -0.13081448 -40.654415 -0.13134646 -40.659916 -23.917351 -123.10673
203806000 -23.56287 -135.76764 -0.13286807 -40.854656 -0.13133313 -40.851978 -23.852514 -123.30557
