!Keysight Technologies,E5080B,MY59205177,A.15.75.32
!Date: Friday, February 23, 2024 03:30:22
!Correction: S11(Cdelta 2-Port  ) 
!S21(Cdelta 2-Port  ) 
!S12(Cdelta 2-Port  ) 
!S22(Cdelta 2-Port  ) 
!S2P File: Measurements: S11, S21, S12, S22:
# Hz S  dB   R 50
10000000 -46.025005 -1.8432587 -0.016750455 -2.0530136 -0.018755738 -2.1020572 -46.004482 -158.4023
10999000 -45.215248 -4.0752335 -0.017354412 -2.2697456 -0.018046571 -2.3227854 -45.940186 -152.52184
11998000 -44.265213 -6.9148412 -0.017627571 -2.4946063 -0.018143788 -2.5379293 -46.183861 -147.46353
12997000 -43.518585 -12.453786 -0.017104659 -2.6738644 -0.018006541 -2.7061279 -45.790409 -141.78838
13996000 -43.246132 -16.369591 -0.016003422 -2.8573062 -0.017728418 -2.8758011 -45.607689 -136.97118
14995000 -42.865887 -20.559366 -0.018939808 -3.0679264 -0.017843824 -3.0891001 -45.306423 -133.09911
15994000 -42.70092 -25.121696 -0.019967934 -3.2848988 -0.020274287 -3.304651 -45.161942 -129.54315
16993000 -42.665905 -29.647379 -0.018541779 -3.4788885 -0.019392475 -3.4869692 -44.345715 -129.25809
17992000 -42.731247 -34.990379 -0.018642908 -3.6782341 -0.019855853 -3.6820922 -43.749741 -129.55418
18991000 -42.985302 -40.29076 -0.019880038 -3.8939292 -0.021193214 -3.8877232 -43.131462 -128.38177
19990000 -42.794823 -45.832367 -0.022525784 -4.1025686 -0.023598745 -4.0973787 -42.480949 -129.27145
20989000 -42.605427 -48.840244 -0.024727944 -4.302804 -0.025376234 -4.2968988 -41.95433 -128.34601
21988000 -42.470818 -54.519665 -0.024632141 -4.5030985 -0.02615587 -4.4931369 -41.625656 -127.82736
22987000 -42.136913 -59.145046 -0.026662946 -4.7021561 -0.027247703 -4.6958394 -41.446007 -127.26461
23986000 -42.067257 -63.535999 -0.025646774 -4.8981833 -0.026623357 -4.8954568 -41.336597 -127.09519
24985000 -41.697441 -65.881844 -0.027195606 -5.1087193 -0.02666555 -5.1044221 -41.105415 -124.79202
25984000 -41.353119 -68.241135 -0.028057378 -5.313695 -0.027664505 -5.3128552 -40.771431 -122.98023
26983000 -41.048527 -70.131615 -0.028953459 -5.5155129 -0.028242884 -5.5326066 -40.659039 -122.40356
27982000 -40.908768 -70.885521 -0.029358696 -5.711236 -0.02988022 -5.7431054 -40.396488 -120.75742
28981000 -40.877098 -72.679459 -0.028289001 -5.9104862 -0.029657634 -5.9364462 -40.133053 -120.08028
29980000 -40.463821 -74.001633 -0.02808708 -6.104743 -0.030041564 -6.1171241 -39.889732 -119.20358
30979000 -40.062202 -72.983513 -0.026225405 -6.4612556 -0.024354635 -6.4522796 -39.373863 -119.55171
31978000 -39.872711 -74.086281 -0.025591571 -6.6547828 -0.025555637 -6.645936 -39.136452 -118.82585
32977000 -39.65451 -75.571007 -0.025377015 -6.8683228 -0.02630692 -6.8629699 -38.916473 -118.77948
33976000 -39.502296 -76.683411 -0.0260366 -7.0691628 -0.026335046 -7.064836 -38.604935 -118.20348
34975000 -39.205372 -77.482582 -0.026088161 -7.2678308 -0.027902361 -7.2694454 -38.387993 -117.75858
35974000 -39.013401 -78.077751 -0.025464762 -7.467371 -0.027394101 -7.4664044 -38.106014 -116.96484
36973000 -38.745979 -78.635635 -0.026450159 -7.6650023 -0.028518293 -7.6669984 -37.849548 -115.95016
37972000 -38.590153 -78.385414 -0.026108215 -7.873179 -0.027817952 -7.8861914 -37.641964 -115.20512
38971000 -38.269768 -77.975609 -0.026608771 -8.075387 -0.028943816 -8.0872297 -37.478203 -113.66768
39970000 -37.900032 -78.303558 -0.025186162 -8.2697649 -0.027689254 -8.2860651 -37.201897 -113.00894
40969000 -37.629395 -78.021355 -0.025593132 -8.4655504 -0.026218373 -8.4835615 -36.943577 -111.62137
41968000 -37.29026 -77.885307 -0.025192151 -8.6682615 -0.026862718 -8.6882601 -36.75943 -110.18607
42967000 -37.016201 -77.998825 -0.025470491 -8.8863268 -0.027718954 -8.9012671 -36.568588 -108.52218
43966000 -36.729488 -78.694687 -0.026528552 -9.0832176 -0.028581873 -9.1030245 -36.295952 -107.60738
44965000 -36.477539 -79.348923 -0.027289381 -9.2927284 -0.029187737 -9.3062639 -36.090633 -107.32961
45964000 -36.251503 -80.408249 -0.028869027 -9.484951 -0.030243317 -9.5079441 -35.838741 -107.03808
46963000 -36.072151 -82.426277 -0.028547477 -9.6799984 -0.03085541 -9.7063541 -35.660881 -107.36957
47962000 -35.896206 -83.815666 -0.029485619 -9.8844852 -0.031822212 -9.9033432 -35.472111 -107.24533
48961000 -35.674404 -85.21743 -0.032030046 -10.079569 -0.03348881 -10.103151 -35.224617 -107.49521
49960000 -35.438934 -86.357285 -0.033135615 -10.280716 -0.034354702 -10.3052 -35.089687 -107.58178
50959000 -35.229225 -87.915047 -0.034228161 -10.496849 -0.035978161 -10.508506 -34.90358 -107.77838
51958000 -35.025871 -88.899902 -0.035863318 -10.693274 -0.03729517 -10.705939 -34.737755 -108.35107
52957000 -34.8204 -89.968651 -0.036888409 -10.893033 -0.038636871 -10.902437 -34.572327 -107.98129
53956000 -34.642929 -90.666306 -0.038316686 -11.09874 -0.038837455 -11.100118 -34.429726 -107.94109
54955000 -34.479633 -91.089661 -0.039346274 -11.297361 -0.039844703 -11.295415 -34.292645 -107.93663
55954000 -34.305378 -91.963226 -0.040826052 -11.497727 -0.040613618 -11.498025 -34.185432 -107.69779
56953000 -34.182571 -92.136436 -0.040860806 -11.699615 -0.039895907 -11.689218 -34.100845 -107.80403
57952000 -34.026539 -92.592194 -0.041232921 -11.897562 -0.041051302 -11.888852 -34.009537 -107.87974
58951000 -33.905495 -93.029907 -0.042841438 -12.102028 -0.041694716 -12.080441 -33.869255 -107.99139
59950000 -33.773067 -93.290443 -0.0434676 -12.299828 -0.042136952 -12.283042 -33.788479 -108.30028
60949000 -33.666889 -93.900497 -0.043338962 -12.50243 -0.043294776 -12.485504 -33.692921 -108.54718
61948000 -33.594997 -94.231804 -0.044462319 -12.708529 -0.042682756 -12.686116 -33.610218 -108.63166
62947000 -33.499992 -94.36377 -0.043746326 -12.916226 -0.043180782 -12.895448 -33.469082 -108.84549
63946000 -33.433361 -95.148308 -0.045963723 -13.111539 -0.044921316 -13.09793 -33.356586 -109.00784
64945000 -33.324623 -95.287819 -0.045520049 -13.318223 -0.045112778 -13.297423 -33.254951 -109.50938
65944000 -33.215282 -95.576019 -0.046586934 -13.516191 -0.045593295 -13.499933 -33.152519 -109.92551
66943000 -33.083057 -95.995529 -0.044435121 -13.720185 -0.043757308 -13.702813 -33.066765 -110.20073
67942000 -33.020248 -95.93219 -0.046465527 -13.914507 -0.046051104 -13.902904 -32.93676 -110.43048
68941000 -32.91893 -95.997765 -0.046061568 -14.107591 -0.045429543 -14.100039 -32.822945 -110.37074
69940000 -32.812408 -95.992996 -0.046400905 -14.310315 -0.046370029 -14.299701 -32.67934 -110.64445
70939000 -32.701759 -95.953842 -0.046326861 -14.502527 -0.045652676 -14.498989 -32.544754 -110.58793
71938000 -32.563782 -95.460869 -0.046152875 -14.703818 -0.0453563 -14.69933 -32.427544 -110.48562
72937000 -32.399902 -95.264175 -0.045584138 -14.904267 -0.0445549 -14.892065 -32.275242 -110.17216
73936000 -32.256119 -94.909622 -0.045729324 -15.103747 -0.043828696 -15.096945 -32.1572 -109.97263
74935000 -32.13039 -95.113426 -0.044963952 -15.295797 -0.043280132 -15.291363 -32.00135 -109.60009
75934000 -32.007618 -95.345146 -0.045399196 -15.506722 -0.044002064 -15.500105 -31.922325 -109.48207
76933000 -31.87224 -95.702881 -0.046619117 -15.700318 -0.045524757 -15.692314 -31.741657 -109.85773
77932000 -31.777967 -96.507439 -0.047843043 -15.896997 -0.046923429 -15.89242 -31.633211 -109.77238
78931000 -31.705223 -97.217934 -0.04646422 -16.097462 -0.045684591 -16.08989 -31.537119 -109.63663
79930000 -31.588345 -98.099533 -0.048394013 -16.292557 -0.048326477 -16.293543 -31.443419 -109.92042
80929000 -31.481667 -98.978401 -0.050745782 -16.488388 -0.050476816 -16.485405 -31.338278 -110.21017
81928000 -31.366774 -99.642548 -0.050693661 -16.679956 -0.050395891 -16.677877 -31.203695 -110.14243
82927000 -31.264233 -100.45055 -0.051745836 -16.878767 -0.051726189 -16.875515 -31.089872 -110.44331
83926000 -31.161631 -101.10534 -0.053696062 -17.077995 -0.052657824 -17.08111 -30.973074 -110.6273
84925000 -31.042137 -101.52104 -0.054358125 -17.278332 -0.052759487 -17.274376 -30.87953 -110.70308
85924000 -30.961521 -101.93118 -0.055454187 -17.473553 -0.054265074 -17.476313 -30.789591 -110.6674
86923000 -30.846142 -102.47723 -0.055691473 -17.67568 -0.05498359 -17.669582 -30.693359 -110.5394
87922000 -30.738197 -102.82397 -0.055292945 -17.881481 -0.054121699 -17.875154 -30.591066 -110.55188
88921000 -30.658222 -103.06372 -0.056914024 -18.084827 -0.055798713 -18.075659 -30.504549 -110.58678
89920000 -30.556345 -103.6064 -0.057213288 -18.280523 -0.056308739 -18.269958 -30.457659 -110.68662
90919000 -30.451376 -103.82305 -0.058326602 -18.479897 -0.056225609 -18.46855 -30.357378 -110.90598
91918000 -30.352991 -104.22767 -0.059355699 -18.677254 -0.05706536 -18.671059 -30.299622 -110.9109
92917000 -30.264568 -104.52006 -0.059579026 -18.874182 -0.057701707 -18.874823 -30.227625 -110.89156
93916000 -30.180996 -104.88074 -0.059931491 -19.070929 -0.0584465 -19.063871 -30.139181 -111.57715
94915000 -30.098309 -105.53708 -0.061246071 -19.275185 -0.059309248 -19.267601 -30.078011 -111.41481
95914000 -30.021965 -105.66465 -0.062067099 -19.468477 -0.060062721 -19.463724 -29.993202 -111.69499
96913000 -29.93811 -105.9192 -0.063251525 -19.668179 -0.060959391 -19.665241 -29.927423 -112.07259
97912000 -29.859879 -106.31579 -0.064604156 -19.862617 -0.061422762 -19.86521 -29.847965 -112.30493
98911000 -29.760658 -106.51348 -0.065055825 -20.067284 -0.063101284 -20.064095 -29.805593 -112.55957
99910000 -29.682671 -106.65874 -0.065817133 -20.265825 -0.063246533 -20.262396 -29.692442 -112.81773
100909000 -29.597656 -106.87661 -0.065102078 -20.476522 -0.062472813 -20.469425 -29.607578 -113.03593
101908000 -29.508913 -107.13931 -0.066484988 -20.675591 -0.064612038 -20.672527 -29.495047 -112.80135
102907000 -29.37409 -107.10059 -0.067194223 -20.874804 -0.06437663 -20.86911 -29.426617 -112.78946
103906000 -29.273651 -107.14403 -0.067152686 -21.082968 -0.063496329 -21.078833 -29.274494 -112.70939
104905000 -29.128141 -107.03807 -0.067702696 -21.279596 -0.06448514 -21.28256 -29.145638 -112.41494
105904000 -28.986229 -107.14767 -0.067646429 -21.479252 -0.064296238 -21.477396 -29.035128 -112.28094
106903000 -28.871613 -107.22693 -0.067901999 -21.687037 -0.064156733 -21.683462 -28.907946 -112.19398
107902000 -28.705343 -107.53302 -0.068831846 -21.888067 -0.065648936 -21.882271 -28.77496 -112.1435
108901000 -28.593346 -107.7683 -0.070273824 -22.091011 -0.066964984 -22.083839 -28.642643 -112.04539
109900000 -28.464308 -108.27247 -0.070493244 -22.292889 -0.068027422 -22.277311 -28.492517 -112.16189
110899000 -28.354639 -108.85405 -0.072067894 -22.488815 -0.068628296 -22.480263 -28.364784 -112.35651
111898000 -28.263983 -109.53201 -0.073156588 -22.690073 -0.069482282 -22.682922 -28.235847 -112.54066
112897000 -28.137726 -110.07146 -0.074988715 -22.891798 -0.07071688 -22.879755 -28.113926 -112.70498
113896000 -28.033865 -110.66571 -0.076006226 -23.090694 -0.072114743 -23.077993 -27.997658 -112.83881
114895000 -27.930264 -111.33057 -0.077106714 -23.290518 -0.073429853 -23.276184 -27.886745 -112.89165
115894000 -27.806541 -111.65072 -0.078233041 -23.49147 -0.074143916 -23.478277 -27.817297 -113.10373
116893000 -27.730349 -112.13828 -0.078868806 -23.688692 -0.075481772 -23.671579 -27.698984 -113.11669
117892000 -27.648722 -112.68958 -0.078934446 -23.885487 -0.076026507 -23.868814 -27.625383 -113.38441
118891000 -27.596601 -113.04136 -0.079119235 -24.084869 -0.076193005 -24.068354 -27.531658 -113.48358
119890000 -27.501749 -113.45123 -0.080266133 -24.285831 -0.076120295 -24.27388 -27.510719 -113.60764
120889000 -27.453894 -113.94522 -0.081719302 -24.490761 -0.076809496 -24.4732 -27.439262 -113.54424
121888000 -27.41445 -114.28775 -0.081748843 -24.683006 -0.077739149 -24.671227 -27.386349 -113.80796
122887000 -27.373798 -114.44459 -0.08235874 -24.887476 -0.078472368 -24.873373 -27.337547 -113.83516
123886000 -27.321533 -114.85205 -0.08255133 -25.087805 -0.078895435 -25.069977 -27.321363 -113.98971
124885000 -27.287205 -115.43671 -0.083315969 -25.289881 -0.079599842 -25.27597 -27.293781 -114.00858
125884000 -27.236637 -115.56789 -0.084319331 -25.489309 -0.079581387 -25.472134 -27.268208 -114.17102
126883000 -27.22176 -115.97128 -0.08425124 -25.68837 -0.080094472 -25.676029 -27.225657 -114.18255
127882000 -27.169203 -116.26498 -0.084714986 -25.890957 -0.080987118 -25.874702 -27.189724 -114.28915
128881000 -27.139751 -116.55824 -0.084748246 -26.092014 -0.080480516 -26.077499 -27.151739 -114.40453
129880000 -27.087429 -116.90799 -0.086121321 -26.296673 -0.080285646 -26.276737 -27.112598 -114.33723
130879000 -27.023516 -117.04537 -0.085050225 -26.493717 -0.081607983 -26.477097 -27.037962 -114.39872
131878000 -26.958094 -117.29417 -0.085790753 -26.698431 -0.082075939 -26.677925 -26.976744 -114.29
132877000 -26.889566 -117.36695 -0.085510105 -26.900152 -0.082450815 -26.883745 -26.899017 -114.24055
133876000 -26.805695 -117.51928 -0.085895039 -27.10173 -0.082763717 -27.083353 -26.81064 -114.1076
134875000 -26.707876 -117.62547 -0.086233541 -27.298262 -0.083028354 -27.283268 -26.707302 -113.98251
135874000 -26.629467 -117.66293 -0.085782304 -27.503521 -0.082461104 -27.482468 -26.610523 -113.88773
136873000 -26.517473 -117.58417 -0.086966343 -27.702517 -0.082264028 -27.68782 -26.530035 -113.89641
137872000 -26.440504 -117.71304 -0.086520046 -27.905617 -0.082364284 -27.88875 -26.426407 -113.8131
138871000 -26.367849 -117.92303 -0.087719612 -28.106285 -0.083188258 -28.092449 -26.33079 -113.96197
139870000 -26.260824 -118.21644 -0.087828703 -28.301729 -0.083973065 -28.288551 -26.244034 -114.1432
140869000 -26.184254 -118.7409 -0.088615671 -28.501822 -0.0844125 -28.487013 -26.147734 -114.33058
141868000 -26.099962 -119.11987 -0.089793354 -28.702528 -0.08602336 -28.689053 -26.100067 -114.57798
142867000 -26.021078 -119.35395 -0.088684097 -28.899754 -0.084625505 -28.882793 -26.015659 -114.70975
143866000 -25.952793 -119.83328 -0.090526231 -29.095463 -0.086979553 -29.080484 -25.942612 -115.17947
144865000 -25.893486 -120.36438 -0.091812029 -29.296366 -0.088507354 -29.281439 -25.882008 -115.46712
145864000 -25.835611 -120.68152 -0.092266805 -29.496428 -0.089609429 -29.482201 -25.851976 -115.71424
146863000 -25.791563 -121.0442 -0.093403429 -29.694525 -0.089761376 -29.681847 -25.799501 -116.03616
147862000 -25.755171 -121.40698 -0.094702251 -29.896347 -0.090351254 -29.884251 -25.770496 -116.33205
148861000 -25.716846 -121.80338 -0.095547356 -30.09551 -0.091810711 -30.079456 -25.742174 -116.49373
149860000 -25.685289 -122.02821 -0.095998295 -30.290285 -0.092266805 -30.275141 -25.696587 -116.59332
150859000 -25.661123 -122.47865 -0.095836595 -30.485046 -0.09214253 -30.468992 -25.676937 -116.92205
151858000 -25.651672 -122.85259 -0.09521395 -30.681067 -0.092052102 -30.669834 -25.667429 -117.30631
152857000 -25.636299 -123.16312 -0.095942453 -30.879423 -0.091740116 -30.871199 -25.648054 -117.44044
153856000 -25.632654 -123.38282 -0.095120288 -31.081135 -0.091579378 -31.071835 -25.666071 -117.81516
154855000 -25.630411 -123.54455 -0.096085623 -31.280184 -0.092095464 -31.273457 -25.655384 -118.02008
155854000 -25.644894 -123.77606 -0.096575789 -31.482054 -0.092412241 -31.472607 -25.644144 -118.30758
156853000 -25.630085 -124.48042 -0.094031893 -31.670864 -0.091237284 -31.664545 -25.643372 -118.6106
157852000 -25.639482 -124.69991 -0.095347576 -31.872408 -0.092828467 -31.862661 -25.63516 -118.96251
158851000 -25.637724 -124.88531 -0.095724128 -32.075146 -0.093121491 -32.062374 -25.617783 -119.22218
159850000 -25.621042 -125.00011 -0.096798651 -32.269699 -0.093663685 -32.262199 -25.616972 -119.38473
160849000 -25.610195 -125.09347 -0.096802361 -32.470577 -0.094269179 -32.46759 -25.587898 -119.67558
161848000 -25.588848 -125.19912 -0.097449586 -32.673004 -0.094221823 -32.666721 -25.548681 -119.77592
162847000 -25.546562 -125.36345 -0.096784361 -32.870163 -0.095623836 -32.864727 -25.520185 -120.04623
163846000 -25.509472 -125.5519 -0.097221121 -33.070423 -0.094995663 -33.061455 -25.441759 -120.05623
164845000 -25.451397 -125.54187 -0.097887211 -33.268913 -0.095258668 -33.262581 -25.381935 -120.1633
165844000 -25.397144 -125.55127 -0.097857028 -33.471416 -0.096132733 -33.466702 -25.302988 -120.28992
166843000 -25.337116 -125.6058 -0.098372281 -33.66909 -0.095817275 -33.665325 -25.234682 -120.44254
167842000 -25.279629 -125.69 -0.097933017 -33.867363 -0.095989294 -33.862888 -25.161142 -120.38672
168841000 -25.203123 -125.86578 -0.098797023 -34.068436 -0.096353456 -34.062634 -25.080505 -120.43008
169840000 -25.137869 -126.10349 -0.098626487 -34.263748 -0.097569779 -34.261116 -24.999605 -120.63904
170839000 -25.077576 -126.34689 -0.10021561 -34.465054 -0.09774477 -34.464066 -24.914614 -120.81292
171838000 -25.019966 -126.76394 -0.099763706 -34.663403 -0.098099291 -34.658516 -24.849459 -121.03515
172837000 -24.94759 -127.07098 -0.10138717 -34.859768 -0.099474475 -34.857204 -24.784582 -121.21544
173836000 -24.881748 -127.49162 -0.10288294 -35.061234 -0.10019389 -35.06004 -24.742453 -121.45171
174835000 -24.830624 -127.88569 -0.1029439 -35.258587 -0.10101039 -35.257427 -24.699215 -121.77062
175834000 -24.775961 -128.26997 -0.10341999 -35.45911 -0.10186414 -35.455273 -24.638458 -122.06917
176833000 -24.731104 -128.62875 -0.10473216 -35.655685 -0.10265233 -35.65395 -24.588253 -122.17531
177832000 -24.687193 -129.04343 -0.10607072 -35.856091 -0.10387863 -35.854885 -24.566097 -122.32694
178831000 -24.639771 -129.29004 -0.10705548 -36.054245 -0.10521428 -36.04755 -24.527357 -122.38618
179830000 -24.567171 -129.66536 -0.10848738 -36.236492 -0.10642777 -36.237808 -24.467108 -122.44478
180829000 -24.519943 -130.03253 -0.1076156 -36.430576 -0.10563307 -36.430138 -24.426456 -122.78351
181828000 -24.497093 -130.45026 -0.10672649 -36.633217 -0.10487721 -36.627464 -24.4056 -122.96751
182827000 -24.476936 -130.83925 -0.10678168 -36.82576 -0.10493661 -36.82756 -24.390011 -123.09157
183826000 -24.43536 -131.20154 -0.108386 -37.023521 -0.10514453 -37.022106 -24.383898 -123.25772
184825000 -24.433346 -131.50885 -0.10724359 -37.221203 -0.10538694 -37.222748 -24.367844 -123.34129
185824000 -24.405584 -131.85875 -0.10774324 -37.416191 -0.10571847 -37.419956 -24.358173 -123.4174
186823000 -24.39209 -132.25958 -0.10748505 -37.620377 -0.10577417 -37.617886 -24.355375 -123.43816
187822000 -24.366365 -132.57495 -0.10839874 -37.816208 -0.10609247 -37.814285 -24.314556 -123.51424
188821000 -24.345018 -132.84103 -0.10804524 -38.008457 -0.10607708 -38.01189 -24.297371 -123.66174
189820000 -24.323051 -133.1535 -0.10839502 -38.213169 -0.10667609 -38.211266 -24.277752 -123.84824
190819000 -24.288563 -133.45892 -0.10940526 -38.408226 -0.10660154 -38.406799 -24.237852 -123.8926
191818000 -24.252895 -133.73749 -0.10909574 -38.606243 -0.10757447 -38.606552 -24.211807 -123.92442
192817000 -24.207371 -133.99199 -0.10948011 -38.800388 -0.10774218 -38.805119 -24.169741 -124.00237
193816000 -24.174597 -134.24425 -0.10933517 -38.997307 -0.10722634 -38.999123 -24.117182 -124.1603
194815000 -24.116053 -134.63564 -0.11051928 -39.195431 -0.10836954 -39.196404 -24.048698 -124.22457
195814000 -24.060152 -134.82652 -0.1110772 -39.39172 -0.10857921 -39.392117 -23.992435 -124.30223
196813000 -24.008104 -135.17241 -0.11116935 -39.585857 -0.10873713 -39.589584 -23.907969 -124.46848
197812000 -23.947138 -135.38251 -0.11143652 -39.782837 -0.10894709 -39.785339 -23.841686 -124.57691
198811000 -23.892982 -135.55276 -0.11130692 -39.978168 -0.1087151 -39.988445 -23.772497 -124.72868
199810000 -23.822414 -135.86993 -0.11151939 -40.174133 -0.10905804 -40.173401 -23.693119 -124.81473
200809000 -23.765787 -136.12483 -0.11235848 -40.375805 -0.10908246 -40.373253 -23.617184 -125.00487
201808000 -23.707314 -136.33336 -0.11267965 -40.572258 -0.10990568 -40.578121 -23.549192 -125.07076
202807000 -23.649204 -136.69269 -0.11346609 -40.77417 -0.11096062 -40.777805 -23.493177 -125.23291
