!Keysight Technologies,E5080B,MY59205177,A.15.75.32
!Date: Friday, February 23, 2024 03:30:28
!Correction: S11(Cdelta 2-Port  ) 
!S21(Cdelta 2-Port  ) 
!S12(Cdelta 2-Port  ) 
!S22(Cdelta 2-Port  ) 
!S2P File: Measurements: S11, S21, S12, S22:
# Hz S  dB   R 50
10000000 -46.04702 -2.1326187 -0.015105073 -2.0479088 -0.017561033 -2.1079504 -46.054745 -158.51237
10999000 -45.254173 -4.1941991 -0.017234342 -2.2688358 -0.018770818 -2.3222136 -45.990208 -151.91295
11998000 -44.2728 -7.2019334 -0.017417567 -2.4926534 -0.018085042 -2.535212 -46.188915 -147.72691
12997000 -43.580509 -12.402614 -0.016264545 -2.673537 -0.017257731 -2.7077682 -45.739811 -141.68539
13996000 -43.251377 -16.453119 -0.015440179 -2.8546083 -0.018013818 -2.8741839 -45.590977 -136.41794
14995000 -42.873657 -20.752268 -0.018282861 -3.0676959 -0.017824588 -3.090982 -45.300995 -133.26427
15994000 -42.699978 -25.143284 -0.019223988 -3.2856326 -0.020453218 -3.30849 -45.178242 -129.67271
16993000 -42.697411 -29.496616 -0.017877875 -3.4810977 -0.019160546 -3.4902465 -44.351116 -129.54106
17992000 -42.735138 -34.81535 -0.01873442 -3.6818635 -0.020154396 -3.6826925 -43.788872 -129.3073
18991000 -43.030861 -40.186642 -0.01971153 -3.8903713 -0.020781975 -3.8872986 -43.160011 -128.17169
19990000 -42.766811 -45.751369 -0.022189612 -4.103312 -0.022985332 -4.0948286 -42.432968 -129.16881
20989000 -42.640545 -49.192986 -0.024217712 -4.3055792 -0.024942467 -4.2958107 -41.941555 -128.37047
21988000 -42.498253 -54.483746 -0.024153676 -4.5062819 -0.026085557 -4.4953256 -41.698257 -127.99523
22987000 -42.14986 -59.466194 -0.026252229 -4.7017689 -0.02666633 -4.6951876 -41.408401 -127.3233
23986000 -42.087975 -63.428272 -0.025488717 -4.9018235 -0.026261864 -4.8988333 -41.269836 -127.01095
24985000 -41.679539 -66.111145 -0.027211236 -5.1076374 -0.026082171 -5.1023912 -41.046783 -124.64534
25984000 -41.323559 -68.387817 -0.027966451 -5.3117967 -0.026256917 -5.3144813 -40.72456 -122.7708
26983000 -41.061306 -70.372719 -0.028616527 -5.5163584 -0.027918253 -5.5327883 -40.64896 -122.19058
27982000 -40.889408 -71.075638 -0.029705068 -5.7125101 -0.028989941 -5.7429848 -40.379047 -120.52666
28981000 -40.876965 -72.519958 -0.027665809 -5.9135141 -0.028750984 -5.9372554 -40.132832 -119.92099
29980000 -40.475964 -73.88813 -0.027836448 -6.10745 -0.029334199 -6.1132665 -39.861111 -119.16615
30979000 -40.062195 -72.971855 -0.026263427 -6.4612961 -0.024567319 -6.4525242 -39.382477 -119.55727
31978000 -39.842979 -74.112625 -0.02500313 -6.6566019 -0.025493925 -6.6449418 -39.132881 -118.79426
32977000 -39.64566 -75.595894 -0.024597516 -6.8684835 -0.025386648 -6.8637681 -38.890518 -118.79813
33976000 -39.47562 -76.759949 -0.025301507 -7.0681829 -0.026394164 -7.0626869 -38.604576 -118.21049
34975000 -39.175079 -77.574715 -0.025654064 -7.2671208 -0.02698618 -7.2661395 -38.381107 -117.81176
35974000 -38.98946 -77.956665 -0.025122894 -7.4641333 -0.027157836 -7.4668202 -38.10614 -116.84652
36973000 -38.742989 -78.847198 -0.025295258 -7.6646991 -0.02822178 -7.6703424 -37.863556 -116.01754
37972000 -38.588276 -78.549515 -0.02458398 -7.8739061 -0.027950559 -7.8811831 -37.63039 -115.22577
38971000 -38.263134 -77.933014 -0.026386613 -8.0760546 -0.028946163 -8.0870018 -37.447762 -113.6087
39970000 -37.917599 -78.363617 -0.02390145 -8.2720509 -0.026961695 -8.2858343 -37.19191 -113.08883
40969000 -37.641491 -78.032845 -0.02451265 -8.4672565 -0.027060416 -8.487215 -36.971603 -111.68119
41968000 -37.268131 -77.737495 -0.025654584 -8.671484 -0.027440989 -8.6893425 -36.773693 -110.25267
42967000 -37.016479 -77.944656 -0.025243703 -8.882906 -0.027386546 -8.8996725 -36.570446 -108.4309
43966000 -36.732723 -78.65078 -0.02544185 -9.0870857 -0.02781821 -9.0980835 -36.294884 -107.71532
44965000 -36.492264 -79.4459 -0.026277229 -9.2850361 -0.029061085 -9.3076935 -36.061928 -107.38857
45964000 -36.250015 -80.400887 -0.028668121 -9.4870167 -0.029219009 -9.507761 -35.83987 -107.11147
46963000 -36.058907 -82.400955 -0.028104015 -9.6787958 -0.030820735 -9.7014322 -35.665333 -107.28132
47962000 -35.887489 -83.743988 -0.02930866 -9.884737 -0.032023005 -9.9018574 -35.452206 -107.4156
48961000 -35.678482 -85.219635 -0.031561457 -10.085103 -0.033846468 -10.101499 -35.218235 -107.5565
49960000 -35.444489 -86.371948 -0.032901905 -10.283242 -0.034335133 -10.304873 -35.095623 -107.57835
50959000 -35.229412 -87.854988 -0.033660982 -10.496229 -0.03548592 -10.506495 -34.910263 -107.84872
51958000 -35.020466 -88.89901 -0.035632856 -10.694824 -0.036912166 -10.704536 -34.7285 -108.30672
52957000 -34.819839 -90.012955 -0.037439298 -10.8962 -0.038131271 -10.904557 -34.565147 -108.04147
53956000 -34.651642 -90.662498 -0.03852091 -11.097835 -0.038872194 -11.097749 -34.436607 -108.01775
54955000 -34.470165 -91.172821 -0.039189808 -11.298281 -0.039492559 -11.293289 -34.282001 -107.98799
55954000 -34.298504 -92.00457 -0.040569719 -11.501947 -0.040422093 -11.493397 -34.17696 -107.69489
56953000 -34.189415 -92.021339 -0.039856195 -11.69663 -0.03898764 -11.688014 -34.10162 -107.88069
57952000 -34.024975 -92.580742 -0.04129329 -11.897769 -0.040367488 -11.886623 -34.005646 -107.86286
58951000 -33.903484 -92.983475 -0.041641138 -12.102058 -0.04141115 -12.080507 -33.857052 -107.95152
59950000 -33.778374 -93.351677 -0.042267125 -12.303053 -0.042250395 -12.279874 -33.76683 -108.25348
60949000 -33.656837 -93.920563 -0.043361709 -12.505752 -0.042784449 -12.48072 -33.690144 -108.53745
61948000 -33.600452 -94.226707 -0.043347325 -12.700857 -0.04224569 -12.687289 -33.597061 -108.56071
62947000 -33.506557 -94.413696 -0.044011999 -12.912958 -0.042824969 -12.89767 -33.473621 -108.85342
63946000 -33.415058 -95.193184 -0.044745035 -13.117126 -0.044410016 -13.098797 -33.361481 -108.96314
64945000 -33.319443 -95.290794 -0.045735601 -13.316287 -0.044744775 -13.296297 -33.242294 -109.4611
65944000 -33.213329 -95.608658 -0.046062615 -13.516673 -0.045537837 -13.499848 -33.161243 -109.86949
66943000 -33.079613 -95.991478 -0.044086006 -13.717361 -0.043675728 -13.701228 -33.047256 -110.14856
67942000 -33.032867 -95.918602 -0.046668306 -13.914806 -0.045700811 -13.9032 -32.9226 -110.40424
68941000 -32.904217 -96.078728 -0.046091393 -14.11187 -0.04448612 -14.100032 -32.813026 -110.40599
69940000 -32.806156 -96.10099 -0.046180345 -14.311767 -0.04551011 -14.302179 -32.680115 -110.7176
70939000 -32.709953 -95.975945 -0.045622069 -14.50384 -0.045070928 -14.499288 -32.552998 -110.63389
71938000 -32.553101 -95.49601 -0.045648754 -14.702283 -0.044998474 -14.69637 -32.415565 -110.50946
72937000 -32.399223 -95.375755 -0.044273764 -14.898516 -0.044977028 -14.894404 -32.270584 -110.165
73936000 -32.257866 -94.915237 -0.045043465 -15.10322 -0.044421259 -15.09304 -32.162048 -109.97896
74935000 -32.134266 -95.127846 -0.044787928 -15.297359 -0.043594148 -15.29109 -31.990854 -109.59713
75934000 -32.017204 -95.382919 -0.044489518 -15.507692 -0.043516494 -15.502202 -31.909472 -109.54419
76933000 -31.880806 -95.723022 -0.04605215 -15.701864 -0.0453563 -15.690101 -31.74048 -109.76997
77932000 -31.776253 -96.542557 -0.04742901 -15.898939 -0.046740264 -15.890936 -31.638527 -109.76759
78931000 -31.705647 -97.246048 -0.045716505 -16.094625 -0.046132993 -16.096121 -31.5336 -109.68784
79930000 -31.592995 -98.136482 -0.048276484 -16.293171 -0.048222039 -16.288679 -31.429111 -109.96257
80929000 -31.469444 -98.866615 -0.050122496 -16.485477 -0.050123546 -16.485067 -31.333843 -110.23361
81928000 -31.373343 -99.648628 -0.05081623 -16.677597 -0.050794754 -16.676857 -31.207586 -110.17265
82927000 -31.270338 -100.41487 -0.052180454 -16.878258 -0.051594164 -16.874964 -31.085821 -110.47077
83926000 -31.162676 -101.09291 -0.053286973 -17.078707 -0.052946314 -17.077982 -30.970631 -110.716
84925000 -31.050734 -101.53492 -0.05384912 -17.276163 -0.052599397 -17.26956 -30.880756 -110.68306
85924000 -30.955723 -101.99744 -0.055528648 -17.477438 -0.05438067 -17.47501 -30.779493 -110.6859
86923000 -30.847532 -102.43566 -0.055369239 -17.676685 -0.054494169 -17.671787 -30.687727 -110.5663
87922000 -30.734394 -102.8306 -0.055274334 -17.883427 -0.054600071 -17.874199 -30.597008 -110.59894
88921000 -30.659323 -103.06797 -0.056739617 -18.08033 -0.054827869 -18.076433 -30.502235 -110.54506
89920000 -30.558157 -103.63691 -0.056870747 -18.281929 -0.055531796 -18.271362 -30.440615 -110.69506
90919000 -30.458952 -103.90279 -0.057805587 -18.479914 -0.056580424 -18.472589 -30.360992 -110.8902
91918000 -30.351704 -104.23689 -0.058904357 -18.680845 -0.057403717 -18.672653 -30.293488 -110.90575
92917000 -30.264877 -104.51837 -0.059891336 -18.873899 -0.057727937 -18.873287 -30.222094 -110.96674
93916000 -30.172991 -104.92458 -0.059437312 -19.069302 -0.057837591 -19.066317 -30.139025 -111.58928
94915000 -30.093756 -105.56229 -0.06136474 -19.273062 -0.059173055 -19.265039 -30.073915 -111.46071
95914000 -30.030205 -105.72459 -0.061930556 -19.467533 -0.060230963 -19.466866 -29.985687 -111.7162
96913000 -29.935543 -105.89021 -0.062879354 -19.669333 -0.061614424 -19.665588 -29.917271 -112.10046
97912000 -29.852362 -106.36242 -0.063741669 -19.863688 -0.060996931 -19.864281 -29.832533 -112.29162
98911000 -29.750002 -106.5154 -0.064766794 -20.065821 -0.062805288 -20.06172 -29.801201 -112.55
99910000 -29.68716 -106.69838 -0.065536194 -20.263798 -0.062744096 -20.265705 -29.691727 -112.78269
100909000 -29.584379 -106.92346 -0.06453716 -20.472851 -0.062350176 -20.466518 -29.601357 -113.00437
101908000 -29.497101 -107.14383 -0.06603317 -20.67547 -0.064422347 -20.672625 -29.492058 -112.80015
102907000 -29.365364 -107.15961 -0.066485249 -20.870655 -0.064051121 -20.868025 -29.420753 -112.77364
103906000 -29.275171 -107.19479 -0.066917926 -21.079403 -0.063749552 -21.075272 -29.271235 -112.73049
104905000 -29.123693 -107.05785 -0.067278348 -21.277182 -0.06378895 -21.276524 -29.141035 -112.45927
105904000 -28.981152 -107.16325 -0.067664042 -21.485514 -0.063784748 -21.474773 -29.033987 -112.29671
106903000 -28.872972 -107.24129 -0.06772662 -21.688604 -0.06480778 -21.678665 -28.903156 -112.20855
107902000 -28.704515 -107.54169 -0.068287216 -21.887753 -0.065086044 -21.876352 -28.770218 -112.16616
108901000 -28.5952 -107.79725 -0.069604859 -22.086586 -0.066497341 -22.084507 -28.645473 -112.09834
109900000 -28.469381 -108.25253 -0.069770843 -22.290619 -0.067225769 -22.279829 -28.485142 -112.18371
110899000 -28.349638 -108.86681 -0.071835235 -22.488218 -0.06821543 -22.478598 -28.362408 -112.4106
111898000 -28.259811 -109.51694 -0.072998896 -22.690657 -0.06951043 -22.684315 -28.245071 -112.53833
112897000 -28.13147 -110.05698 -0.074589208 -22.888447 -0.07079871 -22.875616 -28.102762 -112.75379
113896000 -28.033045 -110.64025 -0.075750709 -23.090992 -0.07189814 -23.078949 -27.998226 -112.83422
114895000 -27.930681 -111.29021 -0.076373987 -23.289074 -0.073454075 -23.275536 -27.882315 -112.93125
115894000 -27.807167 -111.67097 -0.077516206 -23.490679 -0.074084401 -23.476139 -27.822098 -113.10032
116893000 -27.727816 -112.15201 -0.078274161 -23.689564 -0.075787321 -23.668789 -27.695372 -113.15741
117892000 -27.641884 -112.67892 -0.078761257 -23.879957 -0.075554997 -23.870239 -27.619703 -113.37119
118891000 -27.590714 -113.08305 -0.079450093 -24.084661 -0.076289684 -24.070667 -27.525808 -113.48576
119890000 -27.497105 -113.44875 -0.080101855 -24.286821 -0.077344127 -24.267868 -27.511183 -113.65472
120889000 -27.449755 -113.94617 -0.081436008 -24.487261 -0.07733912 -24.468525 -27.435961 -113.55666
121888000 -27.415506 -114.31027 -0.08117938 -24.684774 -0.077688292 -24.667707 -27.385651 -113.84418
122887000 -27.369835 -114.43602 -0.081830084 -24.887251 -0.077752851 -24.870707 -27.336527 -113.80244
123886000 -27.318048 -114.91656 -0.083186671 -25.09074 -0.079236023 -25.074955 -27.319704 -113.98484
124885000 -27.283089 -115.39273 -0.082747094 -25.292276 -0.078705907 -25.273428 -27.295757 -114.01059
125884000 -27.235933 -115.58721 -0.083356075 -25.490358 -0.079119235 -25.472506 -27.261824 -114.17925
126883000 -27.217043 -115.95741 -0.083783314 -25.688215 -0.080535896 -25.677713 -27.22662 -114.19344
127882000 -27.167721 -116.27698 -0.084187895 -25.887911 -0.08084365 -25.874496 -27.185955 -114.3167
128881000 -27.125917 -116.62787 -0.083978079 -26.09341 -0.080696754 -26.077007 -27.144543 -114.40302
129880000 -27.080975 -116.93667 -0.085121505 -26.29595 -0.081276178 -26.27689 -27.106781 -114.37926
130879000 -27.019329 -117.06476 -0.085028581 -26.493986 -0.08215455 -26.477371 -27.027956 -114.38436
131878000 -26.954432 -117.3032 -0.084810808 -26.695028 -0.082577713 -26.680351 -26.974201 -114.29677
132877000 -26.886068 -117.36201 -0.085034654 -26.900562 -0.081637003 -26.883144 -26.894617 -114.24456
133876000 -26.799326 -117.53875 -0.085176148 -27.098166 -0.082060635 -27.080252 -26.805943 -114.14915
134875000 -26.705715 -117.65187 -0.085736893 -27.296623 -0.082515448 -27.283224 -26.708063 -113.95751
135874000 -26.625549 -117.62984 -0.086104423 -27.500999 -0.082755536 -27.482582 -26.609516 -113.92684
136873000 -26.515676 -117.62763 -0.085946791 -27.702095 -0.082809888 -27.687012 -26.524164 -113.89468
137872000 -26.432024 -117.7404 -0.085860454 -27.901655 -0.083425738 -27.893122 -26.42363 -113.80988
138871000 -26.358906 -117.92352 -0.086843811 -28.104435 -0.083618112 -28.090448 -26.32654 -113.9455
139870000 -26.262779 -118.20634 -0.086952351 -28.306053 -0.084564537 -28.28783 -26.240566 -114.12591
140869000 -26.180885 -118.76877 -0.088055082 -28.502153 -0.085172191 -28.482309 -26.14542 -114.33447
141868000 -26.099894 -119.17779 -0.089255072 -28.699646 -0.086595044 -28.687437 -26.093517 -114.62191
142867000 -26.016756 -119.36999 -0.087377295 -28.896803 -0.085849628 -28.882887 -26.012133 -114.70862
143866000 -25.950775 -119.84151 -0.089457482 -29.095835 -0.087350093 -29.082096 -25.935966 -115.17964
144865000 -25.887453 -120.38445 -0.090978228 -29.295053 -0.088392958 -29.280966 -25.880482 -115.50134
145864000 -25.834047 -120.66885 -0.091639653 -29.493649 -0.08998099 -29.484322 -25.847467 -115.742
146863000 -25.790724 -121.07901 -0.092925258 -29.696659 -0.089577451 -29.685253 -25.790844 -116.03175
147862000 -25.75383 -121.38545 -0.093442567 -29.894081 -0.09074191 -29.87978 -25.769112 -116.32838
148861000 -25.714289 -121.83826 -0.094555683 -30.094391 -0.092022493 -30.078392 -25.742382 -116.47626
149860000 -25.689075 -122.03759 -0.095557943 -30.282627 -0.092775844 -30.275183 -25.690788 -116.60733
150859000 -25.666027 -122.47653 -0.094811782 -30.4834 -0.09217532 -30.471125 -25.674477 -116.98341
151858000 -25.648439 -122.80873 -0.094656214 -30.682184 -0.09230753 -30.66744 -25.663296 -117.30743
152857000 -25.632582 -123.16077 -0.094328173 -30.882833 -0.092222385 -30.87039 -25.645643 -117.47414
153856000 -25.630753 -123.40416 -0.094407007 -31.082495 -0.092150994 -31.066921 -25.663116 -117.78786
154855000 -25.628895 -123.51626 -0.094511501 -31.28339 -0.092338204 -31.27239 -25.654175 -118.01676
155854000 -25.645487 -123.76729 -0.09480226 -31.483372 -0.092680112 -31.470148 -25.642183 -118.28101
156853000 -25.626997 -124.50616 -0.093300804 -31.672373 -0.091845877 -31.662483 -25.641033 -118.57299
157852000 -25.636353 -124.71246 -0.094396159 -31.871521 -0.093593068 -31.861282 -25.628565 -118.96418
158851000 -25.637119 -124.92621 -0.095000692 -32.071812 -0.093682997 -32.060516 -25.615793 -119.22588
159850000 -25.620773 -125.0223 -0.095808811 -32.270695 -0.093439393 -32.261318 -25.61445 -119.3979
160849000 -25.609503 -125.12031 -0.096163698 -32.469215 -0.094595104 -32.465996 -25.586121 -119.70691
161848000 -25.589571 -125.20192 -0.096168727 -32.671223 -0.094609387 -32.663063 -25.547211 -119.8103
162847000 -25.547743 -125.35242 -0.096267179 -32.870903 -0.095384888 -32.864025 -25.51692 -120.0499
163846000 -25.506535 -125.58967 -0.09651994 -33.070541 -0.095149919 -33.061554 -25.446321 -120.06866
164845000 -25.449892 -125.51894 -0.09709724 -33.267643 -0.09597712 -33.262779 -25.382895 -120.17032
165844000 -25.395859 -125.56258 -0.096847095 -33.472649 -0.096193865 -33.466137 -25.302319 -120.29845
166843000 -25.334688 -125.63156 -0.096494794 -33.668812 -0.095737092 -33.665501 -25.234301 -120.45998
167842000 -25.279804 -125.73966 -0.0974795 -33.87014 -0.096226424 -33.861004 -25.156925 -120.40124
168841000 -25.195803 -125.89848 -0.097480029 -34.068031 -0.096112616 -34.064774 -25.081524 -120.46262
169840000 -25.136223 -126.13973 -0.098106436 -34.264732 -0.097144887 -34.260162 -24.997126 -120.63163
170839000 -25.075447 -126.34526 -0.099565059 -34.461678 -0.097736038 -34.459232 -24.913391 -120.81914
171838000 -25.017275 -126.75758 -0.098811321 -34.664635 -0.098301582 -34.657661 -24.852936 -121.05428
172837000 -24.950434 -127.10044 -0.10053562 -34.86245 -0.099298082 -34.8564 -24.784641 -121.23597
173836000 -24.879404 -127.5101 -0.10143698 -35.060932 -0.099979326 -35.056171 -24.738243 -121.48895
174835000 -24.828426 -127.93409 -0.10158192 -35.258892 -0.10106709 -35.255459 -24.697586 -121.76917
175834000 -24.783068 -128.299 -0.10314165 -35.458328 -0.10215089 -35.452316 -24.63513 -122.03927
176833000 -24.727875 -128.62344 -0.10412362 -35.655567 -0.10292323 -35.651913 -24.586733 -122.16862
177832000 -24.687819 -129.0161 -0.10466613 -35.850189 -0.1041496 -35.854206 -24.565807 -122.3106
178831000 -24.638391 -129.30052 -0.10656201 -36.050571 -0.1053254 -36.046478 -24.529066 -122.40913
179830000 -24.571011 -129.66431 -0.10753175 -36.235298 -0.10660127 -36.23782 -24.464821 -122.4387
180829000 -24.521006 -130.04747 -0.10681377 -36.429226 -0.10588451 -36.428371 -24.41991 -122.79231
181828000 -24.500916 -130.46904 -0.10594552 -36.628593 -0.10565694 -36.624989 -24.401609 -122.97829
182827000 -24.469858 -130.86469 -0.10576542 -36.827248 -0.10528721 -36.829079 -24.387548 -123.10073
183826000 -24.429361 -131.17703 -0.10704486 -37.027313 -0.10500079 -37.023609 -24.379066 -123.25505
184825000 -24.431969 -131.49644 -0.10717142 -37.224598 -0.10556728 -37.223812 -24.36767 -123.35607
185824000 -24.406923 -131.86893 -0.10629036 -37.417789 -0.1055588 -37.415714 -24.356609 -123.45585
186823000 -24.389755 -132.26233 -0.10699233 -37.617081 -0.10547658 -37.612965 -24.355825 -123.42122
187822000 -24.365206 -132.58554 -0.10726323 -37.813965 -0.10633492 -37.813328 -24.315493 -123.52312
188821000 -24.338076 -132.84654 -0.1073415 -38.007267 -0.10701674 -38.014236 -24.295044 -123.6495
189820000 -24.322971 -133.15628 -0.10784037 -38.210316 -0.1063718 -38.207916 -24.276844 -123.85841
190819000 -24.284607 -133.46117 -0.10826019 -38.408028 -0.10707856 -38.407528 -24.239035 -123.89974
191818000 -24.253777 -133.73625 -0.10841148 -38.6022 -0.10749964 -38.605389 -24.210169 -123.93389
192817000 -24.208981 -134.00665 -0.10857841 -38.802044 -0.10796297 -38.799957 -24.16568 -124.01009
193816000 -24.175533 -134.26343 -0.10884596 -38.997681 -0.10749964 -38.998566 -24.112663 -124.19189
194815000 -24.116718 -134.65559 -0.10969356 -39.191257 -0.10850596 -39.19503 -24.046324 -124.22649
195814000 -24.059488 -134.83296 -0.11027128 -39.390495 -0.10907795 -39.393383 -23.990889 -124.32203
196813000 -24.005913 -135.17345 -0.10957728 -39.584255 -0.10802798 -39.590038 -23.914156 -124.48494
197812000 -23.944948 -135.41629 -0.10990648 -39.785683 -0.10972489 -39.779972 -23.840839 -124.56609
198811000 -23.88872 -135.54144 -0.11013746 -39.982143 -0.1088303 -39.983238 -23.77104 -124.73708
199810000 -23.819252 -135.89857 -0.11032917 -40.175274 -0.10916953 -40.173973 -23.688818 -124.83097
200809000 -23.760538 -136.1548 -0.11080234 -40.373951 -0.10964471 -40.370136 -23.60948 -125.00853
201808000 -23.705128 -136.35518 -0.11145007 -40.575706 -0.11016826 -40.576923 -23.547297 -125.08823
202807000 -23.647882 -136.69745 -0.11209709 -40.774441 -0.11154595 -40.776337 -23.49069 -125.28919
203806000 -23.598291 -137.11148 -0.11431512 -40.975914 -0.11161554 -40.978874 -23.428936 -125.4227
