!Keysight Technologies,E5080B,MY59205177,A.15.75.32
!Date: Friday, February 23, 2024 02:52:13
!Correction: S11(Cdelta 2-Port  ) 
!S21(Cdelta 2-Port  ) 
!S12(Cdelta 2-Port  ) 
!S22(Cdelta 2-Port  ) 
!S2P File: Measurements: S11, S21, S12, S22:
# Hz S  dB   R 50
10000000 -43.022453 -3.6137393 -0.035839044 -2.0461895 -0.039348364 -2.0992081 -50.005432 -142.68387
10999000 -42.390526 -5.1059079 -0.037012678 -2.2622719 -0.039023947 -2.3149655 -49.488552 -133.38705
11998000 -41.712196 -7.4431682 -0.036860213 -2.48628 -0.03894167 -2.5294633 -49.519138 -127.06161
12997000 -41.14069 -11.589696 -0.036215167 -2.6694777 -0.038484871 -2.6993341 -48.587395 -120.08016
13996000 -40.907562 -14.537901 -0.035268787 -2.8476348 -0.038197599 -2.8682375 -47.965641 -114.36005
14995000 -40.664207 -18.070271 -0.037601706 -3.0518565 -0.037741661 -3.0808167 -47.360069 -111.22327
15994000 -40.552425 -21.488453 -0.039200518 -3.2733848 -0.040369313 -3.2989228 -47.050102 -107.8699
16993000 -40.554039 -24.957018 -0.038693022 -3.4693148 -0.039276529 -3.4775686 -46.113342 -109.77657
17992000 -40.670815 -29.097601 -0.038849469 -3.6636097 -0.04110435 -3.6732404 -45.54018 -111.07758
18991000 -40.92255 -32.783875 -0.040142272 -3.8778532 -0.040866554 -3.8735242 -44.743103 -111.35854
19990000 -40.845848 -37.534168 -0.042098008 -4.090281 -0.043408509 -4.0833325 -44.062332 -113.96695
20989000 -40.834301 -40.354797 -0.044643037 -4.2879643 -0.045335896 -4.2804904 -43.423584 -114.41666
21988000 -40.787525 -44.564804 -0.044960812 -4.4870749 -0.046151567 -4.4755898 -43.123539 -114.13359
22987000 -40.631943 -48.564449 -0.045777984 -4.685214 -0.047100846 -4.6798587 -42.829731 -113.74765
23986000 -40.715611 -52.457413 -0.045418032 -4.8819547 -0.045630701 -4.8788428 -42.676022 -113.80074
24985000 -40.396027 -54.986343 -0.046320841 -5.0886874 -0.046703633 -5.0881853 -42.361492 -111.47295
25984000 -40.198887 -57.116669 -0.047385044 -5.298954 -0.046375524 -5.2976308 -42.012733 -110.29784
26983000 -39.983036 -59.213737 -0.048550025 -5.4948516 -0.047862671 -5.5076141 -41.872662 -109.29829
27982000 -39.865772 -60.016491 -0.049362373 -5.6914487 -0.048643216 -5.7291498 -41.498791 -108.24801
28981000 -39.84132 -61.676083 -0.048241146 -5.8940749 -0.049180672 -5.9133701 -41.232555 -107.64322
29980000 -39.492233 -63.172241 -0.047456488 -6.0848503 -0.049207378 -6.0897336 -40.903847 -107.07043
30979000 -39.122005 -62.796078 -0.045965556 -6.4412766 -0.043277517 -6.4288063 -40.371983 -108.2364
31978000 -38.974686 -63.837414 -0.04551534 -6.6331191 -0.045498863 -6.623054 -40.112137 -107.73673
32977000 -38.824017 -65.437592 -0.0445957 -6.8443561 -0.046386514 -6.8417792 -39.824932 -108.12312
33976000 -38.699551 -66.60717 -0.045180783 -7.0460095 -0.046877377 -7.0386195 -39.504051 -107.94545
34975000 -38.442272 -67.730431 -0.045736127 -7.2454886 -0.047493387 -7.2440467 -39.262604 -107.73836
35974000 -38.266609 -68.432755 -0.044463627 -7.438942 -0.04681379 -7.44102 -38.914497 -106.94992
36973000 -38.059784 -69.323692 -0.045428757 -7.6381674 -0.048360508 -7.6434546 -38.636631 -106.27498
37972000 -37.884205 -69.415428 -0.045503307 -7.8475075 -0.0476881 -7.8552418 -38.373486 -105.78842
38971000 -37.563702 -69.223053 -0.045910615 -8.0505695 -0.047481351 -8.0648012 -38.163952 -104.14642
39970000 -37.252129 -69.84642 -0.044424921 -8.2444324 -0.046599753 -8.2639046 -37.862976 -103.88797
40969000 -36.962955 -69.899773 -0.043917861 -8.4407682 -0.046474162 -8.4574738 -37.556549 -102.6765
41968000 -36.656254 -70.134026 -0.044714697 -8.6435652 -0.047336891 -8.6630812 -37.358971 -101.42607
42967000 -36.39505 -70.664322 -0.044200543 -8.8577023 -0.047459628 -8.8768892 -37.108295 -99.781464
43966000 -36.119122 -71.48967 -0.044863515 -9.0587616 -0.048589289 -9.0669374 -36.779083 -99.333405
44965000 -35.898827 -72.335602 -0.047050603 -9.2590322 -0.049394313 -9.2780905 -36.57671 -99.144371
45964000 -35.699291 -73.652855 -0.047709823 -9.4569311 -0.050108619 -9.47787 -36.325775 -99.010536
46963000 -35.561028 -75.572533 -0.047744632 -9.6538496 -0.050642852 -9.6740322 -36.150822 -99.66291
47962000 -35.430649 -77.166161 -0.049228061 -9.8525305 -0.05196432 -9.8690672 -35.943863 -99.828468
48961000 -35.225075 -78.700623 -0.051184226 -10.050587 -0.053002652 -10.072594 -35.722675 -100.25229
49960000 -35.04623 -80.096855 -0.051914282 -10.24924 -0.054251969 -10.270775 -35.593716 -100.51319
50959000 -34.858433 -81.627632 -0.053123977 -10.466243 -0.055423252 -10.473966 -35.412971 -100.9208
51958000 -34.670422 -82.71505 -0.054870076 -10.660605 -0.056879666 -10.672904 -35.237644 -101.46441
52957000 -34.473995 -83.883751 -0.056330502 -10.861593 -0.057336308 -10.869162 -35.06089 -101.3939
53956000 -34.327728 -84.722244 -0.057551134 -11.061733 -0.058502648 -11.062433 -34.936001 -101.536
54955000 -34.171398 -85.388626 -0.057707477 -11.261024 -0.059236821 -11.261843 -34.789433 -101.60064
55954000 -34.011398 -86.231842 -0.059585322 -11.465055 -0.060165081 -11.463569 -34.666569 -101.36897
56953000 -33.905792 -86.367241 -0.059320271 -11.663091 -0.059015349 -11.650057 -34.598469 -101.63667
57952000 -33.751499 -87.037941 -0.060247235 -11.856533 -0.060272958 -11.851903 -34.493454 -101.83348
58951000 -33.634434 -87.40564 -0.061232418 -12.064442 -0.061345313 -12.045977 -34.324524 -102.00662
59950000 -33.520039 -87.854187 -0.062155068 -12.263516 -0.061825264 -12.240856 -34.26873 -102.36141
60949000 -33.421921 -88.506065 -0.062283739 -12.46382 -0.062198132 -12.44381 -34.184807 -102.695
61948000 -33.347202 -88.79985 -0.063407809 -12.663617 -0.06271337 -12.645596 -34.096821 -102.78485
62947000 -33.277431 -89.023758 -0.062415827 -12.877499 -0.062649556 -12.855006 -33.946106 -103.09022
63946000 -33.201382 -89.792725 -0.064036936 -13.073299 -0.064229503 -13.055556 -33.854935 -103.26593
64945000 -33.111576 -90.014252 -0.065026663 -13.275562 -0.064415254 -13.25797 -33.751068 -103.90629
65944000 -33.01112 -90.291588 -0.065747745 -13.475297 -0.064780459 -13.457698 -33.646187 -104.31554
66943000 -32.882164 -90.704453 -0.063462175 -13.678033 -0.063529424 -13.65804 -33.546516 -104.61279
67942000 -32.810482 -90.746246 -0.065625809 -13.869403 -0.065123357 -13.859855 -33.425442 -104.95583
68941000 -32.700779 -90.936829 -0.065669172 -14.064727 -0.063869864 -14.05565 -33.312939 -104.9588
69940000 -32.610706 -90.93396 -0.065015361 -14.267468 -0.065232933 -14.255648 -33.175259 -105.2924
70939000 -32.499958 -90.979774 -0.06541767 -14.465384 -0.065379307 -14.454625 -33.040897 -105.17511
71938000 -32.350601 -90.578697 -0.065684937 -14.662336 -0.065271564 -14.653838 -32.903854 -105.1106
72937000 -32.191006 -90.48732 -0.064472787 -14.855342 -0.064342737 -14.853378 -32.756893 -104.80209
73936000 -32.048088 -90.183609 -0.064130992 -15.058393 -0.0639337 -15.046409 -32.638527 -104.70713
74935000 -31.919922 -90.427032 -0.063980982 -15.253384 -0.063046917 -15.246005 -32.482624 -104.398
75934000 -31.802757 -90.779541 -0.064364545 -15.45789 -0.063010938 -15.451548 -32.386696 -104.37945
76933000 -31.674377 -91.167259 -0.065059245 -15.650875 -0.064158045 -15.646355 -32.221466 -104.83866
77932000 -31.600847 -92.01722 -0.066252105 -15.84873 -0.066784911 -15.845345 -32.128994 -104.82601
78931000 -31.519573 -92.783424 -0.065282866 -16.048592 -0.06559401 -16.044525 -32.021969 -104.69578
79930000 -31.414957 -93.662918 -0.067784198 -16.239651 -0.067736611 -16.235655 -31.923428 -105.10111
80929000 -31.298468 -94.53347 -0.069727704 -16.436937 -0.069421262 -16.433861 -31.817682 -105.39842
81928000 -31.215452 -95.487793 -0.070110977 -16.62854 -0.069556199 -16.62689 -31.702734 -105.55626
82927000 -31.129179 -96.226212 -0.071388386 -16.828735 -0.07104788 -16.825708 -31.593651 -105.95927
83926000 -31.020309 -96.971008 -0.072787516 -17.021694 -0.07213527 -17.02384 -31.483641 -106.24216
84925000 -30.91699 -97.502968 -0.074121267 -17.223972 -0.072760142 -17.222326 -31.39415 -106.34943
85924000 -30.835714 -97.943764 -0.074916288 -17.420813 -0.073817678 -17.419279 -31.301161 -106.36681
86923000 -30.732542 -98.535225 -0.075157799 -17.622278 -0.074156292 -17.616045 -31.195358 -106.26614
87922000 -30.633604 -98.910904 -0.074203685 -17.825527 -0.073711306 -17.81942 -31.127695 -106.39866
88921000 -30.554089 -99.318863 -0.076072611 -18.027031 -0.075330846 -18.021093 -31.019384 -106.41829
89920000 -30.470108 -99.892426 -0.076743104 -18.223572 -0.075527072 -18.216789 -30.972116 -106.61346
90919000 -30.362043 -100.14519 -0.077774726 -18.423296 -0.076350018 -18.418577 -30.877234 -106.91582
91918000 -30.271591 -100.58782 -0.078086764 -18.620213 -0.076851659 -18.614862 -30.814371 -106.87453
92917000 -30.18664 -100.97902 -0.079216778 -18.819235 -0.078339525 -18.813614 -30.741783 -107.01113
93916000 -30.094893 -101.3652 -0.078168467 -19.015638 -0.078137636 -19.007034 -30.664536 -107.67843
94915000 -30.041208 -102.01383 -0.079667337 -19.214371 -0.079256848 -19.207994 -30.598511 -107.49748
95914000 -29.967405 -102.22082 -0.08100716 -19.40476 -0.080495022 -19.407122 -30.502306 -107.86496
96913000 -29.887224 -102.43163 -0.082015269 -19.608694 -0.080700181 -19.602863 -30.44256 -108.24152
97912000 -29.812735 -103.00787 -0.083475612 -19.803423 -0.08081121 -19.804249 -30.358158 -108.42353
98911000 -29.7015 -103.22945 -0.083589613 -20.004232 -0.08216431 -20.003574 -30.320848 -108.63641
99910000 -29.636274 -103.35039 -0.084667742 -20.202833 -0.08246506 -20.200205 -30.215338 -108.95225
100909000 -29.541836 -103.62245 -0.083947465 -20.41202 -0.081366643 -20.405931 -30.127485 -109.20441
101908000 -29.459217 -103.88804 -0.084839843 -20.612188 -0.082954742 -20.607733 -30.008596 -108.96664
102907000 -29.331028 -103.91299 -0.085599601 -20.811802 -0.083581172 -20.809658 -29.934124 -108.90736
103906000 -29.230122 -104.00488 -0.08620476 -21.016531 -0.083001703 -21.010805 -29.784786 -108.87901
104905000 -29.08597 -103.96265 -0.086317778 -21.216877 -0.083407797 -21.21055 -29.651575 -108.55403
105904000 -28.937799 -104.09924 -0.087066703 -21.417158 -0.08264789 -21.4077 -29.530214 -108.50326
106903000 -28.83502 -104.19086 -0.086570218 -21.616661 -0.084385313 -21.61697 -29.395494 -108.36713
107902000 -28.673805 -104.62514 -0.087671012 -21.818047 -0.084658504 -21.813812 -29.26012 -108.35419
108901000 -28.562443 -104.87964 -0.087989047 -22.022272 -0.086345501 -22.015903 -29.123922 -108.30306
109900000 -28.437757 -105.37061 -0.089329056 -22.222157 -0.087273762 -22.213095 -28.975931 -108.45424
110899000 -28.326649 -106.02228 -0.09101259 -22.419847 -0.088039234 -22.412287 -28.846233 -108.74803
111898000 -28.242064 -106.75607 -0.092070617 -22.620054 -0.088840507 -22.616127 -28.730721 -108.92616
112897000 -28.1157 -107.32465 -0.093183376 -22.823746 -0.089763753 -22.809135 -28.59362 -109.12706
113896000 -28.003239 -107.92939 -0.094252512 -23.021362 -0.09123306 -23.009865 -28.485966 -109.35921
114895000 -27.91156 -108.60492 -0.095849298 -23.223341 -0.092626959 -23.204718 -28.37254 -109.38734
115894000 -27.778027 -108.9741 -0.096727714 -23.419758 -0.094331607 -23.406385 -28.306475 -109.64395
116893000 -27.705637 -109.61635 -0.097489297 -23.609449 -0.094439812 -23.598356 -28.177481 -109.81324
117892000 -27.625204 -110.12659 -0.097270362 -23.811281 -0.095617749 -23.799818 -28.101477 -110.07154
118891000 -27.568064 -110.54221 -0.097942814 -24.013807 -0.095400766 -23.996363 -28.005873 -110.23698
119890000 -27.483904 -110.9555 -0.098521359 -24.211515 -0.096241504 -24.19894 -27.991182 -110.3971
120889000 -27.430128 -111.43818 -0.099003054 -24.414074 -0.096131675 -24.396502 -27.919254 -110.36491
121888000 -27.386852 -111.81847 -0.099784106 -24.608309 -0.096659958 -24.599945 -27.854744 -110.65913
122887000 -27.347971 -112.02516 -0.10049933 -24.815212 -0.098028064 -24.798492 -27.812889 -110.71973
123886000 -27.289606 -112.45583 -0.10114207 -25.014984 -0.097966641 -24.993204 -27.80117 -110.86853
124885000 -27.263363 -112.98752 -0.10149713 -25.216755 -0.098698512 -25.198162 -27.764143 -110.93033
125884000 -27.204771 -113.20931 -0.10229188 -25.411312 -0.099237703 -25.395926 -27.737419 -111.14147
126883000 -27.188234 -113.57479 -0.10284159 -25.613293 -0.099851385 -25.60066 -27.695932 -111.1954
127882000 -27.137537 -113.84402 -0.10284211 -25.814953 -0.10058622 -25.795158 -27.650578 -111.34268
128881000 -27.109938 -114.18257 -0.10347062 -26.015173 -0.1002368 -25.996393 -27.611668 -111.48404
129880000 -27.05434 -114.51301 -0.10395128 -26.214247 -0.1007526 -26.19788 -27.572794 -111.45142
130879000 -26.987991 -114.66359 -0.10381103 -26.416016 -0.10073962 -26.396048 -27.488735 -111.51482
131878000 -26.924828 -114.89426 -0.10398044 -26.61878 -0.10151277 -26.601152 -27.427006 -111.40611
132877000 -26.854868 -114.98894 -0.10364984 -26.817678 -0.10153794 -26.799797 -27.340164 -111.43064
133876000 -26.770426 -115.14242 -0.10425089 -27.018373 -0.10098761 -27.000057 -27.24847 -111.3401
134875000 -26.674023 -115.24725 -0.1042721 -27.21995 -0.1017449 -27.201889 -27.142746 -111.22564
135874000 -26.588924 -115.31631 -0.10434422 -27.418678 -0.10164923 -27.402887 -27.040306 -111.23934
136873000 -26.47884 -115.27831 -0.10536757 -27.619225 -0.10163757 -27.601965 -26.949903 -111.21813
137872000 -26.395954 -115.39109 -0.10510688 -27.821795 -0.10229665 -27.806261 -26.843285 -111.1619
138871000 -26.318222 -115.60126 -0.10556304 -28.020758 -0.1022068 -28.005373 -26.746893 -111.34643
139870000 -26.225824 -115.88721 -0.10634288 -28.225586 -0.10410055 -28.208569 -26.667137 -111.48854
140869000 -26.133026 -116.35636 -0.10842288 -28.413239 -0.10469795 -28.398729 -26.55628 -111.6565
141868000 -26.044292 -116.81607 -0.10888657 -28.60894 -0.10582881 -28.593147 -26.490276 -112.02839
142867000 -25.964703 -117.08572 -0.1067777 -28.806091 -0.1048971 -28.788916 -26.40563 -112.23817
143866000 -25.900259 -117.62027 -0.10861026 -29.004494 -0.10631318 -28.989428 -26.337744 -112.72559
144865000 -25.8409 -118.1452 -0.10956294 -29.204172 -0.10761507 -29.189363 -26.281654 -113.08212
145864000 -25.785151 -118.50114 -0.11008675 -29.404842 -0.10852799 -29.394058 -26.248075 -113.36641
146863000 -25.739748 -118.88393 -0.11197677 -29.603632 -0.10866043 -29.591427 -26.192942 -113.69785
147862000 -25.701012 -119.2334 -0.11227214 -29.799129 -0.109864 -29.790783 -26.165329 -114.05782
148861000 -25.666323 -119.77393 -0.11252451 -29.999844 -0.11088095 -29.986017 -26.140629 -114.28024
149860000 -25.650249 -119.98599 -0.11295542 -30.200371 -0.11040298 -30.18749 -26.106884 -114.45947
150859000 -25.632023 -120.34415 -0.11389337 -30.396088 -0.11097204 -30.381798 -26.105677 -114.73266
151858000 -25.619333 -120.68653 -0.11355351 -30.599051 -0.11039396 -30.580631 -26.093334 -115.0181
152857000 -25.59654 -121.01865 -0.11392447 -30.7948 -0.11134569 -30.782003 -26.072704 -115.20136
153856000 -25.593657 -121.2166 -0.11388913 -30.991245 -0.11161182 -30.978563 -26.094667 -115.46558
154855000 -25.58786 -121.37859 -0.11388089 -31.192186 -0.11129736 -31.180859 -26.085241 -115.71368
155854000 -25.595758 -121.68572 -0.11474382 -31.391912 -0.11178924 -31.378992 -26.074678 -115.96525
156853000 -25.580669 -122.34438 -0.11183413 -31.576965 -0.11079969 -31.569378 -26.068443 -116.24167
157852000 -25.589815 -122.56857 -0.11393138 -31.778273 -0.11251282 -31.769444 -26.064264 -116.62484
158851000 -25.588076 -122.819 -0.11449797 -31.975983 -0.11319561 -31.96616 -26.042599 -116.87114
159850000 -25.563309 -122.90901 -0.11515927 -32.173553 -0.11295223 -32.167961 -26.046263 -117.01907
160849000 -25.554523 -123.04195 -0.11459498 -32.369667 -0.11392207 -32.369629 -26.010021 -117.34208
161848000 -25.527781 -123.15276 -0.11520526 -32.572372 -0.11410278 -32.567963 -25.971731 -117.44329
162847000 -25.480562 -123.34721 -0.11548757 -32.772125 -0.11497985 -32.768764 -25.940962 -117.71049
163846000 -25.443588 -123.57597 -0.1153286 -32.971416 -0.11480442 -32.966854 -25.863667 -117.70052
164845000 -25.377779 -123.58613 -0.11574277 -33.172783 -0.11506597 -33.164711 -25.794498 -117.79631
165844000 -25.322538 -123.65477 -0.11599002 -33.370502 -0.1154982 -33.364037 -25.712301 -117.93231
166843000 -25.258492 -123.74714 -0.11611126 -33.569782 -0.11602087 -33.566402 -25.641798 -118.08695
167842000 -25.199524 -123.9144 -0.1167151 -33.769932 -0.11528022 -33.760784 -25.559914 -118.04752
168841000 -25.122862 -124.09693 -0.11656114 -33.965363 -0.11578159 -33.960304 -25.478132 -118.13026
169840000 -25.05621 -124.3751 -0.11742833 -34.161888 -0.11648005 -34.159348 -25.390484 -118.32975
170839000 -24.992674 -124.65751 -0.11836326 -34.355556 -0.11713739 -34.354767 -25.304037 -118.52872
171838000 -24.935757 -125.084 -0.11720627 -34.555077 -0.11754137 -34.551861 -25.241224 -118.78223
172837000 -24.865126 -125.44555 -0.11918585 -34.753937 -0.11859524 -34.748302 -25.175854 -119.03508
173836000 -24.801523 -125.87835 -0.12079795 -34.950417 -0.11922204 -34.950562 -25.126413 -119.2717
174835000 -24.750597 -126.32153 -0.12065796 -35.146828 -0.12019328 -35.150539 -25.078754 -119.5869
175834000 -24.699287 -126.72327 -0.12184037 -35.346886 -0.12064491 -35.342518 -25.021158 -119.89848
176833000 -24.645569 -127.09924 -0.12247669 -35.544247 -0.12180202 -35.541504 -24.969732 -120.1162
177832000 -24.603231 -127.62165 -0.12286732 -35.738472 -0.12185235 -35.743847 -24.94442 -120.24967
178831000 -24.563852 -127.98823 -0.12346677 -35.936588 -0.12207837 -35.93578 -24.90962 -120.5278
179830000 -24.52849 -128.4418 -0.12388492 -36.133133 -0.12239548 -36.136566 -24.88242 -120.64082
180829000 -24.486582 -128.65416 -0.124403 -36.330276 -0.12357916 -36.331779 -24.852652 -120.82285
181828000 -24.467884 -128.99532 -0.12410999 -36.525578 -0.12351657 -36.526546 -24.839653 -120.96549
182827000 -24.447531 -129.35289 -0.12483216 -36.723209 -0.12400771 -36.72073 -24.824453 -121.06655
183826000 -24.400187 -129.71463 -0.12587394 -36.920395 -0.12450609 -36.919971 -24.813349 -121.17727
184825000 -24.404713 -130.01054 -0.12522326 -37.118622 -0.12483083 -37.12096 -24.796721 -121.30404
185824000 -24.378927 -130.4142 -0.12602051 -37.310528 -0.1242272 -37.31699 -24.794453 -121.34968
186823000 -24.365259 -130.72789 -0.1254103 -37.511265 -0.12494672 -37.514606 -24.789028 -121.33249
187822000 -24.346298 -131.0623 -0.12587528 -37.706043 -0.12528908 -37.706894 -24.75399 -121.38656
188821000 -24.323673 -131.30687 -0.12588194 -37.902653 -0.12558243 -37.908249 -24.739529 -121.50694
189820000 -24.311716 -131.57561 -0.12673233 -38.103806 -0.12578015 -38.105198 -24.729921 -121.66055
190819000 -24.279972 -131.80717 -0.12785855 -38.30521 -0.12658522 -38.301144 -24.694689 -121.60967
191818000 -24.246702 -131.97156 -0.12876827 -38.498547 -0.12816247 -38.497456 -24.665417 -121.51675
192817000 -24.17593 -132.27873 -0.12955895 -38.68259 -0.12921306 -38.684879 -24.589592 -121.59619
193816000 -24.139147 -132.62178 -0.12913972 -38.874348 -0.12793054 -38.876682 -24.529797 -121.81377
194815000 -24.076784 -133.10005 -0.12837684 -39.068279 -0.12814648 -39.075474 -24.4694 -121.96908
195814000 -24.027069 -133.3129 -0.12929119 -39.271793 -0.12818514 -39.274483 -24.413425 -122.0753
196813000 -23.971485 -133.65947 -0.12843657 -39.465263 -0.12712441 -39.469666 -24.335428 -122.25874
197812000 -23.917603 -133.88426 -0.12868294 -39.666477 -0.12817687 -39.66185 -24.267529 -122.342
198811000 -23.86104 -134.07726 -0.12834698 -39.860863 -0.12832804 -39.863148 -24.195732 -122.54807
199810000 -23.792933 -134.45093 -0.12883919 -40.052765 -0.1288728 -40.054909 -24.112272 -122.63107
200809000 -23.736742 -134.72597 -0.12929493 -40.254105 -0.12854962 -40.254768 -24.033688 -122.83585
201808000 -23.678219 -134.98378 -0.13025002 -40.454113 -0.12922347 -40.456669 -23.966528 -122.91294
202807000 -23.615698 -135.35947 -0.13055065 -40.656208 -0.13020654 -40.657398 -23.910521 -123.13059
203806000 -23.567795 -135.83133 -0.1318948 -40.854645 -0.13037272 -40.854088 -23.845676 -123.3278
