!Keysight Technologies,E5080B,MY59205177,A.15.75.32
!Date: Friday, February 23, 2024 02:52:19
!Correction: S11(Cdelta 2-Port  ) 
!S21(Cdelta 2-Port  ) 
!S12(Cdelta 2-Port  ) 
!S22(Cdelta 2-Port  ) 
!S2P File: Measurements: S11, S21, S12, S22:
# Hz S  dB   R 50
10000000 -42.97649 -3.7667401 -0.035255998 -2.0439985 -0.039231602 -2.1024566 -49.999401 -142.28615
10999000 -42.374546 -4.9308214 -0.036729421 -2.2635231 -0.038309373 -2.3153448 -49.430447 -133.45515
11998000 -41.732956 -7.3564177 -0.036781374 -2.4860258 -0.038706865 -2.5300078 -49.521759 -128.20445
12997000 -41.150352 -11.487125 -0.035840608 -2.6646438 -0.038097322 -2.6946826 -48.569183 -120.4222
13996000 -40.93858 -14.56953 -0.03542015 -2.8457842 -0.038050316 -2.8672132 -48.005295 -114.55301
14995000 -40.673096 -17.963551 -0.037435118 -3.0528815 -0.037882932 -3.0770147 -47.372837 -111.5631
15994000 -40.572201 -21.386005 -0.038736902 -3.2719557 -0.040694617 -3.2942958 -46.967033 -107.45231
16993000 -40.571083 -25.1633 -0.037183687 -3.4690149 -0.040063631 -3.4772334 -46.066509 -109.28521
17992000 -40.667942 -29.137434 -0.038049009 -3.6708779 -0.04059428 -3.6696689 -45.49617 -111.35408
18991000 -40.940731 -33.01067 -0.03898973 -3.8809741 -0.040944684 -3.8760214 -44.70303 -111.59671
19990000 -40.843754 -37.886475 -0.041666228 -4.0882406 -0.043589965 -4.0811868 -44.003601 -113.85874
20989000 -40.789021 -40.494907 -0.043682266 -4.2932134 -0.044924196 -4.2817831 -43.389275 -114.27962
21988000 -40.785404 -44.786461 -0.044091497 -4.4877734 -0.045947243 -4.4743423 -43.101959 -114.30955
22987000 -40.641449 -48.885857 -0.045419339 -4.6884317 -0.047356781 -4.6777539 -42.840683 -113.94771
23986000 -40.696896 -52.485348 -0.0452433 -4.8813372 -0.045808326 -4.8814797 -42.678722 -113.9192
24985000 -40.41172 -55.268299 -0.046115987 -5.0898576 -0.046129327 -5.0888371 -42.388638 -111.24857
25984000 -40.209839 -57.182343 -0.046987016 -5.2963753 -0.047202904 -5.2984543 -41.990849 -110.5322
26983000 -40.002895 -59.325317 -0.048448719 -5.4921803 -0.047337938 -5.5134554 -41.833366 -109.40598
27982000 -39.856037 -60.144951 -0.04894767 -5.6965928 -0.049287755 -5.7231526 -41.517834 -108.04807
28981000 -39.883698 -61.623547 -0.04765879 -5.8897071 -0.050005183 -5.9159613 -41.218857 -108.05217
29980000 -39.502945 -63.405434 -0.046654962 -6.0836196 -0.049024899 -6.0900946 -40.907017 -107.12305
30979000 -39.151821 -62.74313 -0.045012601 -6.4397621 -0.044192959 -6.4303412 -40.359867 -108.45243
31978000 -39.003315 -63.897228 -0.044890456 -6.6356831 -0.045621548 -6.6224155 -40.085815 -107.92815
32977000 -38.835133 -65.557854 -0.044464674 -6.8490438 -0.0457322 -6.8415618 -39.817341 -108.06039
33976000 -38.694851 -66.693825 -0.044950612 -7.043066 -0.046452448 -7.0398135 -39.513973 -107.90752
34975000 -38.431648 -67.856422 -0.045578908 -7.2424345 -0.047162082 -7.2425652 -39.247616 -107.79332
35974000 -38.272999 -68.589088 -0.044152427 -7.4395461 -0.047067873 -7.4423108 -38.938698 -107.11716
36973000 -38.065201 -69.44957 -0.044576608 -7.6393933 -0.048104253 -7.6414952 -38.626362 -106.32879
37972000 -37.877037 -69.416061 -0.04430227 -7.8506517 -0.047657218 -7.8539338 -38.353848 -105.88136
38971000 -37.554829 -69.249153 -0.045930237 -8.0510616 -0.047979664 -8.0586233 -38.132492 -104.21526
39970000 -37.254074 -69.987381 -0.043702137 -8.2446642 -0.046743143 -8.2585239 -37.869942 -103.9239
40969000 -36.97979 -69.990051 -0.044346988 -8.440238 -0.046354853 -8.4576159 -37.582638 -102.6444
41968000 -36.62986 -70.20475 -0.044708945 -8.6415939 -0.046787623 -8.6566019 -37.342079 -101.58934
42967000 -36.394859 -70.614212 -0.044181451 -8.8577242 -0.046546899 -8.8773499 -37.106655 -99.875641
43966000 -36.130127 -71.495461 -0.044993505 -9.0554485 -0.04859243 -9.0790958 -36.796082 -99.273567
44965000 -35.933834 -72.567291 -0.045660786 -9.2610197 -0.047919467 -9.2719269 -36.574059 -99.261139
45964000 -35.724922 -73.683647 -0.047056623 -9.4592896 -0.049585447 -9.4767532 -36.326439 -99.187096
46963000 -35.576775 -75.717384 -0.047658529 -9.6553354 -0.050124332 -9.6765995 -36.146221 -99.632401
47962000 -35.418556 -77.233864 -0.048366789 -9.8523273 -0.051670916 -9.8689375 -35.954559 -99.902573
48961000 -35.233185 -78.65522 -0.050782185 -10.051284 -0.053156473 -10.072809 -35.714653 -100.22976
49960000 -35.043739 -80.124619 -0.052580006 -10.250152 -0.054223921 -10.275116 -35.597374 -100.53154
50959000 -34.847214 -81.579391 -0.053084671 -10.46083 -0.055028941 -10.47423 -35.413124 -100.93028
51958000 -34.668598 -82.827599 -0.05453375 -10.658591 -0.056154545 -10.669929 -35.225044 -101.65595
52957000 -34.483894 -83.948685 -0.056186013 -10.862445 -0.057463523 -10.86995 -35.064465 -101.51301
53956000 -34.332748 -84.743187 -0.058004435 -11.061606 -0.058603924 -11.065017 -34.918736 -101.64313
54955000 -34.169296 -85.410782 -0.058017027 -11.266683 -0.059219766 -11.25992 -34.762012 -101.71707
55954000 -34.020287 -86.276016 -0.059772968 -11.465043 -0.060256422 -11.460629 -34.656422 -101.4537
56953000 -33.894054 -86.422729 -0.059054185 -11.663774 -0.059114277 -11.652252 -34.586437 -101.76006
57952000 -33.755772 -87.074547 -0.060619704 -11.860577 -0.060051695 -11.849397 -34.480148 -101.94077
58951000 -33.634644 -87.461174 -0.060759358 -12.065693 -0.060853072 -12.045552 -34.3311 -102.01553
59950000 -33.529072 -87.887589 -0.06151098 -12.266281 -0.062095985 -12.244953 -34.255123 -102.31719
60949000 -33.423561 -88.549271 -0.062837593 -12.463915 -0.062467035 -12.443287 -34.17387 -102.73976
61948000 -33.361046 -88.880165 -0.06353835 -12.666374 -0.062341247 -12.646181 -34.073265 -102.9026
62947000 -33.27528 -89.153648 -0.06338916 -12.877121 -0.063088678 -12.85384 -33.938637 -103.15119
63946000 -33.210552 -89.815659 -0.064120479 -13.074688 -0.064212956 -13.052616 -33.836666 -103.33024
64945000 -33.10006 -90.088898 -0.064491183 -13.278268 -0.064473577 -13.258613 -33.72356 -103.94772
65944000 -33.017857 -90.375755 -0.065394022 -13.475887 -0.065004326 -13.457392 -33.637413 -104.38805
66943000 -32.872299 -90.879875 -0.063350812 -13.675619 -0.063678361 -13.657378 -33.54044 -104.71861
67942000 -32.81245 -90.823898 -0.065563262 -13.872527 -0.065239243 -13.860723 -33.419289 -105.04125
68941000 -32.693752 -90.995361 -0.06516777 -14.06777 -0.06422241 -14.056887 -33.306259 -104.97707
69940000 -32.60569 -90.938477 -0.065161727 -14.264231 -0.065557741 -14.254229 -33.156178 -105.31654
70939000 -32.502487 -90.951347 -0.064990401 -14.464008 -0.064985409 -14.454569 -33.032692 -105.28561
71938000 -32.348629 -90.59391 -0.06538929 -14.65656 -0.064992502 -14.646196 -32.888634 -105.18375
72937000 -32.191467 -90.445831 -0.064328551 -14.85643 -0.064432062 -14.847703 -32.748386 -104.8448
73936000 -32.046177 -90.223503 -0.064435482 -15.053715 -0.063960493 -15.04578 -32.623219 -104.69958
74935000 -31.921 -90.521141 -0.063712507 -15.249342 -0.06354256 -15.244108 -32.468655 -104.42166
75934000 -31.799679 -90.801994 -0.063976519 -15.461488 -0.063252047 -15.453876 -32.38393 -104.47726
76933000 -31.674419 -91.241127 -0.065192997 -15.654333 -0.064832479 -15.647007 -32.216656 -104.85692
77932000 -31.581722 -92.046516 -0.066606425 -15.849974 -0.066607215 -15.843288 -32.112385 -104.9254
78931000 -31.519835 -92.82621 -0.064494066 -16.047144 -0.065437645 -16.04215 -32.012024 -104.74704
79930000 -31.41522 -93.709274 -0.067467116 -16.241884 -0.068464719 -16.236433 -31.919645 -105.05865
80929000 -31.293678 -94.657372 -0.069341563 -16.435297 -0.069247402 -16.432655 -31.816574 -105.45577
81928000 -31.218925 -95.539055 -0.069649309 -16.629654 -0.069805823 -16.627991 -31.715178 -105.58467
82927000 -31.12722 -96.300476 -0.071134187 -16.826195 -0.071374439 -16.824972 -31.594278 -105.99416
83926000 -31.026335 -96.95607 -0.072497174 -17.022221 -0.072168693 -17.024607 -31.475443 -106.26501
84925000 -30.923683 -97.482285 -0.07378792 -17.223518 -0.072435059 -17.218954 -31.387018 -106.40853
85924000 -30.832115 -98.022827 -0.073956169 -17.423002 -0.073931687 -17.420265 -31.305794 -106.38484
86923000 -30.726027 -98.533318 -0.074353255 -17.61867 -0.074124165 -17.614882 -31.197151 -106.3703
87922000 -30.626451 -98.958832 -0.074301906 -17.82601 -0.073898509 -17.816767 -31.112108 -106.44138
88921000 -30.554657 -99.285538 -0.075447001 -18.021601 -0.074981339 -18.021042 -31.016748 -106.42996
89920000 -30.458355 -99.868164 -0.075774677 -18.225437 -0.075512059 -18.218449 -30.96158 -106.67029
90919000 -30.365295 -100.23907 -0.077237673 -18.419216 -0.076292582 -18.414991 -30.87392 -106.87872
91918000 -30.269461 -100.57546 -0.077228449 -18.623922 -0.077030301 -18.612005 -30.806761 -106.88182
92917000 -30.182787 -100.9613 -0.078777336 -18.81971 -0.077756278 -18.81381 -30.743279 -107.04008
93916000 -30.099064 -101.40875 -0.078153975 -19.011751 -0.078162409 -19.008366 -30.65892 -107.72726
94915000 -30.031174 -102.0542 -0.079908848 -19.216022 -0.078483172 -19.207525 -30.596628 -107.59568
95914000 -29.970928 -102.28941 -0.080407731 -19.405033 -0.080073647 -19.404835 -30.505157 -107.90877
96913000 -29.883266 -102.56041 -0.082019486 -19.607737 -0.080794066 -19.604353 -30.443602 -108.2957
97912000 -29.812124 -103.06955 -0.08305078 -19.801613 -0.080836266 -19.804544 -30.357866 -108.45486
98911000 -29.70829 -103.21169 -0.083632626 -20.005646 -0.081821911 -20.002443 -30.316082 -108.71516
99910000 -29.637346 -103.40866 -0.083784372 -20.203909 -0.082306243 -20.203161 -30.210003 -108.98819
100909000 -29.550262 -103.68417 -0.083532348 -20.410088 -0.08227089 -20.40377 -30.117559 -109.21533
101908000 -29.463303 -103.96693 -0.084930383 -20.608953 -0.082607791 -20.610582 -30.005779 -108.96284
102907000 -29.330244 -103.98402 -0.085273825 -20.810575 -0.083048671 -20.808775 -29.934362 -108.95445
103906000 -29.233829 -104.10969 -0.085549444 -21.012411 -0.082285397 -21.012545 -29.769926 -108.93162
104905000 -29.081135 -103.99712 -0.086380623 -21.219601 -0.083350532 -21.216612 -29.64625 -108.67337
105904000 -28.943243 -104.16911 -0.086420231 -21.417091 -0.083093531 -21.409988 -29.53166 -108.50422
106903000 -28.839252 -104.31609 -0.085881315 -21.621435 -0.083971478 -21.617348 -29.396837 -108.39912
107902000 -28.67145 -104.66957 -0.08692462 -21.821037 -0.084270768 -21.81395 -29.253635 -108.3934
108901000 -28.564289 -104.89962 -0.088051386 -22.023966 -0.085515119 -22.014959 -29.117952 -108.34561
109900000 -28.436056 -105.44882 -0.088446058 -22.222803 -0.086738177 -22.213104 -28.97002 -108.5209
110899000 -28.321789 -106.09882 -0.089775383 -22.418962 -0.086766168 -22.415171 -28.838551 -108.81228
111898000 -28.237146 -106.77485 -0.091979921 -22.621893 -0.088266417 -22.614483 -28.721041 -108.96774
112897000 -28.110796 -107.40737 -0.092856765 -22.818743 -0.089595951 -22.809965 -28.59301 -109.21229
113896000 -28.008234 -108.00335 -0.093467958 -23.019592 -0.0913729 -23.006884 -28.483583 -109.35671
114895000 -27.912182 -108.66097 -0.094813898 -23.216736 -0.092795148 -23.207052 -28.36598 -109.44389
115894000 -27.781893 -109.04131 -0.095992997 -23.419231 -0.094155692 -23.406561 -28.301476 -109.688
116893000 -27.706741 -109.62328 -0.096186988 -23.614548 -0.094565734 -23.59796 -28.171362 -109.83948
117892000 -27.626001 -110.18164 -0.096985795 -23.810057 -0.094774745 -23.797024 -28.091345 -110.10023
118891000 -27.568348 -110.59621 -0.097587511 -24.009861 -0.095147014 -23.996761 -28.000029 -110.24915
119890000 -27.479496 -110.99686 -0.097792163 -24.213493 -0.096196249 -24.198015 -27.987152 -110.41171
120889000 -27.428499 -111.48534 -0.099183671 -24.413965 -0.096081391 -24.3999 -27.908628 -110.37214
121888000 -27.389185 -111.85799 -0.099342577 -24.60956 -0.096926235 -24.595644 -27.852671 -110.68961
122887000 -27.344618 -112.05799 -0.10041323 -24.813576 -0.097979881 -24.800453 -27.81044 -110.77242
123886000 -27.295616 -112.50889 -0.10124858 -25.012302 -0.098061427 -24.994665 -27.790434 -110.92831
124885000 -27.258595 -113.01083 -0.10140704 -25.213585 -0.097980939 -25.19702 -27.765627 -110.99397
125884000 -27.211773 -113.20107 -0.10199082 -25.411163 -0.09852162 -25.396927 -27.732466 -111.15103
126883000 -27.193617 -113.59629 -0.10250842 -25.612432 -0.099694312 -25.59985 -27.687458 -111.24806
127882000 -27.142124 -113.89655 -0.10262901 -25.810923 -0.1000821 -25.796221 -27.654182 -111.38971
128881000 -27.103996 -114.22829 -0.10264862 -26.015886 -0.099998392 -25.996769 -27.607178 -111.54094
129880000 -27.0487 -114.53854 -0.10375005 -26.216234 -0.099803969 -26.196764 -27.563648 -111.4823
130879000 -26.992701 -114.70199 -0.10337917 -26.415701 -0.10083181 -26.399031 -27.487053 -111.58985
131878000 -26.924706 -114.93063 -0.10424399 -26.617123 -0.10160313 -26.599216 -27.423096 -111.44346
132877000 -26.856812 -115.04662 -0.10310189 -26.818243 -0.10174145 -26.800367 -27.338451 -111.46439
133876000 -26.771269 -115.16127 -0.10435854 -27.015453 -0.10113227 -27.002567 -27.245312 -111.41025
134875000 -26.674324 -115.29864 -0.10385318 -27.218416 -0.10195372 -27.196651 -27.133263 -111.23343
135874000 -26.591684 -115.36111 -0.10390382 -27.414577 -0.10189754 -27.401678 -27.031248 -111.27599
136873000 -26.480734 -115.31049 -0.10478811 -27.623409 -0.10118341 -27.607014 -26.951344 -111.24881
137872000 -26.396572 -115.42281 -0.10432142 -27.823175 -0.10214823 -27.806921 -26.842976 -111.20481
138871000 -26.316481 -115.60968 -0.10512385 -28.021498 -0.10241221 -28.008512 -26.74439 -111.34242
139870000 -26.225525 -115.90554 -0.10581741 -28.220934 -0.10323575 -28.204872 -26.660864 -111.52467
140869000 -26.137796 -116.36894 -0.10773979 -28.419418 -0.10481729 -28.396563 -26.550949 -111.72015
141868000 -26.043226 -116.86832 -0.1082042 -28.608236 -0.10541266 -28.596842 -26.481411 -112.03874
142867000 -25.963675 -117.13672 -0.10626993 -28.805975 -0.10468761 -28.79225 -26.403408 -112.23688
143866000 -25.90114 -117.63043 -0.10847862 -29.006994 -0.10589539 -28.988741 -26.33371 -112.76436
144865000 -25.839857 -118.18246 -0.10967391 -29.201607 -0.10710748 -29.18964 -26.27524 -113.12751
145864000 -25.783869 -118.48372 -0.11010959 -29.401236 -0.10845102 -29.391626 -26.24354 -113.34436
146863000 -25.736408 -118.89211 -0.11107162 -29.605015 -0.1087658 -29.587061 -26.195847 -113.72256
147862000 -25.702383 -119.26378 -0.11191248 -29.798189 -0.10901716 -29.789938 -26.164375 -114.07555
148861000 -25.669197 -119.7933 -0.11201395 -29.997839 -0.10974374 -29.982805 -26.134943 -114.33184
149860000 -25.65666 -119.98939 -0.11233537 -30.196789 -0.10989108 -30.1861 -26.104733 -114.4717
150859000 -25.635452 -120.36527 -0.11274129 -30.395868 -0.1102904 -30.383547 -26.098467 -114.8026
151858000 -25.615965 -120.71668 -0.11249316 -30.594368 -0.11058354 -30.580847 -26.088882 -115.06661
152857000 -25.599428 -121.00092 -0.11314008 -30.793465 -0.11080049 -30.780972 -26.074898 -115.17165
153856000 -25.593714 -121.27904 -0.11361649 -30.991274 -0.11038678 -30.978563 -26.092413 -115.50352
154855000 -25.584436 -121.40436 -0.11387371 -31.191282 -0.1108937 -31.177441 -26.079685 -115.73856
155854000 -25.599705 -121.68653 -0.11435419 -31.391605 -0.11146361 -31.377001 -26.073259 -116.00434
156853000 -25.581699 -122.34801 -0.11173347 -31.57699 -0.11094309 -31.567772 -26.066217 -116.29189
157852000 -25.588644 -122.61873 -0.11350781 -31.776762 -0.11281568 -31.769526 -26.057608 -116.6385
158851000 -25.583864 -122.85284 -0.11362021 -31.973837 -0.11280027 -31.9666 -26.041206 -116.90022
159850000 -25.564611 -122.95588 -0.11448921 -32.170086 -0.11274766 -32.16618 -26.04277 -117.06498
160849000 -25.548994 -123.07405 -0.11473638 -32.374748 -0.11359071 -32.366249 -26.01359 -117.38184
161848000 -25.527182 -123.17514 -0.11504683 -32.575752 -0.11349479 -32.566723 -25.965338 -117.45411
162847000 -25.482349 -123.37755 -0.11525337 -32.76989 -0.11413122 -32.765419 -25.935032 -117.70494
163846000 -25.443024 -123.64114 -0.11567365 -32.972279 -0.11395635 -32.96484 -25.85573 -117.71943
164845000 -25.377975 -123.62182 -0.11558221 -33.166065 -0.1144605 -33.163761 -25.793526 -117.812
165844000 -25.319883 -123.66817 -0.11541393 -33.369213 -0.11491872 -33.362667 -25.703176 -117.98505
166843000 -25.257481 -123.78407 -0.11550963 -33.56498 -0.11486715 -33.56633 -25.635996 -118.17676
167842000 -25.198185 -123.94873 -0.11562846 -33.769371 -0.11561091 -33.759796 -25.553667 -118.05309
168841000 -25.121529 -124.12022 -0.11625855 -33.963158 -0.11560081 -33.962486 -25.475813 -118.1751
169840000 -25.053373 -124.39382 -0.11648669 -34.159004 -0.11564441 -34.155087 -25.386099 -118.38315
170839000 -24.997057 -124.66222 -0.11796427 -34.357449 -0.11579063 -34.355759 -25.306164 -118.56807
171838000 -24.937672 -125.11175 -0.11652923 -34.560291 -0.1173411 -34.550354 -25.233368 -118.8274
172837000 -24.864912 -125.47114 -0.11906373 -34.750816 -0.1182925 -34.750629 -25.167156 -119.05376
173836000 -24.799124 -125.89687 -0.1200501 -34.950142 -0.11902941 -34.947422 -25.120867 -119.29146
174835000 -24.752575 -126.34071 -0.1200533 -35.148331 -0.12012941 -35.148708 -25.078848 -119.65968
175834000 -24.696995 -126.75773 -0.12122197 -35.347126 -0.12044664 -35.343147 -25.007414 -119.95819
176833000 -24.647142 -127.14512 -0.12170779 -35.544388 -0.12122755 -35.541721 -24.96401 -120.13976
177832000 -24.603823 -127.64047 -0.12294161 -35.737999 -0.12166306 -35.74155 -24.938002 -120.31955
178831000 -24.565193 -128.00941 -0.12218221 -35.937279 -0.12194952 -35.933521 -24.90691 -120.52594
179830000 -24.529217 -128.44551 -0.12329473 -36.133171 -0.12238935 -36.137413 -24.878901 -120.66483
180829000 -24.488451 -128.65822 -0.12398507 -36.328815 -0.12375201 -36.332043 -24.852587 -120.88939
181828000 -24.4667 -129.07327 -0.12369608 -36.526436 -0.12412997 -36.525234 -24.829815 -121.00791
182827000 -24.443888 -129.37775 -0.12399892 -36.72538 -0.12383698 -36.722179 -24.815195 -121.0724
183826000 -24.396061 -129.72394 -0.12513268 -36.924217 -0.12410546 -36.916424 -24.809031 -121.22067
184825000 -24.405722 -130.0117 -0.12417312 -37.115723 -0.12421601 -37.119377 -24.793396 -121.31062
185824000 -24.384966 -130.4021 -0.12537487 -37.310455 -0.12432868 -37.310261 -24.792433 -121.37347
186823000 -24.362171 -130.76033 -0.12468617 -37.512695 -0.1244704 -37.511654 -24.789783 -121.361
187822000 -24.343689 -131.06633 -0.1250874 -37.706806 -0.12493473 -37.705997 -24.754559 -121.42944
188821000 -24.326355 -131.29765 -0.12508206 -37.901394 -0.12537727 -37.905575 -24.73558 -121.50375
189820000 -24.306511 -131.57533 -0.12602744 -38.103954 -0.12503064 -38.105301 -24.72621 -121.68369
190819000 -24.281048 -131.87331 -0.12735179 -38.299793 -0.12658815 -38.303062 -24.689125 -121.63507
191818000 -24.242105 -132.01476 -0.1286936 -38.496998 -0.12835231 -38.499718 -24.661057 -121.52461
192817000 -24.173635 -132.2692 -0.1292024 -38.680695 -0.12839657 -38.683205 -24.588057 -121.57625
193816000 -24.140013 -132.67137 -0.12839337 -38.872719 -0.12709589 -38.876308 -24.529924 -121.84431
194815000 -24.078707 -133.09695 -0.12819767 -39.070061 -0.12739603 -39.075134 -24.46316 -121.96273
195814000 -24.027525 -133.35373 -0.12872854 -39.26849 -0.12797666 -39.27261 -24.411814 -122.08264
196813000 -23.970945 -133.672 -0.12823179 -39.464436 -0.12765755 -39.46711 -24.335621 -122.26534
197812000 -23.919779 -133.92169 -0.12896772 -39.661064 -0.12808943 -39.661861 -24.261595 -122.35345
198811000 -23.866003 -134.099 -0.12850696 -39.858509 -0.12841684 -39.864388 -24.193521 -122.56155
199810000 -23.790493 -134.49257 -0.12862907 -40.053574 -0.12753224 -40.051792 -24.114685 -122.67527
200809000 -23.736048 -134.76334 -0.12921625 -40.250263 -0.12789348 -40.251278 -24.033445 -122.87349
201808000 -23.680153 -135.01485 -0.12981525 -40.451302 -0.12916666 -40.459003 -23.964661 -122.93755
202807000 -23.62158 -135.34724 -0.13054238 -40.651497 -0.12984405 -40.654774 -23.911259 -123.17237
203806000 -23.567656 -135.82874 -0.13220514 -40.852852 -0.13051623 -40.852695 -23.845119 -123.35144
