!Keysight Technologies,E5080B,MY59205177,A.15.75.32
!Date: Friday, February 23, 2024 03:30:34
!Correction: S11(Cdelta 2-Port  ) 
!S21(Cdelta 2-Port  ) 
!S12(Cdelta 2-Port  ) 
!S22(Cdelta 2-Port  ) 
!S2P File: Measurements: S11, S21, S12, S22:
# Hz S  dB   R 50
10000000 -46.031807 -2.1210659 -0.015733482 -2.0512614 -0.01828442 -2.1054258 -46.017708 -158.38249
10999000 -45.217152 -4.2651238 -0.016575312 -2.2696838 -0.01839724 -2.3221362 -45.92252 -152.2215
11998000 -44.279865 -6.9976163 -0.016972121 -2.495661 -0.018169522 -2.5367155 -46.146072 -147.78287
12997000 -43.530434 -12.500242 -0.016281173 -2.6785352 -0.018324712 -2.7059195 -45.787388 -141.90704
13996000 -43.271614 -16.018433 -0.015707761 -2.8539205 -0.017991984 -2.8806255 -45.562344 -136.69911
14995000 -42.883469 -20.428862 -0.017686831 -3.067456 -0.017480204 -3.0927098 -45.28162 -133.12387
15994000 -42.713894 -24.958117 -0.019117385 -3.2855282 -0.020431893 -3.3072281 -45.164719 -129.27338
16993000 -42.662323 -29.613546 -0.017869296 -3.4821022 -0.019364653 -3.4899969 -44.340668 -129.49693
17992000 -42.706982 -35.128197 -0.018513184 -3.6772838 -0.020675074 -3.6846614 -43.768661 -129.56779
18991000 -42.970638 -40.160019 -0.019269489 -3.8924646 -0.021300128 -3.8906415 -43.129768 -128.26826
19990000 -42.808601 -45.962219 -0.022010608 -4.1029544 -0.023567254 -4.0986686 -42.438217 -129.12038
20989000 -42.63166 -49.228615 -0.024190119 -4.3095975 -0.025438463 -4.2943563 -41.959522 -128.64896
21988000 -42.468037 -54.554337 -0.024363486 -4.5046768 -0.026793174 -4.4919696 -41.676056 -127.80023
22987000 -42.168575 -59.06728 -0.026356662 -4.7046676 -0.027061198 -4.6973782 -41.401505 -127.31693
23986000 -42.11211 -63.199043 -0.025817074 -4.9013376 -0.025870457 -4.8988371 -41.313931 -127.02208
24985000 -41.692192 -65.921471 -0.026419427 -5.1087465 -0.026100662 -5.1013246 -41.138321 -124.6612
25984000 -41.358604 -68.321396 -0.02774292 -5.3112574 -0.026640806 -5.3121052 -40.747005 -123.13565
26983000 -41.042316 -70.231438 -0.028284052 -5.512166 -0.027382899 -5.5305738 -40.638168 -122.38292
27982000 -40.895336 -71.096909 -0.029567976 -5.7136765 -0.029539047 -5.7429824 -40.358402 -120.87927
28981000 -40.869301 -72.572891 -0.027463915 -5.9128709 -0.029316999 -5.9348273 -40.151005 -119.87408
29980000 -40.413216 -74.338173 -0.027363883 -6.1058278 -0.029910194 -6.1109052 -39.898361 -119.19438
30979000 -40.068069 -73.155319 -0.025529338 -6.461689 -0.02387516 -6.4554319 -39.365273 -119.49942
31978000 -39.854721 -74.228638 -0.025012242 -6.6519542 -0.025207253 -6.6471972 -39.149666 -118.81942
32977000 -39.660282 -75.495499 -0.024676397 -6.866045 -0.026001964 -6.8601213 -38.874477 -118.72832
33976000 -39.473808 -76.60154 -0.024801619 -7.0684824 -0.025519183 -7.0603199 -38.593868 -118.07628
34975000 -39.195843 -77.614693 -0.024812033 -7.268496 -0.027318036 -7.264235 -38.364887 -118.0362
35974000 -38.972809 -78.183586 -0.024186475 -7.4635768 -0.027041402 -7.4666452 -38.109653 -116.84939
36973000 -38.736347 -78.730927 -0.024819324 -7.6632409 -0.028213443 -7.6680436 -37.830566 -116.02731
37972000 -38.56942 -78.489288 -0.024551699 -7.8722959 -0.027880998 -7.8837323 -37.60928 -115.26563
38971000 -38.250385 -78.032036 -0.025506685 -8.0745945 -0.028157426 -8.084692 -37.415787 -113.69233
39970000 -37.922379 -78.23288 -0.023900408 -8.2730026 -0.027172944 -8.2872829 -37.184937 -113.13086
40969000 -37.60667 -77.966393 -0.024490003 -8.4691696 -0.026729362 -8.4840736 -36.952431 -111.6046
41968000 -37.294167 -77.785965 -0.024507442 -8.6677427 -0.026992692 -8.6889992 -36.745792 -110.43228
42967000 -36.997284 -77.976967 -0.025063531 -8.8837547 -0.027580099 -8.9042654 -36.558723 -108.46645
43966000 -36.712296 -78.685005 -0.025022656 -9.078949 -0.028694699 -9.0996208 -36.271053 -107.69532
44965000 -36.489304 -79.492416 -0.026832243 -9.2884798 -0.028734308 -9.3075457 -36.059002 -107.49575
45964000 -36.238716 -80.555748 -0.028041225 -9.4903383 -0.029775962 -9.5089092 -35.842419 -107.13421
46963000 -36.050873 -82.498962 -0.027105218 -9.6818581 -0.030317087 -9.7002668 -35.647388 -107.4031
47962000 -35.904392 -83.92672 -0.029045969 -9.8827257 -0.031802133 -9.9032335 -35.45525 -107.37315
48961000 -35.685978 -85.306313 -0.030711241 -10.082726 -0.033001546 -10.100109 -35.233509 -107.58624
49960000 -35.450642 -86.679344 -0.032497641 -10.281543 -0.034438457 -10.301509 -35.071671 -107.54011
50959000 -35.215923 -87.865349 -0.033063363 -10.496616 -0.03548618 -10.505587 -34.903042 -107.84216
51958000 -35.008144 -88.95385 -0.035040703 -10.693917 -0.037067246 -10.70142 -34.723911 -108.29439
52957000 -34.805538 -89.936432 -0.036754221 -10.894923 -0.038422976 -10.901292 -34.563595 -108.04778
53956000 -34.634892 -90.673286 -0.037983727 -11.096566 -0.039286196 -11.099282 -34.431084 -107.94592
54955000 -34.460312 -91.171005 -0.03826132 -11.298154 -0.039176226 -11.296256 -34.284855 -107.86651
55954000 -34.307194 -92.085365 -0.04006546 -11.498893 -0.040316015 -11.497012 -34.174313 -107.68232
56953000 -34.183826 -92.019485 -0.039820146 -11.698112 -0.039259028 -11.68698 -34.098892 -107.83649
57952000 -34.009808 -92.641838 -0.040302429 -11.893036 -0.040577818 -11.886628 -34.012482 -107.9642
58951000 -33.896946 -92.99604 -0.041283097 -12.100009 -0.041182224 -12.081954 -33.847794 -107.9587
59950000 -33.76939 -93.361 -0.041886553 -12.300804 -0.042144272 -12.277782 -33.776302 -108.2307
60949000 -33.648342 -93.847191 -0.042514406 -12.501407 -0.042642761 -12.480284 -33.693161 -108.50801
61948000 -33.581081 -94.232025 -0.043336608 -12.705084 -0.042810328 -12.687121 -33.594543 -108.6341
62947000 -33.501583 -94.427437 -0.043245621 -12.916066 -0.043665532 -12.894951 -33.469772 -108.85841
63946000 -33.424915 -95.160904 -0.04445238 -13.113398 -0.04419871 -13.094365 -33.346874 -108.93961
64945000 -33.314602 -95.306152 -0.044171516 -13.317384 -0.044869792 -13.295995 -33.241901 -109.50519
65944000 -33.215755 -95.616501 -0.044739284 -13.515346 -0.044813037 -13.497073 -33.149307 -109.92258
66943000 -33.070522 -96.042259 -0.043920737 -13.716487 -0.043950811 -13.700581 -33.05056 -110.16599
67942000 -33.018616 -96.005157 -0.045730632 -13.91286 -0.045737956 -13.905334 -32.911224 -110.49039
68941000 -32.905125 -95.981613 -0.04568956 -14.110145 -0.044051748 -14.09914 -32.815662 -110.42747
69940000 -32.805828 -96.039604 -0.045754176 -14.305085 -0.045888904 -14.299294 -32.668644 -110.70746
70939000 -32.688435 -95.91674 -0.04604404 -14.504624 -0.044533454 -14.498691 -32.539238 -110.60905
71938000 -32.554886 -95.585365 -0.045223944 -14.702797 -0.045075111 -14.693737 -32.404533 -110.48654
72937000 -32.404568 -95.371506 -0.045273378 -14.903801 -0.044996906 -14.896293 -32.26952 -110.22037
73936000 -32.258369 -94.943474 -0.044633098 -15.096892 -0.044663176 -15.09311 -32.141289 -109.932
74935000 -32.127907 -95.164696 -0.044740066 -15.297266 -0.043406416 -15.290323 -31.986752 -109.57178
75934000 -32.004181 -95.436531 -0.04488967 -15.505805 -0.042683542 -15.500765 -31.909424 -109.52448
76933000 -31.87903 -95.702499 -0.045436606 -15.700646 -0.045397628 -15.690857 -31.734385 -109.86363
77932000 -31.764883 -96.536949 -0.046277411 -15.89447 -0.04673529 -15.88905 -31.638266 -109.82721
78931000 -31.696081 -97.304794 -0.045579955 -16.093616 -0.045449421 -16.092596 -31.529402 -109.67777
79930000 -31.581049 -98.185211 -0.047802214 -16.2908 -0.047977049 -16.289024 -31.422798 -110.04356
80929000 -31.469698 -98.933495 -0.049551409 -16.485672 -0.050189797 -16.486172 -31.327511 -110.23302
81928000 -31.367723 -99.694252 -0.049816649 -16.676508 -0.050227769 -16.676075 -31.191912 -110.24886
82927000 -31.269341 -100.43455 -0.051358674 -16.876001 -0.051495932 -16.874201 -31.081856 -110.51848
83926000 -31.154367 -101.15205 -0.052847266 -17.073732 -0.052767873 -17.07601 -30.966785 -110.712
84925000 -31.045368 -101.5528 -0.053935084 -17.276541 -0.052638698 -17.273582 -30.877028 -110.69265
85924000 -30.947502 -101.9659 -0.055030253 -17.474743 -0.053757649 -17.473772 -30.784897 -110.74582
86923000 -30.841085 -102.49567 -0.05444489 -17.673285 -0.054710168 -17.668949 -30.684801 -110.54444
87922000 -30.728487 -102.78915 -0.054443579 -17.879168 -0.054643583 -17.873375 -30.591925 -110.60034
88921000 -30.660168 -103.06325 -0.055254668 -18.076408 -0.055245232 -18.076712 -30.500065 -110.59113
89920000 -30.554049 -103.5846 -0.055989344 -18.279499 -0.055792421 -18.273346 -30.439913 -110.7282
90919000 -30.44463 -103.89627 -0.057491589 -18.478703 -0.056468442 -18.472857 -30.350275 -110.86288
91918000 -30.348227 -104.22137 -0.058200147 -18.673639 -0.057032313 -18.672371 -30.290676 -110.89526
92917000 -30.260849 -104.51044 -0.05922344 -18.871256 -0.05762852 -18.870567 -30.225031 -110.9725
93916000 -30.165888 -104.87331 -0.058995146 -19.065718 -0.057978988 -19.065472 -30.13434 -111.56932
94915000 -30.088348 -105.5658 -0.060857534 -19.270615 -0.059105091 -19.265188 -30.068455 -111.48253
95914000 -30.021288 -105.73462 -0.061668251 -19.466063 -0.059975844 -19.463257 -29.981714 -111.69919
96913000 -29.935928 -105.92611 -0.062583901 -19.666576 -0.061346624 -19.663216 -29.917181 -112.09151
97912000 -29.85886 -106.38516 -0.064093418 -19.862144 -0.061399657 -19.863527 -29.834936 -112.29507
98911000 -29.748875 -106.56133 -0.063997008 -20.063879 -0.062738322 -20.061247 -29.794861 -112.53896
99910000 -29.679413 -106.72549 -0.0646412 -20.261749 -0.062635109 -20.264259 -29.681389 -112.80401
100909000 -29.593861 -106.95883 -0.064308323 -20.47331 -0.06238405 -20.466362 -29.597691 -113.03265
101908000 -29.497334 -107.13144 -0.066303886 -20.673185 -0.063922398 -20.67045 -29.487644 -112.77872
102907000 -29.360001 -107.19219 -0.065820545 -20.880148 -0.063840441 -20.869883 -29.4161 -112.80911
103906000 -29.273918 -107.21549 -0.066588029 -21.07789 -0.062945016 -21.077206 -29.270361 -112.75408
104905000 -29.115244 -107.11256 -0.067228399 -21.277094 -0.06400463 -21.278049 -29.140066 -112.41879
105904000 -28.979261 -107.1826 -0.067455024 -21.481325 -0.063874587 -21.474712 -29.019632 -112.28884
106903000 -28.867788 -107.22143 -0.066779658 -21.689539 -0.064883456 -21.682878 -28.902372 -112.17928
107902000 -28.705135 -107.57866 -0.067694016 -21.885601 -0.065326221 -21.881313 -28.769035 -112.15485
108901000 -28.59252 -107.78391 -0.068767413 -22.091564 -0.066553853 -22.083107 -28.630829 -112.08638
109900000 -28.467573 -108.27909 -0.06957145 -22.285311 -0.067595944 -22.276867 -28.482197 -112.15967
110899000 -28.350517 -108.87508 -0.071018413 -22.488323 -0.068036884 -22.476013 -28.363073 -112.45223
111898000 -28.250738 -109.55827 -0.072393738 -22.689955 -0.069368392 -22.681303 -28.241949 -112.56549
112897000 -28.135843 -110.09965 -0.07397671 -22.885389 -0.070512712 -22.875807 -28.107307 -112.71307
113896000 -28.032125 -110.66189 -0.074613698 -23.087687 -0.072121054 -23.078844 -27.99942 -112.86823
114895000 -27.929066 -111.33002 -0.075923249 -23.287371 -0.073533848 -23.272602 -27.886784 -112.96899
115894000 -27.80242 -111.67438 -0.076639824 -23.489008 -0.074319288 -23.476425 -27.819998 -113.17164
116893000 -27.729923 -112.19215 -0.077967905 -23.687452 -0.075307406 -23.669531 -27.690279 -113.19597
117892000 -27.646078 -112.69623 -0.078385912 -23.882807 -0.075355075 -23.869034 -27.62022 -113.36937
118891000 -27.587523 -113.07839 -0.078686662 -24.082113 -0.07560873 -24.069952 -27.519358 -113.48634
119890000 -27.499578 -113.42402 -0.079146393 -24.285019 -0.077060863 -24.268511 -27.512613 -113.64521
120889000 -27.447416 -114.00359 -0.08036264 -24.483837 -0.076673284 -24.471209 -27.437408 -113.56128
121888000 -27.40871 -114.25782 -0.080375567 -24.68066 -0.077325948 -24.670418 -27.378744 -113.85577
122887000 -27.371107 -114.48509 -0.081848547 -24.885429 -0.078670055 -24.869444 -27.333675 -113.8631
123886000 -27.321114 -114.90419 -0.082466111 -25.087996 -0.07886222 -25.067606 -27.320789 -113.99845
124885000 -27.284595 -115.42579 -0.082645781 -25.288359 -0.079695284 -25.272642 -27.295942 -114.02723
125884000 -27.231592 -115.60147 -0.08315105 -25.484182 -0.079016164 -25.47019 -27.265654 -114.18648
126883000 -27.215 -115.98134 -0.083576947 -25.68718 -0.080144309 -25.677326 -27.223581 -114.18961
127882000 -27.163012 -116.27843 -0.083940335 -25.890999 -0.080646917 -25.873579 -27.181925 -114.32593
128881000 -27.133083 -116.58562 -0.0841747 -26.092041 -0.080626078 -26.074825 -27.142359 -114.43533
129880000 -27.078444 -116.9454 -0.084938034 -26.290812 -0.080914855 -26.273399 -27.102226 -114.39248
130879000 -27.017603 -117.07483 -0.084308513 -26.49527 -0.081513822 -26.479168 -27.029896 -114.39186
131878000 -26.955515 -117.32559 -0.085129686 -26.696175 -0.08201474 -26.677505 -26.975702 -114.27387
132877000 -26.885553 -117.37431 -0.084518604 -26.897121 -0.081372976 -26.882038 -26.895081 -114.27107
133876000 -26.806488 -117.55719 -0.085192516 -27.097048 -0.081382729 -27.081722 -26.805716 -114.1475
134875000 -26.700169 -117.68844 -0.084818721 -27.296928 -0.082041383 -27.281706 -26.704664 -113.96528
135874000 -26.626949 -117.67986 -0.085570827 -27.501951 -0.081859626 -27.483919 -26.59973 -113.92412
136873000 -26.516479 -117.63725 -0.085933067 -27.698549 -0.082618609 -27.686424 -26.52376 -113.87881
137872000 -26.43433 -117.74621 -0.085670888 -27.902847 -0.082361639 -27.885792 -26.416868 -113.8391
138871000 -26.358414 -117.97085 -0.086045809 -28.105227 -0.083033897 -28.089138 -26.328468 -113.97424
139870000 -26.260565 -118.2335 -0.086372703 -28.308178 -0.084207952 -28.287558 -26.247204 -114.13264
140869000 -26.18054 -118.79266 -0.088421755 -28.500799 -0.084791273 -28.483442 -26.139559 -114.36808
141868000 -26.095194 -119.16447 -0.088860326 -28.699987 -0.086460635 -28.683075 -26.093399 -114.61429
142867000 -26.013462 -119.38319 -0.087545812 -28.898829 -0.085557625 -28.880175 -26.009768 -114.71046
143866000 -25.945004 -119.88343 -0.089405164 -29.093782 -0.086925939 -29.078878 -25.936131 -115.1647
144865000 -25.88637 -120.37708 -0.091135249 -29.291584 -0.088279366 -29.27718 -25.879053 -115.45555
145864000 -25.832041 -120.72398 -0.092166066 -29.49452 -0.089901701 -29.481611 -25.84594 -115.73473
146863000 -25.782999 -121.04671 -0.092148878 -29.695173 -0.090212502 -29.683296 -25.793232 -116.03709
147862000 -25.747103 -121.41119 -0.093293928 -29.892227 -0.090135589 -29.880022 -25.763115 -116.36372
148861000 -25.714682 -121.85954 -0.094225794 -30.091393 -0.092184044 -30.077852 -25.743708 -116.5388
149860000 -25.678104 -122.01517 -0.095006511 -30.284273 -0.092866018 -30.271839 -25.69141 -116.61082
150859000 -25.659695 -122.48031 -0.094894335 -30.484415 -0.092321806 -30.466055 -25.672245 -116.96407
151858000 -25.64316 -122.84496 -0.09443108 -30.686377 -0.092674561 -30.667126 -25.660927 -117.31158
152857000 -25.632746 -123.13883 -0.094677381 -30.879381 -0.091898225 -30.867064 -25.646988 -117.48978
153856000 -25.631823 -123.38617 -0.094702251 -31.082314 -0.091693588 -31.065081 -25.66239 -117.84103
154855000 -25.624336 -123.54716 -0.095210247 -31.283466 -0.092191182 -31.271811 -25.64818 -118.04944
155854000 -25.64509 -123.78568 -0.095245704 -31.484625 -0.092726387 -31.463997 -25.643316 -118.32928
156853000 -25.628639 -124.46288 -0.093326457 -31.668924 -0.091695704 -31.660919 -25.638634 -118.62577
157852000 -25.637993 -124.69426 -0.095022388 -31.870762 -0.093097158 -31.859173 -25.625893 -118.98964
158851000 -25.633192 -124.92935 -0.094714686 -32.072392 -0.093496524 -32.060913 -25.613869 -119.25553
159850000 -25.621181 -125.03958 -0.095984526 -32.269806 -0.093624011 -32.260109 -25.609034 -119.43183
160849000 -25.601639 -125.13139 -0.095902756 -32.467918 -0.094315208 -32.463444 -25.585987 -119.73099
161848000 -25.587286 -125.18528 -0.096445568 -32.669586 -0.093726113 -32.662586 -25.549269 -119.83038
162847000 -25.550264 -125.39201 -0.096476793 -32.86615 -0.094743527 -32.864807 -25.513689 -120.06824
163846000 -25.504831 -125.58265 -0.097095646 -33.067474 -0.094736114 -33.061844 -25.440571 -120.06096
164845000 -25.443699 -125.52077 -0.096966207 -33.268559 -0.095244117 -33.259869 -25.374046 -120.16399
165844000 -25.397612 -125.60443 -0.097361431 -33.468086 -0.09577705 -33.460922 -25.296055 -120.29361
166843000 -25.333345 -125.64079 -0.096959591 -33.666599 -0.095842682 -33.663284 -25.233135 -120.4808
167842000 -25.28072 -125.74098 -0.097694203 -33.867241 -0.096676365 -33.864506 -25.152756 -120.3874
168841000 -25.200653 -125.90724 -0.097760126 -34.069889 -0.096844442 -34.0597 -25.081701 -120.46713
169840000 -25.13328 -126.13528 -0.098242536 -34.260914 -0.097433433 -34.257526 -24.991859 -120.61195
170839000 -25.073545 -126.39055 -0.099475004 -34.461315 -0.097787134 -34.45882 -24.912584 -120.84824
171838000 -25.015364 -126.7663 -0.099237166 -34.664417 -0.098314553 -34.653748 -24.842377 -121.04858
172837000 -24.948973 -127.09995 -0.10012396 -34.859119 -0.099079326 -34.853313 -24.778204 -121.25229
173836000 -24.873735 -127.5015 -0.1015806 -35.05817 -0.099901974 -35.056889 -24.736582 -121.50134
174835000 -24.829603 -127.94373 -0.10206714 -35.255859 -0.10054887 -35.253582 -24.694613 -121.78082
175834000 -24.771864 -128.30272 -0.10287817 -35.455296 -0.10156894 -35.451748 -24.631096 -122.08305
176833000 -24.718672 -128.64316 -0.10440335 -35.655033 -0.10259032 -35.65202 -24.582941 -122.1751
177832000 -24.683865 -129.07344 -0.10498276 -35.853458 -0.10327207 -35.852264 -24.563625 -122.33759
178831000 -24.638435 -129.33855 -0.10623889 -36.051216 -0.1051318 -36.045826 -24.524977 -122.3632
179830000 -24.563007 -129.68658 -0.10716107 -36.235764 -0.10594048 -36.237507 -24.46616 -122.46766
180829000 -24.51096 -130.02472 -0.10678566 -36.42931 -0.1049695 -36.427502 -24.416698 -122.78397
181828000 -24.488918 -130.49232 -0.10594923 -36.627201 -0.10434263 -36.623116 -24.403221 -122.9891
182827000 -24.470716 -130.85182 -0.10574446 -36.824669 -0.10517529 -36.823883 -24.393799 -123.08497
183826000 -24.429407 -131.17891 -0.10593358 -37.0228 -0.10501166 -37.023167 -24.38076 -123.27836
184825000 -24.43342 -131.54639 -0.10700135 -37.223709 -0.10549833 -37.220097 -24.363335 -123.38458
185824000 -24.398975 -131.89896 -0.10632909 -37.412685 -0.10671481 -37.418758 -24.357767 -123.4666
186823000 -24.387283 -132.24007 -0.10632034 -37.618847 -0.10531055 -37.613323 -24.350744 -123.45277
187822000 -24.363558 -132.59932 -0.10775651 -37.810448 -0.10658854 -37.812595 -24.317114 -123.54189
188821000 -24.343365 -132.87036 -0.10729056 -38.008263 -0.10662409 -38.011528 -24.290514 -123.68833
189820000 -24.319345 -133.13922 -0.1080386 -38.209171 -0.10599061 -38.20829 -24.276314 -123.88706
190819000 -24.282423 -133.44736 -0.10810415 -38.405109 -0.10704433 -38.405346 -24.23632 -123.90459
191818000 -24.254934 -133.74925 -0.1082663 -38.605259 -0.10718814 -38.605175 -24.208841 -123.93587
192817000 -24.207146 -134.02087 -0.1087435 -38.799599 -0.10761852 -38.803089 -24.163622 -123.99341
193816000 -24.179148 -134.26859 -0.1090368 -38.997505 -0.10755855 -38.997097 -24.111296 -124.16653
194815000 -24.115341 -134.6622 -0.10900867 -39.190338 -0.10825595 -39.19521 -24.044626 -124.23974
195814000 -24.063145 -134.86929 -0.11004135 -39.387665 -0.10876394 -39.389771 -23.990074 -124.33581
196813000 -24.00581 -135.18109 -0.10981303 -39.583759 -0.10873368 -39.586422 -23.909399 -124.46913
197812000 -23.943914 -135.3802 -0.11026943 -39.7813 -0.10917006 -39.780422 -23.838755 -124.57561
198811000 -23.891804 -135.56996 -0.10974506 -39.980198 -0.10880376 -39.983257 -23.766315 -124.75089
199810000 -23.823069 -135.90744 -0.11011516 -40.174156 -0.10893408 -40.168644 -23.687418 -124.83092
200809000 -23.761688 -136.17856 -0.11085652 -40.36871 -0.10922926 -40.373863 -23.614557 -125.02588
201808000 -23.705297 -136.35008 -0.11193586 -40.572311 -0.11083475 -40.576954 -23.548248 -125.06377
202807000 -23.648071 -136.71121 -0.11159774 -40.771835 -0.11049751 -40.775627 -23.485405 -125.30186
