!Keysight Technologies,E5080B,MY59205177,A.15.75.32
!Date: Friday, February 23, 2024 02:52:26
!Correction: S11(Cdelta 2-Port  ) 
!S21(Cdelta 2-Port  ) 
!S12(Cdelta 2-Port  ) 
!S22(Cdelta 2-Port  ) 
!S2P File: Measurements: S11, S21, S12, S22:
# Hz S  dB   R 50
10000000 -43.013626 -3.6158471 -0.035271395 -2.0464985 -0.0394505 -2.1021869 -49.936024 -143.26997
10999000 -42.424076 -5.263731 -0.03688658 -2.2613175 -0.038710784 -2.3157589 -49.451874 -133.90192
11998000 -41.719986 -7.4262486 -0.036685303 -2.4854138 -0.038355075 -2.5277379 -49.47747 -127.33434
12997000 -41.154957 -11.482421 -0.036065862 -2.6652005 -0.038337316 -2.7008755 -48.593845 -120.45747
13996000 -40.95406 -14.671046 -0.035356473 -2.8399611 -0.037603009 -2.8623316 -47.959064 -114.81358
14995000 -40.659206 -18.01438 -0.037767775 -3.0519183 -0.038184803 -3.0766959 -47.350529 -111.42023
15994000 -40.610249 -21.590534 -0.038141716 -3.2726119 -0.040176235 -3.2922065 -47.047073 -108.04833
16993000 -40.582687 -25.035616 -0.037780307 -3.4713457 -0.03961638 -3.4767833 -46.131851 -109.95649
17992000 -40.695415 -29.241306 -0.037843499 -3.66628 -0.041044507 -3.6681421 -45.49799 -111.18404
18991000 -40.967625 -33.109947 -0.039318584 -3.8772354 -0.041134663 -3.8775508 -44.66787 -111.34051
19990000 -40.879379 -37.529545 -0.041096773 -4.0865412 -0.042871501 -4.0803528 -43.991169 -114.0769
20989000 -40.815937 -40.565479 -0.043696906 -4.2931557 -0.044867177 -4.278985 -43.365013 -114.30883
21988000 -40.772732 -44.962055 -0.04421911 -4.4844031 -0.045925528 -4.4749098 -43.080261 -113.91034
22987000 -40.619789 -48.933647 -0.045333542 -4.6831965 -0.046801232 -4.678586 -42.752228 -113.8334
23986000 -40.695404 -52.562653 -0.044785053 -4.8786387 -0.045434512 -4.8772173 -42.693493 -113.8039
24985000 -40.46207 -55.108139 -0.046302266 -5.0850286 -0.045855418 -5.0834908 -42.368942 -111.51954
25984000 -40.218048 -57.366753 -0.046475209 -5.2976832 -0.046438839 -5.2989349 -41.967796 -110.54985
26983000 -39.971626 -59.173065 -0.047603831 -5.492702 -0.04730444 -5.512392 -41.852425 -109.74969
27982000 -39.86705 -60.268715 -0.048429351 -5.6925335 -0.049210258 -5.7255473 -41.486717 -108.28882
28981000 -39.873077 -61.60918 -0.047141932 -5.8898845 -0.049540937 -5.9189487 -41.218491 -107.91309
29980000 -39.509232 -63.357307 -0.047175426 -6.0819249 -0.049403477 -6.0914536 -40.858486 -107.31708
30979000 -39.161606 -62.974571 -0.045291953 -6.4387293 -0.045008153 -6.4323101 -40.350651 -108.58077
31978000 -38.969551 -64.045296 -0.044152949 -6.6336393 -0.045455698 -6.624867 -40.062653 -107.77143
32977000 -38.836922 -65.587585 -0.044018537 -6.844605 -0.045494676 -6.8383255 -39.830811 -108.1555
33976000 -38.716377 -66.831436 -0.0445651 -7.043025 -0.046299912 -7.0376945 -39.48016 -108.01389
34975000 -38.440254 -67.947632 -0.044748958 -7.2428198 -0.047065783 -7.2456293 -39.237907 -107.79832
35974000 -38.263264 -68.584198 -0.044065606 -7.4387584 -0.046716452 -7.4435353 -38.917187 -107.10947
36973000 -38.052708 -69.533089 -0.044158962 -7.6412044 -0.047614038 -7.640727 -38.60323 -106.43376
37972000 -37.899769 -69.624023 -0.04394035 -7.847208 -0.048017878 -7.8543205 -38.35746 -105.95447
38971000 -37.574928 -69.428062 -0.045083743 -8.0507088 -0.04779724 -8.0576954 -38.148632 -104.41976
39970000 -37.261597 -70.035355 -0.044243168 -8.2470989 -0.046708863 -8.2593241 -37.860947 -103.99826
40969000 -36.985767 -70.115677 -0.044013046 -8.4378147 -0.045737695 -8.4610329 -37.578194 -102.82249
41968000 -36.648071 -70.325714 -0.044082344 -8.6464462 -0.04717752 -8.6625614 -37.34967 -101.70669
42967000 -36.384438 -70.694717 -0.043660302 -8.8563261 -0.047191653 -8.8741913 -37.102562 -99.874763
43966000 -36.12709 -71.690102 -0.044773281 -9.0542421 -0.048713896 -9.0683889 -36.782261 -99.334816
44965000 -35.914143 -72.51622 -0.045286983 -9.2569952 -0.048678815 -9.2760897 -36.5793 -99.397133
45964000 -35.708912 -73.717224 -0.046352763 -9.4560089 -0.049731288 -9.477293 -36.328262 -99.221977
46963000 -35.579498 -75.626953 -0.046556581 -9.6521053 -0.050477602 -9.6747446 -36.144287 -99.718597
47962000 -35.429207 -77.270638 -0.048418093 -9.8514662 -0.050881449 -9.8704672 -35.929989 -100.06882
48961000 -35.260124 -78.76561 -0.050617974 -10.050596 -0.052800886 -10.069618 -35.716976 -100.3449
49960000 -35.054054 -80.223221 -0.05156666 -10.247699 -0.054390628 -10.270423 -35.565773 -100.59219
50959000 -34.844994 -81.621933 -0.052443236 -10.461152 -0.055837259 -10.473935 -35.39867 -101.07264
51958000 -34.6828 -82.885849 -0.054115672 -10.660557 -0.056625269 -10.669698 -35.224689 -101.64348
52957000 -34.487885 -84.040993 -0.055877902 -10.860305 -0.057645831 -10.867856 -35.047215 -101.57774
53956000 -34.336754 -84.855469 -0.057004247 -11.061928 -0.058548037 -11.064585 -34.923565 -101.63068
54955000 -34.169746 -85.461708 -0.05763324 -11.263969 -0.059154425 -11.260064 -34.760372 -101.71235
55954000 -34.013489 -86.363899 -0.058684211 -11.462479 -0.059915479 -11.461147 -34.641281 -101.47656
56953000 -33.915775 -86.453941 -0.058667943 -11.663406 -0.058961034 -11.651919 -34.586212 -101.86108
57952000 -33.745026 -87.108688 -0.060103141 -11.860522 -0.060529932 -11.852683 -34.467922 -102.04974
58951000 -33.636192 -87.558815 -0.060293693 -12.066517 -0.061084613 -12.042089 -34.314926 -102.08075
59950000 -33.517517 -88.038315 -0.061322995 -12.263441 -0.062095195 -12.240891 -34.260986 -102.40749
60949000 -33.417515 -88.596703 -0.061280988 -12.464711 -0.062438674 -12.443769 -34.160034 -102.73053
61948000 -33.365444 -88.878517 -0.062401645 -12.665833 -0.062154543 -12.643023 -34.07756 -102.86572
62947000 -33.268047 -89.195595 -0.062611997 -12.874599 -0.062670566 -12.857334 -33.935085 -103.20154
63946000 -33.201328 -89.873894 -0.063548595 -13.075853 -0.063711196 -13.053095 -33.821949 -103.36892
64945000 -33.103832 -90.093788 -0.064085275 -13.276102 -0.064085804 -13.252703 -33.716648 -103.95663
65944000 -33.008404 -90.503998 -0.065222688 -13.473545 -0.064998806 -13.459311 -33.632404 -104.44351
66943000 -32.871727 -90.954628 -0.063207924 -13.675932 -0.063769251 -13.659492 -33.528488 -104.71351
67942000 -32.808384 -90.889038 -0.065078951 -13.86992 -0.064982779 -13.858019 -33.410244 -105.01417
68941000 -32.691776 -91.016136 -0.064308845 -14.065442 -0.063890614 -14.056004 -33.300491 -105.0498
69940000 -32.600166 -91.017746 -0.064663276 -14.267456 -0.065357491 -14.252315 -33.16283 -105.39269
70939000 -32.493599 -91.045441 -0.065016679 -14.463289 -0.064812779 -14.455776 -33.029259 -105.2681
71938000 -32.362698 -90.661354 -0.064708725 -14.658903 -0.06422504 -14.650099 -32.879837 -105.24571
72937000 -32.180599 -90.549271 -0.063773714 -14.857046 -0.064473577 -14.847182 -32.740227 -104.98817
73936000 -32.047855 -90.281853 -0.063339777 -15.053272 -0.063429609 -15.045504 -32.625282 -104.84459
74935000 -31.925323 -90.576416 -0.063360266 -15.249897 -0.063261241 -15.244402 -32.458981 -104.50074
75934000 -31.806047 -90.861115 -0.063481614 -15.45614 -0.063036151 -15.450351 -32.367725 -104.4753
76933000 -31.669762 -91.359718 -0.064431012 -15.652581 -0.06486401 -15.644304 -32.214802 -104.89661
77932000 -31.581457 -92.067856 -0.066119112 -15.850207 -0.066510484 -15.838139 -32.101761 -104.90575
78931000 -31.517509 -92.84584 -0.064581558 -16.047562 -0.065561682 -16.039043 -32.009872 -104.84766
79930000 -31.406586 -93.648338 -0.067686126 -16.238417 -0.067832842 -16.238317 -31.915615 -105.13857
80929000 -31.293137 -94.693413 -0.068569914 -16.434731 -0.069475181 -16.431797 -31.809708 -105.51745
81928000 -31.211285 -95.545013 -0.068779245 -16.626858 -0.069875799 -16.622154 -31.691435 -105.62389
82927000 -31.131907 -96.27961 -0.070750818 -16.826714 -0.071136557 -16.826303 -31.584642 -106.00791
83926000 -31.023823 -97.024811 -0.072521918 -17.023767 -0.071932353 -17.019638 -31.476122 -106.34602
84925000 -30.926517 -97.533997 -0.072910711 -17.221861 -0.072392948 -17.218245 -31.376114 -106.37848
85924000 -30.830696 -98.058113 -0.073631003 -17.420578 -0.073457234 -17.423523 -31.292816 -106.40161
86923000 -30.738155 -98.645462 -0.074153922 -17.618517 -0.074534953 -17.612909 -31.194401 -106.40914
87922000 -30.632982 -99.043961 -0.073464341 -17.825272 -0.074146017 -17.815453 -31.107655 -106.41783
88921000 -30.559422 -99.334206 -0.074629761 -18.026155 -0.074555233 -18.017693 -31.006168 -106.51174
89920000 -30.465168 -100.00078 -0.076492019 -18.223845 -0.075529441 -18.214806 -30.960197 -106.66968
90919000 -30.362696 -100.33069 -0.077351511 -18.420635 -0.076523103 -18.415405 -30.867426 -106.90195
91918000 -30.277912 -100.69425 -0.077476412 -18.618118 -0.07636819 -18.612968 -30.797766 -106.91842
92917000 -30.189507 -101.08069 -0.078826629 -18.820498 -0.078117341 -18.813868 -30.74147 -107.07713
93916000 -30.104149 -101.43646 -0.078233041 -19.010782 -0.077465609 -19.005966 -30.654432 -107.76101
94915000 -30.028355 -102.10515 -0.079711631 -19.213261 -0.078302622 -19.205223 -30.587751 -107.56927
95914000 -29.968184 -102.34323 -0.08031518 -19.407541 -0.079968698 -19.402473 -30.504566 -107.94508
96913000 -29.885828 -102.61911 -0.08121077 -19.608442 -0.081176214 -19.604408 -30.430071 -108.3117
97912000 -29.807453 -103.08834 -0.083047092 -19.801996 -0.080887429 -19.803087 -30.354818 -108.53567
98911000 -29.7101 -103.28276 -0.083237596 -20.005276 -0.082772948 -20.002274 -30.307886 -108.76061
99910000 -29.635351 -103.4167 -0.083525226 -20.202818 -0.082994319 -20.202818 -30.210722 -109.06281
100909000 -29.549606 -103.73231 -0.082932837 -20.409019 -0.08240702 -20.403732 -30.109735 -109.28091
101908000 -29.465193 -103.9755 -0.083713643 -20.615284 -0.083939813 -20.60677 -29.999624 -109.00072
102907000 -29.324259 -104.01527 -0.084707335 -20.808575 -0.08351256 -20.809246 -29.935085 -108.97896
103906000 -29.231455 -104.11102 -0.085513011 -21.019234 -0.082932837 -21.010061 -29.776012 -108.96102
104905000 -29.085699 -104.09299 -0.086192086 -21.214132 -0.084389806 -21.212009 -29.643126 -108.66132
105904000 -28.941002 -104.18713 -0.086093865 -21.413853 -0.08337824 -21.410242 -29.528234 -108.53388
106903000 -28.834862 -104.27769 -0.085676171 -21.622478 -0.084400624 -21.61224 -29.395889 -108.50744
107902000 -28.672911 -104.68191 -0.086188652 -21.823061 -0.084505148 -21.810923 -29.250446 -108.44899
108901000 -28.561836 -104.95739 -0.087389447 -22.018219 -0.085713133 -22.018196 -29.117001 -108.40673
109900000 -28.437983 -105.43745 -0.088293098 -22.22262 -0.0872043 -22.214294 -28.973301 -108.5384
110899000 -28.3174 -106.12558 -0.089554459 -22.415564 -0.087389447 -22.412401 -28.837328 -108.82851
111898000 -28.239534 -106.77798 -0.090634599 -22.620598 -0.088908412 -22.613779 -28.72154 -109.00966
112897000 -28.107916 -107.39202 -0.092449792 -22.819204 -0.090149596 -22.806389 -28.585756 -109.21117
113896000 -28.008272 -108.01683 -0.093765788 -23.020336 -0.091184944 -23.007271 -28.477167 -109.40857
114895000 -27.914434 -108.67239 -0.094730295 -23.219921 -0.092250943 -23.20393 -28.363783 -109.49882
115894000 -27.786064 -109.0248 -0.095790811 -23.41634 -0.093733519 -23.404388 -28.295752 -109.71465
116893000 -27.702183 -109.67924 -0.09644001 -23.61347 -0.094473407 -23.594055 -28.163864 -109.91599
117892000 -27.625692 -110.17279 -0.09584295 -23.811316 -0.094893269 -23.796131 -28.092531 -110.11259
118891000 -27.569399 -110.58028 -0.097385786 -24.013229 -0.095992468 -23.992519 -27.998163 -110.28177
119890000 -27.477751 -111.01311 -0.098048456 -24.212397 -0.096059687 -24.196295 -27.982004 -110.41817
120889000 -27.428694 -111.54652 -0.099153481 -24.414978 -0.096545346 -24.394857 -27.909119 -110.39714
121888000 -27.386862 -111.8753 -0.098876998 -24.609941 -0.097370431 -24.593498 -27.852964 -110.77195
122887000 -27.346094 -112.11105 -0.099670209 -24.81237 -0.097241245 -24.797209 -27.8002 -110.76047
123886000 -27.293276 -112.4829 -0.10035972 -25.014036 -0.097936191 -24.99505 -27.787764 -110.95129
124885000 -27.257698 -113.0063 -0.10035787 -25.211391 -0.098013505 -25.196642 -27.761614 -111.01736
125884000 -27.205036 -113.23895 -0.1014028 -25.410204 -0.098338917 -25.396025 -27.732096 -111.18832
126883000 -27.186001 -113.63759 -0.10144228 -25.613522 -0.099447459 -25.59832 -27.6903 -111.24006
127882000 -27.134401 -113.90028 -0.10222086 -25.812536 -0.099760532 -25.795467 -27.646597 -111.4641
128881000 -27.102249 -114.24982 -0.10221078 -26.012346 -0.09989509 -25.994209 -27.606163 -111.51567
129880000 -27.052526 -114.57632 -0.1030107 -26.214941 -0.099780664 -26.196724 -27.559877 -111.52441
130879000 -26.995193 -114.71443 -0.10293356 -26.415249 -0.10090785 -26.39731 -27.484497 -111.57345
131878000 -26.922016 -114.98174 -0.10300752 -26.615906 -0.10125653 -26.596125 -27.420073 -111.5192
132877000 -26.855398 -115.03312 -0.10358012 -26.818201 -0.10145447 -26.799561 -27.335234 -111.50013
133876000 -26.765539 -115.23463 -0.10330626 -27.018414 -0.10081407 -26.99506 -27.244873 -111.43203
134875000 -26.676596 -115.31245 -0.103464 -27.21434 -0.10161532 -27.197411 -27.136038 -111.2822
135874000 -26.588722 -115.36068 -0.10344968 -27.419567 -0.10180823 -27.397787 -27.031605 -111.28899
136873000 -26.482996 -115.31418 -0.10380732 -27.623423 -0.10114843 -27.603586 -26.947189 -111.28299
137872000 -26.399372 -115.46811 -0.10422305 -27.821295 -0.10143778 -27.80608 -26.837423 -111.24337
138871000 -26.323128 -115.65733 -0.10477193 -28.018866 -0.10196088 -28.008221 -26.738201 -111.4035
139870000 -26.219248 -115.9325 -0.10482603 -28.222181 -0.10339586 -28.202801 -26.663202 -111.59559
140869000 -26.134668 -116.40363 -0.10719291 -28.41692 -0.10468257 -28.400467 -26.550013 -111.71929
141868000 -26.043165 -116.87911 -0.10729374 -28.609201 -0.10592005 -28.59133 -26.481068 -112.09372
142867000 -25.964701 -117.12473 -0.10549408 -28.805428 -0.1043246 -28.79002 -26.405907 -112.27895
143866000 -25.894619 -117.67339 -0.10761056 -29.003469 -0.10587364 -28.987717 -26.332796 -112.81268
144865000 -25.844875 -118.19461 -0.10947109 -29.201321 -0.10709474 -29.186016 -26.273769 -113.13084
145864000 -25.789618 -118.5323 -0.10979152 -29.404316 -0.10875147 -29.390448 -26.240084 -113.40386
146863000 -25.74835 -118.92712 -0.11023809 -29.600941 -0.10862672 -29.588673 -26.186728 -113.73701
147862000 -25.702127 -119.3216 -0.11093991 -29.798853 -0.10926403 -29.787241 -26.157612 -114.11787
148861000 -25.666964 -119.83455 -0.11110853 -29.99646 -0.11021473 -29.982311 -26.132563 -114.37547
149860000 -25.652958 -120.04085 -0.11226869 -30.195536 -0.10993303 -30.186878 -26.101833 -114.54283
150859000 -25.637419 -120.42847 -0.11242091 -30.390697 -0.11022508 -30.382042 -26.096319 -114.78267
151858000 -25.616383 -120.71194 -0.11187503 -30.593607 -0.11080978 -30.581343 -26.083435 -115.07578
152857000 -25.597975 -121.12871 -0.1132243 -30.791323 -0.11150452 -30.783018 -26.071846 -115.23373
153856000 -25.591669 -121.26733 -0.11291929 -30.991755 -0.11013561 -30.974426 -26.088324 -115.51075
154855000 -25.58861 -121.44022 -0.11314353 -31.18594 -0.11076358 -31.173582 -26.077831 -115.71929
155854000 -25.598978 -121.67654 -0.11375201 -31.391115 -0.11077049 -31.379036 -26.066797 -116.02542
156853000 -25.582045 -122.37535 -0.11160438 -31.574808 -0.11069401 -31.570213 -26.063431 -116.3367
157852000 -25.588774 -122.62604 -0.1132227 -31.77696 -0.1126252 -31.767448 -26.052893 -116.6916
158851000 -25.581999 -122.85732 -0.11326788 -31.974415 -0.11276201 -31.966436 -26.035915 -116.91626
159850000 -25.566504 -122.97351 -0.1140592 -32.170185 -0.11263821 -32.16346 -26.036512 -117.11208
160849000 -25.549732 -123.07799 -0.11402997 -32.371296 -0.11376476 -32.36829 -26.006544 -117.38962
161848000 -25.522518 -123.20972 -0.1143821 -32.573181 -0.11376848 -32.562618 -25.964277 -117.49531
162847000 -25.483635 -123.40916 -0.11499155 -32.771984 -0.11390135 -32.763813 -25.933582 -117.73969
163846000 -25.442438 -123.61763 -0.11522625 -32.971626 -0.11406239 -32.962334 -25.851082 -117.74055
164845000 -25.379198 -123.63911 -0.11535013 -33.170662 -0.11409959 -33.162186 -25.786186 -117.84589
165844000 -25.31913 -123.72826 -0.11551973 -33.369453 -0.1141841 -33.363312 -25.702484 -117.96723
166843000 -25.258249 -123.80169 -0.11604267 -33.568275 -0.11447565 -33.559868 -25.634333 -118.15886
167842000 -25.198896 -123.94347 -0.11523715 -33.766571 -0.11522546 -33.758934 -25.550192 -118.09888
168841000 -25.118961 -124.12631 -0.11638432 -33.964344 -0.11543015 -33.966064 -25.47031 -118.20018
169840000 -25.048536 -124.39236 -0.1168696 -34.156761 -0.11662549 -34.156258 -25.382965 -118.3828
170839000 -24.993845 -124.65781 -0.11700629 -34.356724 -0.11647978 -34.353519 -25.299662 -118.59059
171838000 -24.936838 -125.13416 -0.11666936 -34.556408 -0.11755679 -34.54858 -25.230902 -118.83401
172837000 -24.866686 -125.51344 -0.11806002 -34.752201 -0.11822281 -34.747581 -25.161776 -119.06403
173836000 -24.804022 -125.92963 -0.11961689 -34.952282 -0.1195956 -34.948315 -25.114511 -119.33163
174835000 -24.746084 -126.35492 -0.12021404 -35.145226 -0.12028376 -35.147297 -25.07139 -119.65633
175834000 -24.696154 -126.7577 -0.12081499 -35.345139 -0.12039926 -35.339554 -25.009453 -119.9826
176833000 -24.645468 -127.15388 -0.12199664 -35.542328 -0.12141948 -35.540615 -24.956177 -120.14928
177832000 -24.600948 -127.64918 -0.12254405 -35.738792 -0.12196603 -35.740524 -24.935648 -120.32507
178831000 -24.561626 -127.99502 -0.12214653 -35.938274 -0.12265402 -35.935101 -24.901291 -120.58677
179830000 -24.525316 -128.4389 -0.12281778 -36.130695 -0.12319034 -36.131767 -24.880409 -120.71074
180829000 -24.491783 -128.68069 -0.12331311 -36.330811 -0.12336983 -36.32938 -24.844025 -120.90617
181828000 -24.466421 -129.07686 -0.12370274 -36.529385 -0.12367291 -36.523209 -24.825569 -121.01476
182827000 -24.441168 -129.42937 -0.1238415 -36.726051 -0.12395258 -36.722584 -24.815536 -121.12495
183826000 -24.403913 -129.7393 -0.12524565 -36.924919 -0.12393206 -36.91917 -24.807003 -121.22778
184825000 -24.40583 -130.04027 -0.12441552 -37.115101 -0.12441313 -37.115417 -24.788855 -121.31676
185824000 -24.381271 -130.43192 -0.1242477 -37.310703 -0.12408442 -37.31469 -24.781622 -121.377
186823000 -24.363634 -130.75281 -0.1245346 -37.509727 -0.12461159 -37.51395 -24.783371 -121.36316
187822000 -24.347847 -131.10661 -0.12587394 -37.70784 -0.12551102 -37.706009 -24.751621 -121.43731
188821000 -24.322235 -131.32234 -0.12499734 -37.900455 -0.12551954 -37.906246 -24.734016 -121.55345
189820000 -24.311794 -131.61261 -0.1260834 -38.103718 -0.12571593 -38.103844 -24.722065 -121.69597
190819000 -24.281147 -131.86028 -0.12769033 -38.304253 -0.12686799 -38.29966 -24.691841 -121.65204
191818000 -24.24313 -132.04568 -0.12843283 -38.495445 -0.12773165 -38.499023 -24.6598 -121.53156
192817000 -24.173328 -132.31773 -0.12885493 -38.681591 -0.12835765 -38.68343 -24.585754 -121.61169
193816000 -24.139643 -132.67603 -0.1276682 -38.873016 -0.12767488 -38.874542 -24.530817 -121.85589
194815000 -24.080536 -133.11827 -0.12747334 -39.071838 -0.1276866 -39.073643 -24.466953 -121.99239
195814000 -24.027252 -133.34647 -0.12860401 -39.270004 -0.12760502 -39.271076 -24.409851 -122.13195
196813000 -23.97657 -133.69972 -0.12813555 -39.466461 -0.12805024 -39.467953 -24.330093 -122.2872
197812000 -23.91847 -133.92816 -0.1283379 -39.661438 -0.12807477 -39.662037 -24.265892 -122.37549
198811000 -23.869192 -134.12405 -0.12863015 -39.86256 -0.12753598 -39.860722 -24.19035 -122.54767
199810000 -23.79434 -134.48135 -0.12869947 -40.051838 -0.12767033 -40.050339 -24.112324 -122.66054
200809000 -23.740513 -134.78546 -0.12873679 -40.251438 -0.12794973 -40.254398 -24.033173 -122.89419
201808000 -23.677605 -135.04286 -0.12916452 -40.453129 -0.12890932 -40.454018 -23.96302 -122.96659
202807000 -23.622171 -135.38977 -0.13048823 -40.652626 -0.12972617 -40.655975 -23.907516 -123.18041
203806000 -23.569323 -135.86127 -0.13180541 -40.850136 -0.1297107 -40.852764 -23.842283 -123.35375
