!Keysight Technologies,E5080B,MY59205177,A.15.75.32
!Date: Friday, February 23, 2024 03:30:40
!Correction: S11(Cdelta 2-Port  ) 
!S21(Cdelta 2-Port  ) 
!S12(Cdelta 2-Port  ) 
!S22(Cdelta 2-Port  ) 
!S2P File: Measurements: S11, S21, S12, S22:
# Hz S  dB   R 50
10000000 -46.042149 -2.2240012 -0.015360946 -2.0508773 -0.019092945 -2.1060431 -46.011494 -158.6389
10999000 -45.269772 -3.7274098 -0.016563101 -2.2683144 -0.018753918 -2.3178592 -45.949135 -151.66811
11998000 -44.338814 -7.2135696 -0.016783977 -2.4927599 -0.018263103 -2.5361691 -46.153625 -147.60165
12997000 -43.572842 -12.814778 -0.016640017 -2.6726618 -0.017925961 -2.7085102 -45.808601 -141.7737
13996000 -43.280704 -16.497667 -0.014870775 -2.8521483 -0.017639266 -2.8768883 -45.589817 -136.61844
14995000 -42.878944 -20.904547 -0.017601321 -3.0661373 -0.018334851 -3.0884542 -45.285992 -133.04471
15994000 -42.734829 -25.013239 -0.019475942 -3.2856803 -0.020051152 -3.3067374 -45.180397 -129.85617
16993000 -42.666981 -29.488054 -0.017947275 -3.4828916 -0.019417178 -3.4873579 -44.324162 -129.60498
17992000 -42.730293 -35.064251 -0.019338392 -3.680362 -0.020165319 -3.6813421 -43.816368 -129.24586
18991000 -42.982002 -40.411457 -0.018999865 -3.8917608 -0.021030638 -3.8877053 -43.107246 -128.25323
19990000 -42.761997 -45.95306 -0.022085538 -4.1010404 -0.022882542 -4.0948691 -42.4324 -129.09138
20989000 -42.609234 -49.555531 -0.023442846 -4.3036456 -0.024931533 -4.292881 -41.925426 -128.41225
21988000 -42.455631 -54.457134 -0.024411906 -4.5014248 -0.025950924 -4.4885974 -41.698864 -127.63866
22987000 -42.157066 -59.157436 -0.02552413 -4.7054925 -0.02701926 -4.6909966 -41.403923 -127.12939
23986000 -42.058918 -63.532494 -0.025282238 -4.8968425 -0.026550692 -4.8982658 -41.305653 -126.97744
24985000 -41.706383 -66.066917 -0.026233217 -5.1075878 -0.026089463 -5.1001773 -41.065723 -124.29237
25984000 -41.372337 -68.293488 -0.027889075 -5.308692 -0.026621273 -5.3098793 -40.744633 -122.96003
26983000 -41.041286 -70.296616 -0.028471913 -5.5126777 -0.027446721 -5.5281606 -40.658493 -122.36075
27982000 -40.870533 -71.07486 -0.029455386 -5.7097211 -0.029578922 -5.7460518 -40.359222 -120.7317
28981000 -40.863529 -72.969269 -0.027836708 -5.9092135 -0.029243767 -5.9310174 -40.133114 -119.7803
29980000 -40.461906 -74.150711 -0.02797531 -6.1061921 -0.029895337 -6.1144571 -39.890118 -119.11858
30979000 -40.05357 -73.063126 -0.025676979 -6.4594221 -0.023922013 -6.4537439 -39.380096 -119.54414
31978000 -39.841976 -74.074936 -0.025148669 -6.6542869 -0.02546997 -6.6450324 -39.142715 -118.91251
32977000 -39.6535 -75.705681 -0.02430049 -6.8671055 -0.026020452 -6.862041 -38.890568 -118.86084
33976000 -39.476532 -76.9244 -0.025650678 -7.065834 -0.026362913 -7.0621276 -38.59436 -118.25881
34975000 -39.18103 -77.4916 -0.025759785 -7.2667451 -0.02745115 -7.2668447 -38.383991 -117.88828
35974000 -38.979298 -78.122437 -0.024969805 -7.4631395 -0.027034368 -7.4656434 -38.119129 -116.91127
36973000 -38.74147 -78.86232 -0.025841812 -7.6634936 -0.027840095 -7.6665158 -37.814892 -115.9887
37972000 -38.582775 -78.67907 -0.025643649 -7.8695278 -0.02781222 -7.8816228 -37.621658 -115.26892
38971000 -38.245331 -78.014351 -0.025985818 -8.0759745 -0.027804144 -8.087039 -37.457279 -113.56877
39970000 -37.918186 -78.387024 -0.023690101 -8.2693977 -0.026840579 -8.288044 -37.187424 -113.05357
40969000 -37.609402 -78.138367 -0.024542587 -8.4671841 -0.026250405 -8.4863329 -36.939941 -111.57256
41968000 -37.262932 -77.958519 -0.02465505 -8.6744623 -0.027019782 -8.6911488 -36.755295 -110.31665
42967000 -37.00737 -78.025169 -0.025162989 -8.8786802 -0.027310221 -8.8993807 -36.538132 -108.43716
43966000 -36.725315 -78.647652 -0.025783481 -9.0850964 -0.028439082 -9.0999346 -36.270638 -107.64481
44965000 -36.469929 -79.393471 -0.026691334 -9.2870131 -0.028875804 -9.3076038 -36.063599 -107.46728
45964000 -36.243649 -80.460258 -0.027794763 -9.4824982 -0.030151563 -9.5048933 -35.821606 -107.06346
46963000 -36.045288 -82.379173 -0.027870055 -9.6818962 -0.030407801 -9.7061644 -35.643753 -107.38866
47962000 -35.896687 -83.881897 -0.029517414 -9.8819714 -0.032031089 -9.9002972 -35.442356 -107.37686
48961000 -35.670628 -85.346062 -0.03129524 -10.079898 -0.033425942 -10.103505 -35.214916 -107.51675
49960000 -35.435944 -86.564301 -0.032505207 -10.281783 -0.035170924 -10.303243 -35.08979 -107.5076
50959000 -35.230461 -87.876442 -0.033187002 -10.494833 -0.035957541 -10.505771 -34.90118 -107.83296
51958000 -35.02422 -88.895409 -0.035403188 -10.692886 -0.036814526 -10.70403 -34.722031 -108.26464
52957000 -34.810085 -89.958733 -0.036555562 -10.895576 -0.038048226 -10.90255 -34.570454 -108.00476
53956000 -34.633175 -90.719757 -0.038065203 -11.095979 -0.039126597 -11.100636 -34.426102 -107.98195
54955000 -34.454033 -91.191338 -0.038621463 -11.297712 -0.040038813 -11.294287 -34.28244 -107.89626
55954000 -34.300789 -92.012115 -0.039647207 -11.500364 -0.040398054 -11.497108 -34.16563 -107.58699
56953000 -34.180439 -92.116104 -0.039672285 -11.696328 -0.039693184 -11.684655 -34.090748 -107.93212
57952000 -34.012321 -92.663795 -0.040509623 -11.896913 -0.040782154 -11.888669 -33.99313 -107.96782
58951000 -33.888401 -93.029945 -0.041414287 -12.098344 -0.042052526 -12.082287 -33.843651 -107.97094
59950000 -33.769615 -93.321098 -0.04198483 -12.299932 -0.041889429 -12.279183 -33.773693 -108.3391
60949000 -33.646183 -93.976173 -0.042676482 -12.506259 -0.043510217 -12.481452 -33.675854 -108.47674
61948000 -33.584724 -94.225906 -0.043705013 -12.703304 -0.042272873 -12.683692 -33.588509 -108.608
62947000 -33.500408 -94.455498 -0.043394912 -12.918829 -0.043866348 -12.892733 -33.455402 -108.88783
63946000 -33.434643 -95.191063 -0.044471998 -13.115294 -0.044917393 -13.095438 -33.349731 -109.10055
64945000 -33.308697 -95.420418 -0.044984873 -13.314988 -0.044560131 -13.29642 -33.229622 -109.51849
65944000 -33.219494 -95.61412 -0.045724876 -13.515698 -0.045503307 -13.500284 -33.138435 -109.97829
66943000 -33.069241 -96.051048 -0.044173084 -13.715566 -0.043398835 -13.700894 -33.038383 -110.25788
67942000 -33.010353 -95.989037 -0.046222992 -13.913327 -0.04515855 -13.902322 -32.916046 -110.49922
68941000 -32.906853 -96.104797 -0.045105454 -14.109675 -0.044416554 -14.099253 -32.805149 -110.43414
69940000 -32.793865 -96.062279 -0.045410447 -14.307797 -0.045811467 -14.299907 -32.662312 -110.73856
70939000 -32.694801 -96.005775 -0.045340344 -14.503089 -0.046009246 -14.501646 -32.542377 -110.6188
71938000 -32.536175 -95.548592 -0.045503046 -14.703135 -0.045216881 -14.689227 -32.397305 -110.45239
72937000 -32.39225 -95.363365 -0.045345835 -14.894662 -0.044966042 -14.897161 -32.266102 -110.07785
73936000 -32.256054 -94.966507 -0.044946428 -15.099204 -0.043853015 -15.094447 -32.147301 -110.01173
74935000 -32.128262 -95.223061 -0.043595456 -15.295531 -0.044077374 -15.294221 -31.983835 -109.58614
75934000 -31.994171 -95.532486 -0.044282656 -15.504712 -0.043238301 -15.49869 -31.907545 -109.54094
76933000 -31.864967 -95.807533 -0.045386903 -15.698927 -0.045150179 -15.689763 -31.733599 -109.88162
77932000 -31.772635 -96.559898 -0.04693573 -15.897173 -0.047157895 -15.888571 -31.627323 -109.79456
78931000 -31.689135 -97.277306 -0.045734033 -16.096773 -0.045901723 -16.092308 -31.533751 -109.64288
79930000 -31.583042 -98.151596 -0.048361816 -16.286356 -0.048267059 -16.288006 -31.425966 -109.95022
80929000 -31.461035 -98.93663 -0.049618438 -16.487957 -0.049547743 -16.483208 -31.321884 -110.26852
81928000 -31.35721 -99.674683 -0.050277263 -16.675774 -0.049984235 -16.677341 -31.198263 -110.2549
82927000 -31.271566 -100.43348 -0.051944409 -16.874367 -0.051700257 -16.87608 -31.095766 -110.51489
83926000 -31.152393 -101.20199 -0.053260244 -17.073591 -0.052385334 -17.075169 -30.968311 -110.69868
84925000 -31.043447 -101.54039 -0.054586962 -17.274609 -0.052447692 -17.269695 -30.877813 -110.74522
85924000 -30.950344 -101.99581 -0.054560751 -17.473961 -0.05431645 -17.473511 -30.785149 -110.74335
86923000 -30.851675 -102.47885 -0.054678712 -17.676435 -0.05398095 -17.666939 -30.676455 -110.57805
87922000 -30.729084 -102.84753 -0.054843601 -17.877987 -0.054532178 -17.87273 -30.591293 -110.57032
88921000 -30.644279 -103.1404 -0.056493357 -18.07999 -0.055259388 -18.074242 -30.492809 -110.66544
89920000 -30.542213 -103.5985 -0.057141948 -18.279186 -0.055653192 -18.275885 -30.44202 -110.72895
90919000 -30.447491 -103.86368 -0.057720594 -18.47583 -0.05659065 -18.47422 -30.354111 -110.89509
91918000 -30.349695 -104.21507 -0.057777256 -18.676212 -0.056685328 -18.670683 -30.291584 -111.00094
92917000 -30.256702 -104.60158 -0.059742 -18.877787 -0.058135346 -18.870983 -30.218515 -111.06441
93916000 -30.16398 -104.89027 -0.058654562 -19.0695 -0.058168665 -19.062927 -30.126003 -111.65063
94915000 -30.091848 -105.53463 -0.060575079 -19.271622 -0.059669305 -19.266567 -30.068569 -111.50726
95914000 -30.016071 -105.74828 -0.061664049 -19.465597 -0.060350917 -19.461241 -29.977045 -111.78141
96913000 -29.930077 -106.02008 -0.062540568 -19.663849 -0.061230056 -19.665464 -29.911642 -112.07869
97912000 -29.849478 -106.44427 -0.063335836 -19.862898 -0.061280988 -19.863316 -29.828674 -112.35497
98911000 -29.748112 -106.57738 -0.064102612 -20.063345 -0.062925316 -20.064085 -29.789766 -112.53915
99910000 -29.672691 -106.684 -0.065174602 -20.261 -0.063524172 -20.261316 -29.681452 -112.847
100909000 -29.581078 -106.96328 -0.064071879 -20.473644 -0.062499601 -20.466936 -29.594904 -113.07283
101908000 -29.488382 -107.18046 -0.065721989 -20.67314 -0.063136481 -20.670185 -29.480783 -112.84708
102907000 -29.362349 -107.21342 -0.065889142 -20.875444 -0.063977569 -20.869602 -29.409235 -112.79482
103906000 -29.261166 -107.22409 -0.066369593 -21.081236 -0.064336956 -21.072069 -29.263653 -112.7114
104905000 -29.110846 -107.09844 -0.06640061 -21.274319 -0.06412337 -21.275925 -29.135647 -112.45712
105904000 -28.98033 -107.19212 -0.066805683 -21.478424 -0.063571453 -21.471407 -29.023264 -112.31476
106903000 -28.861013 -107.25595 -0.067073554 -21.6814 -0.065055825 -21.677794 -28.899866 -112.11609
107902000 -28.705996 -107.54719 -0.0683669 -21.885515 -0.065564051 -21.878839 -28.759977 -112.11902
108901000 -28.592352 -107.79507 -0.068846837 -22.093 -0.066653483 -22.08341 -28.634556 -112.10143
109900000 -28.459078 -108.26102 -0.06949228 -22.288641 -0.067925662 -22.281685 -28.481743 -112.11182
110899000 -28.337318 -108.91688 -0.071366541 -22.485775 -0.068620406 -22.480623 -28.358356 -112.42439
111898000 -28.254929 -109.54185 -0.072251603 -22.689045 -0.069949456 -22.684666 -28.238102 -112.58291
112897000 -28.127136 -110.14868 -0.07349778 -22.888035 -0.070664786 -22.878279 -28.098255 -112.74395
113896000 -28.026184 -110.7151 -0.075116977 -23.087568 -0.071978405 -23.076553 -27.995508 -112.84756
114895000 -27.926126 -111.31543 -0.076306023 -23.286791 -0.073260836 -23.273478 -27.881771 -112.89761
115894000 -27.801212 -111.72274 -0.077389978 -23.490309 -0.074775919 -23.476545 -27.814123 -113.13862
116893000 -27.726156 -112.16897 -0.078366935 -23.685276 -0.076106593 -23.66794 -27.691652 -113.19594
117892000 -27.640308 -112.67635 -0.077798709 -23.881596 -0.076128721 -23.872175 -27.621262 -113.42926
118891000 -27.592129 -113.08791 -0.078385383 -24.08082 -0.076321036 -24.065634 -27.526789 -113.51353
119890000 -27.499685 -113.45292 -0.079294816 -24.282982 -0.07751067 -24.269985 -27.51206 -113.64967
120889000 -27.451918 -113.9352 -0.079867981 -24.489281 -0.076421939 -24.471088 -27.436069 -113.57647
121888000 -27.414944 -114.31618 -0.080829404 -24.680536 -0.078361139 -24.667652 -27.384272 -113.87652
122887000 -27.369467 -114.52592 -0.081227645 -24.88382 -0.078405418 -24.87134 -27.32996 -113.84179
123886000 -27.316051 -114.93662 -0.082064331 -25.085064 -0.079013795 -25.068174 -27.317844 -114.03918
124885000 -27.281834 -115.42641 -0.08208517 -25.286959 -0.079357028 -25.274841 -27.284388 -114.08244
125884000 -27.227938 -115.63539 -0.082855798 -25.482811 -0.07891731 -25.469706 -27.267 -114.16133
126883000 -27.214355 -115.97066 -0.083381675 -25.689936 -0.080307268 -25.675203 -27.225292 -114.23215
127882000 -27.162153 -116.33224 -0.083569825 -25.886543 -0.080697283 -25.872681 -27.182396 -114.34365
128881000 -27.129133 -116.63808 -0.083621547 -26.08927 -0.081162237 -26.072044 -27.143465 -114.45364
129880000 -27.077374 -116.93527 -0.084719472 -26.29306 -0.08111582 -26.272238 -27.103788 -114.39431
130879000 -27.017429 -117.12173 -0.084269449 -26.490868 -0.082002342 -26.476086 -27.034578 -114.39202
131878000 -26.95273 -117.30787 -0.084183142 -26.695679 -0.082283817 -26.678286 -26.966064 -114.30614
132877000 -26.886076 -117.41373 -0.08346691 -26.895926 -0.081940874 -26.880077 -26.892818 -114.26608
133876000 -26.802013 -117.54166 -0.084603861 -27.09725 -0.082122371 -27.07835 -26.803965 -114.15146
134875000 -26.702696 -117.6555 -0.085082166 -27.30114 -0.082791686 -27.283407 -26.705051 -113.96061
135874000 -26.630075 -117.72938 -0.084815294 -27.500591 -0.082978748 -27.482817 -26.604586 -113.95293
136873000 -26.507507 -117.6562 -0.085634716 -27.703123 -0.082433403 -27.683344 -26.523117 -113.89937
137872000 -26.431328 -117.77251 -0.085527264 -27.90023 -0.083040491 -27.88925 -26.418518 -113.81496
138871000 -26.35507 -117.95834 -0.086389601 -28.101437 -0.083213061 -28.084782 -26.323219 -113.97163
139870000 -26.253075 -118.2556 -0.087071195 -28.303804 -0.084325403 -28.284378 -26.241039 -114.16442
140869000 -26.177433 -118.77798 -0.08790689 -28.498192 -0.084403791 -28.480547 -26.139183 -114.36933
141868000 -26.096525 -119.19825 -0.088138826 -28.699636 -0.086247012 -28.683449 -26.091341 -114.63361
142867000 -26.018253 -119.37977 -0.087259769 -28.896858 -0.085324511 -28.880619 -26.010355 -114.70091
143866000 -25.946953 -119.85955 -0.089168936 -29.093075 -0.087170757 -29.078657 -25.936861 -115.1958
144865000 -25.885525 -120.41546 -0.090670548 -29.295399 -0.088033423 -29.27668 -25.884502 -115.4818
145864000 -25.831404 -120.70868 -0.090935141 -29.493044 -0.089935265 -29.483601 -25.84691 -115.77605
146863000 -25.789846 -121.09406 -0.092076696 -29.694643 -0.090319276 -29.68125 -25.793428 -116.03594
147862000 -25.749886 -121.40976 -0.093284145 -29.891842 -0.090698831 -29.878485 -25.765965 -116.37238
148861000 -25.70973 -121.83437 -0.093913384 -30.087994 -0.091536015 -30.072525 -25.744291 -116.56577
149860000 -25.678272 -122.02669 -0.094935074 -30.284609 -0.091900602 -30.275091 -25.683487 -116.61898
150859000 -25.658657 -122.49849 -0.094728708 -30.482759 -0.092109218 -30.467371 -25.665722 -116.96478
151858000 -25.647474 -122.8365 -0.094049618 -30.682457 -0.091851428 -30.665808 -25.654808 -117.31705
152857000 -25.628733 -123.18692 -0.094122887 -30.87977 -0.09221366 -30.8671 -25.641998 -117.482
153856000 -25.631187 -123.38631 -0.093798585 -31.082098 -0.091548711 -31.069489 -25.655094 -117.81165
154855000 -25.625265 -123.55464 -0.094816543 -31.279501 -0.091696233 -31.269665 -25.646175 -118.056
155854000 -25.637232 -123.81208 -0.095289625 -31.482496 -0.092244864 -31.464958 -25.640427 -118.34359
156853000 -25.625652 -124.52189 -0.092748605 -31.667486 -0.091832653 -31.660454 -25.637999 -118.64205
157852000 -25.638552 -124.74305 -0.093993798 -31.868185 -0.093147412 -31.862984 -25.626394 -118.9784
158851000 -25.629532 -124.97577 -0.094794326 -32.070076 -0.093515836 -32.058208 -25.612177 -119.25237
159850000 -25.620117 -125.06407 -0.095692635 -32.268578 -0.09381181 -32.261288 -25.61005 -119.41903
160849000 -25.599068 -125.15337 -0.095612459 -32.465355 -0.094863638 -32.46101 -25.585243 -119.74889
161848000 -25.583473 -125.23876 -0.095879734 -32.670658 -0.094817601 -32.66066 -25.542831 -119.86641
162847000 -25.542252 -125.40091 -0.095785521 -32.867329 -0.095324554 -32.861561 -25.511438 -120.08717
163846000 -25.506178 -125.57998 -0.095733657 -33.067352 -0.09492185 -33.057156 -25.437943 -120.09932
164845000 -25.444952 -125.57349 -0.096662335 -33.26593 -0.095378801 -33.260849 -25.375193 -120.19427
165844000 -25.39802 -125.56834 -0.096342877 -33.467823 -0.09596283 -33.460258 -25.296326 -120.33045
166843000 -25.332493 -125.62699 -0.096581608 -33.670258 -0.096119501 -33.665115 -25.231752 -120.51415
167842000 -25.280018 -125.76783 -0.0971613 -33.864357 -0.095304973 -33.85957 -25.151011 -120.39752
168841000 -25.201601 -125.92536 -0.097279362 -34.068169 -0.09653344 -34.06039 -25.076399 -120.45634
169840000 -25.134859 -126.16759 -0.097157061 -34.260872 -0.097133502 -34.257397 -24.993332 -120.6562
170839000 -25.075661 -126.36597 -0.098830387 -34.458984 -0.097207092 -34.458706 -24.913584 -120.82427
171838000 -25.012632 -126.78239 -0.098359041 -34.661453 -0.098352686 -34.653179 -24.841997 -121.05579
172837000 -24.941748 -127.14742 -0.10003972 -34.857117 -0.098992988 -34.852085 -24.780933 -121.2664
173836000 -24.878195 -127.52452 -0.1012462 -35.057209 -0.10045721 -35.055027 -24.735117 -121.4653
174835000 -24.825598 -127.93678 -0.10173535 -35.254677 -0.1008848 -35.254295 -24.691107 -121.78215
175834000 -24.77437 -128.27599 -0.10265817 -35.455208 -0.10123613 -35.451244 -24.63381 -122.04848
176833000 -24.728128 -128.64456 -0.1039078 -35.651749 -0.10303986 -35.653114 -24.586449 -122.21797
177832000 -24.68008 -129.0563 -0.10454442 -35.851868 -0.10369889 -35.852699 -24.566803 -122.30814
178831000 -24.637403 -129.29982 -0.10594393 -36.047943 -0.10565428 -36.04826 -24.529036 -122.42242
179830000 -24.566498 -129.67828 -0.10778251 -36.236 -0.10618956 -36.236275 -24.463446 -122.47469
180829000 -24.521618 -130.06729 -0.10651399 -36.427242 -0.10579804 -36.426373 -24.417692 -122.78876
181828000 -24.49387 -130.49081 -0.10530154 -36.624973 -0.10500557 -36.625938 -24.399641 -123.01374
182827000 -24.470217 -130.88664 -0.10530419 -36.82518 -0.10517158 -36.827251 -24.386948 -123.10745
183826000 -24.428865 -131.20644 -0.10611926 -37.021828 -0.10533071 -37.018787 -24.380636 -123.27665
184825000 -24.432079 -131.5544 -0.1063832 -37.218685 -0.10538746 -37.222576 -24.363649 -123.39017
185824000 -24.407295 -131.94032 -0.10588504 -37.412468 -0.10546305 -37.417709 -24.351713 -123.44818
186823000 -24.388269 -132.30415 -0.10580547 -37.618195 -0.10580971 -37.613026 -24.34943 -123.47324
187822000 -24.359739 -132.58009 -0.10694643 -37.812534 -0.10658775 -37.812847 -24.307251 -123.53778
188821000 -24.338581 -132.89027 -0.10684615 -38.005432 -0.10633917 -38.007416 -24.290363 -123.66163
189820000 -24.320528 -133.17329 -0.10712022 -38.203892 -0.10587867 -38.20657 -24.275988 -123.8682
190819000 -24.282452 -133.45471 -0.10793537 -38.403641 -0.1072887 -38.404217 -24.231535 -123.90134
191818000 -24.254858 -133.75998 -0.10829841 -38.601566 -0.10738661 -38.602097 -24.206553 -123.95437
192817000 -24.207029 -134.03902 -0.10826179 -38.79781 -0.10780109 -38.799946 -24.163626 -124.02594
193816000 -24.174952 -134.29938 -0.1087167 -38.995602 -0.10713667 -38.99773 -24.110312 -124.17694
194815000 -24.113392 -134.69624 -0.10882924 -39.191986 -0.10867397 -39.195278 -24.046021 -124.21893
195814000 -24.056046 -134.88133 -0.11013587 -39.387173 -0.10825834 -39.390968 -23.984612 -124.32556
196813000 -24.00222 -135.19641 -0.1101279 -39.582794 -0.10839926 -39.584419 -23.909035 -124.50248
197812000 -23.942081 -135.41373 -0.10968214 -39.78067 -0.10882738 -39.779068 -23.835787 -124.59618
198811000 -23.888603 -135.54726 -0.11014038 -39.977581 -0.10901982 -39.979763 -23.767872 -124.76458
199810000 -23.819571 -135.9081 -0.1104513 -40.172798 -0.10813228 -40.173443 -23.687162 -124.86493
200809000 -23.76152 -136.15395 -0.11109605 -40.37096 -0.1095279 -40.368828 -23.611275 -125.02998
201808000 -23.702986 -136.36676 -0.11182882 -40.570171 -0.11036076 -40.576614 -23.542313 -125.07571
202807000 -23.650187 -136.73102 -0.11181235 -40.774746 -0.1106802 -40.776062 -23.484707 -125.30065
