!Keysight Technologies,E5080B,MY59205177,A.15.75.32
!Date: Friday, February 23, 2024 02:52:32
!Correction: S11(Cdelta 2-Port  ) 
!S21(Cdelta 2-Port  ) 
!S12(Cdelta 2-Port  ) 
!S22(Cdelta 2-Port  ) 
!S2P File: Measurements: S11, S21, S12, S22:
# Hz S  dB   R 50
10000000 -43.07164 -3.6037133 -0.034465592 -2.0450804 -0.038237035 -2.0999315 -49.964428 -143.81136
10999000 -42.44175 -5.1691613 -0.035475478 -2.2612555 -0.038617544 -2.3175128 -49.427441 -134.26949
11998000 -41.785004 -7.1243076 -0.036428954 -2.4857094 -0.037554964 -2.5307844 -49.431278 -127.63582
12997000 -41.21003 -11.530107 -0.03549923 -2.6643538 -0.037860997 -2.6995745 -48.496918 -120.8574
13996000 -40.953014 -14.759439 -0.034488555 -2.8442533 -0.037816864 -2.8637879 -47.885262 -115.29944
14995000 -40.678532 -18.043715 -0.037278723 -3.0538275 -0.038011406 -3.0819931 -47.329437 -111.89605
15994000 -40.596912 -21.461369 -0.037768036 -3.2739403 -0.040149063 -3.2944317 -47.064186 -108.26217
16993000 -40.638016 -25.178265 -0.036802258 -3.4706361 -0.038589861 -3.4783583 -46.036198 -110.65429
17992000 -40.705109 -29.206795 -0.037602749 -3.6667554 -0.039558649 -3.6716166 -45.434017 -111.55897
18991000 -40.981094 -33.33202 -0.038421668 -3.8770771 -0.040952526 -3.8769054 -44.663975 -112.11946
19990000 -40.894283 -37.830814 -0.041064892 -4.0876265 -0.04267282 -4.0863271 -44.060413 -114.43694
20989000 -40.862625 -40.635506 -0.042796474 -4.2924652 -0.044307761 -4.2788491 -43.390038 -114.54186
21988000 -40.838825 -45.032799 -0.042817127 -4.4883456 -0.045034308 -4.4764419 -43.096947 -114.35616
22987000 -40.667957 -49.171463 -0.045378532 -4.686326 -0.046191595 -4.675179 -42.785183 -113.99885
23986000 -40.687481 -52.645714 -0.044371571 -4.8821883 -0.045143902 -4.8778725 -42.672367 -113.93155
24985000 -40.450184 -55.263889 -0.04582141 -5.0867491 -0.04541751 -5.0839586 -42.412067 -111.60337
25984000 -40.217594 -57.394833 -0.046235811 -5.296278 -0.04609872 -5.2991133 -41.94936 -110.57672
26983000 -39.954815 -59.55619 -0.047636282 -5.4946094 -0.047395773 -5.5117207 -41.806824 -109.76728
27982000 -39.865456 -60.524555 -0.048758134 -5.6969743 -0.049130667 -5.7306032 -41.49168 -108.58612
28981000 -39.834686 -61.814754 -0.046406135 -5.8924117 -0.048712324 -5.9152417 -41.214657 -107.76617
29980000 -39.517918 -63.611313 -0.046329737 -6.0829701 -0.048950028 -6.0889935 -40.862999 -107.4287
30979000 -39.177925 -62.972828 -0.04415112 -6.4416385 -0.043470997 -6.4306078 -40.355988 -108.64297
31978000 -39.029266 -63.964191 -0.043452434 -6.6317148 -0.044733528 -6.6235824 -40.051323 -108.10818
32977000 -38.850933 -65.819252 -0.043481719 -6.8482366 -0.045255855 -6.8372054 -39.822178 -108.43507
33976000 -38.710213 -66.921021 -0.044412892 -7.0478964 -0.045518219 -7.0377121 -39.451866 -108.16719
34975000 -38.437016 -67.962662 -0.044526394 -7.2452788 -0.046772186 -7.2421556 -39.22522 -107.97308
35974000 -38.277542 -68.809891 -0.043485902 -7.436852 -0.046103951 -7.4437203 -38.924198 -107.12871
36973000 -38.068451 -69.580505 -0.043446943 -7.637517 -0.047214158 -7.6405082 -38.597431 -106.48035
37972000 -37.909443 -69.55764 -0.043408509 -7.848124 -0.046612836 -7.8579097 -38.348923 -105.96877
38971000 -37.592056 -69.502151 -0.044823237 -8.0512285 -0.046606295 -8.0600672 -38.123474 -104.43616
39970000 -37.272751 -70.183624 -0.043268889 -8.2455654 -0.045694008 -8.2550793 -37.826679 -104.16763
40969000 -36.999043 -70.182487 -0.042806931 -8.4409943 -0.045387428 -8.4542084 -37.562862 -102.83488
41968000 -36.665974 -70.466011 -0.043518323 -8.6455431 -0.045655292 -8.6603174 -37.348408 -101.76243
42967000 -36.409904 -70.801445 -0.043600686 -8.8559628 -0.046319794 -8.8705235 -37.08588 -99.908813
43966000 -36.132469 -71.674149 -0.044143796 -9.0549641 -0.04789146 -9.071847 -36.794147 -99.480904
44965000 -35.924938 -72.599724 -0.045111731 -9.2607098 -0.047202643 -9.2750883 -36.56794 -99.462601
45964000 -35.732708 -73.979118 -0.046055812 -9.4577961 -0.048637457 -9.4758024 -36.309063 -99.426788
46963000 -35.569084 -75.810303 -0.046067849 -9.649148 -0.049792297 -9.6718903 -36.142738 -99.852219
47962000 -35.427975 -77.339722 -0.047560386 -9.8537779 -0.051047239 -9.8677549 -35.933662 -100.10787
48961000 -35.262657 -78.982529 -0.049733385 -10.048927 -0.052341055 -10.073497 -35.707256 -100.54733
49960000 -35.057213 -80.259529 -0.050793707 -10.250216 -0.053212289 -10.270996 -35.573586 -100.65292
50959000 -34.865284 -81.799759 -0.051977418 -10.461623 -0.054621041 -10.470493 -35.390476 -101.13218
51958000 -34.666214 -82.871735 -0.053473562 -10.661715 -0.055870824 -10.668132 -35.203655 -101.82157
52957000 -34.474682 -84.073463 -0.055173397 -10.861793 -0.05813377 -10.866477 -35.051441 -101.64252
53956000 -34.324146 -84.875015 -0.055501383 -11.06222 -0.058433119 -11.063104 -34.914597 -101.76138
54955000 -34.16534 -85.493103 -0.0567564 -11.262008 -0.058895696 -11.259158 -34.752945 -101.81907
55954000 -34.018955 -86.423744 -0.058020175 -11.46658 -0.058994357 -11.460156 -34.651466 -101.63975
56953000 -33.907387 -86.558594 -0.057865661 -11.662094 -0.058863159 -11.650568 -34.565754 -101.85483
57952000 -33.760578 -87.16082 -0.059417106 -11.86217 -0.059488222 -11.845112 -34.464943 -102.01758
58951000 -33.640785 -87.634392 -0.060754895 -12.059741 -0.060293693 -12.041058 -34.319992 -102.19085
59950000 -33.525158 -88.010826 -0.060612619 -12.261523 -0.061508615 -12.240651 -34.24176 -102.50756
60949000 -33.421978 -88.589447 -0.060719717 -12.464222 -0.061787717 -12.441296 -34.145615 -102.82116
61948000 -33.36298 -88.927536 -0.06128335 -12.660442 -0.060865674 -12.644518 -34.068676 -102.88024
62947000 -33.280945 -89.177299 -0.061532244 -12.873562 -0.061946575 -12.850429 -33.928295 -103.30588
63946000 -33.217182 -90.005165 -0.062696561 -13.071408 -0.063439324 -13.054811 -33.81403 -103.49663
64945000 -33.10392 -90.144363 -0.063254938 -13.273058 -0.063274637 -13.25423 -33.717972 -103.9875
65944000 -33.008923 -90.50103 -0.064101562 -13.474153 -0.063828617 -13.454566 -33.632252 -104.51103
66943000 -32.875034 -90.894684 -0.061735731 -13.671848 -0.062127233 -13.656619 -33.52422 -104.81959
67942000 -32.821896 -90.925613 -0.063672848 -13.870064 -0.064245529 -13.857644 -33.397942 -105.13794
68941000 -32.703007 -91.085373 -0.063461654 -14.064415 -0.063228935 -14.053967 -33.296848 -105.08909
69940000 -32.611107 -91.082611 -0.064556338 -14.26282 -0.064422607 -14.253352 -33.150787 -105.46885
70939000 -32.494164 -91.064102 -0.064040616 -14.458051 -0.063648418 -14.453417 -33.027328 -105.40707
71938000 -32.349831 -90.694786 -0.064461492 -14.66147 -0.063900337 -14.646164 -32.89217 -105.26283
72937000 -32.191689 -90.596581 -0.063138053 -14.858722 -0.063135169 -14.848862 -32.744137 -105.12722
73936000 -32.046844 -90.306778 -0.063668646 -15.051355 -0.062869638 -15.046405 -32.621658 -104.8658
74935000 -31.922777 -90.660576 -0.062616989 -15.249388 -0.062293716 -15.241685 -32.464558 -104.57997
75934000 -31.799822 -90.981812 -0.062468085 -15.456027 -0.062317349 -15.449958 -32.371723 -104.51768
76933000 -31.686363 -91.434959 -0.063488968 -15.650763 -0.063683875 -15.650495 -32.20697 -104.99491
77932000 -31.586864 -92.251358 -0.065211654 -15.848648 -0.065513588 -15.841632 -32.112034 -104.97038
78931000 -31.52265 -92.922874 -0.064401589 -16.04907 -0.064443097 -16.041475 -32.007542 -104.91876
79930000 -31.411739 -93.767418 -0.066763096 -16.239876 -0.06765826 -16.235689 -31.908451 -105.15903
80929000 -31.294012 -94.737915 -0.067770526 -16.434284 -0.068464719 -16.429493 -31.798861 -105.66317
81928000 -31.223042 -95.650063 -0.067647479 -16.625807 -0.068775833 -16.622337 -31.679462 -105.78782
82927000 -31.126173 -96.407478 -0.06956514 -16.826706 -0.07018543 -16.821461 -31.588598 -106.10019
83926000 -31.01841 -97.079971 -0.070918165 -17.023062 -0.071232341 -17.023569 -31.46357 -106.31967
84925000 -30.917606 -97.599945 -0.071615227 -17.22477 -0.071464173 -17.218248 -31.379898 -106.44385
85924000 -30.830748 -98.064705 -0.072887808 -17.424736 -0.072860695 -17.41968 -31.286528 -106.49178
86923000 -30.729052 -98.63887 -0.073017061 -17.623802 -0.073160008 -17.608839 -31.18099 -106.4386
87922000 -30.630804 -99.04287 -0.073220819 -17.825264 -0.072893076 -17.815054 -31.095406 -106.46156
88921000 -30.561991 -99.414528 -0.074501514 -18.020655 -0.074010417 -18.019262 -31.010872 -106.52786
89920000 -30.464748 -99.951675 -0.074615538 -18.225409 -0.074079141 -18.209753 -30.94417 -106.7077
90919000 -30.367754 -100.27676 -0.076217763 -18.417564 -0.074589208 -18.414335 -30.86043 -106.92699
91918000 -30.27557 -100.70667 -0.076515466 -18.621975 -0.075520754 -18.613998 -30.796583 -107.01601
92917000 -30.188042 -101.10347 -0.077600002 -18.816761 -0.076482534 -18.811829 -30.724514 -107.12121
93916000 -30.100533 -101.47147 -0.077000521 -19.011803 -0.07652811 -19.004824 -30.641171 -107.77695
94915000 -30.024763 -102.12901 -0.078604423 -19.212521 -0.077534653 -19.204649 -30.583862 -107.64152
95914000 -29.971127 -102.40704 -0.079615131 -19.405113 -0.078773387 -19.401697 -30.490528 -107.97491
96913000 -29.887566 -102.62335 -0.080654033 -19.60605 -0.079374693 -19.603512 -30.425453 -108.32811
97912000 -29.807741 -103.0874 -0.082096778 -19.800995 -0.079461165 -19.804419 -30.347288 -108.53869
98911000 -29.698557 -103.30491 -0.081724837 -20.002941 -0.081165403 -20.000706 -30.304438 -108.80901
99910000 -29.640165 -103.49342 -0.083198547 -20.200354 -0.081334203 -20.19862 -30.202013 -109.08918
100909000 -29.552389 -103.79931 -0.082343966 -20.409521 -0.080867119 -20.404041 -30.116734 -109.35765
101908000 -29.460844 -104.0471 -0.083253957 -20.605225 -0.082345024 -20.605253 -29.997833 -109.04836
102907000 -29.325638 -104.05924 -0.083858527 -20.811213 -0.082149014 -20.80896 -29.920586 -109.02934
103906000 -29.237324 -104.12547 -0.08463686 -21.01664 -0.08220204 -21.007784 -29.770918 -109.05294
104905000 -29.088354 -104.10714 -0.085085861 -21.21489 -0.082681663 -21.211573 -29.633429 -108.7322
105904000 -28.951674 -104.21641 -0.08523 -21.414867 -0.082879804 -21.407845 -29.514959 -108.61755
106903000 -28.832745 -104.35645 -0.085164271 -21.618328 -0.083459519 -21.613718 -29.391911 -108.52886
107902000 -28.680782 -104.73569 -0.085994586 -21.820135 -0.083547391 -21.811672 -29.245173 -108.47736
108901000 -28.562979 -105.05891 -0.086795218 -22.024033 -0.084519133 -22.013231 -29.110527 -108.5036
109900000 -28.443712 -105.55863 -0.087706931 -22.220699 -0.086102314 -22.209064 -28.961153 -108.54469
110899000 -28.317701 -106.15494 -0.088685684 -22.417074 -0.086444527 -22.409349 -28.833519 -108.88651
111898000 -28.2393 -106.83816 -0.090076923 -22.618177 -0.088070408 -22.61413 -28.719471 -109.06881
112897000 -28.119129 -107.5015 -0.092131957 -22.821533 -0.089153081 -22.805254 -28.57757 -109.27503
113896000 -28.014633 -108.10927 -0.092960693 -23.020397 -0.089935005 -23.007273 -28.467667 -109.49654
114895000 -27.913408 -108.73738 -0.094211511 -23.218109 -0.092032805 -23.202768 -28.360594 -109.53638
115894000 -27.786327 -109.07715 -0.095678344 -23.418734 -0.093296573 -23.403299 -28.292425 -109.78404
116893000 -27.706793 -109.70738 -0.095698193 -23.611845 -0.093786158 -23.594093 -28.163755 -109.96513
117892000 -27.624947 -110.23528 -0.095978178 -23.811888 -0.093862601 -23.795908 -28.088724 -110.17999
118891000 -27.570969 -110.64977 -0.096279353 -24.008705 -0.09403374 -23.99925 -27.990389 -110.29231
119890000 -27.480946 -111.06033 -0.097380489 -24.209496 -0.094657272 -24.1968 -27.979816 -110.47395
120889000 -27.428354 -111.55801 -0.098381281 -24.411715 -0.095072396 -24.395782 -27.905415 -110.45055
121888000 -27.392439 -111.89071 -0.098985046 -24.605341 -0.095905401 -24.59618 -27.849945 -110.77573
122887000 -27.351664 -112.1092 -0.099247232 -24.811918 -0.096334666 -24.795341 -27.800661 -110.79411
123886000 -27.295616 -112.54826 -0.10049271 -25.01354 -0.097132973 -24.992603 -27.786104 -110.9544
124885000 -27.259382 -113.05119 -0.10026886 -25.212692 -0.097212918 -25.198366 -27.753586 -111.03989
125884000 -27.207352 -113.25312 -0.10127191 -25.407486 -0.097401135 -25.395998 -27.728138 -111.23133
126883000 -27.188177 -113.63642 -0.1017115 -25.612427 -0.09813159 -25.597548 -27.681105 -111.26118
127882000 -27.135397 -113.95879 -0.10184506 -25.811651 -0.099220753 -25.793774 -27.642494 -111.48005
128881000 -27.109457 -114.26206 -0.10228472 -26.011454 -0.098799139 -25.992617 -27.59939 -111.60423
129880000 -27.048576 -114.5973 -0.10310162 -26.212332 -0.09912461 -26.192408 -27.559727 -111.57053
130879000 -26.992403 -114.79164 -0.10220389 -26.412292 -0.099698551 -26.396856 -27.479725 -111.66921
131878000 -26.926729 -114.95998 -0.10333781 -26.616344 -0.099628098 -26.596567 -27.413631 -111.54518
132877000 -26.856688 -115.05479 -0.10255507 -26.814745 -0.10007389 -26.79785 -27.331905 -111.59766
133876000 -26.774071 -115.25198 -0.10256036 -27.018188 -0.10022037 -26.995623 -27.234898 -111.41901
134875000 -26.673321 -115.3466 -0.10291316 -27.215473 -0.1008077 -27.195625 -27.133282 -111.3653
135874000 -26.592562 -115.41826 -0.10326279 -27.417236 -0.10107027 -27.398113 -27.028273 -111.29819
136873000 -26.481918 -115.36142 -0.10411672 -27.619436 -0.10061086 -27.59922 -26.941231 -111.31964
137872000 -26.402868 -115.48708 -0.10364374 -27.820391 -0.10122527 -27.805876 -26.838055 -111.23011
138871000 -26.327753 -115.70134 -0.10505807 -28.021894 -0.10088533 -28.002457 -26.737766 -111.46694
139870000 -26.22436 -115.97925 -0.10464412 -28.221533 -0.10238995 -28.202503 -26.651442 -111.61377
140869000 -26.137827 -116.42872 -0.10735875 -28.414364 -0.10356474 -28.394356 -26.541265 -111.79307
141868000 -26.05106 -116.97352 -0.10684641 -28.608448 -0.10474197 -28.591887 -26.480028 -112.1397
142867000 -25.965546 -117.17231 -0.10575136 -28.807365 -0.10326306 -28.789419 -26.394423 -112.33335
143866000 -25.898861 -117.6839 -0.10755271 -29.002544 -0.10513684 -28.986162 -26.325417 -112.85416
144865000 -25.842154 -118.26488 -0.10937871 -29.201921 -0.10599273 -29.186499 -26.268444 -113.20893
145864000 -25.788761 -118.54848 -0.10915944 -29.40225 -0.10736697 -29.390554 -26.236958 -113.44614
146863000 -25.738907 -118.95343 -0.10996515 -29.603348 -0.10806779 -29.587515 -26.190283 -113.7946
147862000 -25.698771 -119.35219 -0.11100098 -29.798958 -0.10877243 -29.785223 -26.150724 -114.13253
148861000 -25.670095 -119.8196 -0.1115154 -29.996412 -0.10893276 -29.981041 -26.127762 -114.39339
149860000 -25.661442 -120.03604 -0.11184661 -30.192183 -0.10892532 -30.184536 -26.097542 -114.54887
150859000 -25.633631 -120.45992 -0.11303034 -30.396828 -0.11012737 -30.380968 -26.08699 -114.7979
151858000 -25.617737 -120.77065 -0.11209656 -30.593575 -0.10998002 -30.579065 -26.07859 -115.12232
152857000 -25.599934 -121.07657 -0.11244003 -30.786385 -0.10978913 -30.778734 -26.062929 -115.22719
153856000 -25.592981 -121.27772 -0.11262466 -30.992109 -0.10951941 -30.977173 -26.081396 -115.54413
154855000 -25.588915 -121.49178 -0.11270941 -31.188911 -0.11001905 -31.178274 -26.073851 -115.79008
155854000 -25.602562 -121.73281 -0.11295595 -31.38818 -0.11050866 -31.373051 -26.065453 -116.02825
156853000 -25.585663 -122.41596 -0.110805 -31.57645 -0.11003763 -31.56299 -26.062187 -116.3349
157852000 -25.590084 -122.66562 -0.11244296 -31.774338 -0.11145592 -31.764038 -26.050846 -116.68851
158851000 -25.580374 -122.86543 -0.11327212 -31.974524 -0.11185564 -31.964972 -26.034163 -116.94433
159850000 -25.567713 -123.00771 -0.11374138 -32.173359 -0.11198606 -32.16584 -26.029491 -117.092
160849000 -25.545103 -123.08572 -0.11374085 -32.373734 -0.1125439 -32.367977 -26.00259 -117.41656
161848000 -25.52393 -123.2213 -0.1141857 -32.571487 -0.11225621 -32.562614 -25.962112 -117.50864
162847000 -25.484993 -123.43679 -0.11391889 -32.768169 -0.11298784 -32.760605 -25.93261 -117.75938
163846000 -25.444092 -123.65513 -0.1144791 -32.969505 -0.11297402 -32.960835 -25.852528 -117.7707
164845000 -25.377918 -123.65663 -0.11418251 -33.169411 -0.11341348 -33.160011 -25.78422 -117.92006
165844000 -25.327776 -123.7785 -0.11439671 -33.370323 -0.11409109 -33.363991 -25.703699 -118.04837
166843000 -25.260908 -123.8379 -0.11458913 -33.570148 -0.11414158 -33.56221 -25.629183 -118.21931
167842000 -25.199791 -123.98433 -0.11447857 -33.763996 -0.11444455 -33.75985 -25.545891 -118.13109
168841000 -25.125481 -124.18624 -0.1152026 -33.964634 -0.11501653 -33.961002 -25.469713 -118.23731
169840000 -25.056194 -124.4768 -0.11586454 -34.15905 -0.11511887 -34.15675 -25.384018 -118.43737
170839000 -24.993767 -124.76025 -0.1169414 -34.355534 -0.11514917 -34.355656 -25.295774 -118.65121
171838000 -24.935167 -125.13651 -0.11662123 -34.555603 -0.11641384 -34.551018 -25.230509 -118.86558
172837000 -24.868298 -125.53117 -0.11822867 -34.747993 -0.11767115 -34.744968 -25.157162 -119.11983
173836000 -24.799374 -125.97054 -0.11947853 -34.950268 -0.11847286 -34.948727 -25.120014 -119.37878
174835000 -24.753941 -126.3868 -0.11987341 -35.145016 -0.11870058 -35.14669 -25.068424 -119.70897
175834000 -24.695675 -126.79906 -0.12016986 -35.345806 -0.11970257 -35.343285 -25.009699 -120.02972
176833000 -24.643036 -127.20898 -0.12175731 -35.541016 -0.12003201 -35.536732 -24.952929 -120.16276
177832000 -24.600536 -127.66935 -0.12158 -35.739861 -0.12062415 -35.736412 -24.935532 -120.36054
178831000 -24.564489 -128.06055 -0.12221496 -35.936634 -0.12124752 -35.93375 -24.89629 -120.60367
179830000 -24.533703 -128.48883 -0.12316557 -36.13237 -0.12156882 -36.135372 -24.869303 -120.71411
180829000 -24.492723 -128.71939 -0.12358236 -36.331966 -0.12279728 -36.330372 -24.844379 -120.94752
181828000 -24.469498 -129.06496 -0.12352216 -36.525154 -0.12288515 -36.524738 -24.827564 -121.04702
182827000 -24.44434 -129.43077 -0.12390037 -36.720345 -0.12261089 -36.718235 -24.811319 -121.13432
183826000 -24.405378 -129.76276 -0.12433214 -36.919582 -0.12313122 -36.912575 -24.804741 -121.25758
184825000 -24.408123 -130.06206 -0.12434733 -37.11747 -0.12335704 -37.111492 -24.784203 -121.36427
185824000 -24.381052 -130.44981 -0.12413476 -37.308197 -0.12376879 -37.313377 -24.782677 -121.40216
186823000 -24.364504 -130.78 -0.12491316 -37.51318 -0.12351258 -37.508636 -24.783119 -121.40567
187822000 -24.343664 -131.11662 -0.12484069 -37.709534 -0.12474319 -37.704727 -24.746529 -121.44559
188821000 -24.326893 -131.35283 -0.12507513 -37.902443 -0.12424184 -37.906887 -24.729319 -121.54813
189820000 -24.312967 -131.60229 -0.1257242 -38.103706 -0.12485534 -38.100121 -24.725737 -121.72742
190819000 -24.279583 -131.877 -0.12687705 -38.302059 -0.12571406 -38.300392 -24.688028 -121.65209
191818000 -24.247997 -132.05949 -0.12776071 -38.494709 -0.12721078 -38.49765 -24.655636 -121.53786
192817000 -24.178707 -132.31625 -0.12837523 -38.679008 -0.12741549 -38.682632 -24.580322 -121.6092
193816000 -24.139114 -132.69702 -0.12740403 -38.872505 -0.12597761 -38.874363 -24.526087 -121.90247
194815000 -24.081549 -133.16391 -0.12739576 -39.069283 -0.1266745 -39.074833 -24.459942 -122.02173
195814000 -24.029078 -133.37724 -0.1286616 -39.266689 -0.1265575 -39.2672 -24.406096 -122.13293
196813000 -23.977926 -133.72394 -0.1275 -39.464222 -0.12644529 -39.465347 -24.331308 -122.30843
197812000 -23.92198 -133.95987 -0.12806757 -39.66048 -0.12748426 -39.65749 -24.259422 -122.41411
198811000 -23.865038 -134.1602 -0.12784256 -39.859978 -0.12750399 -39.858097 -24.188005 -122.59988
199810000 -23.793777 -134.51038 -0.12812622 -40.051781 -0.12736164 -40.047836 -24.111469 -122.69774
200809000 -23.738428 -134.81609 -0.12844403 -40.248371 -0.1278007 -40.247421 -24.027594 -122.89922
201808000 -23.684259 -135.04822 -0.12888612 -40.451672 -0.12857415 -40.453499 -23.958824 -122.97511
202807000 -23.624334 -135.40651 -0.12914532 -40.65115 -0.12909679 -40.652554 -23.904919 -123.2144
203806000 -23.572947 -135.86375 -0.1314548 -40.85075 -0.12941921 -40.850338 -23.841818 -123.38453
