!Keysight Technologies,E5080B,MY59205177,A.15.75.32
!Date: Friday, February 23, 2024 03:30:47
!Correction: S11(Cdelta 2-Port  ) 
!S21(Cdelta 2-Port  ) 
!S12(Cdelta 2-Port  ) 
!S22(Cdelta 2-Port  ) 
!S2P File: Measurements: S11, S21, S12, S22:
# Hz S  dB   R 50
10000000 -46.070065 -2.0514541 -0.016140606 -2.0512381 -0.018620551 -2.0998394 -45.998806 -157.92604
10999000 -45.218143 -3.9569993 -0.016892601 -2.2659333 -0.018083742 -2.3227558 -45.967243 -151.87958
11998000 -44.29694 -7.3282294 -0.017444856 -2.4912844 -0.017733356 -2.5381715 -46.133537 -147.42059
12997000 -43.550529 -12.577564 -0.016729927 -2.6735373 -0.017824329 -2.704926 -45.743927 -141.76511
13996000 -43.266884 -16.344833 -0.015338865 -2.8532972 -0.018027855 -2.8783827 -45.635445 -136.67177
14995000 -42.866142 -20.987621 -0.018598452 -3.0653706 -0.017230444 -3.087559 -45.256489 -132.935
15994000 -42.682201 -25.175734 -0.019649642 -3.2797222 -0.020112006 -3.3042893 -45.154953 -129.48357
16993000 -42.679905 -29.506338 -0.018439094 -3.4806252 -0.018790575 -3.4887652 -44.35965 -129.24988
17992000 -42.721836 -34.85186 -0.018611711 -3.6825469 -0.020151535 -3.6818511 -43.769936 -129.38345
18991000 -42.991604 -39.911613 -0.020432152 -3.8898659 -0.02079498 -3.8895588 -43.148911 -128.24313
19990000 -42.773663 -45.977032 -0.021553503 -4.1018701 -0.022660574 -4.0962663 -42.475208 -129.07047
20989000 -42.601463 -49.184437 -0.024664942 -4.305716 -0.024838589 -4.2963333 -41.930164 -128.11902
21988000 -42.498188 -54.373257 -0.025280677 -4.5003486 -0.025043745 -4.4891496 -41.6674 -127.71974
22987000 -42.160454 -59.48019 -0.02650355 -4.7019343 -0.026648359 -4.6949391 -41.40382 -126.95307
23986000 -42.074223 -63.421249 -0.025840249 -4.8968673 -0.025952484 -4.8936396 -41.266705 -126.92283
24985000 -41.724266 -66.253952 -0.027095059 -5.1027651 -0.02553142 -5.1024203 -41.055901 -124.61947
25984000 -41.352745 -68.558151 -0.02810714 -5.310627 -0.026439482 -5.3122277 -40.721729 -122.96765
26983000 -41.055878 -70.314827 -0.028706687 -5.5109186 -0.027013529 -5.5293674 -40.645084 -122.44367
27982000 -40.911591 -71.273117 -0.029938344 -5.7109246 -0.028771048 -5.7452126 -40.368156 -120.81358
28981000 -40.863628 -72.740501 -0.028141271 -5.9100904 -0.029138222 -5.9338655 -40.148354 -119.99783
29980000 -40.461922 -74.34623 -0.027458964 -6.1026301 -0.029211974 -6.1138391 -39.908474 -119.11746
30979000 -40.08987 -73.19265 -0.026269678 -6.4568491 -0.024050597 -6.4507155 -39.362823 -119.53341
31978000 -39.835255 -74.163811 -0.025013804 -6.6552157 -0.024825571 -6.6479573 -39.121326 -118.73926
32977000 -39.637344 -75.903809 -0.025333012 -6.8661528 -0.025407478 -6.8618035 -38.887165 -118.76253
33976000 -39.463032 -76.838326 -0.025611881 -7.0650306 -0.026388695 -7.060946 -38.593082 -118.17453
34975000 -39.177063 -77.574028 -0.026088944 -7.267324 -0.027024992 -7.2624393 -38.392143 -117.82851
35974000 -38.967747 -78.112617 -0.025297601 -7.4640002 -0.026442347 -7.4688663 -38.098091 -116.95688
36973000 -38.717754 -78.822617 -0.025555898 -7.660624 -0.027922422 -7.664402 -37.793198 -116.00658
37972000 -38.565296 -78.573982 -0.024897167 -7.8696833 -0.028149609 -7.8830776 -37.617905 -115.22108
38971000 -38.24176 -78.159142 -0.026687948 -8.073266 -0.027933626 -8.0852051 -37.437069 -113.71579
39970000 -37.893707 -78.372696 -0.024339017 -8.2710419 -0.026979148 -8.2867508 -37.185715 -113.05032
40969000 -37.616173 -78.006905 -0.025146326 -8.4634733 -0.026909081 -8.4848108 -36.938496 -111.65058
41968000 -37.254467 -77.825821 -0.02484666 -8.6643991 -0.027017437 -8.6845274 -36.741127 -110.18533
42967000 -37.000126 -77.925781 -0.025460856 -8.8864737 -0.028131111 -8.900259 -36.557228 -108.31202
43966000 -36.714424 -78.74086 -0.025234591 -9.0852661 -0.028978996 -9.1044798 -36.286674 -107.57293
44965000 -36.473354 -79.44426 -0.027429268 -9.2839699 -0.028467745 -9.3056316 -36.075588 -107.39796
45964000 -36.234478 -80.482903 -0.028290045 -9.4848804 -0.029927658 -9.5032101 -35.825771 -107.22687
46963000 -36.04557 -82.46965 -0.028031064 -9.6813288 -0.030857755 -9.7042561 -35.652447 -107.30397
47962000 -35.904198 -83.950096 -0.029382152 -9.8847322 -0.031799786 -9.9003067 -35.439552 -107.32773
48961000 -35.659447 -85.336792 -0.031489752 -10.077136 -0.033302296 -10.101424 -35.220737 -107.52588
49960000 -35.426083 -86.622955 -0.032640044 -10.27926 -0.034429327 -10.302111 -35.06525 -107.60084
50959000 -35.222351 -87.937218 -0.033392813 -10.495898 -0.035695232 -10.504466 -34.896469 -107.81543
51958000 -35.002514 -88.981796 -0.035665218 -10.691636 -0.037138779 -10.703351 -34.722286 -108.29201
52957000 -34.805077 -90.082428 -0.036789726 -10.89112 -0.037835665 -10.901623 -34.560604 -108.11917
53956000 -34.637405 -90.744873 -0.037770908 -11.096011 -0.03923735 -11.098179 -34.422749 -108.00259
54955000 -34.455421 -91.20356 -0.039313622 -11.29774 -0.040042993 -11.292602 -34.272533 -107.92822
55954000 -34.30262 -92.053474 -0.040525299 -11.496543 -0.040375061 -11.496112 -34.153496 -107.65682
56953000 -34.171814 -92.130997 -0.040277347 -11.695185 -0.039240483 -11.688959 -34.089813 -107.91948
57952000 -34.011875 -92.704521 -0.041445911 -11.895351 -0.04080933 -11.885992 -33.999481 -108.00072
58951000 -33.88253 -93.003769 -0.041926283 -12.102129 -0.041792985 -12.083002 -33.84314 -108.07238
59950000 -33.75948 -93.360962 -0.042629428 -12.30153 -0.041713532 -12.277916 -33.76862 -108.28958
60949000 -33.644287 -93.924873 -0.043077774 -12.503233 -0.042433109 -12.481157 -33.674286 -108.56414
61948000 -33.581158 -94.339546 -0.043911327 -12.702312 -0.042577144 -12.685655 -33.584492 -108.63946
62947000 -33.496449 -94.431366 -0.043224182 -12.912645 -0.043638859 -12.891631 -33.450043 -108.93893
63946000 -33.408932 -95.232765 -0.045032479 -13.114434 -0.044284489 -13.09528 -33.340336 -109.05164
64945000 -33.309929 -95.44957 -0.045563996 -13.316077 -0.044602759 -13.298439 -33.221825 -109.52688
65944000 -33.208984 -95.717216 -0.046721946 -13.514828 -0.045007631 -13.497898 -33.135891 -109.93642
66943000 -33.062843 -96.115608 -0.044493441 -13.717005 -0.043708935 -13.701204 -33.033367 -110.20784
67942000 -33.00853 -96.031387 -0.046641357 -13.912197 -0.045380104 -13.901444 -32.908413 -110.45873
68941000 -32.882908 -96.09996 -0.046363488 -14.10597 -0.044552285 -14.096371 -32.789337 -110.48384
69940000 -32.795788 -96.024063 -0.045874253 -14.306606 -0.045601927 -14.297915 -32.657639 -110.74902
70939000 -32.683819 -96.072525 -0.046112586 -14.501853 -0.045226034 -14.499401 -32.529812 -110.65236
71938000 -32.538578 -95.572914 -0.046282642 -14.702344 -0.045243561 -14.69655 -32.394737 -110.42623
72937000 -32.396461 -95.367523 -0.045265008 -14.901149 -0.045079298 -14.894022 -32.250854 -110.1205
73936000 -32.253078 -94.972069 -0.045349758 -15.100061 -0.044372618 -15.093984 -32.14307 -109.92552
74935000 -32.110237 -95.212814 -0.044896994 -15.291718 -0.043423411 -15.289922 -31.976637 -109.58183
75934000 -31.992722 -95.420937 -0.045116179 -15.504157 -0.043394651 -15.499195 -31.904747 -109.52206
76933000 -31.856871 -95.830566 -0.046018139 -15.695565 -0.045133442 -15.690185 -31.726366 -109.85574
77932000 -31.762018 -96.564125 -0.046973146 -15.893828 -0.046743926 -15.8914 -31.620529 -109.81614
78931000 -31.689116 -97.30484 -0.046098981 -16.093952 -0.045737434 -16.093082 -31.520468 -109.64622
79930000 -31.574354 -98.13353 -0.048445057 -16.287537 -0.048436418 -16.287704 -31.417494 -109.9976
80929000 -31.466587 -98.992996 -0.050169371 -16.483732 -0.049836028 -16.482725 -31.317829 -110.27215
81928000 -31.367743 -99.667992 -0.050492264 -16.675516 -0.050327543 -16.673759 -31.191633 -110.17275
82927000 -31.265684 -100.42673 -0.052780975 -16.877621 -0.051203348 -16.876324 -31.079365 -110.53344
83926000 -31.145582 -101.18633 -0.053626612 -17.075821 -0.052625336 -17.072744 -30.962034 -110.67503
84925000 -31.038027 -101.55949 -0.05369737 -17.276739 -0.052750841 -17.267317 -30.865013 -110.76548
85924000 -30.94766 -102.0619 -0.055126205 -17.474325 -0.054109644 -17.472105 -30.782598 -110.67203
86923000 -30.844772 -102.54606 -0.055694621 -17.675085 -0.054137953 -17.667206 -30.674095 -110.58118
87922000 -30.721352 -102.88285 -0.055036545 -17.878672 -0.054261666 -17.873171 -30.583183 -110.59885
88921000 -30.656878 -103.16834 -0.056478932 -18.08016 -0.055606257 -18.075216 -30.494406 -110.6455
89920000 -30.543541 -103.65545 -0.057017099 -18.276945 -0.055236056 -18.272039 -30.439144 -110.7585
90919000 -30.449371 -103.92503 -0.057992369 -18.474817 -0.056558918 -18.470341 -30.349585 -110.90992
91918000 -30.345463 -104.2669 -0.059450433 -18.676132 -0.057267584 -18.666971 -30.285528 -110.89067
92917000 -30.256399 -104.59048 -0.059837531 -18.872488 -0.058638558 -18.871902 -30.220579 -111.08366
93916000 -30.167957 -104.98228 -0.059323683 -19.068382 -0.05757343 -19.061981 -30.129671 -111.63419
94915000 -30.08712 -105.62119 -0.061071489 -19.268661 -0.058722783 -19.263639 -30.063477 -111.50803
95914000 -30.018291 -105.73016 -0.061823953 -19.46179 -0.060528357 -19.461195 -29.973309 -111.74851
96913000 -29.922045 -105.97703 -0.062945798 -19.66506 -0.060848873 -19.662903 -29.901508 -112.11642
97912000 -29.849848 -106.41238 -0.063970216 -19.859173 -0.061334021 -19.861483 -29.825008 -112.34843
98911000 -29.739525 -106.6062 -0.064861387 -20.064634 -0.06355989 -20.06175 -29.784851 -112.57511
99910000 -29.666574 -106.73817 -0.066039212 -20.260868 -0.063758478 -20.262346 -29.677359 -112.83432
100909000 -29.573923 -107.01698 -0.064855605 -20.470736 -0.062929779 -20.468266 -29.58802 -113.05901
101908000 -29.490681 -107.17304 -0.066376433 -20.672579 -0.064096838 -20.665392 -29.481258 -112.80051
102907000 -29.353018 -107.16419 -0.066193759 -20.873211 -0.064181693 -20.870293 -29.409946 -112.8168
103906000 -29.260931 -107.20705 -0.06722682 -21.080818 -0.06340754 -21.07131 -29.266409 -112.72086
104905000 -29.108334 -107.09276 -0.067348547 -21.275454 -0.063918196 -21.276733 -29.132288 -112.45325
105904000 -28.977362 -107.20638 -0.067512862 -21.478584 -0.064178802 -21.471323 -29.025126 -112.30589
106903000 -28.863621 -107.25556 -0.067399286 -21.685465 -0.065032966 -21.679867 -28.900782 -112.23246
107902000 -28.697828 -107.58672 -0.068027154 -21.883518 -0.065472066 -21.877457 -28.760441 -112.14796
108901000 -28.584528 -107.82038 -0.069245823 -22.085073 -0.066605635 -22.079052 -28.629936 -112.08031
109900000 -28.462269 -108.26712 -0.070278034 -22.287258 -0.068010591 -22.27762 -28.477718 -112.13407
110899000 -28.343248 -108.89065 -0.071329705 -22.486246 -0.068652488 -22.481222 -28.35047 -112.41673
111898000 -28.253338 -109.56579 -0.072571933 -22.687321 -0.069090642 -22.682167 -28.23242 -112.55743
112897000 -28.127707 -110.14133 -0.074151285 -22.88628 -0.070764765 -22.875143 -28.102911 -112.75517
113896000 -28.026184 -110.66586 -0.07567247 -23.083998 -0.072178431 -23.075794 -27.990711 -112.86263
114895000 -27.921297 -111.33892 -0.075812876 -23.285072 -0.074108101 -23.274603 -27.880381 -112.9509
115894000 -27.805676 -111.71642 -0.077529646 -23.488327 -0.074419349 -23.472652 -27.815006 -113.13862
116893000 -27.734381 -112.19301 -0.078758098 -23.682119 -0.07534349 -23.6661 -27.693081 -113.17422
117892000 -27.643658 -112.69533 -0.078330301 -23.880594 -0.075914294 -23.867964 -27.613197 -113.39732
118891000 -27.588991 -113.13736 -0.078922845 -24.08037 -0.076121874 -24.066261 -27.517422 -113.53586
119890000 -27.505636 -113.49335 -0.079231277 -24.283743 -0.076855078 -24.268847 -27.505726 -113.66122
120889000 -27.449615 -113.98834 -0.08121077 -24.480234 -0.077573657 -24.4685 -27.433716 -113.62866
121888000 -27.406494 -114.32961 -0.081345282 -24.678146 -0.077918887 -24.668671 -27.377527 -113.90515
122887000 -27.369835 -114.53709 -0.082357422 -24.880121 -0.078661092 -24.87122 -27.329348 -113.90277
123886000 -27.311302 -114.92954 -0.082354255 -25.088165 -0.078138955 -25.070265 -27.312229 -114.02664
124885000 -27.279169 -115.45786 -0.082332358 -25.28479 -0.07963939 -25.271906 -27.287697 -114.08775
125884000 -27.234842 -115.65935 -0.083901279 -25.484056 -0.07942795 -25.469105 -27.25857 -114.25178
126883000 -27.210268 -116.07063 -0.084007896 -25.689081 -0.08014062 -25.675577 -27.220827 -114.22934
127882000 -27.158768 -116.32867 -0.083953269 -25.887434 -0.081096828 -25.871023 -27.177774 -114.40054
128881000 -27.13509 -116.64003 -0.084333584 -26.091627 -0.080551185 -26.072876 -27.143641 -114.47631
129880000 -27.076954 -116.98501 -0.08540424 -26.29064 -0.081007421 -26.273785 -27.099512 -114.41259
130879000 -27.014376 -117.10499 -0.085001923 -26.492353 -0.082379848 -26.476414 -27.027739 -114.43282
131878000 -26.950838 -117.33524 -0.085168757 -26.692879 -0.082663983 -26.676489 -26.966358 -114.29871
132877000 -26.88088 -117.37778 -0.085089564 -26.896151 -0.0823313 -26.878574 -26.880503 -114.28481
133876000 -26.795452 -117.57571 -0.085771218 -27.097839 -0.082025819 -27.079638 -26.799114 -114.13417
134875000 -26.705511 -117.68369 -0.085817158 -27.299423 -0.08322493 -27.277128 -26.699223 -113.98205
135874000 -26.622757 -117.6935 -0.08627183 -27.4967 -0.082486428 -27.483654 -26.601019 -113.94901
136873000 -26.504509 -117.63124 -0.086579196 -27.698208 -0.082684301 -27.685163 -26.516191 -113.91301
137872000 -26.432131 -117.73708 -0.087064594 -27.897306 -0.083126508 -27.887537 -26.41548 -113.80329
138871000 -26.358738 -117.94164 -0.087012567 -28.103197 -0.083345257 -28.086721 -26.314869 -113.98202
139870000 -26.253689 -118.22697 -0.087622941 -28.303106 -0.084615216 -28.283659 -26.235086 -114.12329
140869000 -26.177916 -118.75439 -0.08910235 -28.497654 -0.084475316 -28.480925 -26.137657 -114.38362
141868000 -26.093906 -119.20084 -0.089107893 -28.696419 -0.086334676 -28.682396 -26.087538 -114.58884
142867000 -26.01635 -119.38193 -0.088204868 -28.894545 -0.085850157 -28.880264 -26.005598 -114.73801
143866000 -25.941372 -119.90097 -0.089406215 -29.091961 -0.087034218 -29.078455 -25.938538 -115.20979
144865000 -25.890068 -120.39389 -0.091164321 -29.290625 -0.08865504 -29.279078 -25.876432 -115.50523
145864000 -25.833673 -120.71024 -0.091563247 -29.492836 -0.089638762 -29.483406 -25.84495 -115.77756
146863000 -25.786512 -121.07879 -0.09252806 -29.69223 -0.09000054 -29.68372 -25.791807 -116.04366
147862000 -25.748182 -121.41877 -0.093792766 -29.89052 -0.090194263 -29.878212 -25.766884 -116.3635
148861000 -25.7127 -121.88003 -0.094734266 -30.089968 -0.092138566 -30.073866 -25.740519 -116.51637
149860000 -25.680273 -122.04719 -0.095727302 -30.285011 -0.092682756 -30.272509 -25.690187 -116.65324
150859000 -25.655539 -122.54807 -0.09551084 -30.478483 -0.092505321 -30.468758 -25.663626 -116.98648
151858000 -25.651464 -122.88058 -0.094615743 -30.680838 -0.09204179 -30.666473 -25.655777 -117.34982
152857000 -25.629753 -123.21241 -0.095012337 -30.877304 -0.092717402 -30.870062 -25.641508 -117.50383
153856000 -25.627001 -123.41383 -0.095307089 -31.080151 -0.091741703 -31.065361 -25.655863 -117.86614
154855000 -25.624861 -123.59959 -0.095021598 -31.279259 -0.092443705 -31.264576 -25.651686 -118.07738
155854000 -25.639267 -123.83858 -0.09581437 -31.478495 -0.092280559 -31.467876 -25.638458 -118.34185
156853000 -25.623268 -124.52334 -0.093955971 -31.669611 -0.091756776 -31.657097 -25.63303 -118.65788
157852000 -25.632389 -124.72331 -0.094811782 -31.869379 -0.093435161 -31.859041 -25.626766 -119.02926
158851000 -25.630411 -124.92484 -0.09536504 -32.067135 -0.093550749 -32.059475 -25.605595 -119.25758
159850000 -25.618507 -125.07335 -0.096127175 -32.267681 -0.093964435 -32.258381 -25.604977 -119.46392
160849000 -25.599018 -125.15367 -0.096397921 -32.46817 -0.094697222 -32.463142 -25.574026 -119.77664
161848000 -25.585167 -125.21329 -0.09689606 -32.666901 -0.094298542 -32.663414 -25.538982 -119.83949
162847000 -25.542212 -125.38841 -0.096721098 -32.865486 -0.094990373 -32.863159 -25.510874 -120.08367
163846000 -25.504946 -125.57273 -0.09681242 -33.065666 -0.094303571 -33.058376 -25.433519 -120.08161
164845000 -25.438404 -125.53814 -0.097272478 -33.267715 -0.095209457 -33.260418 -25.372231 -120.20038
165844000 -25.392603 -125.59762 -0.097455405 -33.469273 -0.09552037 -33.457565 -25.29146 -120.32571
166843000 -25.32991 -125.65171 -0.096168987 -33.665264 -0.095381185 -33.662548 -25.222754 -120.47964
167842000 -25.269665 -125.72377 -0.097835056 -33.864552 -0.095653735 -33.858265 -25.150805 -120.38477
168841000 -25.191877 -125.94951 -0.097737886 -34.065792 -0.096041694 -34.061092 -25.074419 -120.47884
169840000 -25.132242 -126.14369 -0.09810432 -34.262917 -0.096861653 -34.256779 -24.986341 -120.65331
170839000 -25.072222 -126.38659 -0.099515267 -34.4603 -0.096850529 -34.455967 -24.906876 -120.83784
171838000 -25.011662 -126.78493 -0.098673619 -34.65974 -0.098377578 -34.655262 -24.842047 -121.05729
172837000 -24.94257 -127.14427 -0.1006718 -34.857765 -0.098942675 -34.848225 -24.774654 -121.25548
173836000 -24.877823 -127.5288 -0.10187395 -35.057648 -0.099962898 -35.05571 -24.735504 -121.49113
174835000 -24.824589 -127.94054 -0.10239657 -35.250359 -0.10024872 -35.254509 -24.690565 -121.82478
175834000 -24.775505 -128.31335 -0.10345764 -35.452682 -0.10147884 -35.449722 -24.631964 -122.05888
176833000 -24.726835 -128.66432 -0.10403772 -35.654011 -0.10234912 -35.651882 -24.584734 -122.20106
177832000 -24.680712 -129.07803 -0.10482576 -35.852196 -0.10315967 -35.850376 -24.563702 -122.32269
178831000 -24.637499 -129.29897 -0.1063458 -36.045868 -0.10488889 -36.045769 -24.527519 -122.42837
179830000 -24.567766 -129.70024 -0.1075482 -36.233658 -0.10519121 -36.233204 -24.464855 -122.47449
180829000 -24.519445 -130.09451 -0.10694563 -36.424911 -0.10476027 -36.424213 -24.416527 -122.80061
181828000 -24.490549 -130.52769 -0.10651187 -36.623787 -0.10446566 -36.62632 -24.398132 -123.01421
182827000 -24.472313 -130.88918 -0.10581343 -36.823277 -0.10513048 -36.823994 -24.385538 -123.13954
183826000 -24.427221 -131.21352 -0.10739245 -37.021889 -0.10463908 -37.022266 -24.376774 -123.28769
184825000 -24.429714 -131.5882 -0.10685649 -37.218605 -0.10512915 -37.220394 -24.35853 -123.4099
185824000 -24.402977 -131.91992 -0.10710642 -37.41666 -0.10610202 -37.415005 -24.352654 -123.49529
186823000 -24.387947 -132.27785 -0.10656679 -37.613674 -0.1052652 -37.615116 -24.344719 -123.47844
187822000 -24.363014 -132.65048 -0.10789928 -37.809143 -0.105993 -37.81041 -24.30562 -123.57559
188821000 -24.339903 -132.92639 -0.10762038 -38.004814 -0.10633466 -38.011383 -24.283232 -123.71255
189820000 -24.315821 -133.20441 -0.10812883 -38.207977 -0.10632139 -38.207096 -24.272274 -123.91589
190819000 -24.285748 -133.47813 -0.10842262 -38.402012 -0.10689629 -38.402428 -24.232319 -123.90052
191818000 -24.250088 -133.76711 -0.10870635 -38.603077 -0.10721255 -38.603237 -24.206867 -123.98402
192817000 -24.205849 -134.03412 -0.10913263 -38.795753 -0.1071372 -38.798996 -24.157846 -124.05572
193816000 -24.172628 -134.32462 -0.10899195 -38.992565 -0.10725367 -38.994251 -24.105928 -124.18654
194815000 -24.107008 -134.67493 -0.10969462 -39.189476 -0.10855559 -39.193577 -24.039604 -124.24919
195814000 -24.054844 -134.86655 -0.11001002 -39.389591 -0.10808504 -39.390102 -23.983843 -124.34429
196813000 -24.000187 -135.19704 -0.10958312 -39.584682 -0.10806726 -39.584351 -23.902704 -124.49716
197812000 -23.936253 -135.45221 -0.11027872 -39.779362 -0.10878013 -39.779774 -23.834064 -124.60167
198811000 -23.888611 -135.57672 -0.11009604 -39.975288 -0.10834672 -39.97683 -23.763403 -124.76629
199810000 -23.816439 -135.92293 -0.1101587 -40.170414 -0.10871033 -40.17234 -23.685068 -124.83377
200809000 -23.760841 -136.17281 -0.11064807 -40.368099 -0.10903734 -40.371891 -23.60817 -125.02849
201808000 -23.702822 -136.39861 -0.11112713 -40.572681 -0.11060479 -40.571781 -23.540134 -125.09814
202807000 -23.64382 -136.72038 -0.11231837 -40.771931 -0.11100736 -40.776543 -23.485308 -125.31694
