!Keysight Technologies,E5080B,MY59205177,A.15.75.32
!Date: Friday, February 23, 2024 03:30:54
!Correction: S11(Cdelta 2-Port  ) 
!S21(Cdelta 2-Port  ) 
!S12(Cdelta 2-Port  ) 
!S22(Cdelta 2-Port  ) 
!S2P File: Measurements: S11, S21, S12, S22:
# Hz S  dB   R 50
10000000 -46.064281 -2.1875365 -0.015035718 -2.0495374 -0.018635109 -2.1021066 -45.992531 -158.36658
10999000 -45.253464 -3.9356484 -0.016520225 -2.2694881 -0.018505644 -2.3207588 -45.946377 -152.18666
11998000 -44.309937 -7.1682963 -0.017576369 -2.4916911 -0.017865397 -2.5348444 -46.206123 -147.49487
12997000 -43.574497 -12.45249 -0.016417846 -2.6737049 -0.01730711 -2.7068825 -45.773228 -141.94466
13996000 -43.263622 -16.51383 -0.015934572 -2.8538957 -0.018030453 -2.8732488 -45.571365 -136.29153
14995000 -42.852684 -20.735636 -0.018205134 -3.0663815 -0.018181739 -3.0892704 -45.29422 -132.8093
15994000 -42.720379 -25.258976 -0.018814754 -3.284565 -0.020349188 -3.3044636 -45.16021 -129.82144
16993000 -42.654755 -29.622866 -0.018142229 -3.4804063 -0.01978278 -3.4885714 -44.317833 -129.33641
17992000 -42.722012 -34.733532 -0.019174585 -3.6803885 -0.019902922 -3.6835496 -43.710705 -129.26208
18991000 -43.009682 -40.282581 -0.020203548 -3.8917432 -0.020904485 -3.88694 -43.10376 -128.20734
19990000 -42.781013 -45.911617 -0.022148762 -4.1013842 -0.022756072 -4.096035 -42.427692 -129.11839
20989000 -42.635231 -49.125782 -0.024310121 -4.3058352 -0.025100242 -4.2961178 -41.884247 -128.4261
21988000 -42.403202 -54.661079 -0.024968242 -4.5007396 -0.026526989 -4.4863305 -41.655666 -127.64297
22987000 -42.082104 -59.426922 -0.026106391 -4.6993694 -0.026797341 -4.6923337 -41.439667 -127.36227
23986000 -42.106903 -63.695354 -0.025448879 -4.8962111 -0.025644429 -4.896946 -41.283253 -127.33947
24985000 -41.692482 -66.321167 -0.026559286 -5.1048384 -0.026486881 -5.0995674 -41.096485 -124.60738
25984000 -41.349258 -68.268776 -0.027699415 -5.3134685 -0.026581163 -5.3126483 -40.722324 -122.94346
26983000 -41.05471 -70.438049 -0.02919816 -5.5130301 -0.028068321 -5.5315194 -40.645481 -122.19976
27982000 -40.89056 -71.213036 -0.030420054 -5.7097702 -0.028860429 -5.7430983 -40.364849 -120.66461
28981000 -40.876396 -72.885529 -0.028679065 -5.9079709 -0.028842708 -5.9324799 -40.120548 -119.93925
29980000 -40.431282 -74.316521 -0.027942743 -6.1074586 -0.029345145 -6.1083474 -39.856995 -119.23433
30979000 -40.057922 -73.122955 -0.026036859 -6.4592671 -0.024418674 -6.4514017 -39.37606 -119.66191
31978000 -39.83152 -74.153572 -0.02468629 -6.6530652 -0.02517679 -6.6452703 -39.124653 -118.76879
32977000 -39.654617 -75.878723 -0.024144046 -6.8649845 -0.025098421 -6.8621531 -38.87886 -118.77124
33976000 -39.467827 -76.734871 -0.026034255 -7.0658364 -0.025412165 -7.0608201 -38.599689 -118.14507
34975000 -39.193493 -77.67627 -0.025676718 -7.266396 -0.027058331 -7.2665009 -38.362366 -117.91409
35974000 -38.976273 -78.258301 -0.025480906 -7.4629493 -0.026605384 -7.4651613 -38.084991 -117.01414
36973000 -38.747185 -78.841934 -0.025132788 -7.6627054 -0.02894095 -7.665925 -37.809364 -116.07121
37972000 -38.567867 -78.60247 -0.025523609 -7.8719578 -0.028315058 -7.8794684 -37.593441 -115.21301
38971000 -38.232765 -78.044128 -0.026536105 -8.0742388 -0.028058421 -8.0870457 -37.425888 -113.73624
39970000 -37.905922 -78.452797 -0.02394622 -8.2666311 -0.026551733 -8.2832489 -37.166576 -113.06519
40969000 -37.619202 -77.980484 -0.024621988 -8.4658098 -0.027264634 -8.4816675 -36.943241 -111.52364
41968000 -37.258747 -77.965271 -0.025109615 -8.6689053 -0.027350858 -8.6887989 -36.745987 -110.41559
42967000 -37.004082 -78.058327 -0.025377015 -8.8813324 -0.026732747 -8.9016266 -36.535103 -108.4649
43966000 -36.686161 -78.739807 -0.026131392 -9.0782261 -0.029090011 -9.098526 -36.273235 -107.67558
44965000 -36.49184 -79.490242 -0.026672322 -9.2818146 -0.02842371 -9.3030281 -36.059437 -107.49256
45964000 -36.23164 -80.527351 -0.027529301 -9.4862185 -0.030061373 -9.5042772 -35.811932 -107.10718
46963000 -36.061634 -82.540627 -0.027454276 -9.6818075 -0.030270686 -9.7006283 -35.632927 -107.32726
47962000 -35.881699 -83.789459 -0.029921664 -9.8829908 -0.031860024 -9.9002829 -35.434116 -107.38072
48961000 -35.661331 -85.278587 -0.031631079 -10.078595 -0.032928512 -10.10223 -35.204906 -107.56208
49960000 -35.443245 -86.635551 -0.033157788 -10.279526 -0.034221377 -10.302296 -35.068085 -107.50526
50959000 -35.204262 -87.959747 -0.033343773 -10.493622 -0.035500273 -10.503186 -34.888241 -107.82903
51958000 -35.00901 -88.977821 -0.03574926 -10.691978 -0.037277419 -10.701304 -34.704353 -108.28861
52957000 -34.792244 -90.048615 -0.037115023 -10.893078 -0.037599094 -10.903743 -34.551373 -108.06799
53956000 -34.620724 -90.72979 -0.038692761 -11.094728 -0.038944282 -11.09853 -34.405029 -107.99932
54955000 -34.461586 -91.116722 -0.03858516 -11.298087 -0.039560478 -11.292055 -34.262611 -107.95782
55954000 -34.291393 -92.028938 -0.040261671 -11.498561 -0.039685607 -11.497659 -34.156418 -107.68321
56953000 -34.181503 -92.188545 -0.039143577 -11.696368 -0.03913391 -11.684814 -34.09594 -107.87498
57952000 -34.004128 -92.707642 -0.040874392 -11.892948 -0.040051352 -11.885469 -33.989464 -108.00648
58951000 -33.87318 -93.029602 -0.041892566 -12.101103 -0.041181181 -12.080417 -33.841572 -108.00951
59950000 -33.756519 -93.478867 -0.042298231 -12.297885 -0.041427094 -12.274479 -33.75964 -108.25473
60949000 -33.640888 -93.900742 -0.042977907 -12.503058 -0.042452976 -12.479736 -33.667721 -108.5603
61948000 -33.577599 -94.269508 -0.043726195 -12.702592 -0.04215499 -12.684455 -33.579422 -108.64473
62947000 -33.494823 -94.519981 -0.043431256 -12.916611 -0.043289024 -12.892441 -33.438839 -108.86636
63946000 -33.410412 -95.2407 -0.04480179 -13.11057 -0.043937474 -13.093605 -33.340782 -109.05665
64945000 -33.308067 -95.364838 -0.045358915 -13.311567 -0.044432245 -13.294078 -33.232464 -109.47839
65944000 -33.207111 -95.686218 -0.045989625 -13.51406 -0.04470633 -13.497373 -33.138786 -110.03339
66943000 -33.067318 -96.023346 -0.044320315 -13.713953 -0.04316745 -13.698575 -33.037258 -110.20372
67942000 -33.004314 -96.014191 -0.046445381 -13.91314 -0.044807546 -13.902884 -32.905579 -110.49603
68941000 -32.897415 -96.116936 -0.045789491 -14.106591 -0.0442314 -14.094219 -32.799709 -110.53197
69940000 -32.793613 -96.143799 -0.045844167 -14.303494 -0.045012861 -14.298747 -32.663342 -110.72848
70939000 -32.689045 -95.980598 -0.04582664 -14.499901 -0.045312352 -14.495751 -32.523472 -110.65107
71938000 -32.547508 -95.600166 -0.045961108 -14.702214 -0.044458918 -14.692022 -32.401031 -110.459
72937000 -32.385242 -95.39238 -0.045663141 -14.896435 -0.043954734 -14.890031 -32.256775 -110.17952
73936000 -32.242382 -95.008026 -0.045314446 -15.096912 -0.043817449 -15.093955 -32.133152 -109.9848
74935000 -32.11491 -95.265381 -0.044516195 -15.295312 -0.043220259 -15.288955 -31.973536 -109.66285
75934000 -31.987862 -95.478691 -0.04496238 -15.503737 -0.043083001 -15.496782 -31.895838 -109.55118
76933000 -31.864004 -95.832382 -0.045804143 -15.697696 -0.044405308 -15.691381 -31.70895 -109.94882
77932000 -31.757 -96.590256 -0.047454655 -15.894011 -0.046248894 -15.886426 -31.623857 -109.81081
78931000 -31.682655 -97.332977 -0.046351716 -16.095894 -0.045345314 -16.090204 -31.520739 -109.72249
79930000 -31.564774 -98.185097 -0.04869112 -16.287546 -0.047822628 -16.287542 -31.414968 -109.98383
80929000 -31.454527 -99.027763 -0.049832098 -16.485926 -0.049757212 -16.481253 -31.30995 -110.2627
81928000 -31.346951 -99.801704 -0.050505623 -16.674673 -0.050022203 -16.674683 -31.174929 -110.17751
82927000 -31.25898 -100.48715 -0.0525373 -16.877672 -0.050862588 -16.87462 -31.073799 -110.55787
83926000 -31.14213 -101.19612 -0.053967323 -17.073374 -0.051777013 -17.077711 -30.950634 -110.71245
84925000 -31.028294 -101.60371 -0.054652497 -17.272722 -0.052370664 -17.269873 -30.855808 -110.79383
85924000 -30.948956 -102.00572 -0.054779634 -17.47233 -0.052926399 -17.473602 -30.772764 -110.70872
86923000 -30.837389 -102.51647 -0.055249952 -17.671719 -0.054287616 -17.667484 -30.671404 -110.58804
87922000 -30.716322 -102.8604 -0.055612028 -17.880445 -0.053360086 -17.872532 -30.575108 -110.63172
88921000 -30.637398 -103.0999 -0.057118341 -18.076645 -0.054881349 -18.076725 -30.486908 -110.58884
89920000 -30.54117 -103.69409 -0.057261553 -18.277014 -0.055427708 -18.270149 -30.428919 -110.72332
90919000 -30.436119 -103.92544 -0.057927832 -18.473333 -0.056336533 -18.471436 -30.336645 -110.91286
91918000 -30.337023 -104.29704 -0.058509469 -18.673647 -0.056404192 -18.668934 -30.273376 -110.91559
92917000 -30.249132 -104.59062 -0.060043558 -18.872259 -0.057501558 -18.870201 -30.210247 -110.99838
93916000 -30.151051 -104.95506 -0.058773946 -19.066572 -0.057471916 -19.063896 -30.125635 -111.62218
94915000 -30.081205 -105.55077 -0.060712632 -19.272474 -0.057949871 -19.263361 -30.057943 -111.4977
95914000 -30.010519 -105.76553 -0.06183603 -19.464283 -0.059647519 -19.461214 -29.962744 -111.78168
96913000 -29.920862 -105.96582 -0.063001744 -19.664608 -0.060343042 -19.663229 -29.899324 -112.12064
97912000 -29.847479 -106.4446 -0.063715138 -19.859695 -0.061076477 -19.864285 -29.834427 -112.39211
98911000 -29.736319 -106.59775 -0.064691909 -20.061281 -0.062215727 -20.060226 -29.786007 -112.57215
99910000 -29.668272 -106.71304 -0.065283656 -20.261942 -0.062874891 -20.261957 -29.674252 -112.83811
100909000 -29.574299 -107.01156 -0.064677201 -20.469221 -0.061533034 -20.464436 -29.584074 -113.06721
101908000 -29.490948 -107.18768 -0.065795317 -20.667967 -0.063240491 -20.669666 -29.479645 -112.85989
102907000 -29.356041 -107.19332 -0.065912269 -20.873322 -0.063314036 -20.870161 -29.402134 -112.82394
103906000 -29.254028 -107.22984 -0.066654794 -21.07732 -0.063501313 -21.075142 -29.261244 -112.82777
104905000 -29.112661 -107.1321 -0.06742689 -21.278709 -0.063847274 -21.274189 -29.132261 -112.48905
105904000 -28.97098 -107.21088 -0.067448184 -21.477146 -0.063236289 -21.467741 -29.018902 -112.32233
106903000 -28.86364 -107.31554 -0.067228928 -21.685419 -0.063946046 -21.678667 -28.900043 -112.22789
107902000 -28.699814 -107.60754 -0.068143904 -21.887726 -0.064574994 -21.87373 -28.75009 -112.15556
108901000 -28.580606 -107.88264 -0.069321834 -22.084534 -0.065524891 -22.077494 -28.629978 -112.10609
109900000 -28.461809 -108.336 -0.069990762 -22.289215 -0.067201585 -22.277836 -28.476021 -112.19845
110899000 -28.336834 -108.92969 -0.071769968 -22.485037 -0.067738712 -22.475809 -28.349134 -112.42937
111898000 -28.249622 -109.61175 -0.072875172 -22.684723 -0.068971239 -22.680244 -28.236841 -112.57883
112897000 -28.127831 -110.14452 -0.074356675 -22.887753 -0.070150703 -22.872673 -28.099043 -112.76988
113896000 -28.027311 -110.73945 -0.075163066 -23.086697 -0.071524173 -23.075356 -27.993889 -112.92127
114895000 -27.92259 -111.35788 -0.076370299 -23.283222 -0.07288228 -23.272814 -27.880064 -112.99665
115894000 -27.798489 -111.71425 -0.077323839 -23.488317 -0.07378713 -23.47415 -27.804644 -113.18106
116893000 -27.723881 -112.23322 -0.078119181 -23.684147 -0.074719824 -23.665138 -27.693592 -113.20067
117892000 -27.64113 -112.71786 -0.078101791 -23.878441 -0.075069837 -23.866617 -27.609188 -113.45522
118891000 -27.581409 -113.14021 -0.079232596 -24.081015 -0.075061142 -24.070766 -27.512598 -113.5356
119890000 -27.499971 -113.47257 -0.079333827 -24.282034 -0.075846851 -24.267454 -27.500101 -113.67803
120889000 -27.443598 -114.02672 -0.080900878 -24.484125 -0.076341055 -24.466251 -27.428055 -113.62027
121888000 -27.412516 -114.32603 -0.080410898 -24.678194 -0.077063501 -24.666544 -27.374861 -113.83595
122887000 -27.368582 -114.52496 -0.081565253 -24.88475 -0.07760343 -24.86721 -27.325827 -113.89302
123886000 -27.310568 -114.95454 -0.082004711 -25.085796 -0.078016132 -25.068438 -27.313177 -114.00326
124885000 -27.284407 -115.44703 -0.082582988 -25.282679 -0.078510061 -25.271257 -27.288477 -114.03851
125884000 -27.22378 -115.63638 -0.083516516 -25.481024 -0.078651078 -25.473108 -27.261011 -114.18063
126883000 -27.206659 -116.02296 -0.083648987 -25.68874 -0.079229429 -25.676394 -27.221115 -114.20634
127882000 -27.161381 -116.33095 -0.083990745 -25.887075 -0.079681046 -25.870464 -27.178507 -114.33778
128881000 -27.130636 -116.65211 -0.084358923 -26.088488 -0.080020912 -26.073524 -27.143179 -114.44532
129880000 -27.076904 -117.00054 -0.085169815 -26.290592 -0.079476722 -26.271343 -27.104624 -114.3878
130879000 -27.01483 -117.09389 -0.084679089 -26.490896 -0.080933839 -26.47646 -27.029316 -114.45048
131878000 -26.946325 -117.32931 -0.085089564 -26.69124 -0.081198104 -26.67626 -26.971153 -114.29381
132877000 -26.883097 -117.45117 -0.084390327 -26.896242 -0.081030898 -26.879002 -26.893438 -114.27493
133876000 -26.798481 -117.57821 -0.085334279 -27.098738 -0.081048302 -27.082836 -26.797337 -114.19084
134875000 -26.706354 -117.72015 -0.085400544 -27.296013 -0.081986777 -27.282396 -26.704252 -114.02996
135874000 -26.618502 -117.72321 -0.085871547 -27.494345 -0.081818476 -27.479885 -26.599323 -113.91369
136873000 -26.509571 -117.63045 -0.086371906 -27.697994 -0.081998907 -27.685329 -26.516878 -113.92979
137872000 -26.428198 -117.80082 -0.085872866 -27.900942 -0.082198344 -27.890469 -26.417173 -113.87476
138871000 -26.356308 -117.95282 -0.086959742 -28.100933 -0.082702503 -28.087467 -26.319603 -114.00137
139870000 -26.250141 -118.27437 -0.08702603 -28.302147 -0.083106458 -28.286856 -26.238783 -114.15131
140869000 -26.177429 -118.79893 -0.08791931 -28.496183 -0.084571928 -28.480051 -26.133249 -114.37952
141868000 -26.092636 -119.19453 -0.088698365 -28.694094 -0.086053729 -28.68379 -26.084154 -114.64624
142867000 -26.015705 -119.40415 -0.087692142 -28.896807 -0.085059732 -28.876274 -26.009388 -114.75054
143866000 -25.941029 -119.92667 -0.089788064 -29.091654 -0.086233281 -29.076067 -25.931684 -115.2595
144865000 -25.882292 -120.41938 -0.090597063 -29.291561 -0.087782212 -29.27795 -25.87582 -115.52438
145864000 -25.824579 -120.72881 -0.091213495 -29.491795 -0.088950418 -29.481932 -25.840357 -115.79645
146863000 -25.783239 -121.06409 -0.091948725 -29.692425 -0.089183204 -29.682957 -25.785536 -116.08801
147862000 -25.743549 -121.42959 -0.093072832 -29.890926 -0.090296283 -29.875504 -25.757059 -116.38996
148861000 -25.710915 -121.88984 -0.094283201 -30.087711 -0.09129148 -30.074656 -25.735437 -116.55074
149860000 -25.674095 -122.06697 -0.095467709 -30.282316 -0.091724522 -30.267756 -25.679146 -116.63979
150859000 -25.655781 -122.57682 -0.095623039 -30.477247 -0.091825783 -30.464188 -25.666693 -117.01387
151858000 -25.637865 -122.84186 -0.094730295 -30.679728 -0.091249444 -30.662066 -25.653704 -117.30021
152857000 -25.628164 -123.22548 -0.094367586 -30.879862 -0.091386914 -30.867111 -25.634447 -117.54169
153856000 -25.624786 -123.40472 -0.094382137 -31.075424 -0.090585433 -31.065504 -25.654299 -117.82227
154855000 -25.619938 -123.60773 -0.095003337 -31.279894 -0.091653138 -31.267214 -25.648926 -118.04002
155854000 -25.638208 -123.85081 -0.095927365 -31.476921 -0.091829479 -31.467751 -25.631428 -118.32863
156853000 -25.626282 -124.49435 -0.093427226 -31.667101 -0.091135509 -31.660345 -25.630383 -118.68012
157852000 -25.628538 -124.75645 -0.094853319 -31.867729 -0.09249527 -31.860388 -25.623955 -118.98616
158851000 -25.628225 -124.97047 -0.095524602 -32.065231 -0.093034483 -32.058582 -25.607428 -119.27392
159850000 -25.618042 -125.07262 -0.095709838 -32.264523 -0.092868134 -32.258114 -25.606781 -119.44426
160849000 -25.598219 -125.1855 -0.095764354 -32.464264 -0.093820274 -32.459778 -25.576759 -119.763
161848000 -25.580465 -125.20985 -0.096856356 -32.670219 -0.093291812 -32.657684 -25.535746 -119.87227
162847000 -25.544056 -125.40393 -0.096819296 -32.863674 -0.094967358 -32.861103 -25.51306 -120.11153
163846000 -25.501196 -125.62013 -0.09675207 -33.069599 -0.093976609 -33.058048 -25.437027 -120.13467
164845000 -25.444904 -125.55621 -0.096859269 -33.270378 -0.094945922 -33.259518 -25.370714 -120.19868
165844000 -25.387383 -125.63968 -0.097016238 -33.466095 -0.094883218 -33.459419 -25.297764 -120.36526
166843000 -25.327681 -125.69533 -0.096730359 -33.664577 -0.095187493 -33.660019 -25.227526 -120.51313
167842000 -25.273006 -125.7927 -0.097570039 -33.865028 -0.0954521 -33.857246 -25.149984 -120.42673
168841000 -25.193546 -125.9478 -0.097238593 -34.059696 -0.096133001 -34.057621 -25.067081 -120.47978
169840000 -25.128071 -126.19899 -0.097808577 -34.257179 -0.095940337 -34.255543 -24.985123 -120.68182
170839000 -25.07032 -126.40926 -0.098813444 -34.460533 -0.096540317 -34.455841 -24.907309 -120.84785
171838000 -25.009233 -126.79433 -0.098732412 -34.66106 -0.097183533 -34.653728 -24.841908 -121.09155
172837000 -24.941755 -127.15856 -0.1003327 -34.85276 -0.098531686 -34.85014 -24.774641 -121.30598
173836000 -24.873854 -127.5184 -0.10160577 -35.055126 -0.099582009 -35.052361 -24.732203 -121.48464
174835000 -24.823168 -127.96157 -0.10192563 -35.252407 -0.10049164 -35.251156 -24.687315 -121.80432
175834000 -24.774231 -128.33063 -0.10222244 -35.456326 -0.10134795 -35.449005 -24.629107 -122.09795
176833000 -24.723495 -128.65288 -0.10420369 -35.652214 -0.10188375 -35.650063 -24.574766 -122.22771
177832000 -24.679398 -129.09851 -0.1044251 -35.848949 -0.10300672 -35.852104 -24.561609 -122.36161
178831000 -24.633135 -129.33658 -0.10645987 -36.048836 -0.10469689 -36.044567 -24.519722 -122.43189
179830000 -24.562677 -129.72052 -0.107549 -36.232635 -0.1054474 -36.234734 -24.451584 -122.48308
180829000 -24.510576 -130.05673 -0.10585162 -36.426174 -0.10492813 -36.430614 -24.412161 -122.78929
181828000 -24.48703 -130.50568 -0.10593571 -36.626045 -0.10415225 -36.622051 -24.393757 -123.01141
182827000 -24.469042 -130.88457 -0.10618797 -36.822124 -0.10429437 -36.824554 -24.382103 -123.13353
183826000 -24.424938 -131.22754 -0.10713189 -37.02076 -0.10419892 -37.020058 -24.375517 -123.28226
184825000 -24.428383 -131.58209 -0.10659119 -37.217014 -0.10523602 -37.216972 -24.358044 -123.41521
185824000 -24.40156 -131.91724 -0.10637525 -37.41188 -0.10529517 -37.411476 -24.350555 -123.45328
186823000 -24.384954 -132.30539 -0.10673976 -37.616051 -0.10526653 -37.610298 -24.343653 -123.47831
187822000 -24.35882 -132.64281 -0.10759836 -37.806519 -0.10616144 -37.810036 -24.303703 -123.54182
188821000 -24.334805 -132.88795 -0.10691486 -38.006504 -0.10572059 -38.009842 -24.284737 -123.67966
189820000 -24.313808 -133.20142 -0.10707325 -38.205151 -0.10583836 -38.205292 -24.27009 -123.88459
190819000 -24.280558 -133.48714 -0.10792422 -38.404404 -0.10603226 -38.401123 -24.232752 -123.94932
191818000 -24.250834 -133.76894 -0.10778835 -38.600594 -0.10635243 -38.600826 -24.199274 -123.94668
192817000 -24.202023 -134.03717 -0.10850728 -38.798935 -0.1069276 -38.797173 -24.158796 -124.04473
193816000 -24.169941 -134.31833 -0.10853834 -38.99432 -0.10671747 -38.994095 -24.107189 -124.1896
194815000 -24.109694 -134.72652 -0.10939994 -39.18903 -0.10725553 -39.192104 -24.039356 -124.25732
195814000 -24.051102 -134.91231 -0.11026013 -39.389175 -0.10773369 -39.387074 -23.986557 -124.36819
196813000 -23.997997 -135.22542 -0.10976975 -39.58263 -0.10774536 -39.587769 -23.902397 -124.49012
197812000 -23.938663 -135.45 -0.10937234 -39.782154 -0.10810892 -39.776699 -23.832169 -124.61109
198811000 -23.889488 -135.61938 -0.10947056 -39.978889 -0.10811874 -39.980076 -23.76362 -124.76596
199810000 -23.817509 -135.93315 -0.11028244 -40.171303 -0.10817845 -40.170662 -23.688547 -124.86842
200809000 -23.758366 -136.20601 -0.11005675 -40.366985 -0.10884622 -40.369766 -23.60671 -125.04408
201808000 -23.696995 -136.39386 -0.11119007 -40.569241 -0.11020225 -40.575104 -23.53726 -125.11469
202807000 -23.643059 -136.75992 -0.11172974 -40.770473 -0.10977957 -40.773258 -23.482668 -125.3303
