!Keysight Technologies,E5080B,MY59205177,A.15.75.32
!Date: Friday, February 23, 2024 02:52:39
!Correction: S11(Cdelta 2-Port  ) 
!S21(Cdelta 2-Port  ) 
!S12(Cdelta 2-Port  ) 
!S22(Cdelta 2-Port  ) 
!S2P File: Measurements: S11, S21, S12, S22:
# Hz S  dB   R 50
10000000 -43.028446 -3.9279745 -0.034830637 -2.0473948 -0.038779736 -2.1000593 -49.94455 -143.27551
10999000 -42.467854 -5.1678081 -0.036219865 -2.2639804 -0.038314596 -2.3145704 -49.293369 -134.51189
11998000 -41.77227 -7.3061905 -0.036019664 -2.4856119 -0.037769079 -2.5269525 -49.366501 -128.0657
12997000 -41.187809 -11.812844 -0.035735164 -2.6649008 -0.038056582 -2.6951833 -48.498699 -121.48675
13996000 -40.992813 -14.726274 -0.035018783 -2.8451462 -0.038033865 -2.8678672 -47.923939 -115.06288
14995000 -40.744347 -17.897924 -0.0367832 -3.0523775 -0.037764382 -3.0799904 -47.303246 -112.53348
15994000 -40.608299 -21.622465 -0.037875358 -3.2732403 -0.04034606 -3.2939684 -46.993706 -108.55379
16993000 -40.634003 -24.985928 -0.03680069 -3.4702306 -0.039086632 -3.4795275 -46.026222 -110.52496
17992000 -40.737686 -29.276627 -0.037739314 -3.6701317 -0.039745431 -3.6696725 -45.492218 -111.89729
18991000 -41.013874 -33.049908 -0.039083239 -3.8778095 -0.040836241 -3.8801358 -44.68848 -112.10268
19990000 -40.936974 -37.556995 -0.04118719 -4.0854864 -0.042738959 -4.0834007 -43.96455 -114.60115
20989000 -40.859245 -40.57999 -0.042601716 -4.2890468 -0.044923671 -4.281044 -43.332886 -114.93684
21988000 -40.840363 -44.825851 -0.043630492 -4.4870887 -0.045395534 -4.4747124 -43.067078 -114.50568
22987000 -40.679581 -49.126247 -0.044672851 -4.6878715 -0.046533033 -4.6765294 -42.75705 -114.18221
23986000 -40.745529 -52.664017 -0.043927275 -4.8779383 -0.045535743 -4.8788404 -42.612782 -114.18188
24985000 -40.477177 -55.378429 -0.045893874 -5.0900946 -0.045826901 -5.086298 -42.366005 -111.95905
25984000 -40.26321 -57.373993 -0.046315871 -5.2978926 -0.04658667 -5.2986031 -41.933453 -110.85988
26983000 -39.992157 -59.808498 -0.046721946 -5.4893556 -0.047471665 -5.5103531 -41.809017 -109.96471
27982000 -39.867943 -60.5373 -0.048750546 -5.6932344 -0.04887332 -5.7268929 -41.455124 -108.57932
28981000 -39.920395 -61.955574 -0.046696305 -5.8905773 -0.048078079 -5.9185967 -41.158382 -107.89191
29980000 -39.529945 -63.543129 -0.04626302 -6.0810161 -0.049552195 -6.0893917 -40.835499 -107.32382
30979000 -39.18132 -63.143166 -0.044530317 -6.4409242 -0.04321111 -6.4315319 -40.334747 -108.69452
31978000 -39.018974 -64.168312 -0.043257125 -6.6326947 -0.045021493 -6.6246171 -40.041378 -108.00325
32977000 -38.885963 -65.89637 -0.042730857 -6.840909 -0.04509839 -6.8351693 -39.78503 -108.44264
33976000 -38.729301 -67.096207 -0.044080511 -7.0439672 -0.046398547 -7.0369029 -39.475719 -108.22091
34975000 -38.466724 -68.183632 -0.044471212 -7.243845 -0.04687345 -7.2442584 -39.214993 -108.13264
35974000 -38.288368 -68.800415 -0.043164574 -7.4391141 -0.046660457 -7.4389744 -38.890038 -107.45961
36973000 -38.064384 -69.915077 -0.043414783 -7.637949 -0.047377452 -7.6418657 -38.600986 -106.63148
37972000 -37.91975 -69.799797 -0.043730639 -7.8460612 -0.047230642 -7.8605003 -38.336632 -106.0648
38971000 -37.595364 -69.655472 -0.044424661 -8.0465593 -0.047544684 -8.0630789 -38.12867 -104.56465
39970000 -37.265274 -70.271141 -0.043206666 -8.2469349 -0.046270084 -8.2585449 -37.842522 -104.15001
40969000 -36.98204 -70.305801 -0.043108102 -8.4383173 -0.046803325 -8.4574594 -37.559185 -102.85372
41968000 -36.663235 -70.472488 -0.043449298 -8.6415443 -0.046793643 -8.6650572 -37.31493 -101.94921
42967000 -36.406326 -70.891556 -0.043241438 -8.8566313 -0.046879992 -8.8741379 -37.08131 -100.12636
43966000 -36.127415 -71.789673 -0.044119738 -9.0532942 -0.048116293 -9.0734024 -36.774052 -99.501785
44965000 -35.926674 -72.691711 -0.045482904 -9.257082 -0.049188789 -9.2765255 -36.561119 -99.480225
45964000 -35.724442 -73.949715 -0.046048488 -9.455287 -0.049473908 -9.4754982 -36.315533 -99.461151
46963000 -35.581436 -75.949959 -0.045988053 -9.6494942 -0.049900442 -9.6740637 -36.13987 -99.985245
47962000 -35.42651 -77.436432 -0.047862411 -9.8511724 -0.051528152 -9.8682413 -35.935558 -100.16393
48961000 -35.264591 -78.932503 -0.050279357 -10.047853 -0.052851196 -10.068485 -35.691635 -100.53596
49960000 -35.061684 -80.411446 -0.051777534 -10.243785 -0.054192469 -10.273661 -35.560646 -100.80333
50959000 -34.862495 -81.760925 -0.05159495 -10.462453 -0.055780098 -10.469928 -35.377903 -101.17216
51958000 -34.679577 -82.998795 -0.053942163 -10.660674 -0.056497816 -10.666593 -35.210033 -101.86018
52957000 -34.494553 -84.187569 -0.055646636 -10.859878 -0.057526741 -10.865691 -35.037979 -101.66705
53956000 -34.345226 -84.990425 -0.056634188 -11.062943 -0.058440205 -11.065767 -34.889423 -101.80023
54955000 -34.178444 -85.565529 -0.05719965 -11.265472 -0.059263326 -11.256697 -34.743481 -101.88293
55954000 -34.036694 -86.524223 -0.058325816 -11.459274 -0.06019868 -11.456249 -34.630226 -101.73834
56953000 -33.918865 -86.628395 -0.057816342 -11.65727 -0.058634624 -11.647591 -34.589237 -102.01948
57952000 -33.763283 -87.373604 -0.059025846 -11.85561 -0.060221251 -11.845457 -34.464706 -102.16899
58951000 -33.649715 -87.72641 -0.060094479 -12.068915 -0.061086714 -12.042061 -34.30254 -102.33952
59950000 -33.530113 -88.125282 -0.060426511 -12.264371 -0.062181588 -12.242624 -34.242477 -102.61141
60949000 -33.421871 -88.787186 -0.061263397 -12.467208 -0.062022984 -12.444267 -34.145355 -102.86616
61948000 -33.366768 -89.014595 -0.061685842 -12.660713 -0.061604712 -12.643517 -34.060165 -103.03218
62947000 -33.281353 -89.321312 -0.061896686 -12.87388 -0.062527962 -12.854917 -33.920574 -103.35834
63946000 -33.217243 -90.051506 -0.06321869 -13.076653 -0.063615844 -13.052479 -33.816071 -103.6313
64945000 -33.110268 -90.277367 -0.063379176 -13.272117 -0.063779496 -13.255579 -33.705532 -104.15067
65944000 -33.021713 -90.679016 -0.064186156 -13.471094 -0.064658806 -13.453208 -33.614353 -104.54228
66943000 -32.88026 -91.063972 -0.062039789 -13.673855 -0.06319952 -13.657905 -33.513939 -104.86798
67942000 -32.811649 -90.991493 -0.064261034 -13.872421 -0.065127298 -13.858766 -33.393574 -105.26487
68941000 -32.705143 -91.145363 -0.063647628 -14.062238 -0.064434431 -14.052107 -33.287441 -105.13898
69940000 -32.6059 -91.174171 -0.063690446 -14.260584 -0.065054253 -14.25327 -33.140762 -105.50875
70939000 -32.492455 -91.13723 -0.064745508 -14.463397 -0.064778619 -14.453029 -33.001923 -105.46149
71938000 -32.350086 -90.741875 -0.063500792 -14.655313 -0.065206923 -14.645831 -32.873039 -105.45133
72937000 -32.188099 -90.693443 -0.062984146 -14.855477 -0.064092636 -14.846885 -32.739662 -105.11433
73936000 -32.042576 -90.374802 -0.063109167 -15.049567 -0.064495645 -15.043625 -32.607628 -104.9134
74935000 -31.923946 -90.63105 -0.062291615 -15.248403 -0.062738061 -15.245566 -32.460384 -104.65121
75934000 -31.793509 -91.017754 -0.062126968 -15.452912 -0.062027976 -15.45312 -32.366951 -104.59738
76933000 -31.683893 -91.428329 -0.063459292 -15.648018 -0.064221628 -15.641671 -32.20052 -104.98565
77932000 -31.591492 -92.199707 -0.064869791 -15.847922 -0.065845773 -15.838673 -32.094311 -105.04263
78931000 -31.52562 -92.954201 -0.064226352 -16.046467 -0.064679034 -16.04571 -32.001991 -104.94032
79930000 -31.418699 -93.80127 -0.066508122 -16.236616 -0.067398496 -16.237867 -31.90336 -105.29612
80929000 -31.296553 -94.841927 -0.067908041 -16.433056 -0.06901595 -16.428112 -31.799051 -105.66979
81928000 -31.226339 -95.713081 -0.067991659 -16.626707 -0.069046453 -16.623251 -31.68017 -105.76704
82927000 -31.132635 -96.414299 -0.069670886 -16.823807 -0.070773184 -16.822832 -31.583815 -106.15286
83926000 -31.023891 -97.107407 -0.071158133 -17.021488 -0.072247125 -17.025631 -31.469902 -106.43973
84925000 -30.916897 -97.68483 -0.072220281 -17.221382 -0.07195656 -17.214947 -31.359961 -106.56158
85924000 -30.834562 -98.202499 -0.072493233 -17.423483 -0.07327953 -17.415728 -31.283342 -106.5479
86923000 -30.731129 -98.686089 -0.073136054 -17.619749 -0.073524371 -17.61264 -31.180506 -106.52173
87922000 -30.617434 -99.141579 -0.072230287 -17.825439 -0.073143423 -17.814476 -31.085598 -106.54736
88921000 -30.561914 -99.445267 -0.074488342 -18.025497 -0.074284792 -18.02035 -30.987679 -106.59333
89920000 -30.463469 -100.03895 -0.075006627 -18.21887 -0.074919716 -18.216358 -30.94614 -106.8149
90919000 -30.361935 -100.40108 -0.076245427 -18.416485 -0.075475447 -18.415083 -30.859322 -107.03677
91918000 -30.272419 -100.80184 -0.076546557 -18.618711 -0.076198272 -18.612612 -30.787569 -107.08385
92917000 -30.185059 -101.13344 -0.077010013 -18.818323 -0.077131219 -18.811285 -30.719713 -107.19821
93916000 -30.102524 -101.5321 -0.076996312 -19.010183 -0.077590257 -19.006908 -30.64209 -107.85128
94915000 -30.036232 -102.19576 -0.078879349 -19.212797 -0.078183755 -19.203581 -30.571981 -107.72884
95914000 -29.965149 -102.44297 -0.079313263 -19.4058 -0.079425044 -19.400484 -30.479454 -108.04982
96913000 -29.88517 -102.70934 -0.081194676 -19.606117 -0.080530353 -19.602098 -30.424616 -108.38795
97912000 -29.811939 -103.21589 -0.081816107 -19.800692 -0.080463372 -19.800251 -30.343523 -108.62341
98911000 -29.705614 -103.41504 -0.082038477 -20.001772 -0.081802651 -19.999378 -30.304337 -108.82491
99910000 -29.637877 -103.54328 -0.082843661 -20.203142 -0.082462952 -20.200319 -30.194811 -109.19252
100909000 -29.547709 -103.82848 -0.082498297 -20.412647 -0.081415176 -20.401426 -30.104931 -109.38257
101908000 -29.460499 -104.02968 -0.084006578 -20.611183 -0.082849197 -20.604589 -29.99209 -109.13361
102907000 -29.331223 -104.11857 -0.083430491 -20.806 -0.083087198 -20.805565 -29.917845 -109.12352
103906000 -29.237167 -104.23303 -0.083780937 -21.013296 -0.082263239 -21.011612 -29.763466 -109.05209
104905000 -29.086977 -104.17079 -0.084510162 -21.211643 -0.08293812 -21.215044 -29.629177 -108.76653
105904000 -28.950155 -104.272 -0.084877059 -21.417559 -0.083182976 -21.405972 -29.511902 -108.67935
106903000 -28.835609 -104.41467 -0.084408276 -21.622271 -0.083992593 -21.610758 -29.382624 -108.53778
107902000 -28.674021 -104.74138 -0.085824549 -21.817984 -0.083991006 -21.812576 -29.239817 -108.50116
108901000 -28.567408 -105.01791 -0.086333357 -22.022146 -0.085532546 -22.01545 -29.111151 -108.47581
109900000 -28.44449 -105.58286 -0.087601803 -22.221867 -0.08641997 -22.210701 -28.961563 -108.59076
110899000 -28.33078 -106.14105 -0.088605896 -22.416815 -0.087059043 -22.409962 -28.826155 -108.92932
111898000 -28.242716 -106.87538 -0.090473369 -22.621195 -0.087847985 -22.613674 -28.715046 -109.1218
112897000 -28.11017 -107.48666 -0.091957711 -22.818333 -0.089447707 -22.807329 -28.575045 -109.27682
113896000 -28.016994 -108.12598 -0.092316784 -23.018797 -0.091034532 -23.007566 -28.470694 -109.50598
114895000 -27.915764 -108.76241 -0.093947776 -23.216595 -0.092384741 -23.201822 -28.357697 -109.57626
115894000 -27.782799 -109.15948 -0.095104411 -23.418598 -0.093561061 -23.403454 -28.278929 -109.75715
116893000 -27.706238 -109.71444 -0.095347844 -23.610189 -0.094184265 -23.593405 -28.15913 -109.93242
117892000 -27.62949 -110.26241 -0.095529892 -23.809685 -0.094260715 -23.794998 -28.086424 -110.20893
118891000 -27.568066 -110.69871 -0.095920749 -24.008633 -0.095173471 -23.995026 -27.991219 -110.38425
119890000 -27.480326 -111.07922 -0.096988708 -24.210192 -0.095720157 -24.19639 -27.979286 -110.52734
120889000 -27.434385 -111.61804 -0.098363012 -24.410582 -0.09588211 -24.393152 -27.898241 -110.51835
121888000 -27.393946 -111.98153 -0.098426826 -24.607077 -0.096326992 -24.592438 -27.838837 -110.812
122887000 -27.345772 -112.16858 -0.098896593 -24.807491 -0.096963562 -24.800964 -27.796957 -110.86954
123886000 -27.299263 -112.62112 -0.099390253 -25.011496 -0.097354278 -24.990673 -27.78476 -111.03296
124885000 -27.261391 -113.1349 -0.10004713 -25.209442 -0.097951546 -25.195286 -27.751869 -111.10906
125884000 -27.212303 -113.33964 -0.10068212 -25.40942 -0.097800635 -25.393459 -27.724049 -111.2673
126883000 -27.190689 -113.72803 -0.10177457 -25.61149 -0.09890984 -25.595985 -27.682604 -111.34214
127882000 -27.140291 -114.01763 -0.10176477 -25.809393 -0.09944322 -25.79377 -27.639217 -111.48701
128881000 -27.105831 -114.3394 -0.10184109 -26.00959 -0.099194527 -25.993357 -27.595535 -111.64834
129880000 -27.05093 -114.66306 -0.10277638 -26.213188 -0.09939184 -26.193041 -27.558031 -111.59337
130879000 -26.992811 -114.81407 -0.1025707 -26.413984 -0.10021799 -26.395269 -27.47924 -111.65432
131878000 -26.926823 -115.02265 -0.10319652 -26.615931 -0.10100721 -26.59444 -27.415565 -111.59924
132877000 -26.854218 -115.11823 -0.10231149 -26.815985 -0.10069776 -26.79838 -27.329529 -111.5599
133876000 -26.770153 -115.24393 -0.10356951 -27.01742 -0.101101 -26.99684 -27.234629 -111.44511
134875000 -26.672413 -115.4043 -0.10345975 -27.21722 -0.10103185 -27.197447 -27.128578 -111.33368
135874000 -26.593893 -115.42128 -0.10379963 -27.416246 -0.10122951 -27.398083 -27.030968 -111.32856
136873000 -26.474325 -115.37715 -0.1036851 -27.616499 -0.10105728 -27.601385 -26.936916 -111.36105
137872000 -26.39683 -115.47302 -0.10351489 -27.821972 -0.10164685 -27.804859 -26.833452 -111.29056
138871000 -26.327797 -115.70531 -0.10374925 -28.020191 -0.10216255 -28.00581 -26.733366 -111.49226
139870000 -26.2302 -115.98341 -0.10460991 -28.223185 -0.10351755 -28.2017 -26.656992 -111.64558
140869000 -26.137701 -116.46007 -0.10668192 -28.413097 -0.10427051 -28.398844 -26.541756 -111.78119
141868000 -26.050488 -116.93823 -0.10690133 -28.607141 -0.10502042 -28.592634 -26.472109 -112.1761
142867000 -25.970671 -117.17834 -0.10564844 -28.805202 -0.10411222 -28.788572 -26.394264 -112.37144
143866000 -25.904638 -117.72987 -0.10764028 -29.001837 -0.10533256 -28.986071 -26.31814 -112.9006
144865000 -25.851389 -118.27925 -0.10869599 -29.200483 -0.10653813 -29.186188 -26.265768 -113.20963
145864000 -25.791845 -118.57274 -0.10889506 -29.400263 -0.10772387 -29.389252 -26.230516 -113.47995
146863000 -25.741787 -118.95768 -0.10989559 -29.598406 -0.10801551 -29.587263 -26.179335 -113.84072
147862000 -25.701412 -119.37638 -0.11088865 -29.798183 -0.10893806 -29.784515 -26.152313 -114.15981
148861000 -25.674484 -119.8838 -0.11125354 -29.995535 -0.11000312 -29.979326 -26.126673 -114.43644
149860000 -25.654736 -120.11356 -0.11171753 -30.195986 -0.10975356 -30.180956 -26.096634 -114.5942
150859000 -25.641607 -120.46816 -0.11233617 -30.393311 -0.11021606 -30.374603 -26.090149 -114.83309
151858000 -25.623295 -120.81075 -0.11170053 -30.595072 -0.11118927 -30.576736 -26.079559 -115.16611
152857000 -25.609779 -121.09843 -0.11167476 -30.789288 -0.11150505 -30.776478 -26.06362 -115.29944
153856000 -25.600367 -121.34944 -0.11237043 -30.990034 -0.11019163 -30.975544 -26.074606 -115.60042
154855000 -25.589533 -121.54775 -0.11236087 -31.185326 -0.11036103 -31.175661 -26.073774 -115.81516
155854000 -25.600965 -121.7717 -0.11295914 -31.387428 -0.11118502 -31.37348 -26.058128 -116.10187
156853000 -25.588856 -122.4922 -0.11032864 -31.573587 -0.10994179 -31.564264 -26.05481 -116.36243
157852000 -25.590532 -122.70586 -0.11218236 -31.776253 -0.11147451 -31.76362 -26.044012 -116.73405
158851000 -25.584074 -122.9329 -0.11307126 -31.975067 -0.11228915 -31.963732 -26.027519 -116.98495
159850000 -25.568497 -123.04851 -0.11339382 -32.172161 -0.11251867 -32.163044 -26.024065 -117.12701
160849000 -25.548353 -123.17747 -0.11351126 -32.371639 -0.11332633 -32.363083 -26.000563 -117.4436
161848000 -25.532845 -123.26489 -0.11355856 -32.573036 -0.1132793 -32.562729 -25.955059 -117.56858
162847000 -25.48177 -123.44223 -0.11409481 -32.769505 -0.11350754 -32.76033 -25.928169 -117.81186
163846000 -25.441446 -123.69258 -0.11434941 -32.971188 -0.11358194 -32.956921 -25.847271 -117.83569
164845000 -25.379871 -123.70464 -0.11475552 -33.169785 -0.11428615 -33.16016 -25.782116 -117.89925
165844000 -25.324764 -123.77714 -0.1147603 -33.366501 -0.11509415 -33.360676 -25.692797 -118.08051
166843000 -25.261272 -123.83848 -0.11484482 -33.561584 -0.11496603 -33.558613 -25.623934 -118.23329
167842000 -25.197784 -124.00536 -0.11517815 -33.767231 -0.11550405 -33.759556 -25.542175 -118.15113
168841000 -25.123821 -124.18949 -0.11523131 -33.965008 -0.11585975 -33.957691 -25.46283 -118.2444
169840000 -25.059406 -124.47308 -0.11557237 -34.157642 -0.11613572 -34.155357 -25.377611 -118.43402
170839000 -24.997114 -124.72343 -0.11658906 -34.353733 -0.11613812 -34.3493 -25.284309 -118.65038
171838000 -24.94537 -125.17445 -0.11642713 -34.555992 -0.11695629 -34.546677 -25.222918 -118.88498
172837000 -24.866478 -125.53381 -0.11774696 -34.748852 -0.11795629 -34.745403 -25.156185 -119.15192
173836000 -24.803942 -125.99582 -0.11861758 -34.952801 -0.11911401 -34.948208 -25.113161 -119.37204
174835000 -24.750435 -126.44683 -0.11924598 -35.142334 -0.11955357 -35.143879 -25.06921 -119.72281
175834000 -24.699705 -126.81136 -0.12023586 -35.344139 -0.12062735 -35.340927 -25.006794 -119.99932
176833000 -24.652946 -127.2083 -0.12121291 -35.541622 -0.12078092 -35.538357 -24.953564 -120.23158
177832000 -24.605091 -127.70066 -0.1212973 -35.738667 -0.12153049 -35.736683 -24.93264 -120.36065
178831000 -24.566769 -128.07771 -0.1219812 -35.934158 -0.12209382 -35.93047 -24.894745 -120.62573
179830000 -24.534546 -128.54242 -0.12228658 -36.131496 -0.12238243 -36.131645 -24.867764 -120.77265
180829000 -24.49634 -128.7533 -0.12256269 -36.326813 -0.1233203 -36.325191 -24.840082 -120.95541
181828000 -24.468115 -129.09445 -0.12238722 -36.525833 -0.12321856 -36.523815 -24.824781 -121.06084
182827000 -24.445341 -129.49567 -0.1225981 -36.720161 -0.12330804 -36.718994 -24.810253 -121.14307
183826000 -24.406807 -129.78413 -0.12436277 -36.92054 -0.1237102 -36.915169 -24.799555 -121.29018
184825000 -24.407784 -130.11592 -0.12387533 -37.115974 -0.124106 -37.112679 -24.78401 -121.42136
185824000 -24.385103 -130.46594 -0.12388065 -37.304543 -0.12413955 -37.307163 -24.780897 -121.43582
186823000 -24.371964 -130.83685 -0.12406977 -37.513519 -0.12420349 -37.506268 -24.778704 -121.43382
187822000 -24.349022 -131.15758 -0.12505062 -37.706005 -0.12457749 -37.702927 -24.744423 -121.49726
188821000 -24.330135 -131.40408 -0.1248247 -37.899475 -0.12511083 -37.904972 -24.727699 -121.62434
189820000 -24.317932 -131.66313 -0.12511723 -38.102009 -0.12533997 -38.101254 -24.719967 -121.75941
190819000 -24.284391 -131.91722 -0.12670381 -38.297894 -0.1268083 -38.301811 -24.684158 -121.69254
191818000 -24.244995 -132.10121 -0.12731953 -38.494064 -0.12791321 -38.495449 -24.65365 -121.60364
192817000 -24.178905 -132.35901 -0.12810515 -38.679073 -0.1282526 -38.679546 -24.578848 -121.67622
193816000 -24.138666 -132.7182 -0.12731953 -38.87439 -0.12659961 -38.873337 -24.52107 -121.94571
194815000 -24.082405 -133.15309 -0.1270082 -39.068779 -0.12663426 -39.070114 -24.456333 -122.05617
195814000 -24.028826 -133.39497 -0.12814622 -39.272366 -0.12709749 -39.269299 -24.399277 -122.17504
196813000 -23.982019 -133.75703 -0.1271452 -39.461411 -0.12671235 -39.46714 -24.325062 -122.32563
197812000 -23.919739 -133.97768 -0.12728968 -39.659195 -0.12706444 -39.659496 -24.257023 -122.43694
198811000 -23.86618 -134.166 -0.12705138 -39.858128 -0.12758531 -39.866226 -24.184582 -122.59153
199810000 -23.794764 -134.52876 -0.1278255 -40.048531 -0.12779351 -40.048519 -24.106104 -122.72552
200809000 -23.742645 -134.83263 -0.12768739 -40.251522 -0.12753065 -40.251263 -24.027958 -122.94117
201808000 -23.682648 -135.06049 -0.12827712 -40.451244 -0.12856242 -40.448162 -23.957697 -123.00437
202807000 -23.621712 -135.45135 -0.12899013 -40.649837 -0.12969898 -40.650806 -23.90044 -123.22253
203806000 -23.573029 -135.89136 -0.13087264 -40.851509 -0.13002276 -40.850639 -23.838243 -123.38786
