!Keysight Technologies,E5080B,MY59205177,A.15.75.32
!Date: Friday, February 23, 2024 03:31:00
!Correction: S11(Cdelta 2-Port  ) 
!S21(Cdelta 2-Port  ) 
!S12(Cdelta 2-Port  ) 
!S22(Cdelta 2-Port  ) 
!S2P File: Measurements: S11, S21, S12, S22:
# Hz S  dB   R 50
10000000 -46.026661 -2.3723087 -0.015657362 -2.0497954 -0.018477308 -2.1056678 -46.021778 -158.07076
10999000 -45.259731 -4.1212187 -0.016146062 -2.2690341 -0.018329391 -2.3217256 -45.885998 -151.85721
11998000 -44.315979 -6.9585724 -0.017621074 -2.4942455 -0.018247766 -2.53228 -46.107262 -147.83253
12997000 -43.514313 -12.941136 -0.016584408 -2.6703112 -0.018164843 -2.704679 -45.726688 -141.69598
13996000 -43.218945 -16.535255 -0.015360946 -2.8546131 -0.017779883 -2.8762925 -45.540546 -136.64018
14995000 -42.872673 -21.063654 -0.017898928 -3.0638845 -0.017731538 -3.0889301 -45.285248 -133.13559
15994000 -42.716644 -25.165911 -0.018556599 -3.2813597 -0.019915404 -3.3065519 -45.150963 -130.01392
16993000 -42.689754 -29.79211 -0.017904127 -3.4814391 -0.019156385 -3.491365 -44.305439 -129.50525
17992000 -42.748913 -34.886497 -0.018675145 -3.6797774 -0.020374935 -3.6822357 -43.75058 -129.3325
18991000 -43.015217 -40.65662 -0.01929887 -3.8918521 -0.020530984 -3.8914268 -43.121841 -128.19827
19990000 -42.777424 -46.165104 -0.022299411 -4.0985913 -0.023298664 -4.092824 -42.447277 -128.84465
20989000 -42.638527 -49.348053 -0.023517281 -4.3053255 -0.024756322 -4.295105 -41.883892 -128.26425
21988000 -42.429001 -54.889965 -0.023924356 -4.5041528 -0.025763432 -4.4882889 -41.65136 -127.60064
22987000 -42.123215 -59.503345 -0.02582176 -4.7056127 -0.026383227 -4.6936646 -41.390808 -127.43445
23986000 -42.066288 -63.653034 -0.025145285 -4.8943968 -0.025968371 -4.8919344 -41.261742 -126.96816
24985000 -41.679527 -66.354523 -0.02652074 -5.1039162 -0.027250048 -5.1005678 -41.068085 -124.59084
25984000 -41.338593 -68.396515 -0.028066497 -5.3110304 -0.026813751 -5.3099422 -40.722595 -122.89562
26983000 -41.038906 -70.449707 -0.028244708 -5.5113301 -0.028073011 -5.5299644 -40.604 -122.32565
27982000 -40.836117 -71.467293 -0.029039195 -5.7131882 -0.029588565 -5.7468038 -40.34045 -120.88349
28981000 -40.82515 -72.714302 -0.02740426 -5.9069872 -0.029301623 -5.9334459 -40.128487 -119.86631
29980000 -40.432514 -74.145927 -0.027779914 -6.1033216 -0.029613586 -6.1120172 -39.860909 -119.11456
30979000 -40.033215 -73.200775 -0.025653804 -6.4560218 -0.023894422 -6.4516621 -39.345371 -119.49287
31978000 -39.835007 -74.111755 -0.02439082 -6.6551347 -0.025857177 -6.6428051 -39.113708 -118.91489
32977000 -39.635036 -75.801849 -0.025111699 -6.864924 -0.0265671 -6.8642468 -38.866283 -118.70962
33976000 -39.481686 -76.717621 -0.025208294 -7.065908 -0.026549909 -7.05792 -38.583164 -118.34921
34975000 -39.172703 -77.546791 -0.025843896 -7.2674947 -0.027438125 -7.2676525 -38.359676 -117.90549
35974000 -38.965858 -78.114693 -0.024830518 -7.4622192 -0.027167995 -7.463695 -38.08659 -117.00343
36973000 -38.742867 -78.80394 -0.025624901 -7.6622763 -0.027746307 -7.6657877 -37.794224 -115.94842
37972000 -38.573002 -78.675949 -0.02511977 -7.873621 -0.027525133 -7.8793817 -37.590916 -115.23833
38971000 -38.240997 -78.10141 -0.025965245 -8.0717535 -0.028080566 -8.0820484 -37.411709 -113.60033
39970000 -37.91013 -78.384613 -0.02441529 -8.26682 -0.027238846 -8.2815876 -37.161873 -113.09904
40969000 -37.644661 -78.097954 -0.02452098 -8.464303 -0.026781453 -8.4825764 -36.923813 -111.64655
41968000 -37.270428 -77.944923 -0.024879202 -8.6706219 -0.027582705 -8.6847591 -36.742023 -110.37629
42967000 -36.985481 -78.161926 -0.024344483 -8.880434 -0.027971402 -8.8994513 -36.546856 -108.35004
43966000 -36.70652 -78.870926 -0.025838166 -9.0863991 -0.028422927 -9.1017399 -36.281124 -107.66873
44965000 -36.456558 -79.591621 -0.026153266 -9.2816925 -0.028750723 -9.3012724 -36.037628 -107.28987
45964000 -36.249924 -80.655579 -0.028824467 -9.4846754 -0.029731654 -9.5062485 -35.826042 -107.04691
46963000 -36.032116 -82.559418 -0.027839575 -9.6772919 -0.030909637 -9.7046499 -35.644382 -107.32065
47962000 -35.871147 -83.878365 -0.029923227 -9.8818102 -0.031799525 -9.9008951 -35.458202 -107.34467
48961000 -35.670403 -85.322571 -0.03220816 -10.081081 -0.034117274 -10.100132 -35.222897 -107.4613
49960000 -35.439106 -86.599541 -0.033010673 -10.281068 -0.034574661 -10.304085 -35.058094 -107.52576
50959000 -35.208214 -88.039574 -0.033760637 -10.491903 -0.036229786 -10.502949 -34.89666 -107.87804
51958000 -34.99102 -89.086502 -0.035741691 -10.691279 -0.036997799 -10.701147 -34.707218 -108.33565
52957000 -34.782341 -90.152687 -0.037248176 -10.895049 -0.038411222 -10.898108 -34.570362 -108.01285
53956000 -34.618988 -90.839523 -0.037564628 -11.095731 -0.038500801 -11.098268 -34.406883 -108.02692
54955000 -34.445374 -91.260826 -0.039394598 -11.301532 -0.040258795 -11.29348 -34.259186 -108.00554
55954000 -34.275047 -92.119865 -0.039654259 -11.501944 -0.040693574 -11.495322 -34.160641 -107.71911
56953000 -34.158482 -92.132843 -0.039676465 -11.699169 -0.038444653 -11.683262 -34.090294 -107.93127
57952000 -33.997757 -92.630867 -0.040827356 -11.892901 -0.040457629 -11.883015 -33.983719 -107.93326
58951000 -33.881943 -93.008797 -0.042254839 -12.105267 -0.041008707 -12.083056 -33.83638 -108.05516
59950000 -33.759342 -93.423805 -0.04282314 -12.299891 -0.042538978 -12.27768 -33.771664 -108.37274
60949000 -33.636154 -94.054016 -0.042846404 -12.504861 -0.043490868 -12.479948 -33.675346 -108.6338
61948000 -33.567528 -94.278549 -0.043693248 -12.704427 -0.04310941 -12.685241 -33.57843 -108.77164
62947000 -33.485119 -94.507095 -0.043803591 -12.914418 -0.043866612 -12.893484 -33.444405 -108.97343
63946000 -33.406773 -95.23304 -0.044976246 -13.112866 -0.044099603 -13.091606 -33.33197 -109.08565
64945000 -33.313362 -95.398926 -0.045166399 -13.312942 -0.04491321 -13.296015 -33.229504 -109.51987
65944000 -33.204609 -95.672119 -0.045506708 -13.514703 -0.045498863 -13.496479 -33.132843 -110.02299
66943000 -33.050304 -96.14798 -0.044245262 -13.717772 -0.043616373 -13.699354 -33.023338 -110.28354
67942000 -33.005306 -96.021645 -0.04597576 -13.911315 -0.045621023 -13.902536 -32.896465 -110.50171
68941000 -32.894428 -96.065056 -0.04572174 -14.107117 -0.044712082 -14.09374 -32.791035 -110.4775
69940000 -32.787685 -96.129601 -0.045665756 -14.305202 -0.045695577 -14.296669 -32.639839 -110.74319
70939000 -32.678646 -96.026009 -0.045120101 -14.502197 -0.045301367 -14.496557 -32.506592 -110.60909
71938000 -32.535435 -95.598129 -0.045935731 -14.699887 -0.045399196 -14.692572 -32.392925 -110.49737
72937000 -32.373463 -95.423843 -0.045232575 -14.896096 -0.044907194 -14.89078 -32.242958 -110.20291
73936000 -32.241158 -94.972603 -0.045026723 -15.092776 -0.044277687 -15.08748 -32.121861 -109.91028
74935000 -32.116707 -95.269745 -0.043561988 -15.296958 -0.043404587 -15.297216 -31.975309 -109.61826
75934000 -31.988726 -95.475594 -0.044742681 -15.504262 -0.044130199 -15.497281 -31.886652 -109.51864
76933000 -31.857029 -95.930328 -0.045261346 -15.695539 -0.045276519 -15.689839 -31.718388 -109.88551
77932000 -31.748974 -96.652428 -0.046553966 -15.893152 -0.046842575 -15.88648 -31.611019 -109.82571
78931000 -31.676542 -97.374847 -0.04566497 -16.095596 -0.046377618 -16.090622 -31.514727 -109.63669
79930000 -31.567568 -98.262306 -0.047732595 -16.286785 -0.048417572 -16.284653 -31.412106 -109.98697
80929000 -31.452011 -99.041763 -0.049847025 -16.48184 -0.050024036 -16.482628 -31.319344 -110.24493
81928000 -31.350325 -99.738754 -0.04980382 -16.677628 -0.050249767 -16.673363 -31.18211 -110.20589
82927000 -31.250048 -100.53066 -0.051961437 -16.877071 -0.052013047 -16.874624 -31.087627 -110.54219
83926000 -31.129955 -101.21512 -0.053214908 -17.075825 -0.053442899 -17.074203 -30.955206 -110.75476
84925000 -31.020464 -101.65225 -0.05410178 -17.274012 -0.052675903 -17.269667 -30.864408 -110.71423
85924000 -30.929735 -102.0274 -0.054749228 -17.473677 -0.054986212 -17.469749 -30.777813 -110.76525
86923000 -30.826778 -102.54607 -0.055681773 -17.670773 -0.05475473 -17.66785 -30.673382 -110.70114
87922000 -30.704327 -102.88695 -0.054862738 -17.881962 -0.054634146 -17.870262 -30.5863 -110.66331
88921000 -30.636326 -103.13511 -0.056294575 -18.078161 -0.055342235 -18.07317 -30.490076 -110.64126
89920000 -30.533831 -103.65633 -0.056869436 -18.274862 -0.055762269 -18.2675 -30.44058 -110.79494
90919000 -30.428957 -103.95258 -0.057766501 -18.477671 -0.0567564 -18.466848 -30.343477 -110.94881
91918000 -30.336565 -104.26939 -0.057689901 -18.676891 -0.057131719 -18.668423 -30.275717 -110.98437
92917000 -30.253157 -104.62003 -0.058997769 -18.87188 -0.058950014 -18.870119 -30.212955 -111.07236
93916000 -30.155184 -104.99029 -0.05841082 -19.066956 -0.058652204 -19.064621 -30.115963 -111.73211
94915000 -30.073986 -105.57471 -0.060543317 -19.272938 -0.059443086 -19.262772 -30.059713 -111.56248
95914000 -30.002172 -105.77613 -0.0610791 -19.465193 -0.059979782 -19.456591 -29.965906 -111.81102
96913000 -29.925739 -105.99438 -0.062630646 -19.664978 -0.06177669 -19.66048 -29.895044 -112.19504
97912000 -29.844084 -106.4 -0.063692547 -19.858347 -0.061687678 -19.862782 -29.811937 -112.35745
98911000 -29.736525 -106.62761 -0.064097621 -20.060963 -0.062211785 -20.059797 -29.772657 -112.59743
99910000 -29.672314 -106.75912 -0.064913675 -20.260584 -0.062831029 -20.262163 -29.666845 -112.8657
100909000 -29.57869 -106.97357 -0.06417539 -20.469965 -0.062089946 -20.462896 -29.584297 -113.13457
101908000 -29.491247 -107.21787 -0.065726988 -20.671013 -0.063827306 -20.668779 -29.474506 -112.80917
102907000 -29.352669 -107.25568 -0.066166423 -20.871624 -0.06432461 -20.867785 -29.396687 -112.81541
103906000 -29.264521 -107.27995 -0.066384315 -21.080198 -0.063785538 -21.071568 -29.251406 -112.82267
104905000 -29.108099 -107.14053 -0.067257844 -21.274292 -0.063590892 -21.273951 -29.122051 -112.49518
105904000 -28.971401 -107.25745 -0.06781207 -21.47724 -0.06475471 -21.473547 -29.014267 -112.32295
106903000 -28.854889 -107.33864 -0.067081705 -21.682768 -0.064661697 -21.678305 -28.888445 -112.22195
107902000 -28.69338 -107.65965 -0.068010852 -21.882502 -0.065334633 -21.874483 -28.753767 -112.16891
108901000 -28.5858 -107.87684 -0.06960512 -22.085691 -0.067075655 -22.075848 -28.629766 -112.11855
109900000 -28.460274 -108.33795 -0.069151662 -22.284353 -0.067454234 -22.275425 -28.471899 -112.18185
110899000 -28.337717 -108.97016 -0.07123208 -22.481596 -0.06798666 -22.473667 -28.346184 -112.45641
111898000 -28.252838 -109.64205 -0.072435588 -22.688248 -0.069318153 -22.679506 -28.231133 -112.58445
112897000 -28.122587 -110.1434 -0.074502826 -22.886295 -0.070924215 -22.873592 -28.105188 -112.76479
113896000 -28.018576 -110.71841 -0.075191781 -23.085981 -0.071911559 -23.071594 -27.990322 -112.87123
114895000 -27.914595 -111.3848 -0.075873457 -23.286543 -0.072904922 -23.270662 -27.880659 -112.95007
115894000 -27.793106 -111.73022 -0.07696864 -23.490116 -0.07429453 -23.475439 -27.808477 -113.19648
116893000 -27.720598 -112.2272 -0.07804618 -23.681967 -0.075163335 -23.669422 -27.689947 -113.19314
117892000 -27.638435 -112.76226 -0.077865914 -23.880482 -0.075355604 -23.866114 -27.611528 -113.40717
118891000 -27.582687 -113.13708 -0.078869075 -24.078074 -0.075952224 -24.065485 -27.519941 -113.51709
119890000 -27.496368 -113.52824 -0.079288222 -24.283295 -0.076179832 -24.264711 -27.504805 -113.67555
120889000 -27.447079 -113.99666 -0.080088407 -24.481066 -0.07700184 -24.468506 -27.431614 -113.6208
121888000 -27.408506 -114.39147 -0.080776401 -24.677597 -0.07698182 -24.66921 -27.378107 -113.8973
122887000 -27.366831 -114.54839 -0.081284352 -24.879192 -0.078085452 -24.870102 -27.331429 -113.90973
123886000 -27.310581 -114.95413 -0.082572967 -25.083874 -0.078395136 -25.066294 -27.312222 -114.09529
124885000 -27.281792 -115.44563 -0.0825698 -25.285164 -0.078725934 -25.266153 -27.282246 -114.1142
125884000 -27.228193 -115.63114 -0.082898542 -25.480865 -0.078949206 -25.471222 -27.25396 -114.23888
126883000 -27.21187 -116.02305 -0.083684087 -25.68663 -0.08000192 -25.669292 -27.218124 -114.23126
127882000 -27.163319 -116.28762 -0.083635792 -25.885565 -0.080534838 -25.867907 -27.17564 -114.41601
128881000 -27.13398 -116.62434 -0.084429391 -26.08935 -0.080486581 -26.070221 -27.139677 -114.46469
129880000 -27.069357 -116.98361 -0.084602803 -26.291735 -0.080698602 -26.270947 -27.098328 -114.43825
130879000 -27.018875 -117.15915 -0.084565327 -26.48929 -0.081992842 -26.474052 -27.02606 -114.45423
131878000 -26.947075 -117.36919 -0.0854837 -26.693804 -0.081604294 -26.673843 -26.961988 -114.33065
132877000 -26.882181 -117.42568 -0.0841491 -26.893488 -0.081477948 -26.876862 -26.882462 -114.25602
133876000 -26.802118 -117.60921 -0.08490742 -27.09668 -0.08144366 -27.076647 -26.796011 -114.15118
134875000 -26.698481 -117.73808 -0.085006937 -27.297424 -0.082386702 -27.276775 -26.692822 -113.99981
135874000 -26.623686 -117.73824 -0.085302599 -27.500072 -0.082761608 -27.481102 -26.602623 -113.94262
136873000 -26.509136 -117.66061 -0.086058483 -27.696306 -0.081968307 -27.679611 -26.516809 -113.90103
137872000 -26.42894 -117.7838 -0.085858874 -27.897543 -0.082747623 -27.883402 -26.411505 -113.84919
138871000 -26.357712 -118.01598 -0.086550154 -28.098646 -0.083465323 -28.086432 -26.317482 -114.00992
139870000 -26.254482 -118.29572 -0.086910889 -28.301039 -0.083906032 -28.285452 -26.236805 -114.19813
140869000 -26.178198 -118.83819 -0.088327445 -28.498856 -0.084733732 -28.477976 -26.136663 -114.34882
141868000 -26.093454 -119.22678 -0.088874593 -28.696671 -0.086170964 -28.681368 -26.083923 -114.66
142867000 -26.019209 -119.44246 -0.08765886 -28.894907 -0.08534167 -28.87862 -26.008053 -114.75813
143866000 -25.938929 -119.92039 -0.088990316 -29.093929 -0.08654698 -29.075371 -25.937487 -115.21867
144865000 -25.880222 -120.4672 -0.090768874 -29.291676 -0.08780361 -29.275663 -25.876749 -115.53136
145864000 -25.818888 -120.74886 -0.091182038 -29.493044 -0.088945404 -29.480398 -25.840359 -115.81184
146863000 -25.779087 -121.10483 -0.092097051 -29.690226 -0.089543097 -29.676441 -25.792841 -116.0983
147862000 -25.741934 -121.45124 -0.093634062 -29.88608 -0.090250298 -29.876942 -25.761938 -116.411
148861000 -25.710819 -121.89168 -0.094300926 -30.088835 -0.090978488 -30.077333 -25.733681 -116.57454
149860000 -25.673477 -122.07146 -0.095136426 -30.281122 -0.092215776 -30.268198 -25.691423 -116.6604
150859000 -25.644667 -122.54973 -0.094825543 -30.478107 -0.09174858 -30.461069 -25.670042 -117.02415
151858000 -25.640554 -122.87579 -0.094139293 -30.680233 -0.091724254 -30.665873 -25.651049 -117.37373
152857000 -25.622559 -123.21532 -0.094479755 -30.876326 -0.091469921 -30.865414 -25.636875 -117.53442
153856000 -25.617977 -123.42779 -0.094054639 -31.077402 -0.091281436 -31.06509 -25.658691 -117.84364
154855000 -25.621233 -123.56599 -0.095722012 -31.279129 -0.091320559 -31.266304 -25.645695 -118.10088
155854000 -25.634319 -123.81084 -0.094801202 -31.477112 -0.091988645 -31.461945 -25.636848 -118.35378
156853000 -25.622784 -124.53526 -0.092908859 -31.668709 -0.091428682 -31.658607 -25.626808 -118.69956
157852000 -25.630493 -124.71211 -0.094311237 -31.8654 -0.092935838 -31.856712 -25.621063 -119.03427
158851000 -25.626375 -124.93523 -0.094931372 -32.065437 -0.093453944 -32.058701 -25.604038 -119.28585
159850000 -25.613113 -125.06647 -0.095762767 -32.265102 -0.093596503 -32.253574 -25.603056 -119.4992
160849000 -25.597401 -125.18349 -0.095446013 -32.465923 -0.094121829 -32.461712 -25.573177 -119.75886
161848000 -25.582289 -125.24406 -0.096068688 -32.665356 -0.094467856 -32.658932 -25.533428 -119.87208
162847000 -25.536297 -125.40817 -0.09607213 -32.864635 -0.094639286 -32.860367 -25.502264 -120.1381
163846000 -25.501747 -125.61362 -0.096342079 -33.065514 -0.094664417 -33.058369 -25.427521 -120.12755
164845000 -25.446205 -125.58521 -0.096945293 -33.263866 -0.095038265 -33.259224 -25.367126 -120.19236
165844000 -25.392765 -125.62763 -0.096910089 -33.463787 -0.095603988 -33.459572 -25.286097 -120.34682
166843000 -25.328226 -125.67329 -0.097060971 -33.664177 -0.095673315 -33.662075 -25.217478 -120.49544
167842000 -25.274075 -125.7916 -0.097249977 -33.865139 -0.095763825 -33.857494 -25.145477 -120.41766
168841000 -25.197153 -125.92571 -0.097575337 -34.062862 -0.095823102 -34.058125 -25.067135 -120.48763
169840000 -25.129341 -126.1923 -0.097728886 -34.259937 -0.097003527 -34.252361 -24.984268 -120.6692
170839000 -25.068687 -126.45777 -0.097958699 -34.455185 -0.096958533 -34.45483 -24.901476 -120.83437
171838000 -25.010754 -126.8287 -0.099272661 -34.658302 -0.098478988 -34.651894 -24.837507 -121.05307
172837000 -24.937611 -127.16877 -0.10023919 -34.857208 -0.0986249 -34.852432 -24.772913 -121.28527
173836000 -24.872952 -127.60021 -0.10149316 -35.057049 -0.099397667 -35.053276 -24.729534 -121.52057
174835000 -24.818237 -127.96224 -0.10179047 -35.254002 -0.10057377 -35.251926 -24.687948 -121.8569
175834000 -24.771332 -128.32262 -0.10262716 -35.452526 -0.10183606 -35.449566 -24.625755 -122.07171
176833000 -24.714071 -128.65575 -0.10393829 -35.652962 -0.10239366 -35.649117 -24.580091 -122.25917
177832000 -24.674404 -129.09189 -0.10468204 -35.850594 -0.10290494 -35.853428 -24.562572 -122.34924
178831000 -24.629213 -129.33543 -0.10623121 -36.048645 -0.10512968 -36.045738 -24.516825 -122.42223
179830000 -24.56003 -129.73994 -0.10771777 -36.233829 -0.10571184 -36.232632 -24.454054 -122.48125
180829000 -24.509607 -130.09053 -0.10618611 -36.421772 -0.10540709 -36.427853 -24.414083 -122.80609
181828000 -24.482267 -130.53549 -0.10588504 -36.624084 -0.10386883 -36.619045 -24.397501 -123.01099
182827000 -24.458307 -130.91234 -0.10505967 -36.820957 -0.1047966 -36.819637 -24.383141 -123.15763
183826000 -24.42066 -131.2328 -0.10624897 -37.017857 -0.10490692 -37.015884 -24.37117 -123.29704
184825000 -24.425581 -131.56917 -0.10615375 -37.21249 -0.10520075 -37.216515 -24.35704 -123.43896
185824000 -24.39731 -131.92815 -0.1057503 -37.410793 -0.10482921 -37.415207 -24.347204 -123.48103
186823000 -24.378675 -132.29871 -0.10640788 -37.612389 -0.10518325 -37.609718 -24.344757 -123.50906
187822000 -24.355896 -132.63423 -0.10726296 -37.809311 -0.10623624 -37.809357 -24.301983 -123.60864
188821000 -24.332932 -132.90277 -0.10672756 -38.00383 -0.10615295 -38.007137 -24.282949 -123.73687
189820000 -24.313316 -133.17949 -0.10694616 -38.207314 -0.10628187 -38.206924 -24.265066 -123.93068
190819000 -24.279919 -133.49995 -0.10758084 -38.40377 -0.10691857 -38.401398 -24.227396 -123.93504
191818000 -24.247189 -133.79567 -0.107765 -38.600666 -0.10699976 -38.600895 -24.198593 -123.99113
192817000 -24.202477 -134.05437 -0.1084903 -38.79924 -0.10715232 -38.795486 -24.152224 -124.08536
193816000 -24.171442 -134.308 -0.10867688 -38.991985 -0.10725633 -38.990143 -24.102448 -124.22442
194815000 -24.110519 -134.70854 -0.1089086 -39.190708 -0.10820075 -39.190018 -24.03553 -124.27323
195814000 -24.05246 -134.91238 -0.10996462 -39.387402 -0.10826391 -39.390205 -23.98443 -124.36187
196813000 -23.997107 -135.23344 -0.10940339 -39.582375 -0.10824534 -39.582355 -23.897598 -124.51556
197812000 -23.936836 -135.45938 -0.10940791 -39.777142 -0.10917882 -39.77729 -23.831785 -124.58975
198811000 -23.887346 -135.62421 -0.10936915 -39.973305 -0.10878412 -39.977898 -23.759939 -124.77239
199810000 -23.817019 -135.94525 -0.10967232 -40.167095 -0.10856674 -40.170376 -23.680536 -124.86317
200809000 -23.759684 -136.18796 -0.11131276 -40.370796 -0.10898903 -40.369823 -23.6054 -125.04697
201808000 -23.699751 -136.42622 -0.1111173 -40.566223 -0.11014862 -40.571369 -23.535809 -125.1161
202807000 -23.642475 -136.76698 -0.11156454 -40.771053 -0.11061328 -40.768703 -23.481913 -125.29892
