!Keysight Technologies,E5080B,MY59205177,A.15.75.32
!Date: Friday, February 23, 2024 02:52:45
!Correction: S11(Cdelta 2-Port  ) 
!S21(Cdelta 2-Port  ) 
!S12(Cdelta 2-Port  ) 
!S22(Cdelta 2-Port  ) 
!S2P File: Measurements: S11, S21, S12, S22:
# Hz S  dB   R 50
10000000 -43.063099 -3.5339549 -0.034306955 -2.0426276 -0.037822347 -2.0975316 -49.811337 -144.40256
10999000 -42.477669 -5.2404914 -0.036262415 -2.2656593 -0.037923668 -2.313565 -49.345356 -134.46692
11998000 -41.831318 -7.5927372 -0.035505753 -2.4865022 -0.037576638 -2.5293469 -49.37051 -128.60423
12997000 -41.230366 -11.516777 -0.035015389 -2.6650789 -0.037400655 -2.6949985 -48.46946 -121.81931
13996000 -41.042709 -14.551097 -0.034371663 -2.8442631 -0.037242953 -2.8638217 -47.883255 -115.93137
14995000 -40.747814 -18.149828 -0.036722112 -3.0544887 -0.037168544 -3.0759752 -47.2952 -112.75805
15994000 -40.648018 -21.477631 -0.037221543 -3.2753916 -0.03965243 -3.2944949 -46.93103 -108.7504
16993000 -40.637802 -25.170012 -0.036732033 -3.4688649 -0.038862791 -3.479661 -46.046082 -110.58815
17992000 -40.751232 -29.355143 -0.037891287 -3.6663432 -0.039503269 -3.6702402 -45.415169 -112.40932
18991000 -41.029079 -33.191628 -0.03929821 -3.8809383 -0.040476963 -3.8740995 -44.663452 -112.55553
19990000 -40.91135 -38.050999 -0.04089164 -4.0898066 -0.042170148 -4.0827341 -43.954014 -114.98674
20989000 -40.871033 -40.820347 -0.042506564 -4.2910624 -0.044471212 -4.280869 -43.339321 -114.99315
21988000 -40.832867 -45.143349 -0.043412168 -4.4881897 -0.045434251 -4.4745874 -43.028828 -114.48737
22987000 -40.700119 -49.367268 -0.044650882 -4.6844654 -0.046643712 -4.6748443 -42.770172 -114.23802
23986000 -40.71603 -53.116867 -0.043588396 -4.8808789 -0.045369379 -4.8777237 -42.639755 -114.32275
24985000 -40.458267 -55.385353 -0.045420647 -5.0880327 -0.04560899 -5.0853882 -42.338577 -112.10509
25984000 -40.235611 -57.671577 -0.046031483 -5.2971654 -0.046415556 -5.2958431 -41.974255 -110.88441
26983000 -40.043442 -59.592281 -0.047452562 -5.4931479 -0.047090117 -5.5100827 -41.814137 -110.17366
27982000 -39.879986 -60.426895 -0.048009764 -5.6897178 -0.048193507 -5.7255893 -41.477951 -108.64508
28981000 -39.902126 -61.998043 -0.046757009 -5.888001 -0.048945315 -5.9189429 -41.177284 -108.32885
29980000 -39.534153 -63.697117 -0.046906684 -6.0847149 -0.048088811 -6.0908732 -40.831638 -107.23788
30979000 -39.186375 -63.17186 -0.04434856 -6.4398565 -0.043367721 -6.4242706 -40.327473 -108.78761
31978000 -39.009232 -64.258209 -0.043948978 -6.6366134 -0.044347774 -6.6239681 -40.033848 -108.25718
32977000 -38.870747 -65.926819 -0.043738224 -6.8437033 -0.04533302 -6.836504 -39.782139 -108.69053
33976000 -38.724472 -67.066963 -0.043863997 -7.0439458 -0.045376703 -7.0396414 -39.45673 -108.41939
34975000 -38.475002 -68.070808 -0.043936949 -7.2413177 -0.046419218 -7.2420106 -39.216106 -108.22092
35974000 -38.285576 -68.966652 -0.04362265 -7.4358153 -0.045759145 -7.4373307 -38.924038 -107.383
36973000 -38.075809 -69.949821 -0.043718871 -7.6371717 -0.04618296 -7.6415925 -38.568069 -106.78535
37972000 -37.912392 -69.724327 -0.043768555 -7.8460364 -0.04661179 -7.8556175 -38.327381 -106.24008
38971000 -37.577522 -69.777847 -0.044830039 -8.0470619 -0.047293972 -8.057909 -38.113304 -104.64361
39970000 -37.272106 -70.3088 -0.042665239 -8.2429895 -0.046315871 -8.2553577 -37.81385 -104.40923
40969000 -37.006355 -70.27858 -0.0429115 -8.434844 -0.045795247 -8.4596739 -37.548931 -102.95994
41968000 -36.673332 -70.670891 -0.043509431 -8.645752 -0.045969479 -8.6559343 -37.32172 -102.11026
42967000 -36.429066 -70.916786 -0.042434156 -8.854784 -0.046058692 -8.8741608 -37.06358 -100.23517
43966000 -36.140484 -71.888268 -0.043527998 -9.0567961 -0.047804307 -9.0724506 -36.782513 -99.702492
44965000 -35.931637 -72.876907 -0.04516352 -9.2585354 -0.048005838 -9.2766018 -36.553532 -99.616463
45964000 -35.721931 -74.022972 -0.045474011 -9.456995 -0.049302153 -9.4718485 -36.304871 -99.72023
46963000 -35.579475 -76.012634 -0.046029914 -9.6483898 -0.049150828 -9.6744757 -36.133629 -100.03508
47962000 -35.438976 -77.596458 -0.047391061 -9.8489141 -0.050445389 -9.8672266 -35.920139 -100.22281
48961000 -35.256355 -79.021019 -0.049470242 -10.049635 -0.052050248 -10.070283 -35.691059 -100.70581
49960000 -35.050743 -80.467796 -0.051195752 -10.247773 -0.053377382 -10.272263 -35.569672 -100.87078
50959000 -34.863842 -81.901672 -0.051972177 -10.462367 -0.054704662 -10.47238 -35.376434 -101.31622
51958000 -34.687744 -83.115761 -0.053898916 -10.658349 -0.055539925 -10.67147 -35.19875 -101.9307
52957000 -34.480099 -84.225365 -0.055317592 -10.861032 -0.05697225 -10.868757 -35.03442 -101.85681
53956000 -34.338367 -85.055389 -0.055753354 -11.06054 -0.057903174 -11.061833 -34.899673 -101.91107
54955000 -34.172539 -85.664406 -0.057774369 -11.262581 -0.057955641 -11.261325 -34.740097 -101.95192
55954000 -34.021442 -86.57605 -0.058317944 -11.461716 -0.059516829 -11.456811 -34.632641 -101.74239
56953000 -33.92387 -86.613464 -0.057643734 -11.660321 -0.05719519 -11.648591 -34.560658 -102.0022
57952000 -33.766918 -87.297836 -0.059548058 -11.857665 -0.059695285 -11.846548 -34.459839 -102.19479
58951000 -33.641758 -87.752815 -0.060331494 -12.061249 -0.059985556 -12.043888 -34.305908 -102.33121
59950000 -33.526451 -88.24099 -0.060984068 -12.264338 -0.061221655 -12.240881 -34.241631 -102.59966
60949000 -33.427864 -88.839539 -0.061641995 -12.459912 -0.061006907 -12.444703 -34.138889 -102.97744
61948000 -33.369835 -89.054565 -0.062244873 -12.664285 -0.061017409 -12.642365 -34.054535 -103.18626
62947000 -33.281406 -89.352486 -0.062111739 -12.872939 -0.06228295 -12.851768 -33.921619 -103.49992
63946000 -33.222256 -90.066467 -0.062909029 -13.072134 -0.063359216 -13.053388 -33.806427 -103.57232
64945000 -33.115265 -90.318893 -0.063680992 -13.271616 -0.063830987 -13.254192 -33.702606 -104.15605
65944000 -33.014656 -90.673988 -0.064970694 -13.470932 -0.06381312 -13.455965 -33.610035 -104.63078
66943000 -32.870152 -91.084816 -0.062449966 -13.675339 -0.062216252 -13.658696 -33.515663 -104.94667
67942000 -32.825165 -91.090919 -0.064566322 -13.869781 -0.064061373 -13.855747 -33.393112 -105.21911
68941000 -32.704807 -91.223351 -0.064069249 -14.06306 -0.06345509 -14.053064 -33.279716 -105.22425
69940000 -32.614655 -91.239891 -0.063787378 -14.264309 -0.063925818 -14.255393 -33.148956 -105.58412
70939000 -32.500156 -91.220612 -0.064081863 -14.459043 -0.063565932 -14.451968 -33.006187 -105.53467
71938000 -32.35321 -90.822121 -0.063911892 -14.654437 -0.064168297 -14.648934 -32.87072 -105.42891
72937000 -32.19738 -90.743484 -0.063649468 -14.853107 -0.063439064 -14.843115 -32.712986 -105.10722
73936000 -32.055073 -90.463081 -0.063158281 -15.05805 -0.062302906 -15.044699 -32.608162 -105.01076
74935000 -31.935862 -90.711426 -0.062279798 -15.246944 -0.061829202 -15.24877 -32.44717 -104.67506
75934000 -31.807747 -91.04541 -0.063172199 -15.455917 -0.061813973 -15.448834 -32.361935 -104.6411
76933000 -31.684053 -91.491783 -0.063963905 -15.650059 -0.062935293 -15.641326 -32.19096 -105.1116
77932000 -31.589727 -92.343483 -0.064970955 -15.846128 -0.064757861 -15.839344 -32.096733 -105.12779
78931000 -31.530993 -93.077202 -0.063580647 -16.046717 -0.063512087 -16.041645 -31.995077 -105.04367
79930000 -31.419247 -93.89389 -0.066267349 -16.23908 -0.066898473 -16.235025 -31.909842 -105.34848
80929000 -31.289841 -94.872139 -0.068596736 -16.43232 -0.067985088 -16.430199 -31.788242 -105.76573
81928000 -31.216595 -95.772858 -0.068341129 -16.624073 -0.068362951 -16.621038 -31.672674 -105.86756
82927000 -31.137489 -96.435394 -0.069987603 -16.826239 -0.069798201 -16.822195 -31.577953 -106.20584
83926000 -31.022608 -97.213554 -0.071497858 -17.019358 -0.070890799 -17.018076 -31.456779 -106.46059
84925000 -30.918673 -97.705582 -0.072867014 -17.219648 -0.071853131 -17.216984 -31.364344 -106.6216
85924000 -30.829184 -98.15477 -0.073101304 -17.42095 -0.072864905 -17.420076 -31.282438 -106.55778
86923000 -30.736523 -98.730194 -0.072858587 -17.61684 -0.073411688 -17.612192 -31.169798 -106.618
87922000 -30.621141 -99.197334 -0.072638527 -17.826403 -0.072750665 -17.81583 -31.088717 -106.6292
88921000 -30.558208 -99.527634 -0.074646354 -18.026098 -0.073748432 -18.019609 -30.989433 -106.69964
89920000 -30.46302 -100.08991 -0.074736677 -18.219568 -0.074770391 -18.211548 -30.940851 -106.80798
90919000 -30.368382 -100.42131 -0.076013602 -18.417999 -0.075626373 -18.412991 -30.854334 -107.0694
91918000 -30.272745 -100.81773 -0.077630311 -18.617516 -0.075614527 -18.609098 -30.789362 -107.15818
92917000 -30.194214 -101.207 -0.077556521 -18.81386 -0.076925695 -18.812521 -30.717455 -107.24239
93916000 -30.104336 -101.58409 -0.076997101 -19.008854 -0.076779991 -19.006382 -30.636372 -107.9037
94915000 -30.033993 -102.26238 -0.078752823 -19.210936 -0.077883042 -19.203806 -30.583178 -107.76338
95914000 -29.970589 -102.48959 -0.079872727 -19.4069 -0.078965023 -19.401489 -30.485233 -108.0459
96913000 -29.887138 -102.75691 -0.080824398 -19.602262 -0.080050707 -19.602175 -30.416656 -108.41637
97912000 -29.804752 -103.22363 -0.081906848 -19.80077 -0.079877734 -19.801067 -30.341509 -108.68898
98911000 -29.712095 -103.4667 -0.082265615 -20.003595 -0.081392758 -19.999998 -30.292425 -108.9118
99910000 -29.645056 -103.55717 -0.082689047 -20.198181 -0.081687115 -20.194513 -30.192188 -109.18748
100909000 -29.546169 -103.90195 -0.082460836 -20.405937 -0.080537736 -20.399534 -30.100241 -109.47166
101908000 -29.464283 -104.10247 -0.083480626 -20.609573 -0.082172751 -20.604456 -29.982841 -109.1783
102907000 -29.321344 -104.13968 -0.084495641 -20.807402 -0.082450546 -20.80559 -29.910633 -109.14759
103906000 -29.237587 -104.24949 -0.084191322 -21.016636 -0.081616424 -21.01053 -29.763781 -109.10741
104905000 -29.092634 -104.17779 -0.085191987 -21.210114 -0.082314156 -21.211662 -29.627714 -108.82635
105904000 -28.946119 -104.29048 -0.085705735 -21.410746 -0.082488276 -21.407251 -29.50613 -108.66975
106903000 -28.835539 -104.4388 -0.085504293 -21.620052 -0.082321808 -21.611328 -29.374048 -108.592
107902000 -28.672781 -104.82787 -0.085589044 -21.814312 -0.083356075 -21.807735 -29.23225 -108.61283
108901000 -28.567917 -105.07635 -0.086681664 -22.019346 -0.084727392 -22.014311 -29.102705 -108.51618
109900000 -28.441891 -105.54575 -0.088295214 -22.219477 -0.085775442 -22.211382 -28.953804 -108.66279
110899000 -28.322815 -106.2418 -0.089472279 -22.416409 -0.086617753 -22.410406 -28.825115 -109.00589
111898000 -28.237827 -106.93712 -0.090745345 -22.618977 -0.087476611 -22.613331 -28.703751 -109.16798
112897000 -28.115602 -107.53212 -0.092153899 -22.815754 -0.088679083 -22.804708 -28.567785 -109.37131
113896000 -28.012829 -108.16924 -0.092721105 -23.019577 -0.090507194 -23.005621 -28.455273 -109.53264
114895000 -27.914139 -108.8045 -0.094056226 -23.21612 -0.092098638 -23.201435 -28.350281 -109.63052
115894000 -27.782936 -109.22285 -0.095538892 -23.417374 -0.092729561 -23.402134 -28.281134 -109.87463
116893000 -27.710241 -109.77645 -0.095960975 -23.612215 -0.093601003 -23.594692 -28.15119 -109.97762
117892000 -27.62236 -110.30682 -0.096481562 -23.807671 -0.094036654 -23.795233 -28.075386 -110.25154
118891000 -27.567959 -110.69468 -0.096592724 -24.009848 -0.094063103 -23.993544 -27.985153 -110.40043
119890000 -27.481049 -111.10908 -0.096781448 -24.21274 -0.094871052 -24.190559 -27.972902 -110.54015
120889000 -27.435501 -111.65588 -0.098625958 -24.410982 -0.094812579 -24.394753 -27.890333 -110.54345
121888000 -27.386513 -111.96078 -0.098542809 -24.607288 -0.095688134 -24.592735 -27.839258 -110.82465
122887000 -27.350603 -112.18193 -0.099935085 -24.808416 -0.096493997 -24.796419 -27.790171 -110.89612
123886000 -27.295036 -112.65114 -0.10023575 -25.012135 -0.096621573 -24.994551 -27.772926 -111.07697
124885000 -27.261921 -113.11992 -0.1004127 -25.210194 -0.098075986 -25.192616 -27.748432 -111.15864
125884000 -27.213017 -113.38051 -0.10127535 -25.405357 -0.097913161 -25.392118 -27.720493 -111.33318
126883000 -27.186531 -113.70997 -0.10078095 -25.610394 -0.098925196 -25.598021 -27.675373 -111.38183
127882000 -27.14093 -114.0174 -0.10118314 -25.808563 -0.098676801 -25.792784 -27.644026 -111.47976
128881000 -27.111423 -114.34759 -0.10139644 -26.011627 -0.098900035 -25.991852 -27.59411 -111.67845
129880000 -27.05497 -114.67643 -0.10246839 -26.21167 -0.099449314 -26.194 -27.550299 -111.62067
130879000 -26.996817 -114.81963 -0.1021114 -26.412603 -0.1006408 -26.39501 -27.472548 -111.70724
131878000 -26.933559 -115.1072 -0.10274564 -26.611761 -0.10037243 -26.594931 -27.413877 -111.58458
132877000 -26.860662 -115.11908 -0.10233932 -26.813128 -0.10066809 -26.797218 -27.325174 -111.62411
133876000 -26.770552 -115.30621 -0.10325246 -27.013067 -0.10080823 -26.995209 -27.235254 -111.49855
134875000 -26.67787 -115.42208 -0.10316762 -27.215878 -0.10039469 -27.197647 -27.123274 -111.37859
135874000 -26.600382 -115.47947 -0.10285855 -27.415787 -0.10070994 -27.397049 -27.019033 -111.38524
136873000 -26.482565 -115.38928 -0.10361564 -27.619001 -0.10110259 -27.598595 -26.935608 -111.35437
137872000 -26.394014 -115.52457 -0.10301945 -27.818102 -0.10082466 -27.80368 -26.829 -111.35235
138871000 -26.326797 -115.75219 -0.10348918 -28.017895 -0.10143963 -28.006514 -26.736025 -111.51971
139870000 -26.227619 -115.99045 -0.10484831 -28.219765 -0.10279652 -28.199959 -26.645416 -111.67071
140869000 -26.142298 -116.46091 -0.10678618 -28.413557 -0.10394253 -28.393064 -26.537958 -111.86335
141868000 -26.050751 -116.99102 -0.10683925 -28.608143 -0.10420953 -28.591221 -26.475609 -112.20811
142867000 -25.975248 -117.25452 -0.10521349 -28.804092 -0.10331448 -28.785358 -26.388079 -112.39511
143866000 -25.903215 -117.74471 -0.10717567 -28.999659 -0.1047006 -28.984819 -26.320427 -112.91246
144865000 -25.846783 -118.32365 -0.10862911 -29.201887 -0.1061182 -29.185173 -26.268452 -113.24912
145864000 -25.794241 -118.6302 -0.10871059 -29.402678 -0.10695306 -29.384687 -26.232052 -113.49873
146863000 -25.747841 -119.02774 -0.1101433 -29.599726 -0.10729799 -29.588257 -26.180735 -113.85107
147862000 -25.701656 -119.38959 -0.11117891 -29.794632 -0.10805584 -29.782145 -26.152224 -114.18102
148861000 -25.673092 -119.94254 -0.11131675 -29.997641 -0.10833238 -29.981157 -26.119638 -114.43563
149860000 -25.661674 -120.10807 -0.11143839 -30.194914 -0.10896461 -30.176989 -26.091198 -114.61249
150859000 -25.639023 -120.49274 -0.11142989 -30.394295 -0.10984037 -30.374405 -26.08073 -114.88052
151858000 -25.621004 -120.82393 -0.11248253 -30.592791 -0.10960037 -30.576715 -26.076803 -115.16714
152857000 -25.601397 -121.14846 -0.11208886 -30.788523 -0.10929854 -30.781183 -26.059643 -115.3068
153856000 -25.597569 -121.38794 -0.11163678 -30.991425 -0.11020225 -30.973099 -26.08238 -115.64184
154855000 -25.587435 -121.55102 -0.11208355 -31.188467 -0.11004268 -31.175005 -26.066059 -115.81691
155854000 -25.600773 -121.78946 -0.11345068 -31.387442 -0.11040909 -31.372688 -26.055967 -116.11113
156853000 -25.583969 -122.52048 -0.1107657 -31.570528 -0.11012048 -31.565634 -26.054317 -116.40627
157852000 -25.588259 -122.71061 -0.11221185 -31.772192 -0.11137358 -31.763416 -26.040609 -116.76006
158851000 -25.583344 -122.92645 -0.11313981 -31.97171 -0.11159243 -31.962496 -26.027012 -117.02719
159850000 -25.569393 -123.06616 -0.11337841 -32.168385 -0.1110201 -32.162121 -26.025875 -117.16338
160849000 -25.545918 -123.1905 -0.11357344 -32.367462 -0.11258295 -32.365456 -25.993986 -117.47404
161848000 -25.523853 -123.29761 -0.11376795 -32.571419 -0.11207557 -32.562321 -25.953194 -117.60193
162847000 -25.485277 -123.46396 -0.11426383 -32.766315 -0.11321314 -32.765045 -25.921968 -117.83839
163846000 -25.444155 -123.70646 -0.11407302 -32.966782 -0.11291185 -32.960693 -25.841042 -117.81696
164845000 -25.377794 -123.72802 -0.11469279 -33.165085 -0.11316717 -33.159458 -25.778303 -117.92861
165844000 -25.324371 -123.78132 -0.11536794 -33.360176 -0.11368345 -33.358727 -25.687733 -118.09962
166843000 -25.256886 -123.87372 -0.11465425 -33.563877 -0.11346609 -33.56012 -25.621634 -118.25771
167842000 -25.202585 -124.0415 -0.11464043 -33.766159 -0.1138126 -33.756321 -25.542622 -118.21241
168841000 -25.124224 -124.23221 -0.11555695 -33.964005 -0.11455724 -33.95808 -25.463045 -118.28539
169840000 -25.059402 -124.50809 -0.11482196 -34.157581 -0.11485333 -34.153118 -25.371281 -118.48331
170839000 -24.999353 -124.77603 -0.11679408 -34.351067 -0.11508723 -34.351006 -25.285538 -118.70122
171838000 -24.942366 -125.1827 -0.11651435 -34.555191 -0.11585443 -34.545715 -25.218821 -118.92786
172837000 -24.870968 -125.56112 -0.1177185 -34.751114 -0.1172435 -34.743385 -25.14945 -119.16248
173836000 -24.807432 -126.00994 -0.11909752 -34.950138 -0.11795203 -34.945709 -25.109632 -119.3909
174835000 -24.755602 -126.45039 -0.11953574 -35.142933 -0.11803289 -35.14484 -25.065598 -119.81139
175834000 -24.700031 -126.83866 -0.11994233 -35.341946 -0.11932819 -35.340664 -25.004013 -120.09248
176833000 -24.648403 -127.2333 -0.12088605 -35.541595 -0.11942797 -35.536278 -24.947472 -120.26342
177832000 -24.608915 -127.70982 -0.12139792 -35.734653 -0.12013394 -35.735275 -24.929312 -120.44167
178831000 -24.569883 -128.10277 -0.12182173 -35.933037 -0.12096511 -35.929321 -24.882544 -120.66339
179830000 -24.531145 -128.53059 -0.12252755 -36.132294 -0.12115037 -36.132057 -24.86305 -120.82457
180829000 -24.493942 -128.75827 -0.12325905 -36.330624 -0.12112481 -36.325024 -24.831015 -120.98018
181828000 -24.46727 -129.14117 -0.12317435 -36.525993 -0.122064 -36.524845 -24.817102 -121.12067
182827000 -24.440748 -129.47543 -0.12272858 -36.72123 -0.12204216 -36.721024 -24.806637 -121.17627
183826000 -24.403067 -129.82413 -0.12460466 -36.919437 -0.12218834 -36.916023 -24.795574 -121.29839
184825000 -24.410084 -130.14124 -0.1240751 -37.109379 -0.12232438 -37.116997 -24.778706 -121.40611
185824000 -24.385817 -130.49529 -0.12393659 -37.305893 -0.12274615 -37.308697 -24.778366 -121.45246
186823000 -24.366838 -130.86311 -0.12408655 -37.511795 -0.12263671 -37.506763 -24.776333 -121.44049
187822000 -24.346786 -131.17807 -0.12454978 -37.704937 -0.12357437 -37.703236 -24.737068 -121.52053
188821000 -24.330387 -131.41325 -0.12410919 -37.897285 -0.12429912 -37.90329 -24.725233 -121.61413
189820000 -24.313046 -131.69456 -0.12527283 -38.098614 -0.12395737 -38.102158 -24.711081 -121.74289
190819000 -24.287447 -131.94743 -0.12620252 -38.299423 -0.12465767 -38.296635 -24.684082 -121.71228
191818000 -24.248686 -132.12105 -0.12764874 -38.495079 -0.12650953 -38.494678 -24.649675 -121.62029
192817000 -24.179857 -132.38359 -0.12737551 -38.68013 -0.12717879 -38.678974 -24.572752 -121.67174
193816000 -24.142111 -132.74518 -0.12710415 -38.874413 -0.1259363 -38.867886 -24.519926 -121.95358
194815000 -24.084114 -133.19853 -0.12658201 -39.068836 -0.12656736 -39.074089 -24.455603 -122.08518
195814000 -24.033485 -133.41446 -0.12738644 -39.269505 -0.12653644 -39.26965 -24.393555 -122.16293
196813000 -23.97929 -133.76434 -0.12687813 -39.460876 -0.1266228 -39.461479 -24.320843 -122.3338
197812000 -23.921427 -134.00691 -0.1264485 -39.660099 -0.1268227 -39.660175 -24.248823 -122.45557
198811000 -23.8682 -134.19827 -0.1272241 -39.856552 -0.12647462 -39.861603 -24.181984 -122.65539
199810000 -23.8004 -134.56265 -0.12726089 -40.049484 -0.12603569 -40.051559 -24.102386 -122.75951
200809000 -23.741362 -134.87279 -0.12752798 -40.249245 -0.12651485 -40.251312 -24.02051 -122.95607
201808000 -23.683365 -135.07689 -0.12848082 -40.447941 -0.1280321 -40.451897 -23.952986 -123.02885
202807000 -23.623049 -135.45905 -0.12875067 -40.646786 -0.12792227 -40.652023 -23.897188 -123.25906
203806000 -23.572594 -135.91142 -0.13066348 -40.851028 -0.12843923 -40.852306 -23.832747 -123.45913
