!Keysight Technologies,E5080B,MY59205177,A.15.75.32
!Date: Friday, February 23, 2024 03:31:07
!Correction: S11(Cdelta 2-Port  ) 
!S21(Cdelta 2-Port  ) 
!S12(Cdelta 2-Port  ) 
!S22(Cdelta 2-Port  ) 
!S2P File: Measurements: S11, S21, S12, S22:
# Hz S  dB   R 50
10000000 -46.062801 -1.8131821 -0.015524089 -2.0478504 -0.018048391 -2.1016994 -45.9977 -158.39244
10999000 -45.279335 -4.0153432 -0.016252851 -2.2647374 -0.018033313 -2.3233984 -45.998825 -151.91411
11998000 -44.340069 -6.9054275 -0.016543092 -2.4908741 -0.017580267 -2.5354042 -46.062157 -147.28929
12997000 -43.570206 -12.561705 -0.015830128 -2.6744058 -0.017670197 -2.7062275 -45.799477 -141.5752
13996000 -43.261238 -16.611549 -0.014843241 -2.8553643 -0.017270466 -2.8743558 -45.58424 -136.40157
14995000 -42.880447 -20.898376 -0.017378062 -3.0616343 -0.017414449 -3.0884848 -45.208965 -132.9521
15994000 -42.744205 -25.475399 -0.01863589 -3.2835007 -0.019586194 -3.3062191 -45.172691 -129.94412
16993000 -42.709797 -29.905796 -0.017602619 -3.4794409 -0.019335272 -3.4867496 -44.308441 -129.60272
17992000 -42.702309 -35.221924 -0.018366566 -3.6793103 -0.02013151 -3.6830394 -43.779099 -129.29042
18991000 -42.97419 -40.535706 -0.018855831 -3.888478 -0.020521101 -3.8872759 -43.11673 -128.38933
19990000 -42.789108 -46.010937 -0.02152619 -4.0990682 -0.023142517 -4.0942025 -42.463928 -128.80304
20989000 -42.605537 -49.538998 -0.023909518 -4.3044858 -0.024712324 -4.2964678 -41.899391 -128.69785
21988000 -42.473537 -54.713509 -0.024304915 -4.5016885 -0.02489144 -4.4922829 -41.666252 -127.7655
22987000 -42.090927 -59.463055 -0.025931131 -4.7045431 -0.026481152 -4.6964746 -41.423622 -127.30244
23986000 -42.098167 -63.712723 -0.025253598 -4.895041 -0.025712913 -4.8957248 -41.267086 -127.14863
24985000 -41.645527 -66.373077 -0.02613035 -5.1040683 -0.025922017 -5.0997376 -41.104969 -124.72255
25984000 -41.352497 -68.421432 -0.027119024 -5.3108797 -0.026619449 -5.3145914 -40.724327 -122.91667
26983000 -41.033165 -70.43174 -0.027892722 -5.5110321 -0.027134132 -5.5276251 -40.645256 -122.43024
27982000 -40.807697 -71.362022 -0.030077795 -5.7114024 -0.028807269 -5.7447577 -40.332035 -120.50208
28981000 -40.842052 -72.698807 -0.027344085 -5.9088616 -0.028468264 -5.9360814 -40.107761 -120.06421
29980000 -40.415352 -74.4067 -0.02759104 -6.102541 -0.029500734 -6.1111622 -39.81152 -119.1114
30979000 -40.032879 -73.227158 -0.025920454 -6.4552798 -0.02438223 -6.4517384 -39.353428 -119.59939
31978000 -39.818165 -74.11087 -0.024649063 -6.6498423 -0.025036976 -6.6449909 -39.103008 -118.84518
32977000 -39.653793 -75.77092 -0.024560029 -6.8677492 -0.025989203 -6.8590016 -38.872772 -118.92284
33976000 -39.462368 -76.775833 -0.02498907 -7.0651331 -0.026825992 -7.0644851 -38.576977 -118.25085
34975000 -39.168091 -77.610077 -0.025445754 -7.2671337 -0.026928876 -7.2649779 -38.348766 -117.98969
35974000 -38.965916 -78.111534 -0.024563674 -7.4603844 -0.026652526 -7.4644074 -38.093224 -116.91105
36973000 -38.734608 -78.782883 -0.024893522 -7.6650987 -0.027494133 -7.6662002 -37.796925 -116.07378
37972000 -38.573963 -78.544975 -0.025223395 -7.8708754 -0.027624127 -7.8810778 -37.582981 -115.25986
38971000 -38.231857 -78.201622 -0.026034515 -8.0726833 -0.027969839 -8.0813189 -37.411037 -113.73851
39970000 -37.899075 -78.375877 -0.024254415 -8.2694016 -0.027137257 -8.2831135 -37.15741 -113.01109
40969000 -37.604687 -78.085526 -0.024392381 -8.4622107 -0.026976803 -8.4834414 -36.925953 -111.60597
41968000 -37.256088 -77.987946 -0.024850825 -8.6708946 -0.027158877 -8.6856384 -36.751095 -110.37289
42967000 -36.995697 -78.300476 -0.024692537 -8.8797035 -0.026708525 -8.903738 -36.532108 -108.4382
43966000 -36.718891 -78.872719 -0.02548351 -9.0827646 -0.029320909 -9.1002808 -36.259071 -107.69058
44965000 -36.477077 -79.532257 -0.026678313 -9.2819672 -0.028224908 -9.3022823 -36.047104 -107.44518
45964000 -36.232723 -80.516212 -0.028460449 -9.4852629 -0.030106207 -9.505414 -35.815407 -107.18483
46963000 -36.032791 -82.585732 -0.027602242 -9.6782799 -0.031051986 -9.7026548 -35.643909 -107.31361
47962000 -35.878727 -83.94381 -0.029151773 -9.8831329 -0.031981543 -9.9006319 -35.435364 -107.42783
48961000 -35.658642 -85.378334 -0.031581536 -10.079704 -0.033476029 -10.102896 -35.209526 -107.48465
49960000 -35.436108 -86.701172 -0.03243896 -10.278419 -0.034228943 -10.304671 -35.079006 -107.65955
50959000 -35.205139 -88.009308 -0.033412378 -10.491095 -0.035053492 -10.503562 -34.889412 -107.92881
51958000 -34.994255 -89.038795 -0.035137258 -10.690778 -0.03681035 -10.701856 -34.705723 -108.34644
52957000 -34.785236 -90.070534 -0.036673296 -10.893532 -0.038484089 -10.900203 -34.552658 -108.08279
53956000 -34.623466 -90.778191 -0.038155034 -11.096151 -0.039049022 -11.092556 -34.415573 -108.01005
54955000 -34.444191 -91.296829 -0.038299188 -11.29599 -0.040285707 -11.292386 -34.274353 -108.07013
55954000 -34.284889 -92.132973 -0.040164478 -11.500457 -0.040239461 -11.495872 -34.166237 -107.67113
56953000 -34.168953 -92.150826 -0.039449718 -11.696414 -0.039004616 -11.688525 -34.076996 -107.90601
57952000 -33.998562 -92.679718 -0.040646277 -11.896891 -0.040347628 -11.885463 -33.973724 -107.93767
58951000 -33.889061 -93.006035 -0.041382141 -12.098001 -0.041073252 -12.081545 -33.814442 -108.0237
59950000 -33.760139 -93.415619 -0.042574268 -12.297915 -0.042850588 -12.279875 -33.755047 -108.40434
60949000 -33.636551 -94.027008 -0.042376909 -12.501612 -0.042278104 -12.478344 -33.666348 -108.63412
61948000 -33.56321 -94.312706 -0.04288562 -12.704668 -0.042977907 -12.684504 -33.559776 -108.62638
62947000 -33.486362 -94.53083 -0.043270197 -12.909541 -0.04323804 -12.892846 -33.432858 -108.87442
63946000 -33.401196 -95.24147 -0.044656634 -13.110597 -0.044033702 -13.092215 -33.328659 -109.05801
64945000 -33.287922 -95.385841 -0.045233883 -13.312306 -0.044493441 -13.296239 -33.211906 -109.54255
65944000 -33.204857 -95.654793 -0.046019711 -13.511564 -0.044888102 -13.495029 -33.122505 -110.01473
66943000 -33.052105 -96.097549 -0.043488517 -13.715672 -0.043427333 -13.697526 -33.021103 -110.21657
67942000 -32.992939 -96.065025 -0.045578644 -13.912983 -0.044965521 -13.898963 -32.895599 -110.55203
68941000 -32.886356 -96.098488 -0.045167446 -14.106515 -0.044179361 -14.098574 -32.784527 -110.51599
69940000 -32.773048 -96.134354 -0.045851231 -14.307222 -0.04559068 -14.298728 -32.646683 -110.77927
70939000 -32.67767 -96.014427 -0.045732465 -14.506826 -0.04569741 -14.494667 -32.50621 -110.72935
71938000 -32.535145 -95.657425 -0.046045087 -14.702888 -0.045062818 -14.689929 -32.381062 -110.52817
72937000 -32.37603 -95.452148 -0.045022279 -14.897984 -0.044452645 -14.8924 -32.238075 -110.17529
73936000 -32.240173 -95.029182 -0.045537576 -15.095808 -0.044189036 -15.087844 -32.120747 -109.984
74935000 -32.10461 -95.253853 -0.043866873 -15.29174 -0.043258172 -15.291776 -31.966105 -109.66946
75934000 -31.983685 -95.600639 -0.044046517 -15.507358 -0.043367721 -15.500368 -31.882496 -109.63497
76933000 -31.848764 -95.893341 -0.045099698 -15.698092 -0.044893593 -15.690271 -31.706936 -109.92192
77932000 -31.736567 -96.761589 -0.046159156 -15.89077 -0.046690024 -15.884867 -31.593332 -109.88863
78931000 -31.671558 -97.427238 -0.04536676 -16.092825 -0.045323078 -16.086035 -31.505644 -109.75357
79930000 -31.560925 -98.264359 -0.047171239 -16.288256 -0.047694381 -16.286831 -31.405519 -110.03496
80929000 -31.446775 -99.014496 -0.049783133 -16.48468 -0.049117316 -16.480276 -31.302219 -110.3126
81928000 -31.344873 -99.833954 -0.049126741 -16.675804 -0.04981377 -16.672213 -31.177347 -110.28875
82927000 -31.24861 -100.49801 -0.051561944 -16.873188 -0.051316239 -16.872438 -31.069244 -110.54469
83926000 -31.128317 -101.21623 -0.05281923 -17.070738 -0.051720951 -17.071009 -30.943193 -110.74781
84925000 -31.026323 -101.61782 -0.054072686 -17.274105 -0.052559305 -17.267578 -30.852274 -110.77029
85924000 -30.929314 -102.00946 -0.054513041 -17.472902 -0.053495314 -17.470036 -30.757406 -110.74116
86923000 -30.819786 -102.61089 -0.054746605 -17.672359 -0.0537186 -17.667261 -30.666273 -110.60722
87922000 -30.707735 -102.9014 -0.054626282 -17.881723 -0.053455479 -17.86812 -30.57765 -110.63257
88921000 -30.635504 -103.15382 -0.056248162 -18.077366 -0.054907825 -18.072586 -30.480743 -110.60339
89920000 -30.538015 -103.70609 -0.056171853 -18.274305 -0.055293996 -18.270561 -30.422781 -110.77021
90919000 -30.429052 -103.96263 -0.05710103 -18.470774 -0.055530746 -18.469374 -30.337433 -110.9571
91918000 -30.330706 -104.28297 -0.058575589 -18.672764 -0.05616818 -18.667313 -30.27162 -110.95523
92917000 -30.241995 -104.64958 -0.059446234 -18.872854 -0.058323715 -18.870644 -30.205051 -111.08527
93916000 -30.157475 -104.95114 -0.059046578 -19.064808 -0.05758917 -19.060343 -30.117258 -111.70498
94915000 -30.069199 -105.6431 -0.060554605 -19.268562 -0.059084889 -19.264194 -30.053665 -111.57197
95914000 -30.002193 -105.78632 -0.061531983 -19.463356 -0.059308462 -19.462009 -29.963642 -111.79619
96913000 -29.916576 -106.05578 -0.062580749 -19.663038 -0.060606319 -19.661064 -29.903971 -112.15031
97912000 -29.841507 -106.4129 -0.063512087 -19.8584 -0.061223231 -19.86117 -29.817059 -112.36035
98911000 -29.737978 -106.61146 -0.06392739 -20.060806 -0.062646925 -20.060051 -29.77231 -112.62472
99910000 -29.666967 -106.71958 -0.064561851 -20.258337 -0.063345291 -20.259167 -29.670954 -112.82709
100909000 -29.57233 -107.02816 -0.063609011 -20.47146 -0.061961278 -20.462229 -29.586544 -113.11683
101908000 -29.49069 -107.20629 -0.066013977 -20.671761 -0.063937902 -20.667412 -29.467731 -112.8652
102907000 -29.35214 -107.24944 -0.065284967 -20.867855 -0.063737467 -20.869383 -29.400749 -112.86388
103906000 -29.24884 -107.31436 -0.066060767 -21.078846 -0.062623814 -21.068413 -29.25172 -112.79173
104905000 -29.105892 -107.13529 -0.066758886 -21.275049 -0.06427417 -21.27383 -29.130476 -112.49593
105904000 -28.969086 -107.23469 -0.066819876 -21.478033 -0.064525858 -21.466824 -29.013382 -112.36066
106903000 -28.856436 -107.28852 -0.067077495 -21.682344 -0.063949458 -21.677057 -28.888105 -112.23418
107902000 -28.689709 -107.67348 -0.067670353 -21.883192 -0.064860068 -21.877037 -28.756287 -112.15253
108901000 -28.581324 -107.84148 -0.068460517 -22.087706 -0.066283643 -22.078785 -28.617752 -112.16631
109900000 -28.454494 -108.36156 -0.069381014 -22.286592 -0.067968518 -22.276199 -28.474382 -112.20393
110899000 -28.330254 -109.0135 -0.071142875 -22.483431 -0.068599895 -22.472576 -28.345926 -112.47677
111898000 -28.248384 -109.64205 -0.072232388 -22.687395 -0.06948702 -22.6796 -28.233543 -112.60315
112897000 -28.123188 -110.17185 -0.073631793 -22.884235 -0.070456408 -22.871729 -28.095591 -112.75118
113896000 -28.019009 -110.73541 -0.074756958 -23.08604 -0.071778655 -23.073515 -27.982649 -112.9359
114895000 -27.91996 -111.39194 -0.075112499 -23.286732 -0.073110513 -23.269682 -27.87977 -112.98376
115894000 -27.794943 -111.76492 -0.076961003 -23.483055 -0.073990405 -23.472622 -27.807102 -113.17905
116893000 -27.716715 -112.25845 -0.077890418 -23.680578 -0.075254463 -23.667398 -27.686117 -113.21927
117892000 -27.638554 -112.73135 -0.077528067 -23.878664 -0.075304508 -23.863348 -27.60644 -113.45152
118891000 -27.57601 -113.14621 -0.077957891 -24.080341 -0.075819455 -24.063528 -27.517794 -113.52188
119890000 -27.492043 -113.52885 -0.079083122 -24.284464 -0.076820038 -24.264563 -27.501472 -113.7108
120889000 -27.445368 -114.02299 -0.080513746 -24.481249 -0.076326042 -24.467142 -27.429697 -113.62572
121888000 -27.403799 -114.35577 -0.080545649 -24.680891 -0.077252164 -24.66567 -27.371338 -113.8752
122887000 -27.366657 -114.52464 -0.081389591 -24.887346 -0.078013763 -24.867054 -27.323511 -113.9075
123886000 -27.31617 -114.94891 -0.082227625 -25.086491 -0.078352965 -25.067432 -27.313093 -114.02504
124885000 -27.279921 -115.44255 -0.082356893 -25.284254 -0.078266516 -25.267582 -27.283327 -114.09195
125884000 -27.22504 -115.65443 -0.082731262 -25.483267 -0.078087293 -25.47039 -27.25382 -114.25053
126883000 -27.205938 -116.05338 -0.083409376 -25.685118 -0.079921767 -25.670979 -27.213011 -114.28093
127882000 -27.160889 -116.35349 -0.083651625 -25.887135 -0.079950243 -25.867788 -27.179632 -114.40195
128881000 -27.131407 -116.66431 -0.083953537 -26.086498 -0.080049649 -26.06879 -27.134529 -114.45454
129880000 -27.070349 -117.01475 -0.084887885 -26.290808 -0.080174632 -26.274157 -27.095325 -114.44601
130879000 -27.018929 -117.1562 -0.084358133 -26.486919 -0.081174895 -26.473183 -27.026834 -114.44289
131878000 -26.952045 -117.39403 -0.085248478 -26.690094 -0.081483491 -26.673851 -26.957987 -114.32545
132877000 -26.880924 -117.42869 -0.084815025 -26.893356 -0.081537299 -26.873716 -26.882689 -114.29906
133876000 -26.795816 -117.6071 -0.084897652 -27.095417 -0.081249006 -27.076632 -26.795185 -114.18496
134875000 -26.70163 -117.73234 -0.085398167 -27.295635 -0.082244247 -27.275574 -26.69698 -114.02525
135874000 -26.616459 -117.73861 -0.085575312 -27.494127 -0.082442105 -27.476345 -26.601053 -113.99813
136873000 -26.509476 -117.66264 -0.085460737 -27.699839 -0.081776805 -27.682264 -26.517584 -113.92708
137872000 -26.427732 -117.84015 -0.084942259 -27.899927 -0.08204402 -27.88382 -26.415825 -113.89323
138871000 -26.355165 -118.04832 -0.08589346 -28.099926 -0.081420183 -28.085331 -26.317692 -114.02654
139870000 -26.251801 -118.28936 -0.086133465 -28.301111 -0.083541319 -28.282001 -26.231888 -114.19579
140869000 -26.171833 -118.84783 -0.087042406 -28.498083 -0.084552653 -28.477745 -26.136728 -114.40079
141868000 -26.092962 -119.2404 -0.088231549 -28.695906 -0.085873924 -28.681461 -26.082743 -114.65223
142867000 -26.013556 -119.39105 -0.086803928 -28.89374 -0.085368335 -28.875803 -26.001226 -114.77192
143866000 -25.937601 -119.9373 -0.089446649 -29.088341 -0.086114988 -29.073927 -25.927641 -115.23472
144865000 -25.877808 -120.45156 -0.09057539 -29.288067 -0.08796104 -29.272388 -25.875652 -115.5592
145864000 -25.824348 -120.72951 -0.091002546 -29.490585 -0.089687914 -29.480518 -25.833055 -115.79875
146863000 -25.775229 -121.12971 -0.09160132 -29.688322 -0.089554198 -29.678358 -25.788277 -116.10674
147862000 -25.740583 -121.48582 -0.092450052 -29.890347 -0.090094894 -29.876747 -25.750862 -116.4147
148861000 -25.704351 -121.89145 -0.093700193 -30.090689 -0.091425508 -30.071981 -25.727737 -116.57948
149860000 -25.670996 -122.04874 -0.09479326 -30.279219 -0.091861472 -30.267479 -25.678371 -116.68347
150859000 -25.647972 -122.54876 -0.093995914 -30.477251 -0.091535755 -30.462309 -25.663286 -117.01064
151858000 -25.635668 -122.91365 -0.093478806 -30.677753 -0.09194582 -30.665924 -25.648001 -117.36199
152857000 -25.620863 -123.21801 -0.094717331 -30.878021 -0.092271037 -30.867392 -25.632355 -117.5625
153856000 -25.618395 -123.4733 -0.09407898 -31.078529 -0.091176219 -31.063732 -25.648598 -117.85005
154855000 -25.619114 -123.61205 -0.094597481 -31.276239 -0.091406479 -31.26598 -25.640276 -118.09781
155854000 -25.635321 -123.86473 -0.094787709 -31.47817 -0.092477821 -31.46298 -25.629089 -118.38006
156853000 -25.620382 -124.51261 -0.092538901 -31.665016 -0.091315009 -31.658617 -25.626923 -118.69351
157852000 -25.627398 -124.75893 -0.093775049 -31.866449 -0.092486806 -31.858454 -25.61808 -119.0274
158851000 -25.621342 -124.95472 -0.094414942 -32.068375 -0.093407124 -32.055695 -25.602158 -119.26845
159850000 -25.611897 -125.05315 -0.095510311 -32.264126 -0.092865489 -32.256355 -25.600182 -119.46639
160849000 -25.599016 -125.15414 -0.095794521 -32.464977 -0.093894869 -32.459106 -25.566866 -119.73759
161848000 -25.579329 -125.24872 -0.095981352 -32.667515 -0.094127126 -32.655716 -25.532045 -119.87238
162847000 -25.539934 -125.41285 -0.096046455 -32.865154 -0.09456256 -32.861504 -25.504229 -120.13345
163846000 -25.492685 -125.61053 -0.096407451 -33.062557 -0.094205163 -33.054005 -25.426085 -120.12195
164845000 -25.44231 -125.58566 -0.096870117 -33.262581 -0.09498217 -33.259056 -25.36388 -120.23856
165844000 -25.388174 -125.65018 -0.096573137 -33.465675 -0.095328793 -33.457184 -25.285122 -120.35978
166843000 -25.325588 -125.70061 -0.096092239 -33.661694 -0.094963655 -33.65794 -25.220755 -120.5275
167842000 -25.270477 -125.79493 -0.096564934 -33.863422 -0.095479615 -33.860313 -25.141335 -120.45944
168841000 -25.189381 -125.9704 -0.097459644 -34.059418 -0.095851682 -34.05835 -25.0644 -120.52094
169840000 -25.125931 -126.17974 -0.097460441 -34.260319 -0.096833065 -34.254032 -24.983665 -120.67278
170839000 -25.063852 -126.45422 -0.098681562 -34.457844 -0.096368283 -34.45295 -24.899214 -120.86353
171838000 -25.006086 -126.82965 -0.098951146 -34.659107 -0.097838499 -34.650463 -24.840353 -121.09449
172837000 -24.935617 -127.16904 -0.10003998 -34.854649 -0.099020533 -34.849964 -24.768194 -121.27889
173836000 -24.873333 -127.60046 -0.10132357 -35.057747 -0.09942627 -35.050808 -24.728754 -121.51984
174835000 -24.815617 -127.99834 -0.1012205 -35.249641 -0.1002617 -35.252277 -24.68787 -121.84764
175834000 -24.769951 -128.35777 -0.1028498 -35.451527 -0.10161108 -35.446804 -24.622982 -122.1172
176833000 -24.71509 -128.6864 -0.10362677 -35.64991 -0.10198658 -35.648197 -24.574923 -122.24838
177832000 -24.672813 -129.11993 -0.10433415 -35.851009 -0.102796 -35.849377 -24.559673 -122.36978
178831000 -24.629839 -129.37561 -0.1061113 -36.042019 -0.10436861 -36.04314 -24.514908 -122.43229
179830000 -24.559566 -129.73434 -0.10732611 -36.229649 -0.10540338 -36.23288 -24.448427 -122.49779
180829000 -24.507122 -130.10701 -0.10619406 -36.424988 -0.10475072 -36.424015 -24.410158 -122.85001
181828000 -24.483713 -130.51091 -0.1054856 -36.623692 -0.10428271 -36.618904 -24.393198 -123.036
182827000 -24.462513 -130.92455 -0.10584366 -36.817875 -0.10432991 -36.81879 -24.37945 -123.14289
183826000 -24.417786 -131.24142 -0.1066424 -37.020687 -0.10475417 -37.013012 -24.370455 -123.30292
184825000 -24.425276 -131.58438 -0.10662674 -37.215042 -0.105179 -37.215393 -24.351595 -123.41033
185824000 -24.395855 -131.94974 -0.10590759 -37.411209 -0.10472288 -37.411667 -24.343176 -123.46261
186823000 -24.376617 -132.29764 -0.10640549 -37.61364 -0.1048019 -37.609081 -24.341877 -123.49105
187822000 -24.353188 -132.62602 -0.10654078 -37.808224 -0.10568664 -37.804596 -24.302692 -123.58803
188821000 -24.3279 -132.90544 -0.10694776 -38.005192 -0.10561901 -38.006378 -24.282604 -123.69955
189820000 -24.310045 -133.21019 -0.10697164 -38.206734 -0.10612218 -38.204819 -24.261841 -123.90907
190819000 -24.27919 -133.48618 -0.10717965 -38.401768 -0.10636729 -38.398041 -24.228001 -123.96335
191818000 -24.246637 -133.80649 -0.10697854 -38.599033 -0.10651744 -38.599754 -24.196209 -123.97548
192817000 -24.19935 -134.07394 -0.10735848 -38.79797 -0.10710801 -38.796741 -24.154675 -124.06562
193816000 -24.169361 -134.32924 -0.10840669 -38.994274 -0.10672411 -38.990601 -24.103065 -124.19255
194815000 -24.105017 -134.74774 -0.10907371 -39.186684 -0.10734124 -39.189331 -24.034626 -124.2523
195814000 -24.050732 -134.92612 -0.10966382 -39.385151 -0.10769335 -39.389221 -23.977449 -124.37669
196813000 -23.999596 -135.25259 -0.109242 -39.57991 -0.10828567 -39.58604 -23.898966 -124.5026
197812000 -23.939293 -135.44717 -0.10955604 -39.776779 -0.10879261 -39.779011 -23.82826 -124.60314
198811000 -23.887499 -135.61826 -0.10961498 -39.972698 -0.10828514 -39.979431 -23.75555 -124.76627
199810000 -23.817038 -135.99002 -0.10948198 -40.171284 -0.10831965 -40.168835 -23.677197 -124.88058
200809000 -23.755943 -136.23724 -0.11054849 -40.367176 -0.10841253 -40.36805 -23.603241 -125.05534
201808000 -23.70204 -136.42352 -0.11105489 -40.568474 -0.10978966 -40.569862 -23.535791 -125.13591
202807000 -23.646763 -136.75298 -0.11209948 -40.768139 -0.11007746 -40.770905 -23.480339 -125.31919
