!Keysight Technologies,E5080B,MY59205177,A.15.75.32
!Date: Friday, February 23, 2024 02:52:52
!Correction: S11(Cdelta 2-Port  ) 
!S21(Cdelta 2-Port  ) 
!S12(Cdelta 2-Port  ) 
!S22(Cdelta 2-Port  ) 
!S2P File: Measurements: S11, S21, S12, S22:
# Hz S  dB   R 50
10000000 -43.130383 -3.4916537 -0.034699123 -2.0451045 -0.037872486 -2.103116 -49.695999 -143.95796
10999000 -42.54068 -5.262042 -0.035560038 -2.2595925 -0.037394125 -2.3149171 -49.266891 -134.62061
11998000 -41.853794 -7.1711798 -0.035625808 -2.4868481 -0.037070118 -2.5279574 -49.262039 -128.22839
12997000 -41.260044 -11.893685 -0.035213459 -2.6681955 -0.036916606 -2.6955564 -48.435486 -122.15277
13996000 -41.041557 -14.726813 -0.034563441 -2.8456371 -0.036516927 -2.8661833 -47.83028 -116.30553
14995000 -40.773056 -18.278999 -0.036369439 -3.053822 -0.037264101 -3.0788064 -47.268978 -112.73018
15994000 -40.654209 -21.666151 -0.03753721 -3.272223 -0.039480541 -3.2952764 -46.909946 -109.14487
16993000 -40.678772 -25.484354 -0.036972735 -3.4638724 -0.038323473 -3.4767878 -46.00425 -111.15405
17992000 -40.767296 -29.514986 -0.036701228 -3.6669519 -0.039263468 -3.6685095 -45.412033 -112.53813
18991000 -41.080051 -33.301556 -0.037978765 -3.884666 -0.040775359 -3.8731894 -44.695118 -112.77615
19990000 -40.957066 -38.016769 -0.041257747 -4.0881438 -0.042194981 -4.0807867 -43.919613 -114.8734
20989000 -40.866077 -41.021358 -0.042889543 -4.2905164 -0.044318747 -4.2797661 -43.325256 -114.99898
21988000 -40.872738 -45.386478 -0.04292405 -4.4886923 -0.044640422 -4.4731827 -43.031265 -114.70895
22987000 -40.71117 -49.595535 -0.044578698 -4.6863189 -0.046087731 -4.6764078 -42.740204 -114.5392
23986000 -40.731945 -52.948071 -0.043576367 -4.8770332 -0.043838631 -4.8777475 -42.633923 -114.56821
24985000 -40.457085 -55.548012 -0.04559591 -5.0903716 -0.045123503 -5.0879736 -42.305981 -112.16768
25984000 -40.28907 -57.726452 -0.04595143 -5.2959523 -0.045667324 -5.2959595 -41.924416 -110.97173
26983000 -40.024601 -59.760616 -0.047329824 -5.4921694 -0.046141624 -5.5107675 -41.757046 -110.45999
27982000 -39.918888 -60.644245 -0.048032273 -5.6945825 -0.047914494 -5.7243953 -41.443275 -108.95763
28981000 -39.925163 -62.119316 -0.046507392 -5.890213 -0.048623059 -5.9127765 -41.137356 -108.52378
29980000 -39.580647 -64.014084 -0.046647374 -6.0845094 -0.048311297 -6.0930367 -40.766125 -107.81456
30979000 -39.185802 -63.249668 -0.044258077 -6.4354715 -0.042962741 -6.4274397 -40.339466 -108.90925
31978000 -39.008511 -64.334953 -0.043007448 -6.6296787 -0.043490086 -6.6265121 -40.008686 -108.4621
32977000 -38.880257 -65.960548 -0.043538455 -6.8433657 -0.044955842 -6.8391409 -39.791618 -108.83536
33976000 -38.76181 -67.330818 -0.043772999 -7.0409646 -0.044906147 -7.0362072 -39.454426 -108.48837
34975000 -38.481884 -68.234467 -0.04387027 -7.2416801 -0.045706827 -7.2429795 -39.175533 -108.27962
35974000 -38.287144 -68.944458 -0.043392558 -7.4417191 -0.045539144 -7.4386287 -38.880844 -107.65201
36973000 -38.101715 -69.814407 -0.043935381 -7.6385064 -0.046553966 -7.6394243 -38.572735 -106.89809
37972000 -37.911224 -69.92424 -0.043534532 -7.8447413 -0.045503568 -7.8559914 -38.324795 -106.22535
38971000 -37.600872 -69.799004 -0.044211265 -8.0448351 -0.046288922 -8.0621567 -38.119026 -104.75679
39970000 -37.296375 -70.377197 -0.042515453 -8.240263 -0.045032218 -8.2547922 -37.799271 -104.5452
40969000 -37.007473 -70.374031 -0.042996991 -8.4388151 -0.044975981 -8.4601412 -37.536728 -103.11871
41968000 -36.662609 -70.646843 -0.043830264 -8.6363001 -0.045637764 -8.6621666 -37.309933 -102.07459
42967000 -36.434395 -71.043991 -0.043506555 -8.8524694 -0.046018139 -8.871418 -37.059566 -100.26337
43966000 -36.150696 -71.945679 -0.044142228 -9.0527096 -0.047071278 -9.0728903 -36.770325 -99.855675
44965000 -35.941765 -72.887985 -0.044748176 -9.2567339 -0.047696475 -9.2773514 -36.544712 -99.788582
45964000 -35.730774 -74.089211 -0.045674127 -9.4556131 -0.048339043 -9.4740553 -36.305706 -99.715958
46963000 -35.595039 -76.128082 -0.045978636 -9.6491289 -0.048968874 -9.668395 -36.121464 -100.10226
47962000 -35.441582 -77.605133 -0.047802735 -9.8498096 -0.050269146 -9.8654718 -35.916412 -100.2559
48961000 -35.264458 -79.161148 -0.049845193 -10.046731 -0.051341649 -10.070307 -35.681484 -100.68135
49960000 -35.049412 -80.560799 -0.051266998 -10.247259 -0.052769445 -10.270226 -35.538784 -100.85307
50959000 -34.854572 -82.087578 -0.051270138 -10.462051 -0.054060105 -10.470777 -35.369865 -101.41225
51958000 -34.690151 -83.230217 -0.053673785 -10.658245 -0.054693129 -10.668262 -35.206051 -102.04591
52957000 -34.488838 -84.350403 -0.055020031 -10.859225 -0.056459002 -10.864878 -35.035107 -101.93909
53956000 -34.341228 -85.15139 -0.056118358 -11.057822 -0.057060637 -11.062079 -34.885796 -101.99648
54955000 -34.18581 -85.747543 -0.05702313 -11.25805 -0.058393504 -11.257775 -34.740631 -102.01248
55954000 -34.040451 -86.607361 -0.058282789 -11.460814 -0.058265209 -11.46066 -34.6175 -101.82296
56953000 -33.917915 -86.7798 -0.05764924 -11.658017 -0.057886645 -11.645824 -34.567745 -102.06132
57952000 -33.762192 -87.418785 -0.059250731 -11.859544 -0.058785494 -11.849824 -34.449944 -102.26482
58951000 -33.646069 -87.816566 -0.059776906 -12.06492 -0.059945926 -12.040458 -34.285496 -102.4811
59950000 -33.529163 -88.202026 -0.061070438 -12.25958 -0.060302094 -12.238701 -34.22522 -102.71552
60949000 -33.427914 -88.838509 -0.061018195 -12.459324 -0.060098939 -12.439254 -34.135845 -103.06946
61948000 -33.363297 -89.149559 -0.061554823 -12.660384 -0.060765658 -12.647062 -34.04731 -103.23644
62947000 -33.286278 -89.45163 -0.06193712 -12.87291 -0.061455842 -12.856503 -33.906403 -103.54311
63946000 -33.216259 -90.159019 -0.062808178 -13.070817 -0.061848897 -13.051311 -33.812401 -103.62155
64945000 -33.110847 -90.26313 -0.062937923 -13.270222 -0.062723614 -13.254718 -33.705379 -104.17493
65944000 -33.022373 -90.66433 -0.063982822 -13.472629 -0.063144356 -13.456311 -33.607281 -104.66115
66943000 -32.881298 -91.134895 -0.061856247 -13.672771 -0.062031388 -13.655659 -33.503651 -104.99585
67942000 -32.82024 -91.185234 -0.064565793 -13.866268 -0.063598506 -13.85695 -33.385323 -105.3286
68941000 -32.704845 -91.268044 -0.063992806 -14.061362 -0.06254188 -14.052212 -33.26432 -105.29949
69940000 -32.611683 -91.264732 -0.064168818 -14.261347 -0.063390993 -14.254525 -33.135101 -105.59436
70939000 -32.505291 -91.238785 -0.064072408 -14.457105 -0.063926607 -14.451166 -33.007923 -105.52378
71938000 -32.355045 -90.948318 -0.064059272 -14.654222 -0.062688157 -14.649564 -32.869427 -105.50058
72937000 -32.198315 -90.747284 -0.063563831 -14.853867 -0.062785596 -14.848649 -32.722378 -105.24337
73936000 -32.056492 -90.546982 -0.06311468 -15.049494 -0.061719976 -15.046818 -32.608749 -105.11117
74935000 -31.931206 -90.801056 -0.062355429 -15.24821 -0.061306193 -15.245491 -32.448738 -104.73636
75934000 -31.806484 -91.123436 -0.063286453 -15.453068 -0.06141226 -15.448201 -32.363327 -104.71006
76933000 -31.680494 -91.534424 -0.063554116 -15.645942 -0.062803976 -15.643201 -32.192516 -105.15548
77932000 -31.587635 -92.41246 -0.064978577 -15.844202 -0.064034574 -15.838262 -32.087299 -105.20339
78931000 -31.529032 -93.142113 -0.06383387 -16.04217 -0.063526794 -16.039017 -31.9781 -105.11297
79930000 -31.421598 -93.981636 -0.066718936 -16.237078 -0.066054195 -16.236984 -31.890312 -105.39674
80929000 -31.299925 -94.905632 -0.068072118 -16.432201 -0.067412429 -16.431879 -31.779669 -105.82544
81928000 -31.228638 -95.728622 -0.068243831 -16.624138 -0.068111829 -16.623909 -31.664854 -105.94672
82927000 -31.130753 -96.51252 -0.069575921 -16.825293 -0.069712445 -16.820522 -31.578022 -106.24907
83926000 -31.027878 -97.242149 -0.071007363 -17.020102 -0.070747137 -17.019909 -31.44861 -106.50649
84925000 -30.916765 -97.791145 -0.072547451 -17.219599 -0.071083404 -17.217888 -31.365595 -106.66285
85924000 -30.841793 -98.297348 -0.073186599 -17.420189 -0.072266079 -17.418743 -31.2731 -106.62924
86923000 -30.732529 -98.801247 -0.074015945 -17.616913 -0.071962088 -17.613325 -31.167076 -106.62344
87922000 -30.623701 -99.209984 -0.073121838 -17.82173 -0.071939982 -17.812038 -31.085337 -106.69168
88921000 -30.564566 -99.547737 -0.074504405 -18.014637 -0.073337182 -18.016672 -30.983931 -106.75333
89920000 -30.464333 -100.12923 -0.074895218 -18.21789 -0.073869281 -18.211876 -30.935051 -106.93172
90919000 -30.361307 -100.47218 -0.075462542 -18.418692 -0.074873887 -18.413761 -30.84675 -107.13634
91918000 -30.26597 -100.86131 -0.076004907 -18.619736 -0.074448578 -18.61393 -30.770935 -107.14008
92917000 -30.196497 -101.21483 -0.077309348 -18.813553 -0.076262288 -18.808968 -30.71085 -107.28407
93916000 -30.104446 -101.64602 -0.076944403 -19.010517 -0.075677745 -19.003601 -30.624704 -107.94575
94915000 -30.037739 -102.3076 -0.078651339 -19.207838 -0.077067189 -19.202097 -30.564262 -107.82874
95914000 -29.966028 -102.52016 -0.079944707 -19.403942 -0.07798662 -19.39953 -30.478315 -108.13933
96913000 -29.886772 -102.73503 -0.080306478 -19.603317 -0.079136372 -19.601692 -30.409781 -108.43426
97912000 -29.814917 -103.27042 -0.081720091 -19.797405 -0.079258695 -19.800198 -30.332031 -108.70109
98911000 -29.707901 -103.48006 -0.082355574 -20.00115 -0.080396399 -19.997198 -30.297064 -108.97874
99910000 -29.639124 -103.62589 -0.083034687 -20.19787 -0.080575712 -20.198296 -30.187441 -109.25679
100909000 -29.55217 -103.90313 -0.081977278 -20.408232 -0.080043055 -20.398022 -30.097275 -109.48891
101908000 -29.468857 -104.16174 -0.083632097 -20.607431 -0.080776401 -20.604906 -29.977617 -109.2405
102907000 -29.33877 -104.21192 -0.083692007 -20.807161 -0.082055628 -20.805935 -29.907936 -109.21432
103906000 -29.243326 -104.28972 -0.084371328 -21.016697 -0.080636367 -21.00934 -29.755346 -109.1698
104905000 -29.085001 -104.21372 -0.084650844 -21.207272 -0.081750423 -21.208237 -29.612633 -108.86078
105904000 -28.950125 -104.34821 -0.084750354 -21.410456 -0.082270101 -21.408182 -29.500162 -108.73008
106903000 -28.835812 -104.47176 -0.0845384 -21.612629 -0.082727045 -21.611774 -29.374531 -108.64178
107902000 -28.679781 -104.87509 -0.085482121 -21.814484 -0.082866348 -21.80843 -29.227028 -108.65202
108901000 -28.56303 -105.15134 -0.086530872 -22.015694 -0.084142759 -22.012468 -29.098282 -108.58713
109900000 -28.440611 -105.64787 -0.087061949 -22.217852 -0.085730024 -22.207163 -28.949442 -108.71478
110899000 -28.32658 -106.32085 -0.088790044 -22.416027 -0.085885271 -22.404274 -28.820801 -109.00619
111898000 -28.239332 -106.99217 -0.089833789 -22.615908 -0.087359071 -22.611868 -28.705988 -109.17357
112897000 -28.114033 -107.61573 -0.091856979 -22.815516 -0.08851739 -22.80401 -28.562044 -109.39004
113896000 -28.011759 -108.20095 -0.092226088 -23.014513 -0.089754768 -23.004314 -28.458939 -109.58785
114895000 -27.91357 -108.82565 -0.093181789 -23.212524 -0.091065988 -23.201921 -28.350269 -109.69913
115894000 -27.786333 -109.18616 -0.095009163 -23.413807 -0.092530705 -23.404549 -28.282547 -109.87668
116893000 -27.709684 -109.83253 -0.09502133 -23.609257 -0.09343569 -23.59404 -28.144157 -110.02719
117892000 -27.632975 -110.33257 -0.095549211 -23.807234 -0.09374436 -23.795647 -28.07576 -110.29651
118891000 -27.573689 -110.73789 -0.096039578 -24.007093 -0.094283991 -23.993986 -27.97979 -110.41106
119890000 -27.483051 -111.15139 -0.096921474 -24.206367 -0.094427109 -24.198366 -27.968739 -110.57668
120889000 -27.431156 -111.68402 -0.098311909 -24.406929 -0.094671294 -24.396215 -27.88546 -110.56531
121888000 -27.383638 -111.99473 -0.09765476 -24.605465 -0.095525928 -24.590328 -27.831448 -110.87655
122887000 -27.351429 -112.23257 -0.099357143 -24.807648 -0.095835276 -24.795599 -27.789461 -110.95339
123886000 -27.293358 -112.67683 -0.099057347 -25.009914 -0.096171901 -24.995178 -27.770317 -111.07768
124885000 -27.261866 -113.13293 -0.099745698 -25.206688 -0.096577108 -25.193554 -27.748505 -111.17754
125884000 -27.213142 -113.34337 -0.1004625 -25.405085 -0.097506501 -25.395842 -27.715273 -111.39516
126883000 -27.19224 -113.75195 -0.10035071 -25.609102 -0.098086841 -25.594711 -27.671072 -111.39185
127882000 -27.145388 -114.04591 -0.10176822 -25.808168 -0.098728701 -25.789568 -27.63201 -111.5664
128881000 -27.111074 -114.40192 -0.10149024 -26.010996 -0.098166011 -25.993261 -27.593906 -111.73225
129880000 -27.053892 -114.70895 -0.10243288 -26.212521 -0.098757833 -26.191399 -27.553442 -111.67941
130879000 -26.992765 -114.86504 -0.10201944 -26.410997 -0.099387072 -26.39216 -27.468857 -111.70579
131878000 -26.930468 -115.08766 -0.10207509 -26.614372 -0.10002276 -26.59341 -27.405558 -111.64767
132877000 -26.860874 -115.1552 -0.10199506 -26.813452 -0.099995479 -26.794407 -27.321568 -111.64444
133876000 -26.769487 -115.33855 -0.10281137 -27.012003 -0.09962333 -26.994455 -27.230375 -111.55753
134875000 -26.679777 -115.46969 -0.10299426 -27.214502 -0.10053986 -27.196161 -27.122934 -111.43201
135874000 -26.597429 -115.52765 -0.10279626 -27.41254 -0.10068928 -27.397852 -27.015751 -111.44561
136873000 -26.482557 -115.4565 -0.10316498 -27.619905 -0.09958148 -27.602253 -26.929436 -111.40739
137872000 -26.400215 -115.5846 -0.102972 -27.817972 -0.10006939 -27.80703 -26.825869 -111.37603
138871000 -26.329308 -115.7981 -0.10364056 -28.018456 -0.10076956 -28.001019 -26.734566 -111.55837
139870000 -26.233709 -116.09219 -0.10438028 -28.216755 -0.10167838 -28.19841 -26.642805 -111.71207
140869000 -26.139643 -116.52197 -0.10623359 -28.412647 -0.10349952 -28.391956 -26.536907 -111.83225
141868000 -26.049261 -117.02532 -0.10684668 -28.605396 -0.10387466 -28.589533 -26.472122 -112.18027
142867000 -25.97043 -117.31023 -0.10533999 -28.801413 -0.10264704 -28.782785 -26.389338 -112.44279
143866000 -25.903469 -117.77911 -0.10707246 -29.000864 -0.10430074 -28.985401 -26.320007 -112.94621
144865000 -25.852894 -118.33402 -0.10857496 -29.197378 -0.10577974 -29.182711 -26.263342 -113.27143
145864000 -25.791555 -118.65745 -0.1087512 -29.400255 -0.10681404 -29.388662 -26.226679 -113.55568
146863000 -25.744278 -119.03412 -0.10935429 -29.600233 -0.10683898 -29.587 -26.179287 -113.91125
147862000 -25.705242 -119.42159 -0.11028615 -29.795221 -0.10775969 -29.782412 -26.147137 -114.22555
148861000 -25.674349 -119.9294 -0.11043245 -29.994503 -0.10836741 -29.975805 -26.11838 -114.48688
149860000 -25.659676 -120.12489 -0.1114769 -30.190765 -0.10823365 -30.180159 -26.086147 -114.6594
150859000 -25.63365 -120.50171 -0.11201076 -30.392408 -0.10869493 -30.380112 -26.085127 -114.92831
151858000 -25.619467 -120.83595 -0.11152895 -30.589409 -0.10886374 -30.57806 -26.068518 -115.21664
152857000 -25.603161 -121.15066 -0.11249157 -30.786497 -0.10951091 -30.776802 -26.05164 -115.35133
153856000 -25.595129 -121.3866 -0.11153772 -30.983433 -0.10904689 -30.972805 -26.075052 -115.65632
154855000 -25.584698 -121.56396 -0.11151594 -31.18577 -0.10935906 -31.171082 -26.065132 -115.88734
155854000 -25.601883 -121.82169 -0.1130771 -31.386356 -0.10943127 -31.369137 -26.053541 -116.13702
156853000 -25.582941 -122.53117 -0.11012472 -31.570467 -0.1088802 -31.562458 -26.048897 -116.42215
157852000 -25.591587 -122.72482 -0.11120653 -31.771738 -0.11060797 -31.764297 -26.0373 -116.77947
158851000 -25.586409 -122.98647 -0.11232421 -31.971214 -0.11063665 -31.961412 -26.026749 -117.05558
159850000 -25.573874 -123.10087 -0.1125176 -32.168514 -0.11026067 -32.159779 -26.025846 -117.24969
160849000 -25.55381 -123.20391 -0.11316744 -32.369503 -0.1114514 -32.36203 -25.994471 -117.49525
161848000 -25.528111 -123.32278 -0.11339223 -32.570526 -0.11158898 -32.563053 -25.944164 -117.64415
162847000 -25.484159 -123.5416 -0.11330082 -32.765068 -0.11136907 -32.762684 -25.917608 -117.89825
163846000 -25.445913 -123.73789 -0.11359522 -32.96471 -0.11180598 -32.958431 -25.833477 -117.87732
164845000 -25.378616 -123.76501 -0.11415381 -33.167961 -0.11254922 -33.160416 -25.769932 -118.00757
165844000 -25.326578 -123.84798 -0.11364093 -33.364021 -0.11288289 -33.356834 -25.687664 -118.14275
166843000 -25.260313 -123.9305 -0.11404379 -33.568691 -0.11276042 -33.556225 -25.61541 -118.3054
167842000 -25.207024 -124.07417 -0.11459525 -33.761917 -0.11376901 -33.757328 -25.536619 -118.23436
168841000 -25.125475 -124.27171 -0.1155846 -33.957954 -0.11371879 -33.957874 -25.456932 -118.30981
169840000 -25.058119 -124.54034 -0.11571725 -34.154148 -0.11364944 -34.153076 -25.366503 -118.50926
170839000 -25.001942 -124.84621 -0.116174 -34.350178 -0.11463777 -34.353832 -25.279181 -118.7234
171838000 -24.940798 -125.22601 -0.11612668 -34.556496 -0.11546683 -34.546658 -25.217407 -118.97374
172837000 -24.868418 -125.62234 -0.11747222 -34.750004 -0.11592276 -34.742901 -25.150629 -119.21651
173836000 -24.806261 -126.04823 -0.11872585 -34.949257 -0.11701586 -34.944977 -25.108194 -119.42762
174835000 -24.752157 -126.483 -0.11897247 -35.142281 -0.11743631 -35.142574 -25.06044 -119.80762
175834000 -24.699362 -126.89945 -0.11969113 -35.34351 -0.11861172 -35.339691 -24.994169 -120.08011
176833000 -24.650347 -127.2778 -0.11998544 -35.537819 -0.11946788 -35.538631 -24.947758 -120.26601
177832000 -24.607357 -127.76112 -0.12088126 -35.735081 -0.11949423 -35.734589 -24.925941 -120.43532
178831000 -24.568993 -128.1286 -0.12141655 -35.931805 -0.12040698 -35.929321 -24.884624 -120.67706
179830000 -24.531008 -128.5607 -0.12169261 -36.128281 -0.12086502 -36.130901 -24.858385 -120.82277
180829000 -24.488537 -128.80482 -0.12199797 -36.324902 -0.12144531 -36.322853 -24.832199 -121.0051
181828000 -24.465586 -129.17136 -0.12238323 -36.527596 -0.12072715 -36.5215 -24.812038 -121.11127
182827000 -24.444639 -129.50566 -0.12244394 -36.719337 -0.12177274 -36.719604 -24.800831 -121.21917
183826000 -24.406399 -129.84164 -0.12395737 -36.913624 -0.12183131 -36.91507 -24.790815 -121.3414
184825000 -24.410036 -130.15182 -0.12398853 -37.112839 -0.12229616 -37.113464 -24.776762 -121.46396
185824000 -24.381763 -130.51347 -0.12315625 -37.307575 -0.12256562 -37.310158 -24.77232 -121.48565
186823000 -24.366669 -130.85226 -0.12350858 -37.507149 -0.12228978 -37.509235 -24.771984 -121.47948
187822000 -24.349781 -131.20294 -0.1239318 -37.700302 -0.12333574 -37.702744 -24.731239 -121.53503
188821000 -24.331236 -131.43794 -0.12386281 -37.899616 -0.12346864 -37.901665 -24.714399 -121.62309
189820000 -24.312946 -131.71309 -0.12458388 -38.098789 -0.12332189 -38.099648 -24.711283 -121.8013
190819000 -24.281647 -131.9201 -0.12546386 -38.299503 -0.12451088 -38.295967 -24.677786 -121.75187
191818000 -24.25215 -132.13336 -0.1271484 -38.491764 -0.12581798 -38.493816 -24.647305 -121.63082
192817000 -24.18017 -132.40646 -0.12752692 -38.679359 -0.12676325 -38.68034 -24.57045 -121.72666
193816000 -24.144341 -132.76546 -0.12610018 -38.872124 -0.12539698 -38.870857 -24.512842 -121.98333
194815000 -24.087435 -133.22647 -0.12647834 -39.06641 -0.12564212 -39.069763 -24.44837 -122.12386
195814000 -24.032442 -133.45152 -0.12739444 -39.270218 -0.12537514 -39.271835 -24.394505 -122.21352
196813000 -23.977259 -133.78876 -0.12640692 -39.461704 -0.12530373 -39.462551 -24.318336 -122.39132
197812000 -23.923376 -134.04579 -0.12654231 -39.660851 -0.12583265 -39.662254 -24.246603 -122.48472
198811000 -23.871292 -134.20659 -0.12624969 -39.85334 -0.12568209 -39.855137 -24.17622 -122.69219
199810000 -23.796873 -134.60857 -0.12685254 -40.049671 -0.12528588 -40.0452 -24.094614 -122.79381
200809000 -23.737326 -134.89784 -0.1273398 -40.246384 -0.12690558 -40.246788 -24.018454 -122.98906
201808000 -23.682083 -135.12743 -0.12797719 -40.448666 -0.12721904 -40.446838 -23.947367 -123.04706
202807000 -23.624056 -135.48422 -0.12823233 -40.647076 -0.12816781 -40.646812 -23.893055 -123.28484
203806000 -23.572742 -135.9653 -0.12946187 -40.847973 -0.1280825 -40.850952 -23.830179 -123.48702
