!Keysight Technologies,E5080B,MY59205177,A.15.75.32
!Date: Friday, February 23, 2024 02:52:59
!Correction: S11(Cdelta 2-Port  ) 
!S21(Cdelta 2-Port  ) 
!S12(Cdelta 2-Port  ) 
!S22(Cdelta 2-Port  ) 
!S2P File: Measurements: S11, S21, S12, S22:
# Hz S  dB   R 50
10000000 -43.248478 -3.3069246 -0.032866172 -2.0452678 -0.037730172 -2.0994124 -49.532276 -144.85715
10999000 -42.623383 -5.1472611 -0.035018783 -2.2650604 -0.037510578 -2.3181045 -49.065407 -136.26378
11998000 -41.904678 -7.5880704 -0.034693643 -2.4826336 -0.036897808 -2.5282094 -49.157173 -129.28815
12997000 -41.340469 -11.969868 -0.034605712 -2.6640811 -0.036720023 -2.6953392 -48.333176 -123.3758
13996000 -41.143909 -14.782846 -0.033880122 -2.8460069 -0.036720283 -2.8633025 -47.722118 -117.17583
14995000 -40.809948 -18.240898 -0.036287211 -3.0569766 -0.036712974 -3.0774517 -47.173721 -113.72926
15994000 -40.739975 -21.908148 -0.03656574 -3.271533 -0.038956296 -3.2939487 -46.908726 -110.17143
16993000 -40.734097 -25.546183 -0.036194809 -3.4685018 -0.038418535 -3.4796627 -45.921772 -111.96341
17992000 -40.827385 -29.795942 -0.036651887 -3.6647811 -0.038774513 -3.6689608 -45.280689 -113.55025
18991000 -41.109287 -33.642662 -0.037702754 -3.879066 -0.039291941 -3.8774869 -44.608734 -113.10963
19990000 -41.030769 -38.168221 -0.041095465 -4.0882964 -0.04212153 -4.0792742 -43.948071 -115.30576
20989000 -40.964741 -41.061523 -0.042159956 -4.2936058 -0.043957349 -4.276844 -43.254623 -115.71078
21988000 -40.926846 -45.566982 -0.042484868 -4.4863424 -0.044720713 -4.4728971 -43.007889 -115.81952
22987000 -40.779865 -49.835587 -0.044163931 -4.6867661 -0.045855418 -4.6782098 -42.649239 -115.17718
23986000 -40.832535 -53.484192 -0.043709721 -4.8817949 -0.044567194 -4.8777666 -42.523926 -115.4292
24985000 -40.549717 -56.231705 -0.044720974 -5.0886855 -0.044919226 -5.0822906 -42.235046 -113.05955
25984000 -40.330738 -58.249458 -0.045629919 -5.2958288 -0.045675959 -5.2948236 -41.914707 -111.86061
26983000 -40.097279 -60.311417 -0.046652608 -5.4933028 -0.046498235 -5.5113602 -41.766598 -110.87844
27982000 -39.937664 -61.351246 -0.047120474 -5.6922421 -0.047758766 -5.7246947 -41.413361 -109.42175
28981000 -39.964252 -62.459534 -0.045532607 -5.8927732 -0.04769386 -5.9130158 -41.110821 -109.00296
29980000 -39.626324 -64.412964 -0.045307647 -6.0840044 -0.047920514 -6.0888748 -40.763123 -108.33747
30979000 -39.252396 -63.791988 -0.043762799 -6.4374361 -0.043272551 -6.4281254 -40.263634 -109.41993
31978000 -39.089348 -64.793625 -0.042595707 -6.6361747 -0.04408548 -6.624176 -39.982677 -108.97604
32977000 -38.906082 -66.493889 -0.042649295 -6.8432946 -0.043843862 -6.8368382 -39.727715 -109.28909
33976000 -38.786076 -67.502258 -0.04283987 -7.0426741 -0.044436689 -7.0372157 -39.404518 -108.94663
34975000 -38.522812 -68.547714 -0.043576892 -7.24332 -0.045532346 -7.2413573 -39.160255 -108.74159
35974000 -38.329361 -69.340988 -0.042419519 -7.4362125 -0.044937797 -7.4418516 -38.861534 -107.91918
36973000 -38.102989 -70.294037 -0.04258002 -7.6348991 -0.045723569 -7.6423664 -38.55661 -107.3513
37972000 -37.955227 -70.332802 -0.04190851 -7.8460622 -0.045997996 -7.8551497 -38.297127 -106.84689
38971000 -37.62862 -70.235291 -0.043467335 -8.0455122 -0.045968696 -8.0569735 -38.074936 -105.13853
39970000 -37.307373 -70.790161 -0.041561164 -8.2425623 -0.045059156 -8.2580585 -37.798145 -104.90476
40969000 -37.04385 -70.745354 -0.042437553 -8.4386206 -0.045031693 -8.4577351 -37.529018 -103.4278
41968000 -36.701725 -71.019897 -0.042621322 -8.6391401 -0.04555824 -8.6611872 -37.279209 -102.50904
42967000 -36.454102 -71.288536 -0.04173575 -8.8559837 -0.045542546 -8.8697357 -37.063011 -100.63863
43966000 -36.183968 -72.166451 -0.043799408 -9.0519791 -0.046627752 -9.0726757 -36.765747 -100.12567
44965000 -35.979538 -73.188133 -0.044293117 -9.2584324 -0.046446167 -9.2802477 -36.523605 -100.14027
45964000 -35.770073 -74.386406 -0.045414891 -9.4530945 -0.047506213 -9.4767447 -36.28363 -100.03833
46963000 -35.633366 -76.398903 -0.04532988 -9.6482258 -0.048656829 -9.6744995 -36.107052 -100.48988
47962000 -35.467133 -77.935699 -0.046862721 -9.84939 -0.049704321 -9.8683271 -35.889717 -100.77254
48961000 -35.280605 -79.360413 -0.049066789 -10.045909 -0.051720425 -10.064531 -35.669281 -101.05696
49960000 -35.0891 -80.831322 -0.049928199 -10.248322 -0.051797181 -10.26906 -35.531097 -101.26362
50959000 -34.894497 -82.264481 -0.05097495 -10.460484 -0.053528596 -10.469768 -35.366032 -101.77921
51958000 -34.69437 -83.425285 -0.052629266 -10.661065 -0.055239461 -10.668861 -35.186779 -102.33751
52957000 -34.504055 -84.625931 -0.054171238 -10.856912 -0.056324996 -10.862297 -35.005814 -102.21269
53956000 -34.355125 -85.453392 -0.055256244 -11.061176 -0.057135914 -11.062124 -34.879704 -102.35597
54955000 -34.205284 -85.971252 -0.056153234 -11.256815 -0.057725314 -11.257373 -34.717308 -102.38565
55954000 -34.050392 -86.965179 -0.057668917 -11.464913 -0.058164727 -11.458605 -34.61174 -102.12232
56953000 -33.94701 -87.018585 -0.056286447 -11.658935 -0.056986935 -11.644818 -34.548321 -102.41257
57952000 -33.781502 -87.716637 -0.058612321 -11.856607 -0.059030045 -11.847075 -34.449062 -102.5331
58951000 -33.661934 -88.078781 -0.059648044 -12.062689 -0.059116375 -12.037107 -34.279804 -102.75886
59950000 -33.560059 -88.504539 -0.059465915 -12.258725 -0.059422091 -12.238757 -34.227287 -103.05699
60949000 -33.442947 -89.147926 -0.06068638 -12.461772 -0.060143035 -12.439725 -34.117931 -103.31017
61948000 -33.387604 -89.443558 -0.060511559 -12.662946 -0.059766408 -12.642702 -34.034592 -103.43846
62947000 -33.303608 -89.709198 -0.060726542 -12.870033 -0.061036836 -12.850856 -33.890541 -103.76221
63946000 -33.242134 -90.452705 -0.06191244 -13.069106 -0.062053181 -13.052926 -33.783138 -103.88251
64945000 -33.11998 -90.61026 -0.062057383 -13.271382 -0.062998325 -13.254915 -33.678448 -104.47424
65944000 -33.030144 -90.980354 -0.063254677 -13.474394 -0.062882245 -13.454522 -33.582508 -104.91006
66943000 -32.896126 -91.329102 -0.060979079 -13.671763 -0.060916603 -13.653747 -33.487106 -105.22198
67942000 -32.839085 -91.35878 -0.063075542 -13.869131 -0.063226834 -13.856476 -33.374065 -105.61852
68941000 -32.7244 -91.458977 -0.062987037 -14.059968 -0.062363569 -14.053524 -33.265484 -105.5685
69940000 -32.627922 -91.491119 -0.062579431 -14.261321 -0.063542292 -14.254622 -33.120144 -105.88506
70939000 -32.523018 -91.512154 -0.0629697 -14.459652 -0.063325591 -14.447637 -32.975311 -105.8026
71938000 -32.364544 -91.140991 -0.062381949 -14.653773 -0.062999904 -14.644356 -32.843513 -105.79922
72937000 -32.212093 -90.969704 -0.062107801 -14.855759 -0.062680542 -14.845319 -32.705177 -105.49909
73936000 -32.066959 -90.741753 -0.062824987 -15.053663 -0.061458468 -15.042759 -32.591015 -105.29452
74935000 -31.942167 -91.049896 -0.061027385 -15.244184 -0.061118744 -15.243959 -32.431015 -105.02238
75934000 -31.817816 -91.260963 -0.061463457 -15.453979 -0.061015833 -15.447491 -32.337212 -105.00675
76933000 -31.689608 -91.727623 -0.062644824 -15.64641 -0.062759854 -15.642882 -32.175751 -105.40926
77932000 -31.601587 -92.543236 -0.063398615 -15.846261 -0.064134404 -15.83843 -32.074265 -105.4731
78931000 -31.535362 -93.32328 -0.06290824 -16.041491 -0.063724592 -16.038862 -31.971813 -105.28799
79930000 -31.433416 -94.13073 -0.065390602 -16.236507 -0.066409811 -16.233379 -31.871838 -105.63091
80929000 -31.303801 -95.066086 -0.067076713 -16.429619 -0.067528374 -16.429272 -31.767189 -106.03384
81928000 -31.230135 -95.971619 -0.067022555 -16.624729 -0.068155736 -16.619474 -31.650843 -106.14124
82927000 -31.138264 -96.739685 -0.068705611 -16.822779 -0.06901437 -16.821659 -31.552286 -106.43021
83926000 -31.026423 -97.422661 -0.070067309 -17.019625 -0.069892369 -17.020395 -31.432497 -106.73962
84925000 -30.935184 -97.9739 -0.070953682 -17.220657 -0.070470355 -17.214359 -31.343346 -106.82509
85924000 -30.84936 -98.432755 -0.071503118 -17.417181 -0.071713127 -17.415213 -31.256521 -106.76882
86923000 -30.748894 -99.009995 -0.071879454 -17.61834 -0.072520867 -17.608072 -31.154924 -106.76188
87922000 -30.642504 -99.45623 -0.072430849 -17.823303 -0.071494438 -17.817589 -31.063025 -106.87959
88921000 -30.570068 -99.709496 -0.073283739 -18.022697 -0.072770141 -18.016701 -30.97146 -106.92961
89920000 -30.476021 -100.37836 -0.073867172 -18.218866 -0.073826365 -18.211878 -30.920414 -107.11391
90919000 -30.375116 -100.69017 -0.074360892 -18.414865 -0.074302435 -18.410269 -30.828405 -107.33569
91918000 -30.282351 -101.05007 -0.075453848 -18.61624 -0.07481911 -18.611069 -30.758141 -107.35313
92917000 -30.195168 -101.42627 -0.076632708 -18.814026 -0.075038493 -18.811916 -30.702953 -107.48916
93916000 -30.113895 -101.81675 -0.075842112 -19.008112 -0.075903751 -19.004267 -30.604216 -108.13584
94915000 -30.046677 -102.50201 -0.077986091 -19.206894 -0.076530218 -19.203205 -30.555834 -107.99492
95914000 -29.981663 -102.69881 -0.078520074 -19.401947 -0.077525429 -19.400526 -30.462851 -108.28661
96913000 -29.897478 -102.93459 -0.079813927 -19.601641 -0.078599676 -19.598566 -30.39333 -108.71735
97912000 -29.825434 -103.41684 -0.080571756 -19.797186 -0.079323813 -19.797815 -30.320217 -108.92715
98911000 -29.715611 -103.60939 -0.081174895 -20.004154 -0.080524288 -19.997742 -30.283381 -109.15028
99910000 -29.648636 -103.76134 -0.082125269 -20.201105 -0.080729984 -20.198225 -30.173729 -109.46161
100909000 -29.559881 -104.06788 -0.08075504 -20.407261 -0.079497814 -20.401455 -30.077374 -109.61827
101908000 -29.469841 -104.35303 -0.082337372 -20.610296 -0.080636896 -20.603708 -29.958609 -109.35461
102907000 -29.335897 -104.37442 -0.082493812 -20.80896 -0.080939114 -20.800674 -29.88987 -109.35811
103906000 -29.238102 -104.43355 -0.082830206 -21.009573 -0.080787741 -21.005459 -29.733419 -109.3154
104905000 -29.105434 -104.32658 -0.084358923 -21.21439 -0.081495091 -21.212681 -29.600031 -109.02025
105904000 -28.959877 -104.4755 -0.083672211 -21.410021 -0.081695296 -21.40498 -29.485188 -108.9367
106903000 -28.854603 -104.60271 -0.084143028 -21.615726 -0.081999436 -21.609039 -29.357723 -108.8183
107902000 -28.68791 -104.97752 -0.084561363 -21.816034 -0.082600929 -21.80743 -29.221004 -108.77505
108901000 -28.577536 -105.23314 -0.085876562 -22.018032 -0.083430752 -22.008356 -29.083151 -108.72303
109900000 -28.444204 -105.76243 -0.086027063 -22.216967 -0.085050754 -22.208418 -28.936293 -108.88718
110899000 -28.342316 -106.39217 -0.087937273 -22.416225 -0.08584778 -22.408218 -28.811434 -109.13828
111898000 -28.244396 -107.10078 -0.08961048 -22.616158 -0.086773299 -22.612303 -28.691359 -109.32301
112897000 -28.125599 -107.6573 -0.090924829 -22.815189 -0.087288819 -22.804449 -28.550335 -109.54536
113896000 -28.026674 -108.25929 -0.091577522 -23.015343 -0.088953324 -23.003803 -28.44677 -109.7141
114895000 -27.923159 -108.99146 -0.092281878 -23.212875 -0.090859272 -23.19949 -28.338348 -109.81588
115894000 -27.795164 -109.36279 -0.094168656 -23.4139 -0.091481291 -23.401588 -28.261333 -109.99615
116893000 -27.721931 -109.96201 -0.094521821 -23.615189 -0.092071675 -23.590673 -28.132843 -110.21799
117892000 -27.636551 -110.46326 -0.094169974 -23.807148 -0.092122436 -23.793013 -28.061754 -110.40676
118891000 -27.583164 -110.89755 -0.095684431 -24.009436 -0.092621669 -23.998112 -27.966105 -110.55171
119890000 -27.492331 -111.26081 -0.096100979 -24.205315 -0.093523502 -24.190784 -27.955469 -110.73778
120889000 -27.444416 -111.78922 -0.096620515 -24.405479 -0.093408711 -24.390009 -27.880806 -110.72462
121888000 -27.406467 -112.15487 -0.097599164 -24.601534 -0.094163895 -24.590046 -27.823662 -111.03213
122887000 -27.35873 -112.3709 -0.098185606 -24.806982 -0.09461759 -24.792156 -27.775267 -111.0628
123886000 -27.307751 -112.77848 -0.099114552 -25.007307 -0.095233798 -24.99325 -27.760429 -111.23997
124885000 -27.272413 -113.33866 -0.099436603 -25.206852 -0.095791876 -25.195177 -27.73316 -111.27601
125884000 -27.215719 -113.54354 -0.099745959 -25.404121 -0.095650561 -25.392904 -27.698769 -111.52247
126883000 -27.197758 -113.87893 -0.099925287 -25.611816 -0.096786745 -25.591534 -27.656225 -111.55207
127882000 -27.147804 -114.19434 -0.10027097 -25.807837 -0.097155474 -25.788603 -27.620188 -111.69181
128881000 -27.114695 -114.50935 -0.10075711 -26.0105 -0.097566865 -25.991848 -27.582186 -111.80921
129880000 -27.063131 -114.84238 -0.10162751 -26.211771 -0.09781149 -26.190609 -27.538383 -111.77818
130879000 -27.002953 -114.97909 -0.10116963 -26.410013 -0.09823671 -26.392624 -27.459959 -111.8773
131878000 -26.937878 -115.23169 -0.101539 -26.611771 -0.098456219 -26.59288 -27.397509 -111.74623
132877000 -26.863525 -115.27925 -0.10050065 -26.811087 -0.099087536 -26.796276 -27.306763 -111.78184
133876000 -26.77844 -115.44729 -0.10183022 -27.013319 -0.098995373 -26.993881 -27.216448 -111.65219
134875000 -26.683062 -115.57752 -0.10196008 -27.21232 -0.099372774 -27.19536 -27.10837 -111.55032
135874000 -26.600271 -115.62348 -0.10145288 -27.413305 -0.099300735 -27.395376 -27.011459 -111.54879
136873000 -26.486633 -115.55899 -0.10194736 -27.615501 -0.099140503 -27.59746 -26.92358 -111.52827
137872000 -26.402519 -115.66359 -0.10223781 -27.81662 -0.099749938 -27.802114 -26.811323 -111.49226
138871000 -26.338799 -115.84766 -0.10331289 -28.019161 -0.10006144 -28.003494 -26.719189 -111.65167
139870000 -26.238235 -116.13902 -0.10386114 -28.217365 -0.10110392 -28.198853 -26.63216 -111.83031
140869000 -26.150883 -116.62978 -0.10627869 -28.410902 -0.10183764 -28.393213 -26.521379 -111.998
141868000 -26.057491 -117.1311 -0.10515461 -28.607059 -0.10306054 -28.587776 -26.454239 -112.33566
142867000 -25.980692 -117.36845 -0.10398946 -28.802341 -0.1025434 -28.783281 -26.379505 -112.54568
143866000 -25.912195 -117.90083 -0.10595162 -29.000902 -0.10310772 -28.980165 -26.305981 -113.07841
144865000 -25.855726 -118.42837 -0.10696447 -29.196613 -0.10476822 -29.183189 -26.252615 -113.40549
145864000 -25.804823 -118.77609 -0.10775704 -29.399006 -0.10583093 -29.387053 -26.214027 -113.66175
146863000 -25.755491 -119.14955 -0.10829257 -29.598383 -0.10632617 -29.582788 -26.164335 -113.97749
147862000 -25.714314 -119.52032 -0.1093657 -29.793894 -0.10651452 -29.781412 -26.128815 -114.32735
148861000 -25.682301 -120.04425 -0.10967603 -29.99268 -0.10723723 -29.977823 -26.105108 -114.60558
149860000 -25.669416 -120.24193 -0.11073808 -30.192356 -0.10695253 -30.179625 -26.075481 -114.76468
150859000 -25.652908 -120.62912 -0.11060744 -30.390459 -0.10867476 -30.378155 -26.075331 -115.03397
151858000 -25.632847 -120.92831 -0.1103759 -30.590168 -0.10801073 -30.57786 -26.058487 -115.30322
152857000 -25.612234 -121.2746 -0.11089529 -30.787136 -0.10883242 -30.775101 -26.041908 -115.48714
153856000 -25.600561 -121.50289 -0.11046671 -30.982941 -0.10833822 -30.971748 -26.063021 -115.77862
154855000 -25.600807 -121.67123 -0.11120865 -31.185062 -0.10830159 -31.172853 -26.047802 -115.96357
155854000 -25.612307 -121.92905 -0.11142138 -31.38196 -0.10895266 -31.366653 -26.044495 -116.23594
156853000 -25.593781 -122.63342 -0.10958524 -31.573782 -0.10809141 -31.564993 -26.039459 -116.58555
157852000 -25.593367 -122.83184 -0.11084271 -31.773088 -0.10943233 -31.76152 -26.028181 -116.90108
158851000 -25.593313 -123.08789 -0.11157224 -31.97159 -0.10978223 -31.960737 -26.009659 -117.16247
159850000 -25.570753 -123.22534 -0.11186441 -32.170448 -0.10982843 -32.159035 -26.008293 -117.31557
160849000 -25.556644 -123.31867 -0.11164635 -32.368122 -0.1111481 -32.366131 -25.973734 -117.62254
161848000 -25.536407 -123.42252 -0.11176906 -32.567234 -0.11040829 -32.561607 -25.936316 -117.731
162847000 -25.491089 -123.62479 -0.11239275 -32.76992 -0.11183811 -32.761341 -25.907839 -117.98745
163846000 -25.443813 -123.86886 -0.11220175 -32.971561 -0.1111003 -32.956966 -25.823872 -118.0038
164845000 -25.38715 -123.86603 -0.11285367 -33.163433 -0.11105251 -33.158607 -25.758259 -118.09049
165844000 -25.334101 -123.92094 -0.11324821 -33.361591 -0.11246447 -33.359966 -25.677979 -118.26575
166843000 -25.267433 -124.02389 -0.1130973 -33.565002 -0.11175471 -33.560719 -25.608248 -118.39017
167842000 -25.208904 -124.1475 -0.11359709 -33.76263 -0.11253408 -33.753532 -25.523476 -118.3561
168841000 -25.129381 -124.32753 -0.11373474 -33.961121 -0.11302264 -33.954872 -25.446199 -118.41779
169840000 -25.064659 -124.6155 -0.11409109 -34.153645 -0.11278034 -34.153107 -25.352873 -118.64412
170839000 -25.004957 -124.87568 -0.11462262 -34.352161 -0.11385086 -34.348412 -25.267387 -118.81389
171838000 -24.944044 -125.30346 -0.11454076 -34.555832 -0.11472947 -34.544895 -25.203583 -119.08128
172837000 -24.875971 -125.66109 -0.1161522 -34.746189 -0.11544795 -34.742615 -25.135571 -119.30738
173836000 -24.812233 -126.09267 -0.11744136 -34.945549 -0.11600491 -34.94545 -25.094275 -119.54266
174835000 -24.758244 -126.52438 -0.11763871 -35.140347 -0.11710202 -35.143887 -25.046736 -119.89269
175834000 -24.710472 -126.95712 -0.11856597 -35.341324 -0.11796905 -35.335892 -24.98115 -120.20304
176833000 -24.65852 -127.32221 -0.11995643 -35.535515 -0.11858459 -35.537247 -24.929661 -120.37086
177832000 -24.613596 -127.83998 -0.12019061 -35.737289 -0.11859497 -35.732838 -24.906401 -120.54106
178831000 -24.577604 -128.18849 -0.12041417 -35.929821 -0.11919969 -35.925739 -24.872774 -120.77785
179830000 -24.540932 -128.63148 -0.12088446 -36.125809 -0.11942531 -36.130169 -24.846659 -120.88358
180829000 -24.501631 -128.86125 -0.12121958 -36.325077 -0.1204972 -36.321327 -24.818213 -121.06256
181828000 -24.472017 -129.20546 -0.12132631 -36.522259 -0.12034337 -36.523518 -24.799109 -121.21102
182827000 -24.451586 -129.58305 -0.12099572 -36.718731 -0.12067552 -36.720627 -24.788366 -121.29381
183826000 -24.411081 -129.91977 -0.1226479 -36.914169 -0.12115143 -36.912365 -24.776785 -121.4304
184825000 -24.414022 -130.24225 -0.12200996 -37.108624 -0.12169021 -37.109653 -24.762403 -121.49434
185824000 -24.39382 -130.60622 -0.1221476 -37.307201 -0.12186858 -37.310463 -24.763559 -121.53773
186823000 -24.375473 -130.94212 -0.1220411 -37.50832 -0.12229191 -37.502525 -24.751793 -121.55226
187822000 -24.354843 -131.28519 -0.12354827 -37.700756 -0.12250385 -37.70092 -24.718237 -121.63417
188821000 -24.338751 -131.53249 -0.12336477 -37.895927 -0.12296185 -37.901035 -24.709045 -121.71078
189820000 -24.319986 -131.80075 -0.12362124 -38.097694 -0.12270941 -38.098217 -24.696529 -121.86003
190819000 -24.291134 -132.024 -0.12473839 -38.297924 -0.12425676 -38.294743 -24.664019 -121.84425
191818000 -24.254932 -132.21794 -0.12620705 -38.491272 -0.12539458 -38.49395 -24.633448 -121.72168
192817000 -24.185669 -132.51357 -0.12646076 -38.677334 -0.1261351 -38.678493 -24.557426 -121.8076
193816000 -24.150085 -132.85146 -0.12552008 -38.873005 -0.12446507 -38.870178 -24.503183 -122.04134
194815000 -24.090961 -133.31094 -0.12505941 -39.065601 -0.12488971 -39.06926 -24.437618 -122.16595
195814000 -24.039989 -133.52766 -0.1256384 -39.26133 -0.12471441 -39.267281 -24.381779 -122.29088
196813000 -23.986465 -133.87465 -0.1255787 -39.459164 -0.12474585 -39.462406 -24.302811 -122.46296
197812000 -23.924799 -134.12338 -0.1257503 -39.656364 -0.12544228 -39.653236 -24.235258 -122.57974
198811000 -23.876678 -134.30551 -0.12529281 -39.853691 -0.12477435 -39.860603 -24.16758 -122.77399
199810000 -23.805149 -134.67284 -0.12519902 -40.045906 -0.12503117 -40.04562 -24.086061 -122.86262
200809000 -23.746643 -134.95242 -0.12604235 -40.245117 -0.12481138 -40.243927 -24.006113 -123.07487
201808000 -23.69166 -135.20952 -0.12670141 -40.448174 -0.12655084 -40.448292 -23.938108 -123.15024
202807000 -23.630634 -135.573 -0.1274011 -40.649044 -0.12716119 -40.648911 -23.88176 -123.37053
203806000 -23.577183 -136.01489 -0.1284515 -40.847172 -0.12800251 -40.849117 -23.817387 -123.53562
