!Keysight Technologies,E5080B,MY59205177,A.15.75.32
!Date: Friday, February 23, 2024 03:31:13
!Correction: S11(Cdelta 2-Port  ) 
!S21(Cdelta 2-Port  ) 
!S12(Cdelta 2-Port  ) 
!S22(Cdelta 2-Port  ) 
!S2P File: Measurements: S11, S21, S12, S22:
# Hz S  dB   R 50
10000000 -46.095722 -2.299685 -0.015772972 -2.0494735 -0.019591395 -2.1069469 -46.005081 -158.27753
10999000 -45.260796 -3.9745567 -0.01679801 -2.2669768 -0.019130645 -2.3241768 -45.922604 -151.63156
11998000 -44.278915 -6.9689288 -0.017227584 -2.4943817 -0.018565176 -2.5352664 -46.122723 -147.5298
12997000 -43.574932 -12.807864 -0.016811263 -2.6714325 -0.018527482 -2.7034996 -45.750603 -141.39195
13996000 -43.296532 -16.398085 -0.014954674 -2.8538013 -0.019037046 -2.8800797 -45.590725 -136.64328
14995000 -42.878189 -20.744652 -0.017362209 -3.0638356 -0.018790055 -3.0868235 -45.282085 -132.92252
15994000 -42.715965 -25.258802 -0.018998306 -3.2824054 -0.020495092 -3.3071389 -45.154781 -129.63904
16993000 -42.657787 -29.627445 -0.017921282 -3.4789515 -0.019883677 -3.4896405 -44.327526 -129.3895
17992000 -42.711021 -35.281197 -0.018885991 -3.6757662 -0.0207916 -3.6840281 -43.745693 -129.37581
18991000 -42.969936 -40.450607 -0.019050825 -3.8914645 -0.021214025 -3.8876655 -43.091625 -128.1422
19990000 -42.763714 -46.222481 -0.02168254 -4.1002407 -0.023620088 -4.0957532 -42.456085 -128.84399
20989000 -42.593452 -49.529301 -0.023547212 -4.3009357 -0.025276771 -4.2931132 -41.940102 -128.45172
21988000 -42.446495 -54.688087 -0.024371035 -4.5021987 -0.026096234 -4.4897838 -41.640301 -127.71056
22987000 -42.140278 -59.547447 -0.025404874 -4.7003503 -0.027072398 -4.6902933 -41.443451 -127.21505
23986000 -42.031448 -63.671223 -0.02526219 -4.8971596 -0.026172798 -4.8900714 -41.266003 -127.03848
24985000 -41.634422 -66.34729 -0.0265671 -5.1061497 -0.02706797 -5.1008201 -41.08749 -124.8187
25984000 -41.347523 -68.691315 -0.027133871 -5.3134604 -0.027064843 -5.3071771 -40.741268 -122.77448
26983000 -41.027794 -70.538902 -0.028255912 -5.5116816 -0.028106881 -5.5276246 -40.597034 -122.46638
27982000 -40.853493 -71.299034 -0.028961798 -5.7099981 -0.029748335 -5.74365 -40.372448 -120.65921
28981000 -40.846256 -72.741592 -0.02735164 -5.9096084 -0.029399354 -5.9297729 -40.109657 -120.06834
29980000 -40.410259 -74.348228 -0.027406605 -6.1071053 -0.029994125 -6.1093173 -39.873505 -119.31046
30979000 -40.017563 -73.231888 -0.025135912 -6.4576259 -0.023967043 -6.4472485 -39.35957 -119.50592
31978000 -39.817959 -74.199982 -0.024464229 -6.6536822 -0.025278592 -6.6429453 -39.103771 -118.83256
32977000 -39.638889 -75.838524 -0.024201833 -6.8634872 -0.026542617 -6.8626022 -38.846611 -118.82707
33976000 -39.474262 -76.837173 -0.025092432 -7.0662022 -0.026605645 -7.0585999 -38.565155 -118.15129
34975000 -39.172569 -77.633049 -0.025325721 -7.2672777 -0.027496478 -7.266552 -38.336052 -117.7787
35974000 -38.974342 -78.256371 -0.024316369 -7.4581413 -0.027619958 -7.4651098 -38.056786 -116.93574
36973000 -38.741325 -78.820999 -0.025192672 -7.6616912 -0.02894121 -7.6642213 -37.80851 -116.03824
37972000 -38.568916 -78.595947 -0.024072463 -7.8694553 -0.028460449 -7.8808398 -37.581593 -115.27358
38971000 -38.258884 -78.12545 -0.026155612 -8.0776539 -0.028070927 -8.0833082 -37.424072 -113.64258
39970000 -37.907898 -78.367355 -0.023418121 -8.2713375 -0.027544411 -8.2817268 -37.142704 -112.92242
40969000 -37.622952 -78.050987 -0.024188558 -8.464118 -0.027944567 -8.4852495 -36.922764 -111.68781
41968000 -37.266796 -78.13456 -0.024519939 -8.6683655 -0.027260207 -8.6851597 -36.723728 -110.31438
42967000 -37.010078 -78.221863 -0.024013376 -8.8828526 -0.028398175 -8.8995676 -36.533257 -108.46616
43966000 -36.701069 -78.806709 -0.025725672 -9.0840321 -0.029445222 -9.1025352 -36.267113 -107.70555
44965000 -36.467911 -79.607483 -0.026447555 -9.2798824 -0.029790558 -9.3021002 -36.053383 -107.36657
45964000 -36.22934 -80.558975 -0.02670644 -9.483305 -0.030879134 -9.5052652 -35.826366 -107.11325
46963000 -36.04163 -82.522713 -0.026562931 -9.6778021 -0.031506177 -9.7023373 -35.639259 -107.25452
47962000 -35.866673 -84.001152 -0.028652227 -9.8831444 -0.03245122 -9.8984165 -35.426346 -107.29595
48961000 -35.65152 -85.433029 -0.030509466 -10.079559 -0.033890821 -10.099307 -35.20631 -107.54711
49960000 -35.430325 -86.729248 -0.031833686 -10.277837 -0.03541676 -10.299423 -35.075508 -107.66771
50959000 -35.199455 -87.949516 -0.032290049 -10.491213 -0.036250405 -10.502235 -34.887142 -107.82329
51958000 -35.002941 -89.116173 -0.034251381 -10.689683 -0.037417889 -10.702625 -34.701591 -108.33853
52957000 -34.772465 -90.178589 -0.035975814 -10.893385 -0.038491398 -10.901325 -34.545067 -108.07099
53956000 -34.617493 -90.856346 -0.037678994 -11.093056 -0.039755095 -11.097396 -34.408611 -108.08462
54955000 -34.463333 -91.363625 -0.038331047 -11.295369 -0.040861849 -11.28898 -34.263573 -108.00021
55954000 -34.268913 -92.038376 -0.039044321 -11.496565 -0.040856626 -11.492732 -34.153072 -107.76584
56953000 -34.154144 -92.222908 -0.038481474 -11.693943 -0.040044561 -11.679578 -34.075314 -107.90643
57952000 -34.001484 -92.699516 -0.040266372 -11.891094 -0.040964283 -11.8878 -33.975143 -108.03709
58951000 -33.870281 -93.076759 -0.041413765 -12.096682 -0.042038675 -12.077267 -33.825081 -108.12125
59950000 -33.747379 -93.446716 -0.041537382 -12.300932 -0.042763796 -12.277111 -33.765163 -108.34418
60949000 -33.627762 -94.012581 -0.042650864 -12.50174 -0.04270367 -12.479812 -33.660439 -108.58036
61948000 -33.567543 -94.344971 -0.043061566 -12.698781 -0.043273598 -12.679323 -33.572273 -108.71698
62947000 -33.473228 -94.527237 -0.043024439 -12.910794 -0.043954208 -12.891083 -33.439507 -108.96103
63946000 -33.398663 -95.232719 -0.04384752 -13.109894 -0.044422306 -13.094234 -33.315697 -109.04768
64945000 -33.296196 -95.40773 -0.044464413 -13.314948 -0.044754714 -13.293866 -33.198658 -109.59869
65944000 -33.193329 -95.75779 -0.045658171 -13.513744 -0.045250099 -13.495942 -33.10675 -109.98367
66943000 -33.048294 -96.086395 -0.0433136 -13.714858 -0.043914724 -13.696815 -33.005669 -110.24146
67942000 -32.987747 -96.053978 -0.045096822 -13.911077 -0.046069417 -13.902501 -32.8834 -110.51735
68941000 -32.869843 -96.154831 -0.044926811 -14.105179 -0.045209035 -14.095913 -32.770012 -110.54486
69940000 -32.788448 -96.164413 -0.045423787 -14.306727 -0.045882884 -14.297079 -32.629162 -110.81479
70939000 -32.665543 -96.044632 -0.045424834 -14.498302 -0.046375263 -14.493049 -32.506382 -110.68081
71938000 -32.532372 -95.698364 -0.045104668 -14.698248 -0.044912424 -14.693109 -32.376221 -110.5282
72937000 -32.367863 -95.490501 -0.045026723 -14.898355 -0.044634666 -14.888793 -32.227505 -110.25046
73936000 -32.241699 -95.109589 -0.044732481 -15.098668 -0.044081558 -15.089734 -32.108402 -110.01344
74935000 -32.104565 -95.33493 -0.04352146 -15.290587 -0.043154899 -15.288395 -31.959599 -109.64406
75934000 -31.980934 -95.566994 -0.043828957 -15.50607 -0.043833662 -15.494702 -31.867817 -109.56416
76933000 -31.84906 -95.908676 -0.045591723 -15.697475 -0.045429017 -15.688429 -31.708979 -109.91998
77932000 -31.740313 -96.73497 -0.046194475 -15.893889 -0.046999317 -15.889139 -31.605494 -109.828
78931000 -31.671261 -97.472725 -0.045161691 -16.092228 -0.045388997 -16.088295 -31.494366 -109.79327
79930000 -31.554783 -98.29303 -0.047523223 -16.283485 -0.048293237 -16.283554 -31.404194 -110.02329
80929000 -31.440857 -99.081993 -0.049851213 -16.483541 -0.05011883 -16.477911 -31.301104 -110.24532
81928000 -31.336218 -99.783112 -0.049618177 -16.674706 -0.05061876 -16.672344 -31.172113 -110.21879
82927000 -31.238163 -100.52939 -0.051298168 -16.873245 -0.051611453 -16.869831 -31.065359 -110.57943
83926000 -31.125298 -101.24201 -0.052418347 -17.070162 -0.053232729 -17.074612 -30.945711 -110.75368
84925000 -31.012882 -101.69231 -0.053802468 -17.271572 -0.052752413 -17.266388 -30.849243 -110.83553
85924000 -30.928219 -102.078 -0.054385912 -17.471148 -0.054421298 -17.468027 -30.765715 -110.79837
86923000 -30.811983 -102.60017 -0.054630216 -17.668369 -0.054601643 -17.668488 -30.651705 -110.59777
87922000 -30.707281 -102.93136 -0.054725371 -17.878456 -0.054556817 -17.867052 -30.56913 -110.69757
88921000 -30.637072 -103.18793 -0.055985149 -18.075907 -0.055431642 -18.071369 -30.476547 -110.64255
89920000 -30.528461 -103.61425 -0.055876855 -18.271448 -0.056852654 -18.266632 -30.423281 -110.83129
90919000 -30.41971 -104.00948 -0.056688473 -18.468315 -0.056672215 -18.466351 -30.332392 -111.013
91918000 -30.330709 -104.30853 -0.057903174 -18.672316 -0.057385881 -18.662729 -30.263681 -110.97229
92917000 -30.232191 -104.68053 -0.05901771 -18.873394 -0.058945552 -18.869637 -30.202677 -111.13725
93916000 -30.153486 -104.95642 -0.058182042 -19.062458 -0.058394291 -19.06152 -30.111357 -111.65566
94915000 -30.072481 -105.56738 -0.060393438 -19.26569 -0.059533361 -19.260298 -30.046997 -111.53855
95914000 -30.007002 -105.79352 -0.060833909 -19.463352 -0.060541481 -19.460098 -29.951227 -111.82519
96913000 -29.924545 -105.98297 -0.062027711 -19.661192 -0.061481312 -19.658215 -29.890059 -112.20595
97912000 -29.849436 -106.48324 -0.063320868 -19.85606 -0.06171735 -19.857061 -29.810946 -112.44149
98911000 -29.737553 -106.60665 -0.063320078 -20.061438 -0.062619351 -20.058661 -29.769737 -112.60947
99910000 -29.666954 -106.77684 -0.064018548 -20.260397 -0.063424356 -20.257362 -29.662365 -112.88654
100909000 -29.57584 -107.02657 -0.063356847 -20.46966 -0.06244839 -20.465975 -29.580799 -113.08629
101908000 -29.482672 -107.24705 -0.065026663 -20.668356 -0.063855149 -20.665087 -29.463604 -112.86204
102907000 -29.351416 -107.24937 -0.064895809 -20.869007 -0.064561851 -20.862961 -29.396072 -112.83632
103906000 -29.256689 -107.3729 -0.065056354 -21.072569 -0.063400187 -21.071657 -29.240849 -112.79208
104905000 -29.104942 -107.13813 -0.066760205 -21.274996 -0.064328022 -21.270617 -29.123207 -112.46527
105904000 -28.970634 -107.28466 -0.067040168 -21.477858 -0.06405323 -21.470852 -29.010031 -112.31577
106903000 -28.858746 -107.36099 -0.066384576 -21.68313 -0.064629905 -21.677835 -28.887009 -112.24084
107902000 -28.686384 -107.69559 -0.066635601 -21.882614 -0.064888977 -21.875191 -28.751875 -112.16498
108901000 -28.578209 -107.8859 -0.068269603 -22.083488 -0.066174045 -22.078106 -28.623531 -112.12663
109900000 -28.451452 -108.37773 -0.068641968 -22.283205 -0.068419226 -22.275627 -28.46718 -112.20438
110899000 -28.335932 -108.98846 -0.070813179 -22.481127 -0.067863345 -22.473173 -28.343527 -112.42314
111898000 -28.241934 -109.64443 -0.071773916 -22.68568 -0.069984704 -22.678019 -28.228966 -112.58118
112897000 -28.121426 -110.16737 -0.073605463 -22.881582 -0.071071036 -22.870268 -28.093147 -112.72132
113896000 -28.014166 -110.78992 -0.074463591 -23.0856 -0.072285026 -23.069712 -27.979692 -112.88218
114895000 -27.916042 -111.40761 -0.075038493 -23.28496 -0.073560968 -23.266396 -27.878693 -112.99289
115894000 -27.789019 -111.77166 -0.076093949 -23.4828 -0.074340351 -23.469873 -27.807461 -113.17596
116893000 -27.718769 -112.25351 -0.077316195 -23.685457 -0.075613998 -23.662174 -27.685534 -113.25357
117892000 -27.630846 -112.76105 -0.07717891 -23.873941 -0.075779945 -23.865406 -27.60837 -113.45931
118891000 -27.575661 -113.1506 -0.078147121 -24.080814 -0.076147951 -24.063189 -27.518291 -113.57509
119890000 -27.490091 -113.52823 -0.079059131 -24.280462 -0.076590024 -24.268139 -27.502806 -113.6766
120889000 -27.439426 -114.04218 -0.079470657 -24.482647 -0.076674074 -24.467762 -27.42614 -113.61561
121888000 -27.40097 -114.32106 -0.079757243 -24.677259 -0.076904878 -24.663521 -27.373837 -113.8823
122887000 -27.366858 -114.56101 -0.080846287 -24.884457 -0.078177169 -24.865198 -27.324804 -113.91734
123886000 -27.308386 -114.95502 -0.081562087 -25.085993 -0.078523241 -25.061756 -27.313545 -114.052
124885000 -27.272854 -115.46689 -0.081892341 -25.282091 -0.078947626 -25.268761 -27.281437 -114.12086
125884000 -27.228878 -115.6813 -0.082477987 -25.482864 -0.078768641 -25.466511 -27.251406 -114.2759
126883000 -27.207973 -116.04745 -0.082829416 -25.685465 -0.079650462 -25.670897 -27.212032 -114.26874
127882000 -27.154186 -116.34378 -0.083943501 -25.885462 -0.080789588 -25.866583 -27.171864 -114.43102
128881000 -27.129774 -116.69773 -0.0833252 -26.08713 -0.079909377 -26.073719 -27.133013 -114.44451
129880000 -27.071392 -117.01459 -0.084274195 -26.289392 -0.08065562 -26.270958 -27.097183 -114.43764
130879000 -27.014263 -117.16086 -0.084063061 -26.487576 -0.081256397 -26.47472 -27.025156 -114.41909
131878000 -26.944166 -117.36707 -0.08398705 -26.69109 -0.082068026 -26.675169 -26.96348 -114.35502
132877000 -26.883804 -117.45261 -0.084034815 -26.895815 -0.08237721 -26.872196 -26.876991 -114.30301
133876000 -26.793608 -117.58363 -0.084856205 -27.096485 -0.081900783 -27.076736 -26.790747 -114.18067
134875000 -26.701351 -117.7601 -0.08468648 -27.294016 -0.082483001 -27.277349 -26.694937 -114.02827
135874000 -26.620123 -117.75089 -0.085297316 -27.497828 -0.082454771 -27.475191 -26.59617 -113.98913
136873000 -26.507153 -117.67016 -0.085742697 -27.699331 -0.082719125 -27.678869 -26.51428 -113.89877
137872000 -26.422789 -117.80731 -0.084510423 -27.89613 -0.082496457 -27.881495 -26.411983 -113.85119
138871000 -26.348946 -118.03207 -0.085761182 -28.09935 -0.083606504 -28.081421 -26.316187 -114.0138
139870000 -26.252115 -118.2796 -0.086438186 -28.300711 -0.083776712 -28.280951 -26.232023 -114.18108
140869000 -26.171284 -118.86241 -0.08688923 -28.494282 -0.084953345 -28.479399 -26.132635 -114.44617
141868000 -26.086386 -119.24094 -0.088195883 -28.693377 -0.086540379 -28.679783 -26.079893 -114.6465
142867000 -26.013281 -119.46565 -0.087451518 -28.892452 -0.085404769 -28.875387 -25.99901 -114.77856
143866000 -25.937963 -119.92568 -0.089041844 -29.091778 -0.086541705 -29.073769 -25.933559 -115.23392
144865000 -25.880568 -120.45384 -0.090611868 -29.289177 -0.088180035 -29.27301 -25.86828 -115.54914
145864000 -25.826778 -120.77376 -0.091169082 -29.487549 -0.089561068 -29.479155 -25.838446 -115.80443
146863000 -25.773869 -121.13284 -0.091614008 -29.690685 -0.090022482 -29.674475 -25.78562 -116.10622
147862000 -25.741199 -121.45742 -0.092988461 -29.889389 -0.090258487 -29.87504 -25.753153 -116.4028
148861000 -25.706369 -121.92691 -0.094091676 -30.087698 -0.091717646 -30.072069 -25.731441 -116.55793
149860000 -25.67552 -122.08199 -0.09452156 -30.27632 -0.092476234 -30.265985 -25.683554 -116.6729
150859000 -25.649063 -122.55589 -0.094532669 -30.479689 -0.091946609 -30.462664 -25.658258 -117.02793
151858000 -25.630884 -122.92128 -0.093862332 -30.679659 -0.091915146 -30.662804 -25.648857 -117.38403
152857000 -25.621685 -123.26357 -0.094257802 -30.877268 -0.092944831 -30.861906 -25.637386 -117.55254
153856000 -25.614609 -123.46635 -0.093988776 -31.078482 -0.0913499 -31.062225 -25.651482 -117.85553
154855000 -25.616663 -123.60379 -0.094330817 -31.275587 -0.091965914 -31.267015 -25.640717 -118.12727
155854000 -25.629913 -123.85728 -0.094800673 -31.475794 -0.091778189 -31.466442 -25.631454 -118.36417
156853000 -25.616899 -124.54629 -0.092401661 -31.663563 -0.091160625 -31.655676 -25.621412 -118.69064
157852000 -25.625795 -124.75998 -0.093918674 -31.866709 -0.09294007 -31.85593 -25.613089 -119.04671
158851000 -25.625788 -124.97046 -0.094401717 -32.063862 -0.093604967 -32.055145 -25.598734 -119.31702
159850000 -25.611027 -125.07317 -0.095466919 -32.265224 -0.093920261 -32.255112 -25.59866 -119.464
160849000 -25.595884 -125.17481 -0.095243059 -32.462826 -0.094539016 -32.458229 -25.566401 -119.78499
161848000 -25.5741 -125.2469 -0.095627539 -32.666653 -0.094157279 -32.658352 -25.529448 -119.88187
162847000 -25.534922 -125.44688 -0.095628865 -32.861713 -0.095004134 -32.859074 -25.501158 -120.1665
163846000 -25.496025 -125.64264 -0.096227214 -33.065289 -0.094782151 -33.054928 -25.423529 -120.13739
164845000 -25.438692 -125.58715 -0.096363515 -33.263966 -0.095550537 -33.255112 -25.359488 -120.25176
165844000 -25.38201 -125.63722 -0.096908763 -33.462063 -0.095644213 -33.458553 -25.282379 -120.36666
166843000 -25.324936 -125.70602 -0.096645661 -33.664669 -0.095753498 -33.657745 -25.215767 -120.52016
167842000 -25.263151 -125.80245 -0.096460387 -33.862747 -0.095893495 -33.856606 -25.141335 -120.42603
168841000 -25.191162 -125.99053 -0.096539527 -34.066921 -0.096124791 -34.058002 -25.062868 -120.51376
169840000 -25.12344 -126.20702 -0.096641429 -34.255234 -0.096779592 -34.253372 -24.976431 -120.68674
170839000 -25.061485 -126.45741 -0.097880855 -34.456715 -0.096983679 -34.451149 -24.899441 -120.88109
171838000 -25.006437 -126.82265 -0.098642111 -34.659031 -0.098229297 -34.650921 -24.836687 -121.0779
172837000 -24.938129 -127.18939 -0.099885553 -34.856186 -0.099070325 -34.846771 -24.770021 -121.2833
173836000 -24.87042 -127.56976 -0.1013355 -35.054688 -0.10022461 -35.049538 -24.720552 -121.52715
174835000 -24.812614 -127.97771 -0.1014285 -35.249481 -0.10080532 -35.250114 -24.685333 -121.83864
175834000 -24.764925 -128.36134 -0.10222562 -35.450691 -0.10197677 -35.446781 -24.623116 -122.09467
176833000 -24.714338 -128.71169 -0.10306796 -35.648235 -0.10264995 -35.649307 -24.574718 -122.25025
177832000 -24.669958 -129.12718 -0.10414589 -35.848499 -0.10331395 -35.849602 -24.557762 -122.36707
178831000 -24.626034 -129.36554 -0.1062511 -36.044708 -0.10540815 -36.042824 -24.512177 -122.4683
179830000 -24.556288 -129.75511 -0.10680847 -36.2309 -0.1055214 -36.227806 -24.453442 -122.51064
180829000 -24.501286 -130.11188 -0.10603252 -36.422573 -0.10519227 -36.41787 -24.410185 -122.82071
181828000 -24.486839 -130.55743 -0.10535829 -36.625011 -0.10457385 -36.619331 -24.391333 -123.04455
182827000 -24.457722 -130.90207 -0.10534874 -36.818871 -0.10539224 -36.817631 -24.379883 -123.18969
183826000 -24.416708 -131.24074 -0.10647526 -37.021481 -0.10430763 -37.013138 -24.369705 -123.32662
184825000 -24.42128 -131.58443 -0.10610414 -37.215698 -0.10553467 -37.213326 -24.351381 -123.42879
185824000 -24.388731 -131.9659 -0.10615455 -37.411953 -0.10566224 -37.413761 -24.341394 -123.51045
186823000 -24.378401 -132.33043 -0.10646571 -37.613483 -0.10555217 -37.607311 -24.335798 -123.53341
187822000 -24.354372 -132.6597 -0.10672278 -37.806377 -0.10636013 -37.807514 -24.298597 -123.58315
188821000 -24.329477 -132.94392 -0.106796 -38.000248 -0.10599114 -38.006165 -24.277155 -123.71774
189820000 -24.310616 -133.20865 -0.10741367 -38.20079 -0.10625906 -38.201771 -24.262041 -123.91628
190819000 -24.278875 -133.52428 -0.10680237 -38.400635 -0.10716293 -38.397636 -24.22427 -123.99997
191818000 -24.244854 -133.80339 -0.10781118 -38.598488 -0.10735742 -38.59724 -24.193977 -124.008
192817000 -24.200247 -134.09628 -0.10834061 -38.793987 -0.10769653 -38.797482 -24.149061 -124.08652
193816000 -24.168308 -134.33383 -0.10848048 -38.989925 -0.10750124 -38.989506 -24.102682 -124.23414
194815000 -24.104624 -134.73346 -0.10818562 -39.184967 -0.10817155 -39.190392 -24.02939 -124.28792
195814000 -24.052414 -134.93588 -0.10943154 -39.382629 -0.10867555 -39.380341 -23.976074 -124.3678
196813000 -23.996317 -135.27849 -0.10880376 -39.575455 -0.10822729 -39.580101 -23.893211 -124.50416
197812000 -23.936275 -135.49002 -0.10915679 -39.779633 -0.1091536 -39.772293 -23.82526 -124.6405
198811000 -23.884977 -135.61351 -0.10982763 -39.96928 -0.10934845 -39.971981 -23.75947 -124.75563
199810000 -23.818275 -135.98528 -0.10953799 -40.170841 -0.10949232 -40.169159 -23.681416 -124.86642
200809000 -23.753548 -136.22742 -0.1101449 -40.367352 -0.10972382 -40.362293 -23.599009 -125.05206
201808000 -23.698111 -136.40012 -0.11112633 -40.565716 -0.11079066 -40.569988 -23.533478 -125.10702
202807000 -23.642059 -136.75932 -0.11178393 -40.770329 -0.1110464 -40.769562 -23.480621 -125.30027
