!Keysight Technologies,E5080B,MY59205177,A.15.75.32
!Date: Friday, February 23, 2024 03:31:19
!Correction: S11(Cdelta 2-Port  ) 
!S21(Cdelta 2-Port  ) 
!S12(Cdelta 2-Port  ) 
!S22(Cdelta 2-Port  ) 
!S2P File: Measurements: S11, S21, S12, S22:
# Hz S  dB   R 50
10000000 -46.064774 -2.1183043 -0.015118062 -2.0468287 -0.018479908 -2.1090605 -45.956554 -158.06297
10999000 -45.256245 -4.5296268 -0.016594542 -2.2672372 -0.018713621 -2.322844 -45.935493 -151.52376
11998000 -44.286263 -6.8292165 -0.016587267 -2.4917634 -0.017760647 -2.5322645 -46.133476 -147.53293
12997000 -43.568016 -12.947573 -0.016134631 -2.6712184 -0.018276881 -2.7032578 -45.693081 -141.65211
13996000 -43.244572 -16.546776 -0.015746472 -2.8537517 -0.018234769 -2.8711784 -45.529037 -136.32251
14995000 -42.874714 -20.805565 -0.018138329 -3.0616558 -0.017439138 -3.0857844 -45.201702 -133.18785
15994000 -42.711426 -25.118643 -0.019365175 -3.2815876 -0.020268045 -3.3065956 -45.146183 -129.38625
16993000 -42.650417 -29.78303 -0.018438313 -3.4761851 -0.019616097 -3.4924257 -44.286236 -129.15146
17992000 -42.760345 -35.45174 -0.018567257 -3.6775484 -0.020082099 -3.6805902 -43.704971 -129.16266
18991000 -42.965008 -40.375748 -0.019299651 -3.8896241 -0.021532953 -3.890461 -43.153286 -127.94736
19990000 -42.710724 -46.347748 -0.021847742 -4.0989785 -0.023356441 -4.09585 -42.431904 -129.22763
20989000 -42.641872 -49.488773 -0.023886614 -4.3020182 -0.024903154 -4.2938066 -41.893349 -128.36157
21988000 -42.442307 -54.750107 -0.02472534 -4.5033169 -0.025748849 -4.4886799 -41.64703 -127.27507
22987000 -42.132195 -59.295147 -0.026166549 -4.702774 -0.027144291 -4.6934791 -41.380424 -127.12135
23986000 -42.024597 -63.527897 -0.025816813 -4.8934269 -0.025647294 -4.897759 -41.234169 -126.8394
24985000 -41.648083 -66.227348 -0.02653819 -5.1093259 -0.026280876 -5.1026406 -41.086201 -124.75457
25984000 -41.320305 -68.659767 -0.027268803 -5.309516 -0.0265559 -5.3120289 -40.706463 -123.08526
26983000 -41.026249 -70.14476 -0.028171234 -5.5083036 -0.027925549 -5.528265 -40.617817 -122.3867
27982000 -40.862808 -71.409409 -0.029113203 -5.7114978 -0.02899828 -5.743638 -40.310383 -120.61137
28981000 -40.826862 -72.685425 -0.027498562 -5.9072986 -0.02915881 -5.9353881 -40.114502 -120.16456
29980000 -40.382648 -74.219795 -0.027322985 -6.1034074 -0.02869991 -6.1097651 -39.881908 -119.22084
30979000 -40.015209 -73.23951 -0.025210377 -6.4566765 -0.024446007 -6.4516773 -39.320488 -119.59592
31978000 -39.833782 -74.242371 -0.024764391 -6.653296 -0.024955485 -6.6422024 -39.085995 -118.98145
32977000 -39.627754 -75.678497 -0.024317151 -6.8656478 -0.025722548 -6.8617721 -38.839622 -118.78265
33976000 -39.480389 -76.967834 -0.025149452 -7.0690193 -0.026273845 -7.0591311 -38.545128 -118.15269
34975000 -39.168613 -77.564697 -0.025247609 -7.2670259 -0.027458705 -7.2618351 -38.325336 -117.93476
35974000 -38.965443 -78.402634 -0.024967462 -7.4592633 -0.027430831 -7.464294 -38.066273 -116.91811
36973000 -38.714466 -78.85656 -0.024805265 -7.6629548 -0.028262164 -7.6665955 -37.787991 -115.90136
37972000 -38.57457 -78.625374 -0.025321815 -7.8702674 -0.02796072 -7.8808551 -37.58149 -115.35532
38971000 -38.255253 -78.182098 -0.02671738 -8.0754747 -0.028023507 -8.0850821 -37.41666 -113.61373
39970000 -37.908127 -78.559814 -0.02459153 -8.268096 -0.027362321 -8.2878981 -37.170124 -113.01891
40969000 -37.617805 -78.140907 -0.024355937 -8.4625769 -0.026645234 -8.4853754 -36.924191 -111.6582
41968000 -37.257256 -78.002007 -0.024774285 -8.6700821 -0.027128661 -8.6862411 -36.737923 -110.30854
42967000 -36.99744 -78.086914 -0.024302313 -8.8781452 -0.027405562 -8.899415 -36.531292 -108.40789
43966000 -36.709499 -78.816757 -0.025464762 -9.0782366 -0.028354401 -9.0950241 -36.25491 -107.80466
44965000 -36.472454 -79.619514 -0.026133996 -9.2843647 -0.029299539 -9.3007402 -36.037735 -107.46769
45964000 -36.243187 -80.795662 -0.026825732 -9.4842749 -0.030472711 -9.5052938 -35.812572 -107.17336
46963000 -36.038128 -82.616539 -0.027517838 -9.6823483 -0.030952131 -9.70187 -35.633408 -107.29462
47962000 -35.885784 -83.989159 -0.029020431 -9.8826199 -0.031793788 -9.896987 -35.423065 -107.45577
48961000 -35.656288 -85.438416 -0.031404488 -10.077838 -0.033532113 -10.099143 -35.19302 -107.55415
49960000 -35.434631 -86.699463 -0.032406621 -10.280455 -0.03484812 -10.300392 -35.060696 -107.5498
50959000 -35.208035 -88.047012 -0.033051886 -10.495007 -0.035566825 -10.501969 -34.890484 -107.94605
51958000 -34.984547 -89.028549 -0.034765925 -10.693326 -0.036685303 -10.701323 -34.703365 -108.31458
52957000 -34.778492 -90.121628 -0.036207598 -10.891932 -0.038637914 -10.897833 -34.550663 -108.07851
53956000 -34.620129 -90.962761 -0.03686152 -11.094807 -0.039260335 -11.094284 -34.400318 -108.04966
54955000 -34.438465 -91.320305 -0.038615976 -11.293977 -0.040202625 -11.293621 -34.260906 -107.95365
55954000 -34.267273 -92.14827 -0.039831903 -11.498488 -0.040144622 -11.492655 -34.157356 -107.70773
56953000 -34.152431 -92.183617 -0.040509101 -11.696557 -0.039175443 -11.684296 -34.070587 -107.89901
57952000 -33.984737 -92.742058 -0.040201057 -11.890245 -0.040257227 -11.884686 -33.979355 -108.02283
58951000 -33.878693 -93.031387 -0.041277088 -12.096058 -0.041358624 -12.075977 -33.819836 -108.13609
59950000 -33.74535 -93.448364 -0.042504735 -12.298606 -0.041823566 -12.276616 -33.73674 -108.35593
60949000 -33.618187 -93.963707 -0.042812943 -12.499496 -0.042441215 -12.48058 -33.645771 -108.61292
61948000 -33.563465 -94.391579 -0.043372951 -12.695848 -0.042674389 -12.683272 -33.558704 -108.69056
62947000 -33.468189 -94.530243 -0.043622125 -12.909888 -0.04338393 -12.890688 -33.422215 -108.97941
63946000 -33.402119 -95.248604 -0.044994552 -13.11132 -0.04390008 -13.090908 -33.314457 -109.00764
64945000 -33.299129 -95.400375 -0.044590205 -13.314929 -0.044790804 -13.295789 -33.196358 -109.58755
65944000 -33.19511 -95.717346 -0.045889951 -13.512754 -0.044795774 -13.49395 -33.116314 -109.98598
66943000 -33.054264 -96.179955 -0.043795485 -13.711823 -0.043927539 -13.695703 -33.010948 -110.27095
67942000 -32.984901 -96.0914 -0.045943581 -13.911912 -0.045816701 -13.901642 -32.888451 -110.57083
68941000 -32.868896 -96.094879 -0.045001354 -14.106844 -0.044601452 -14.093718 -32.772141 -110.48724
69940000 -32.773361 -96.178001 -0.045326479 -14.30269 -0.045464594 -14.294923 -32.633808 -110.80219
70939000 -32.676468 -96.074554 -0.045295615 -14.502955 -0.045236498 -14.495253 -32.497177 -110.71678
71938000 -32.532925 -95.60836 -0.045611605 -14.698038 -0.04605215 -14.689385 -32.359398 -110.53808
72937000 -32.37133 -95.478012 -0.045121409 -14.898796 -0.044890717 -14.889606 -32.237759 -110.22784
73936000 -32.229843 -95.129158 -0.044726729 -15.101902 -0.043846216 -15.088163 -32.10817 -110.04647
74935000 -32.10434 -95.339523 -0.044296779 -15.292833 -0.04356068 -15.292233 -31.962978 -109.68626
75934000 -31.974724 -95.583824 -0.044542346 -15.503724 -0.043256078 -15.496432 -31.872328 -109.64161
76933000 -31.846638 -95.874435 -0.045302413 -15.69433 -0.044527963 -15.686269 -31.695911 -109.9474
77932000 -31.737848 -96.679001 -0.046921074 -15.889677 -0.046834461 -15.889193 -31.598391 -109.86864
78931000 -31.675795 -97.498306 -0.045405477 -16.092335 -0.045350544 -16.085625 -31.493273 -109.74371
79930000 -31.552574 -98.263832 -0.048169166 -16.285625 -0.047807187 -16.284441 -31.397329 -110.05511
80929000 -31.437813 -99.044571 -0.049363419 -16.484219 -0.049418401 -16.478779 -31.300035 -110.31783
81928000 -31.340515 -99.825249 -0.050074838 -16.672377 -0.050415535 -16.671555 -31.166336 -110.26988
82927000 -31.234806 -100.51988 -0.051522128 -16.872801 -0.051078148 -16.870161 -31.062119 -110.56745
83926000 -31.11941 -101.26846 -0.053162236 -17.071602 -0.052172594 -17.071316 -30.940489 -110.75409
84925000 -31.01239 -101.72366 -0.054111477 -17.270483 -0.052699748 -17.271194 -30.839096 -110.81527
85924000 -30.915779 -102.07681 -0.05441789 -17.473087 -0.054025769 -17.472397 -30.749794 -110.79016
86923000 -30.815313 -102.63493 -0.054623924 -17.66976 -0.05425328 -17.664587 -30.656635 -110.67262
87922000 -30.696857 -102.9182 -0.054643061 -17.876656 -0.053177174 -17.866554 -30.570589 -110.65557
88921000 -30.631708 -103.22493 -0.055600751 -18.077051 -0.054587487 -18.069746 -30.479858 -110.62891
89920000 -30.527832 -103.7092 -0.056545805 -18.277193 -0.055868201 -18.265541 -30.420809 -110.8388
90919000 -30.432316 -103.98463 -0.057219058 -18.46957 -0.056414682 -18.463036 -30.332752 -110.95861
91918000 -30.324608 -104.33762 -0.058011256 -18.675371 -0.056635499 -18.667887 -30.252596 -110.96352
92917000 -30.236317 -104.62897 -0.058983862 -18.874475 -0.057903435 -18.869205 -30.195135 -111.09557
93916000 -30.148983 -104.96382 -0.058592118 -19.064503 -0.058177583 -19.060778 -30.111156 -111.71486
94915000 -30.06753 -105.62262 -0.060210753 -19.267948 -0.058880217 -19.257561 -30.042021 -111.55654
95914000 -30.004387 -105.79173 -0.061005596 -19.459423 -0.059833594 -19.458347 -29.962835 -111.82464
96913000 -29.916378 -106.05621 -0.062163468 -19.661304 -0.060831022 -19.658333 -29.891542 -112.17149
97912000 -29.837711 -106.47789 -0.063133329 -19.857491 -0.060647793 -19.857977 -29.809393 -112.32555
98911000 -29.733452 -106.67967 -0.064119168 -20.061415 -0.062437098 -20.058163 -29.769886 -112.60793
99910000 -29.660181 -106.81042 -0.06405139 -20.261705 -0.062344398 -20.258224 -29.662323 -112.93578
100909000 -29.571335 -107.05145 -0.064149641 -20.467386 -0.062187102 -20.461428 -29.574459 -113.14231
101908000 -29.483875 -107.27672 -0.065416358 -20.669519 -0.063184544 -20.664423 -29.461697 -112.8821
102907000 -29.352255 -107.2453 -0.065589279 -20.866962 -0.063148566 -20.870687 -29.395452 -112.85423
103906000 -29.252649 -107.31778 -0.066064708 -21.073318 -0.063412011 -21.073227 -29.248211 -112.79755
104905000 -29.107567 -107.23084 -0.066857994 -21.275045 -0.064317256 -21.275026 -29.122583 -112.47681
105904000 -28.963968 -107.28596 -0.067355379 -21.473297 -0.063438013 -21.468391 -29.010689 -112.35507
106903000 -28.8578 -107.38105 -0.067450814 -21.682224 -0.063418314 -21.676483 -28.88633 -112.25581
107902000 -28.67905 -107.70457 -0.067489199 -21.882372 -0.06562528 -21.872377 -28.744822 -112.1768
108901000 -28.580902 -107.93895 -0.068232521 -22.086536 -0.06635619 -22.075527 -28.620853 -112.14051
109900000 -28.453615 -108.39684 -0.069345243 -22.283979 -0.067657471 -22.272486 -28.468966 -112.19376
110899000 -28.339291 -109.01816 -0.070566647 -22.481976 -0.067881487 -22.47164 -28.342985 -112.50298
111898000 -28.241383 -109.65301 -0.072164223 -22.682077 -0.069078282 -22.681532 -28.225035 -112.63887
112897000 -28.121212 -110.23243 -0.073008902 -22.885969 -0.070042059 -22.873259 -28.091869 -112.81001
113896000 -28.010794 -110.78256 -0.074571557 -23.08284 -0.071103401 -23.073109 -27.984962 -112.90685
114895000 -27.917564 -111.44055 -0.075059302 -23.280882 -0.072823055 -23.26825 -27.872814 -113.01196
115894000 -27.789572 -111.77043 -0.076447234 -23.482815 -0.073654957 -23.469318 -27.801582 -113.19017
116893000 -27.715862 -112.26033 -0.0769502 -23.679529 -0.07522022 -23.665104 -27.68095 -113.21322
117892000 -27.630514 -112.80892 -0.077578925 -23.879345 -0.075214952 -23.864201 -27.605303 -113.42637
118891000 -27.571653 -113.1627 -0.078125507 -24.078512 -0.075534448 -24.066912 -27.506939 -113.58132
119890000 -27.487633 -113.54967 -0.078652658 -24.279642 -0.076212496 -24.269075 -27.4979 -113.70003
120889000 -27.435287 -114.00889 -0.08017569 -24.479958 -0.076668806 -24.468292 -27.422676 -113.66504
121888000 -27.402077 -114.36045 -0.080091834 -24.678137 -0.077548355 -24.662724 -27.367096 -113.90966
122887000 -27.358995 -114.55077 -0.081000827 -24.879324 -0.077955253 -24.870455 -27.3181 -113.93007
123886000 -27.307501 -114.96353 -0.081823751 -25.085884 -0.078311585 -25.064127 -27.308306 -114.06932
124885000 -27.275242 -115.4775 -0.081279866 -25.280365 -0.078751504 -25.268822 -27.27844 -114.11755
125884000 -27.226555 -115.67284 -0.082397781 -25.478075 -0.078922845 -25.467323 -27.24703 -114.23486
126883000 -27.206863 -116.03881 -0.082579292 -25.683552 -0.079292178 -25.669958 -27.208054 -114.2539
127882000 -27.154716 -116.32277 -0.082895108 -25.884308 -0.080241874 -25.867672 -27.168371 -114.40115
128881000 -27.125343 -116.6725 -0.08326003 -26.087727 -0.080206536 -26.069309 -27.129198 -114.53664
129880000 -27.070736 -116.97898 -0.083738185 -26.288519 -0.079829223 -26.268602 -27.095594 -114.46204
130879000 -27.009573 -117.16534 -0.084382415 -26.48695 -0.08124242 -26.471535 -27.021811 -114.46947
131878000 -26.945343 -117.41824 -0.084138542 -26.689783 -0.081513554 -26.673487 -26.96015 -114.3353
132877000 -26.880302 -117.44772 -0.083681449 -26.891756 -0.081389591 -26.873335 -26.87674 -114.31497
133876000 -26.799038 -117.61137 -0.084163614 -27.09445 -0.081685796 -27.078192 -26.78966 -114.18369
134875000 -26.695175 -117.77052 -0.08474534 -27.289583 -0.082218654 -27.27751 -26.68926 -114.02237
135874000 -26.61779 -117.78056 -0.085196741 -27.494757 -0.081862532 -27.476164 -26.596315 -114.01413
136873000 -26.507708 -117.72105 -0.085139453 -27.699203 -0.081837997 -27.678974 -26.513853 -113.97213
137872000 -26.425312 -117.82011 -0.085228421 -27.898727 -0.082483001 -27.884552 -26.413399 -113.87318
138871000 -26.349276 -118.02925 -0.085510895 -28.097801 -0.082614124 -28.08506 -26.312386 -114.0544
139870000 -26.249763 -118.30728 -0.086000919 -28.29648 -0.083970159 -28.280516 -26.230459 -114.2009
140869000 -26.173296 -118.87716 -0.086979285 -28.495468 -0.084078364 -28.479013 -26.134146 -114.43975
141868000 -26.089365 -119.28362 -0.087861724 -28.694773 -0.085536771 -28.680887 -26.075848 -114.68733
142867000 -26.006989 -119.45466 -0.086859651 -28.893337 -0.084544741 -28.875513 -26.000481 -114.78464
143866000 -25.931627 -119.92835 -0.089152552 -29.089872 -0.086529553 -29.07181 -25.925726 -115.26575
144865000 -25.875856 -120.46528 -0.090488166 -29.289259 -0.087582789 -29.274099 -25.864176 -115.59485
145864000 -25.819025 -120.77271 -0.090746932 -29.488295 -0.088708669 -29.476133 -25.833473 -115.79479
146863000 -25.773886 -121.15128 -0.091970138 -29.69202 -0.088465609 -29.676519 -25.784935 -116.10436
147862000 -25.739037 -121.4955 -0.092973657 -29.888338 -0.090460151 -29.875101 -25.753578 -116.47236
148861000 -25.700642 -121.92266 -0.09383139 -30.086229 -0.091096655 -30.072958 -25.72957 -116.59306
149860000 -25.672468 -122.06725 -0.095039323 -30.278694 -0.091644675 -30.270252 -25.675409 -116.68806
150859000 -25.645586 -122.56829 -0.094778448 -30.475489 -0.091503233 -30.460205 -25.659151 -117.00761
151858000 -25.629536 -122.89479 -0.09388376 -30.675749 -0.091361009 -30.661396 -25.647141 -117.38959
152857000 -25.620131 -123.23254 -0.094113365 -30.874222 -0.091666616 -30.865625 -25.629654 -117.56293
153856000 -25.613298 -123.43758 -0.093503669 -31.076347 -0.091207676 -31.063158 -25.65041 -117.87713
154855000 -25.611631 -123.59275 -0.09460701 -31.272903 -0.091416255 -31.261219 -25.642567 -118.13854
155854000 -25.628654 -123.85072 -0.095343076 -31.472822 -0.092280559 -31.463102 -25.62816 -118.41752
156853000 -25.613079 -124.56702 -0.093103506 -31.663904 -0.091003865 -31.657589 -25.623791 -118.69254
157852000 -25.621586 -124.76261 -0.093418233 -31.865011 -0.092897229 -31.856846 -25.611589 -119.06882
158851000 -25.61993 -124.98821 -0.094485842 -32.06266 -0.092458777 -32.055504 -25.597736 -119.30717
159850000 -25.607069 -125.09409 -0.095075309 -32.265663 -0.092807315 -32.256824 -25.593866 -119.48219
160849000 -25.590532 -125.18295 -0.095514283 -32.461445 -0.093789861 -32.458126 -25.564888 -119.81041
161848000 -25.574713 -125.27248 -0.095495492 -32.664886 -0.093903862 -32.656822 -25.528452 -119.88074
162847000 -25.536137 -125.43027 -0.09563151 -32.861649 -0.094388485 -32.858334 -25.501314 -120.12839
163846000 -25.496897 -125.6264 -0.095575936 -33.063492 -0.093841441 -33.056885 -25.4252 -120.14462
164845000 -25.438721 -125.61832 -0.095855385 -33.262909 -0.095064193 -33.255142 -25.359146 -120.27089
165844000 -25.387415 -125.69495 -0.096009403 -33.462597 -0.095022917 -33.458927 -25.278778 -120.39837
166843000 -25.320974 -125.6819 -0.096496381 -33.660843 -0.094985083 -33.652534 -25.211187 -120.55402
167842000 -25.266607 -125.82323 -0.096912734 -33.860878 -0.095182732 -33.855824 -25.136541 -120.47736
168841000 -25.189577 -125.95924 -0.097726241 -34.061535 -0.096212663 -34.058022 -25.066147 -120.52548
169840000 -25.118631 -126.21188 -0.09728042 -34.255383 -0.096300527 -34.250454 -24.977842 -120.6983
170839000 -25.062826 -126.48727 -0.097854912 -34.455219 -0.096472032 -34.451923 -24.895821 -120.91306
171838000 -25.0028 -126.88176 -0.09844324 -34.657337 -0.097709298 -34.651306 -24.8328 -121.11002
172837000 -24.933249 -127.1732 -0.099691138 -34.853329 -0.098662235 -34.846142 -24.765879 -121.34171
173836000 -24.864744 -127.60344 -0.10105861 -35.054569 -0.10005084 -35.050419 -24.725983 -121.54715
174835000 -24.81352 -127.97671 -0.10177404 -35.249443 -0.10051072 -35.250866 -24.685919 -121.84251
175834000 -24.762306 -128.34497 -0.10230964 -35.450893 -0.10167097 -35.445091 -24.619215 -122.09474
176833000 -24.708149 -128.70648 -0.10358807 -35.649078 -0.10208835 -35.646969 -24.574417 -122.24954
177832000 -24.664455 -129.15962 -0.1041846 -35.849354 -0.1030836 -35.846539 -24.553751 -122.35784
178831000 -24.622766 -129.37216 -0.10661507 -36.045994 -0.104856 -36.040527 -24.512226 -122.43816
179830000 -24.550247 -129.76935 -0.10757951 -36.23135 -0.10550973 -36.228977 -24.450457 -122.53262
180829000 -24.505156 -130.10478 -0.10626012 -36.424072 -0.10468681 -36.420944 -24.410664 -122.8457
181828000 -24.480396 -130.54143 -0.1055885 -36.622047 -0.10364639 -36.618069 -24.388254 -123.02488
182827000 -24.45549 -130.95416 -0.10566436 -36.815323 -0.10370498 -36.819405 -24.370872 -123.19547
183826000 -24.415487 -131.25603 -0.1061816 -37.017532 -0.10417294 -37.014256 -24.365358 -123.30539
184825000 -24.417963 -131.59964 -0.10624686 -37.213539 -0.10515196 -37.218506 -24.348293 -123.44052
185824000 -24.392834 -131.94717 -0.10606489 -37.410034 -0.10535829 -37.414745 -24.340036 -123.50414
186823000 -24.378738 -132.33859 -0.10605215 -37.613052 -0.10509679 -37.608555 -24.335133 -123.53501
187822000 -24.350101 -132.65993 -0.10686233 -37.806561 -0.10594658 -37.805645 -24.297974 -123.62887
188821000 -24.329494 -132.91699 -0.10646544 -38.001072 -0.10590494 -38.006004 -24.273943 -123.74107
189820000 -24.309759 -133.22374 -0.10678858 -38.203167 -0.10620759 -38.202885 -24.259645 -123.924
190819000 -24.277933 -133.54048 -0.10720936 -38.399097 -0.10674639 -38.395645 -24.223192 -123.94934
191818000 -24.243378 -133.8044 -0.10730701 -38.595692 -0.10628824 -38.598888 -24.195013 -123.99005
192817000 -24.197422 -134.11125 -0.10822622 -38.792633 -0.10642327 -38.793991 -24.149853 -124.08366
193816000 -24.170166 -134.34602 -0.10798579 -38.993626 -0.10665221 -38.988617 -24.097132 -124.2161
194815000 -24.102047 -134.72141 -0.10821455 -39.186146 -0.10778994 -39.187237 -24.029169 -124.30097
195814000 -24.048769 -134.93779 -0.10893541 -39.385132 -0.10799189 -39.381847 -23.976652 -124.38397
196813000 -23.993521 -135.2562 -0.10900071 -39.574661 -0.10832867 -39.580952 -23.897121 -124.55559
197812000 -23.939346 -135.48421 -0.10902248 -39.777508 -0.10832973 -39.771427 -23.823301 -124.62908
198811000 -23.885115 -135.64421 -0.10918758 -39.977261 -0.10834008 -39.975178 -23.754515 -124.79487
199810000 -23.812273 -135.987 -0.10921014 -40.169258 -0.10781011 -40.165688 -23.67465 -124.90051
200809000 -23.756386 -136.258 -0.10958843 -40.36655 -0.10883296 -40.368076 -23.602041 -125.0684
201808000 -23.696064 -136.45663 -0.11058832 -40.565926 -0.10941242 -40.569859 -23.532597 -125.1356
202807000 -23.635765 -136.79556 -0.11141315 -40.76807 -0.10915095 -40.77076 -23.478172 -125.32759
