!Keysight Technologies,E5080B,MY59205177,A.15.75.32
!Date: Friday, February 23, 2024 02:53:05
!Correction: S11(Cdelta 2-Port  ) 
!S21(Cdelta 2-Port  ) 
!S12(Cdelta 2-Port  ) 
!S22(Cdelta 2-Port  ) 
!S2P File: Measurements: S11, S21, S12, S22:
# Hz S  dB   R 50
10000000 -43.289619 -3.4834328 -0.033488289 -2.0432911 -0.036779024 -2.0953078 -49.415016 -145.00458
10999000 -42.68784 -5.1009121 -0.034202069 -2.2631299 -0.036862303 -2.3170097 -49.01598 -136.37422
11998000 -41.939392 -7.3221927 -0.034539957 -2.4853942 -0.036604114 -2.5289383 -49.040871 -129.97928
12997000 -41.385334 -11.930623 -0.034322087 -2.6671638 -0.035869319 -2.6985276 -48.266041 -123.52287
13996000 -41.133022 -14.817948 -0.033651851 -2.8446038 -0.036333676 -2.8669107 -47.683178 -117.71839
14995000 -40.876823 -18.467854 -0.035284966 -3.0540464 -0.036151998 -3.0756867 -47.119339 -114.79857
15994000 -40.785873 -21.69684 -0.036226131 -3.2728407 -0.038626164 -3.2930992 -46.863453 -110.63384
16993000 -40.79348 -25.493807 -0.03540162 -3.468797 -0.037525982 -3.475141 -45.881786 -111.98645
17992000 -40.884125 -29.862711 -0.035540726 -3.6657276 -0.038600828 -3.6721547 -45.298954 -113.71528
18991000 -41.150799 -33.827213 -0.037486818 -3.8787718 -0.038948461 -3.8730733 -44.527893 -113.43455
19990000 -41.074619 -38.657803 -0.039583988 -4.0879054 -0.041091546 -4.0815606 -43.879677 -115.7903
20989000 -41.003525 -41.338921 -0.041704386 -4.2896447 -0.043563556 -4.2767863 -43.216125 -115.99955
21988000 -40.955597 -45.757896 -0.042162567 -4.4847574 -0.044079468 -4.4738655 -42.969078 -115.53658
22987000 -40.790157 -50.15065 -0.043279871 -4.6846108 -0.045003708 -4.6757746 -42.682297 -115.65875
23986000 -40.825397 -53.679501 -0.042543162 -4.8777585 -0.043527212 -4.8772168 -42.546501 -115.41373
24985000 -40.534008 -56.260292 -0.043643042 -5.0909572 -0.044207864 -5.0848975 -42.256706 -112.95529
25984000 -40.310047 -58.247334 -0.045007106 -5.2925963 -0.044293903 -5.296473 -41.910213 -112.17989
26983000 -40.0863 -60.301174 -0.045635674 -5.4919949 -0.04552868 -5.5118899 -41.753487 -110.92917
27982000 -39.980591 -61.340023 -0.046611268 -5.6915636 -0.047267541 -5.7238278 -41.422924 -109.92503
28981000 -39.96656 -62.705597 -0.044674158 -5.8892827 -0.047057144 -5.9121733 -41.124763 -109.09459
29980000 -39.583885 -64.621101 -0.044743989 -6.079987 -0.047915541 -6.0851016 -40.775238 -108.71748
30979000 -39.227837 -63.781528 -0.042216413 -6.4370203 -0.04197333 -6.4246116 -40.260971 -109.76941
31978000 -39.054119 -64.822624 -0.041794032 -6.6340618 -0.042754646 -6.6223178 -39.971512 -108.98081
32977000 -38.903996 -66.482826 -0.041553583 -6.8425364 -0.044039197 -6.8378453 -39.718773 -109.32772
33976000 -38.774776 -67.749535 -0.04183428 -7.0426526 -0.043882299 -7.0375357 -39.404819 -108.98876
34975000 -38.535301 -68.78653 -0.042285684 -7.2428393 -0.044734314 -7.2395549 -39.168621 -108.79597
35974000 -38.320263 -69.631119 -0.042182434 -7.4353609 -0.044709206 -7.4406748 -38.822708 -108.04276
36973000 -38.145813 -70.474991 -0.042101406 -7.6392617 -0.045238331 -7.6420579 -38.544914 -107.47945
37972000 -37.946453 -70.452354 -0.041600365 -7.8481812 -0.045081388 -7.8543482 -38.273869 -106.96538
38971000 -37.657154 -70.264992 -0.043221567 -8.0472183 -0.045166135 -8.059124 -38.070702 -105.34962
39970000 -37.333752 -71.004814 -0.041745681 -8.2413692 -0.043998141 -8.2578554 -37.778732 -104.93464
40969000 -37.057053 -70.778488 -0.042277317 -8.4332323 -0.044597268 -8.4536963 -37.487514 -103.53016
41968000 -36.716526 -71.149002 -0.041188758 -8.6435585 -0.044610605 -8.6583385 -37.255852 -102.58845
42967000 -36.462814 -71.466835 -0.041780703 -8.8549633 -0.044863254 -8.8727646 -37.046741 -100.73603
43966000 -36.201679 -72.477814 -0.042400435 -9.0499134 -0.04656443 -9.0681849 -36.748657 -100.22415
44965000 -35.978287 -73.399818 -0.043036468 -9.2530088 -0.04550226 -9.2715015 -36.507072 -100.33154
45964000 -35.783085 -74.555 -0.045068834 -9.4548454 -0.047362797 -9.4737978 -36.284969 -100.17586
46963000 -35.61364 -76.42363 -0.044714436 -9.6482506 -0.048703946 -9.6710634 -36.106873 -100.46508
47962000 -35.483177 -78.074394 -0.046268515 -9.8505688 -0.049095847 -9.8677111 -35.89146 -100.73134
48961000 -35.274139 -79.496895 -0.048267845 -10.043845 -0.050825138 -10.065868 -35.663448 -101.19155
49960000 -35.079487 -80.933434 -0.049805913 -10.24518 -0.052205082 -10.269011 -35.526588 -101.4238
50959000 -34.891716 -82.378746 -0.050420772 -10.459583 -0.053215694 -10.469705 -35.346638 -101.69986
51958000 -34.704498 -83.514778 -0.051939171 -10.658407 -0.054357864 -10.670983 -35.176445 -102.46164
52957000 -34.516315 -84.739166 -0.053632114 -10.859776 -0.055486962 -10.864965 -35.017338 -102.24804
53956000 -34.358864 -85.561272 -0.054352883 -11.064697 -0.056027364 -11.059358 -34.877174 -102.42154
54955000 -34.216877 -86.077744 -0.055604685 -11.265489 -0.057184439 -11.259985 -34.715832 -102.48161
55954000 -34.039722 -87.019325 -0.056932647 -11.465505 -0.057099979 -11.456064 -34.6129 -102.15616
56953000 -33.933899 -87.156105 -0.056369051 -11.659458 -0.05661137 -11.648852 -34.535564 -102.52743
57952000 -33.788643 -87.727905 -0.05761173 -11.854526 -0.058077104 -11.843459 -34.436722 -102.65868
58951000 -33.66375 -88.171478 -0.058105964 -12.061185 -0.05894424 -12.041435 -34.271503 -102.85338
59950000 -33.555859 -88.570915 -0.059323944 -12.262872 -0.059458829 -12.239728 -34.212494 -103.08362
60949000 -33.434708 -89.212715 -0.059635449 -12.465124 -0.059925191 -12.443206 -34.113903 -103.41988
61948000 -33.386093 -89.477119 -0.060209438 -12.663486 -0.059350975 -12.640244 -34.019669 -103.5879
62947000 -33.298309 -89.750252 -0.060484521 -12.871079 -0.060774058 -12.852947 -33.886185 -103.94863
63946000 -33.233578 -90.518211 -0.061169147 -13.069872 -0.061671138 -13.051048 -33.767628 -104.05141
64945000 -33.128448 -90.687271 -0.061834455 -13.269917 -0.062436573 -13.251443 -33.659199 -104.59885
65944000 -33.038376 -90.987953 -0.062953681 -13.471491 -0.062856503 -13.452837 -33.584351 -105.06915
66943000 -32.898357 -91.454063 -0.060199205 -13.670333 -0.06118254 -13.654374 -33.473278 -105.28479
67942000 -32.834206 -91.378242 -0.062453907 -13.869605 -0.062353063 -13.855758 -33.341293 -105.69583
68941000 -32.721748 -91.455841 -0.06215743 -14.061035 -0.061790343 -14.052083 -33.245018 -105.63823
69940000 -32.619041 -91.522415 -0.062629335 -14.257466 -0.062089421 -14.250662 -33.107662 -105.99987
70939000 -32.52124 -91.531494 -0.061960228 -14.457908 -0.062300019 -14.451999 -32.971939 -105.90239
71938000 -32.369553 -91.1903 -0.062722564 -14.652821 -0.062288202 -14.646084 -32.838284 -105.78341
72937000 -32.218273 -91.111145 -0.061982546 -14.848386 -0.061589744 -14.846556 -32.696449 -105.56944
73936000 -32.072163 -90.797127 -0.06295079 -15.050273 -0.061542485 -15.043506 -32.577831 -105.36214
74935000 -31.94725 -91.083229 -0.060651731 -15.246951 -0.060957029 -15.243348 -32.411423 -105.10117
75934000 -31.834984 -91.373528 -0.061086714 -15.456064 -0.061001133 -15.447894 -32.327305 -105.01316
76933000 -31.702477 -91.749252 -0.062223602 -15.64317 -0.062307898 -15.64052 -32.155457 -105.46584
77932000 -31.602921 -92.592705 -0.063597195 -15.841792 -0.063660234 -15.832432 -32.069866 -105.46464
78931000 -31.540331 -93.379189 -0.062349651 -16.045767 -0.062875412 -16.038992 -31.964622 -105.34096
79930000 -31.435877 -94.197464 -0.064931281 -16.237963 -0.065299153 -16.235699 -31.868002 -105.68362
80929000 -31.317091 -95.161125 -0.06610781 -16.429611 -0.066881128 -16.427181 -31.773895 -106.0676
81928000 -31.233635 -96.061249 -0.066245794 -16.622414 -0.066876918 -16.621355 -31.653217 -106.19213
82927000 -31.145159 -96.790863 -0.067911461 -16.823778 -0.068203598 -16.82217 -31.540262 -106.55774
83926000 -31.028772 -97.514442 -0.069506742 -17.01939 -0.069640629 -17.019075 -31.428003 -106.73757
84925000 -30.934212 -97.989975 -0.070561647 -17.218048 -0.06983187 -17.21483 -31.338993 -106.90601
85924000 -30.845152 -98.496719 -0.070894741 -17.417168 -0.071940511 -17.41605 -31.255964 -106.91875
86923000 -30.744549 -99.056015 -0.071547329 -17.616831 -0.071944192 -17.611319 -31.150242 -106.8947
87922000 -30.635393 -99.496674 -0.071237341 -17.824661 -0.071451277 -17.815634 -31.057074 -107.00665
88921000 -30.573805 -99.813286 -0.072688013 -18.02162 -0.071869977 -18.016003 -30.971544 -106.98959
89920000 -30.477266 -100.3344 -0.072690643 -18.218632 -0.072662219 -18.211254 -30.917316 -107.11367
90919000 -30.372551 -100.68872 -0.073589139 -18.419075 -0.073519893 -18.408052 -30.818319 -107.33572
91918000 -30.287788 -101.12658 -0.075203896 -18.615999 -0.074094675 -18.612267 -30.758024 -107.42934
92917000 -30.197796 -101.44733 -0.07596276 -18.811041 -0.074958958 -18.810595 -30.690876 -107.52319
93916000 -30.114397 -101.81516 -0.075831838 -19.008226 -0.07477539 -19.001465 -30.609291 -108.17999
94915000 -30.039574 -102.54458 -0.077168636 -19.209471 -0.076120555 -19.202387 -30.547516 -108.10445
95914000 -29.983517 -102.78134 -0.078242533 -19.401394 -0.077334903 -19.399717 -30.445995 -108.40645
96913000 -29.891687 -103.00962 -0.079474874 -19.603937 -0.077764183 -19.600716 -30.383478 -108.77122
97912000 -29.822229 -103.47321 -0.079920188 -19.795364 -0.078044862 -19.799328 -30.30377 -108.97766
98911000 -29.722916 -103.7047 -0.080600768 -20.000803 -0.07936731 -19.998396 -30.266487 -109.21452
99910000 -29.649607 -103.85114 -0.081317849 -20.19668 -0.079574272 -20.197336 -30.167059 -109.52807
100909000 -29.557453 -104.16039 -0.080238178 -20.406254 -0.079514682 -20.398445 -30.070848 -109.76913
101908000 -29.470213 -104.39986 -0.081703998 -20.603281 -0.080775872 -20.604532 -29.94985 -109.48038
102907000 -29.340012 -104.44615 -0.082386702 -20.80224 -0.080420658 -20.80232 -29.881166 -109.46315
103906000 -29.252567 -104.49544 -0.082683243 -21.014099 -0.080038838 -21.007433 -29.734022 -109.39639
104905000 -29.099195 -104.42035 -0.083434716 -21.207401 -0.080167778 -21.206917 -29.591951 -109.08602
105904000 -28.962473 -104.54655 -0.083033629 -21.413998 -0.080344975 -21.405836 -29.482653 -108.97998
106903000 -28.846748 -104.62769 -0.083476931 -21.617939 -0.08067935 -21.612288 -29.352375 -108.88877
107902000 -28.67952 -105.02905 -0.084283173 -21.81531 -0.081735127 -21.806393 -29.213785 -108.83784
108901000 -28.577608 -105.32728 -0.085035972 -22.015692 -0.082852632 -22.009321 -29.079401 -108.77164
109900000 -28.451134 -105.81866 -0.085077152 -22.219801 -0.084680408 -22.209791 -28.925425 -108.88931
110899000 -28.335945 -106.4761 -0.087347187 -22.415539 -0.084947012 -22.405928 -28.801191 -109.186
111898000 -28.249592 -107.1926 -0.088611178 -22.615606 -0.086455084 -22.612455 -28.685356 -109.34235
112897000 -28.123119 -107.76218 -0.090070046 -22.81719 -0.087184496 -22.802164 -28.54455 -109.55661
113896000 -28.024183 -108.31988 -0.091130488 -23.016544 -0.088715009 -23.003706 -28.442154 -109.72149
114895000 -27.925127 -109.03399 -0.092198856 -23.214912 -0.090172328 -23.200081 -28.328115 -109.8591
115894000 -27.80245 -109.40286 -0.093429871 -23.414415 -0.091379777 -23.401936 -28.262808 -110.09539
116893000 -27.718775 -110.0208 -0.094479226 -23.609715 -0.09196908 -23.589224 -28.133612 -110.23022
117892000 -27.646749 -110.55195 -0.094237961 -23.808369 -0.092486016 -23.793472 -28.054916 -110.45348
118891000 -27.581751 -110.93774 -0.094828188 -24.006145 -0.093127042 -23.995977 -27.96348 -110.64762
119890000 -27.49054 -111.3543 -0.095806956 -24.205942 -0.093508691 -24.193388 -27.953358 -110.79574
120889000 -27.441761 -111.84198 -0.09672454 -24.409739 -0.093046114 -24.391678 -27.880329 -110.78226
121888000 -27.403748 -112.21793 -0.0966544 -24.601967 -0.094564147 -24.592724 -27.815512 -111.06726
122887000 -27.365005 -112.38132 -0.097556271 -24.80628 -0.09470728 -24.796539 -27.767653 -111.11212
123886000 -27.306295 -112.81799 -0.098280132 -25.011677 -0.094802789 -24.988972 -27.753023 -111.3151
124885000 -27.271933 -113.36956 -0.098315082 -25.209333 -0.095393352 -25.193615 -27.722523 -111.37328
125884000 -27.22365 -113.55465 -0.09919215 -25.404734 -0.095807225 -25.390451 -27.694496 -111.53937
126883000 -27.201311 -113.91075 -0.099506259 -25.609375 -0.096523382 -25.595324 -27.653347 -111.61235
127882000 -27.148298 -114.24019 -0.099788874 -25.805346 -0.09736672 -25.791788 -27.61482 -111.74369
128881000 -27.11504 -114.52843 -0.099916279 -26.009209 -0.097395316 -25.991795 -27.575729 -111.92734
129880000 -27.061176 -114.87997 -0.10116407 -26.209627 -0.097082414 -26.190336 -27.534698 -111.87174
130879000 -27.004017 -115.03336 -0.10118791 -26.410551 -0.098283842 -26.3929 -27.452066 -111.91161
131878000 -26.93532 -115.24716 -0.10127853 -26.610849 -0.098754123 -26.592302 -27.385782 -111.79727
132877000 -26.867666 -115.33707 -0.10095263 -26.81163 -0.098612718 -26.797411 -27.298109 -111.83926
133876000 -26.779646 -115.48779 -0.10120619 -27.010809 -0.098944262 -26.995195 -27.205082 -111.72969
134875000 -26.685225 -115.61788 -0.1014073 -27.211924 -0.099112429 -27.195446 -27.101871 -111.60032
135874000 -26.604677 -115.67265 -0.10108723 -27.413715 -0.099006236 -27.396906 -27.007021 -111.5931
136873000 -26.492983 -115.61184 -0.10103768 -27.619377 -0.099195063 -27.596338 -26.91609 -111.5248
137872000 -26.409201 -115.73273 -0.10175549 -27.821554 -0.09901312 -27.803072 -26.811853 -111.52936
138871000 -26.334219 -115.91864 -0.10194629 -28.014957 -0.099531159 -28.001738 -26.70739 -111.7058
139870000 -26.235447 -116.18136 -0.10297147 -28.216639 -0.10084056 -28.19759 -26.632441 -111.87396
140869000 -26.149927 -116.66187 -0.10499125 -28.414032 -0.10256328 -28.39225 -26.524605 -112.02573
141868000 -26.054998 -117.16946 -0.10504455 -28.603577 -0.10349952 -28.588238 -26.453272 -112.3395
142867000 -25.978174 -117.40922 -0.10340912 -28.800203 -0.10165321 -28.78647 -26.375328 -112.5696
143866000 -25.909567 -117.94686 -0.10495306 -28.998535 -0.10297571 -28.982594 -26.301897 -113.08926
144865000 -25.855825 -118.46313 -0.10662621 -29.198738 -0.10453752 -29.183466 -26.245392 -113.39911
145864000 -25.798195 -118.7884 -0.1068618 -29.39543 -0.1057381 -29.387682 -26.215702 -113.71897
146863000 -25.750811 -119.18818 -0.10782311 -29.595778 -0.10660525 -29.585634 -26.159883 -114.05736
147862000 -25.709438 -119.5368 -0.10885604 -29.794102 -0.10643945 -29.78064 -26.131502 -114.40578
148861000 -25.680582 -120.06352 -0.10930172 -29.992867 -0.10706901 -29.974672 -26.105833 -114.63649
149860000 -25.669237 -120.26559 -0.10923696 -30.188553 -0.10666547 -30.181271 -26.069258 -114.78448
150859000 -25.647203 -120.66103 -0.11028801 -30.387598 -0.10786 -30.375324 -26.064047 -115.08733
151858000 -25.635199 -120.97273 -0.11021128 -30.588739 -0.10776924 -30.575516 -26.055729 -115.36079
152857000 -25.610243 -121.30161 -0.11058673 -30.785244 -0.10879871 -30.777969 -26.039288 -115.50764
153856000 -25.598663 -121.50001 -0.10936438 -30.986206 -0.10797782 -30.967949 -26.053511 -115.80188
154855000 -25.596573 -121.67003 -0.1105777 -31.184212 -0.10838281 -31.174187 -26.048012 -116.0352
155854000 -25.612036 -121.93194 -0.11035997 -31.384884 -0.10858505 -31.374628 -26.031626 -116.30833
156853000 -25.594852 -122.65948 -0.10864504 -31.570637 -0.10790538 -31.559832 -26.030142 -116.60896
157852000 -25.597109 -122.88345 -0.10981515 -31.769991 -0.1095948 -31.763075 -26.022312 -116.9533
158851000 -25.594097 -123.09622 -0.11059283 -31.967718 -0.11014517 -31.961761 -26.00424 -117.19063
159850000 -25.576569 -123.20657 -0.11107853 -32.166462 -0.11006153 -32.159054 -26.006893 -117.34592
160849000 -25.555656 -123.35887 -0.11147424 -32.366859 -0.11096965 -32.360924 -25.969879 -117.62566
161848000 -25.540554 -123.45248 -0.11216324 -32.565552 -0.11095478 -32.55965 -25.928148 -117.78658
162847000 -25.491306 -123.66467 -0.1119008 -32.763908 -0.11179508 -32.760437 -25.895823 -118.00864
163846000 -25.450993 -123.88604 -0.11210188 -32.964798 -0.11188114 -32.95929 -25.817284 -118.04218
164845000 -25.387135 -123.88421 -0.11284543 -33.165081 -0.11121663 -33.156635 -25.755703 -118.145
165844000 -25.334785 -123.95851 -0.1127923 -33.365662 -0.11253089 -33.357887 -25.67013 -118.24686
166843000 -25.269154 -124.03503 -0.11317223 -33.557468 -0.11221556 -33.56152 -25.600269 -118.45306
167842000 -25.211164 -124.18002 -0.1139149 -33.762527 -0.11237521 -33.753574 -25.518318 -118.3489
168841000 -25.129652 -124.38011 -0.11330932 -33.958668 -0.11246341 -33.955807 -25.442688 -118.4554
169840000 -25.063366 -124.65243 -0.1137536 -34.152306 -0.1136133 -34.157547 -25.35136 -118.67107
170839000 -25.002871 -124.94131 -0.1144015 -34.350872 -0.11332473 -34.346424 -25.265078 -118.86086
171838000 -24.945887 -125.34278 -0.11425028 -34.551849 -0.11497135 -34.54797 -25.195351 -119.10153
172837000 -24.871952 -125.72807 -0.1157449 -34.745712 -0.1153589 -34.742321 -25.131424 -119.31905
173836000 -24.810625 -126.16383 -0.1171193 -34.948662 -0.11674488 -34.944569 -25.09096 -119.56159
174835000 -24.757868 -126.6109 -0.11761211 -35.140438 -0.11697172 -35.139332 -25.040138 -119.89851
175834000 -24.714142 -126.99702 -0.11807385 -35.342781 -0.118043 -35.3368 -24.983072 -120.24075
176833000 -24.659079 -127.35204 -0.1195525 -35.538116 -0.11820818 -35.533745 -24.92358 -120.38715
177832000 -24.617205 -127.84013 -0.11954984 -35.735443 -0.11886659 -35.730614 -24.906179 -120.52582
178831000 -24.570642 -128.25076 -0.12021111 -35.930183 -0.11933405 -35.926346 -24.867851 -120.79896
179830000 -24.541023 -128.67479 -0.12076362 -36.130444 -0.11981221 -36.129032 -24.846659 -120.94159
180829000 -24.501543 -128.90596 -0.12140857 -36.326767 -0.1201805 -36.325413 -24.816319 -121.11763
181828000 -24.474424 -129.27301 -0.12177034 -36.519604 -0.12078411 -36.518673 -24.798008 -121.24714
182827000 -24.456566 -129.61629 -0.12110618 -36.719513 -0.12133616 -36.716179 -24.784967 -121.35902
183826000 -24.41114 -129.95796 -0.12246737 -36.917976 -0.12098241 -36.910591 -24.773924 -121.48578
184825000 -24.418943 -130.27477 -0.12198679 -37.110058 -0.12168782 -37.108311 -24.759987 -121.55073
185824000 -24.392979 -130.64534 -0.12196176 -37.303196 -0.12169687 -37.308331 -24.75618 -121.62914
186823000 -24.37907 -130.993 -0.12212843 -37.507256 -0.1217754 -37.502796 -24.750383 -121.59666
187822000 -24.355181 -131.29501 -0.12258799 -37.69957 -0.12201075 -37.700794 -24.720427 -121.63686
188821000 -24.334217 -131.55569 -0.12315971 -37.898148 -0.12267745 -37.902657 -24.698885 -121.7686
189820000 -24.319796 -131.82187 -0.12307449 -38.098095 -0.12287397 -38.098457 -24.693468 -121.91782
190819000 -24.292812 -132.08493 -0.12449916 -38.298317 -0.12370061 -38.296318 -24.65374 -121.87059
191818000 -24.259243 -132.23553 -0.12612763 -38.489799 -0.12600398 -38.492043 -24.625559 -121.76615
192817000 -24.184855 -132.51392 -0.12597653 -38.675266 -0.12589286 -38.679947 -24.550665 -121.8344
193816000 -24.149197 -132.89505 -0.12459347 -38.868137 -0.12448052 -38.869473 -24.496508 -122.10209
194815000 -24.092205 -133.32475 -0.12517691 -39.06768 -0.12573245 -39.070351 -24.428923 -122.21039
195814000 -24.037115 -133.5499 -0.12560162 -39.264328 -0.12444855 -39.268665 -24.378017 -122.33897
196813000 -23.986372 -133.92007 -0.12579827 -39.457748 -0.12488278 -39.461277 -24.299816 -122.49483
197812000 -23.931486 -134.15096 -0.12585503 -39.660126 -0.12557045 -39.654713 -24.230906 -122.59576
198811000 -23.875525 -134.31252 -0.12564719 -39.853107 -0.12530799 -39.854225 -24.159628 -122.78191
199810000 -23.804569 -134.70148 -0.12547906 -40.047573 -0.12520649 -40.049435 -24.080711 -122.89512
200809000 -23.745007 -134.96486 -0.12663426 -40.245079 -0.12595175 -40.241867 -24.003162 -123.08755
201808000 -23.691494 -135.23247 -0.12721291 -40.446632 -0.12630005 -40.452778 -23.933268 -123.15437
202807000 -23.629848 -135.58231 -0.12765141 -40.643654 -0.12682109 -40.648399 -23.876266 -123.37686
203806000 -23.580807 -136.03436 -0.12914586 -40.846928 -0.12746027 -40.848381 -23.813282 -123.56322
