!Keysight Technologies,E5080B,MY59205177,A.15.75.32
!Date: Friday, February 23, 2024 02:46:27
!Correction: S11(Cdelta 2-Port  ) 
!S21(Cdelta 2-Port  ) 
!S12(Cdelta 2-Port  ) 
!S22(Cdelta 2-Port  ) 
!S2P File: Measurements: S11, S21, S12, S22:
# Hz S  dB   R 50
10000000 -39.300068 -3.4427216 -0.070007332 -2.0590742 -0.072563246 -2.1083004 -53.165783 -52.635479
10999000 -38.910229 -4.5507202 -0.07021042 -2.2726622 -0.072242126 -2.3282571 -51.18932 -55.594353
11998000 -38.44149 -6.1552005 -0.070660576 -2.4964945 -0.071980514 -2.5377657 -50.25668 -53.640503
12997000 -38.03801 -9.0964012 -0.070119925 -2.6799257 -0.071828924 -2.7084358 -48.840366 -56.103176
13996000 -37.885544 -11.399723 -0.069635369 -2.8562431 -0.072029732 -2.8752944 -47.794071 -56.821644
14995000 -37.73632 -13.998369 -0.070873961 -3.064734 -0.071531542 -3.0906577 -47.134274 -58.168297
15994000 -37.656765 -16.559031 -0.072569303 -3.2887051 -0.074690066 -3.3062871 -46.520145 -57.267368
16993000 -37.726967 -19.127882 -0.07194867 -3.4858015 -0.073708668 -3.4944162 -46.190552 -62.933617
17992000 -37.82954 -22.15485 -0.072724864 -3.6786165 -0.073648907 -3.6834593 -45.907585 -67.258553
18991000 -38.091442 -24.796129 -0.072455324 -3.8924804 -0.075433306 -3.8921082 -45.330017 -70.602432
19990000 -38.087166 -28.368979 -0.075564213 -4.1028795 -0.077635318 -4.0992975 -45.070148 -75.627411
20989000 -38.086178 -30.17243 -0.077562585 -4.3095512 -0.07963939 -4.3033051 -44.537697 -78.742836
21988000 -38.153442 -33.451759 -0.078560404 -4.5080862 -0.080168828 -4.4895062 -44.196129 -79.67923
22987000 -38.14061 -36.75346 -0.08004754 -4.703814 -0.080714688 -4.6966863 -43.929028 -80.3825
23986000 -38.233158 -39.21841 -0.079708464 -4.9039073 -0.080527455 -4.8983827 -43.824146 -81.060814
24985000 -38.099342 -41.543041 -0.080722071 -5.1087341 -0.080634259 -5.1038976 -43.324902 -79.969269
25984000 -38.026157 -43.426422 -0.08132945 -5.317626 -0.080927514 -5.3209314 -42.908302 -80.419647
26983000 -37.902649 -45.540257 -0.0828273 -5.5186219 -0.081643328 -5.5312238 -42.69051 -80.392662
27982000 -37.781197 -46.41523 -0.083530769 -5.7171164 -0.083098806 -5.7494392 -42.267632 -80.415482
28981000 -37.83062 -47.398998 -0.081564993 -5.9120026 -0.083528653 -5.9374442 -42.014313 -80.585403
29980000 -37.605907 -49.437912 -0.081564464 -6.1061983 -0.083690688 -6.1110582 -41.571247 -80.731911
30979000 -37.279903 -49.531326 -0.079545006 -6.4685454 -0.078790784 -6.4505138 -41.199108 -83.652451
31978000 -37.178787 -50.752705 -0.078591503 -6.6557531 -0.079403959 -6.6511183 -40.840752 -84.024559
32977000 -37.092922 -52.246742 -0.078357182 -6.8721671 -0.08026956 -6.865942 -40.638256 -84.99556
33976000 -37.01358 -53.359417 -0.07930325 -7.0707536 -0.080445446 -7.0664358 -40.29113 -85.699242
34975000 -36.822884 -54.628616 -0.079736151 -7.2692714 -0.08116883 -7.2690597 -40.028625 -86.204895
35974000 -36.684906 -55.650517 -0.07850004 -7.4693718 -0.081849076 -7.4700928 -39.677422 -86.372032
36973000 -36.527725 -56.755169 -0.079300873 -7.665832 -0.082242399 -7.6705356 -39.321068 -86.203506
37972000 -36.383171 -56.918709 -0.07878419 -7.8768148 -0.082305185 -7.8847442 -39.031452 -86.122627
38971000 -36.107849 -57.29586 -0.080079973 -8.0806398 -0.081882052 -8.0902843 -38.721024 -85.153984
39970000 -35.859013 -58.245415 -0.078695096 -8.2755098 -0.081371389 -8.2889214 -38.421455 -85.588943
40969000 -35.610138 -58.640118 -0.079401851 -8.4724503 -0.080944657 -8.4876995 -38.071301 -84.789612
41968000 -35.336597 -59.281677 -0.079584815 -8.6737185 -0.081647813 -8.6914186 -37.802399 -84.169815
42967000 -35.10854 -59.873508 -0.079393677 -8.8861914 -0.082162201 -8.9024191 -37.485977 -82.891884
43966000 -34.895206 -61.103207 -0.079532348 -9.0899858 -0.082952626 -9.1036844 -37.147705 -83.059418
44965000 -34.741276 -62.107498 -0.081148259 -9.291894 -0.083025187 -9.3122005 -36.931484 -83.293861
45964000 -34.594437 -63.401524 -0.081544414 -9.4935179 -0.085401595 -9.5059252 -36.695576 -83.602257
46963000 -34.483429 -65.428215 -0.08196488 -9.6863499 -0.085075833 -9.7031946 -36.53611 -84.260902
47962000 -34.393585 -66.836929 -0.083176114 -9.8851423 -0.08644373 -9.9027615 -36.349808 -85.037895
48961000 -34.260803 -68.388107 -0.085684352 -10.084315 -0.088565208 -10.104457 -36.137234 -85.615875
49960000 -34.108807 -69.892754 -0.087558754 -10.282871 -0.08960969 -10.309103 -36.016048 -86.074089
50959000 -33.972225 -71.33535 -0.088261925 -10.498187 -0.090701208 -10.506841 -35.858959 -86.826363
51958000 -33.814083 -72.63813 -0.089956142 -10.696181 -0.092529647 -10.706936 -35.70974 -87.734245
52957000 -33.682945 -73.893539 -0.091352284 -10.896386 -0.093385175 -10.901745 -35.529049 -87.814705
53956000 -33.557945 -74.791725 -0.092725068 -11.097507 -0.094739027 -11.100825 -35.400379 -88.192245
54955000 -33.415051 -75.498665 -0.093232304 -11.299532 -0.095273755 -11.300961 -35.248394 -88.425209
55954000 -33.30587 -76.47789 -0.094945662 -11.500561 -0.095926046 -11.499074 -35.119343 -88.464272
56953000 -33.189835 -76.742836 -0.094707012 -11.698747 -0.094950154 -11.693281 -35.06004 -88.770332
57952000 -33.059963 -77.57695 -0.09632276 -11.896408 -0.096059427 -11.889028 -34.956863 -89.04364
58951000 -32.962608 -78.113411 -0.096905857 -12.105436 -0.097246006 -12.084065 -34.816547 -89.483292
59950000 -32.851887 -78.563065 -0.09774451 -12.301626 -0.098006882 -12.277548 -34.766312 -89.837395
60949000 -32.773598 -79.246353 -0.098326474 -12.504987 -0.098644495 -12.48102 -34.683086 -90.27018
61948000 -32.71558 -79.6856 -0.099412762 -12.703509 -0.097743712 -12.686674 -34.605022 -90.624763
62947000 -32.637886 -79.968925 -0.09872897 -12.91807 -0.099284314 -12.895809 -34.473587 -91.051926
63946000 -32.591568 -80.751862 -0.10061908 -13.113692 -0.10066596 -13.092503 -34.38409 -91.414413
64945000 -32.488434 -81.099762 -0.10080346 -13.315986 -0.10047071 -13.298382 -34.280785 -92.114128
65944000 -32.403812 -81.51387 -0.10136491 -13.514753 -0.10140068 -13.49939 -34.211296 -92.71875
66943000 -32.271488 -82.073914 -0.099433161 -13.720115 -0.099320859 -13.700934 -34.117531 -93.116631
67942000 -32.210964 -82.094551 -0.10157848 -13.914703 -0.10166884 -13.902739 -34.009357 -93.657875
68941000 -32.100285 -82.407944 -0.10132092 -14.102994 -0.1005645 -14.098547 -33.888149 -93.745644
69940000 -32.000366 -82.478821 -0.10131191 -14.306185 -0.10220071 -14.296115 -33.747299 -94.30159
70939000 -31.894022 -82.603989 -0.10162088 -14.49972 -0.10151859 -14.494838 -33.611599 -94.425865
71938000 -31.749701 -82.380676 -0.10194312 -14.70243 -0.10133602 -14.694114 -33.483158 -94.422882
72937000 -31.593185 -82.490334 -0.10134716 -14.901302 -0.10095926 -14.896042 -33.317081 -94.276955
73936000 -31.442726 -82.331192 -0.10103556 -15.095787 -0.10086891 -15.086995 -33.196209 -94.274925
74935000 -31.330772 -82.745132 -0.10047999 -15.291285 -0.099275835 -15.291598 -33.027485 -94.132607
75934000 -31.219875 -83.160126 -0.1006612 -15.502392 -0.099368796 -15.498512 -32.927631 -94.214508
76933000 -31.10611 -83.668053 -0.10147169 -15.698173 -0.10100721 -15.690097 -32.773384 -94.889351
77932000 -31.023987 -84.523544 -0.10304436 -15.892638 -0.1030547 -15.886585 -32.661465 -94.910454
78931000 -30.972509 -85.333763 -0.10207695 -16.096466 -0.10227571 -16.088884 -32.562119 -94.907509
79930000 -30.885984 -86.225861 -0.10518007 -16.285721 -0.10476902 -16.287918 -32.466381 -95.424721
80929000 -30.779827 -87.220825 -0.10603517 -16.481117 -0.10648773 -16.478159 -32.371254 -95.896591
81928000 -30.715282 -88.119583 -0.10674639 -16.673246 -0.10685596 -16.67181 -32.249268 -96.122536
82927000 -30.649601 -88.913063 -0.10839475 -16.872562 -0.10784832 -16.872082 -32.159454 -96.687645
83926000 -30.554333 -89.709442 -0.1094541 -17.069023 -0.10919448 -17.072783 -32.049938 -97.096497
84925000 -30.458443 -90.275818 -0.11037112 -17.271507 -0.10937791 -17.264898 -31.953241 -97.292778
85924000 -30.382849 -90.847572 -0.11120653 -17.470882 -0.11123893 -17.465467 -31.865681 -97.384125
86923000 -30.28166 -91.475731 -0.11140094 -17.67124 -0.11120176 -17.665554 -31.752466 -97.381989
87922000 -30.187895 -91.925865 -0.11199961 -17.877157 -0.11115102 -17.866184 -31.670162 -97.63028
88921000 -30.132336 -92.347206 -0.11301387 -18.07576 -0.11211489 -18.073088 -31.560143 -97.737663
89920000 -30.035419 -92.989845 -0.11359841 -18.275154 -0.11289777 -18.264965 -31.529371 -97.930466
90919000 -29.954393 -93.40876 -0.11480229 -18.47122 -0.114157 -18.462576 -31.437304 -98.297951
91918000 -29.863356 -93.872986 -0.1151723 -18.669214 -0.11438289 -18.662201 -31.376049 -98.388031
92917000 -29.791689 -94.293259 -0.11726823 -18.866707 -0.11569147 -18.864609 -31.317844 -98.588448
93916000 -29.7157 -94.758759 -0.11652923 -19.061813 -0.11511887 -19.057964 -31.237022 -99.355537
94915000 -29.651424 -95.471664 -0.11750732 -19.266397 -0.11679301 -19.258112 -31.164974 -99.291817
95914000 -29.58004 -95.753731 -0.11841939 -19.455978 -0.11773977 -19.455336 -31.08754 -99.681374
96913000 -29.499882 -96.062119 -0.1201688 -19.658419 -0.11810045 -19.65638 -31.022747 -100.01802
97912000 -29.429195 -96.553505 -0.12068085 -19.855112 -0.11865748 -19.857025 -30.934549 -100.41991
98911000 -29.333401 -96.876007 -0.12136305 -20.056147 -0.11930452 -20.053576 -30.906088 -100.72918
99910000 -29.265127 -97.09314 -0.12201475 -20.256294 -0.12023187 -20.253756 -30.795435 -101.09728
100909000 -29.18277 -97.434669 -0.12180389 -20.46562 -0.11939791 -20.458948 -30.714994 -101.35075
101908000 -29.094589 -97.792801 -0.12319247 -20.6614 -0.12139978 -20.662527 -30.577681 -101.26332
102907000 -28.960848 -97.932823 -0.12274323 -20.864248 -0.12049773 -20.863432 -30.507563 -101.3
103906000 -28.861696 -98.096977 -0.12449757 -21.069935 -0.12106705 -21.060198 -30.334078 -101.38052
104905000 -28.715502 -98.165741 -0.12412997 -21.268522 -0.12178818 -21.263542 -30.192528 -101.13257
105904000 -28.57028 -98.392441 -0.1244656 -21.470001 -0.12174426 -21.463198 -30.064507 -101.13315
106903000 -28.466051 -98.572159 -0.12471841 -21.676575 -0.12174506 -21.674469 -29.928625 -101.15569
107902000 -28.307798 -99.066978 -0.1253048 -21.87656 -0.1220656 -21.869686 -29.776178 -101.25253
108901000 -28.200785 -99.398849 -0.12710629 -22.075745 -0.12335332 -22.068937 -29.638363 -101.29287
109900000 -28.086956 -99.988205 -0.12759356 -22.280312 -0.12528722 -22.271286 -29.48035 -101.54606
110899000 -27.978771 -100.71373 -0.12877573 -22.474686 -0.12548597 -22.468382 -29.357082 -101.96531
111898000 -27.90056 -101.45414 -0.13027297 -22.678513 -0.12747388 -22.672497 -29.227289 -102.23704
112897000 -27.782505 -102.10775 -0.13203782 -22.87619 -0.12785909 -22.865387 -29.090294 -102.57269
113896000 -27.685205 -102.74227 -0.13302875 -23.076553 -0.12951602 -23.065668 -28.977732 -102.83364
114895000 -27.600117 -103.41615 -0.13346116 -23.27556 -0.1312851 -23.262457 -28.870377 -103.06187
115894000 -27.469055 -103.9652 -0.13530584 -23.479033 -0.13263987 -23.461739 -28.789394 -103.32454
116893000 -27.398649 -104.53141 -0.13580258 -23.67498 -0.13300847 -23.655455 -28.657209 -103.60268
117892000 -27.320454 -105.07654 -0.13597965 -23.869564 -0.13348092 -23.857794 -28.589258 -103.86859
118891000 -27.265099 -105.59029 -0.13687906 -24.066681 -0.13437472 -24.055641 -28.488091 -104.16578
119890000 -27.177847 -106.0349 -0.13709465 -24.270554 -0.13546741 -24.258497 -28.481165 -104.33304
120889000 -27.131037 -106.55141 -0.13900474 -24.46973 -0.13559559 -24.456583 -28.40131 -104.36185
121888000 -27.084419 -106.92873 -0.13937199 -24.673334 -0.13667656 -24.652927 -28.342499 -104.79838
122887000 -27.041023 -107.15739 -0.13964091 -24.87088 -0.13647407 -24.856703 -28.287645 -104.82681
123886000 -26.990009 -107.5652 -0.13991384 -25.070717 -0.13699926 -25.057798 -28.278568 -104.97124
124885000 -26.958488 -108.13048 -0.1406825 -25.274868 -0.13751517 -25.257786 -28.245216 -105.11167
125884000 -26.903131 -108.39103 -0.14263751 -25.471437 -0.13830239 -25.457907 -28.215591 -105.30938
126883000 -26.882679 -108.73432 -0.14232615 -25.673244 -0.13887084 -25.659134 -28.167149 -105.36044
127882000 -26.833801 -109.13771 -0.14280042 -25.870157 -0.13953879 -25.855253 -28.128056 -105.63459
128881000 -26.796349 -109.50974 -0.14317469 -26.072823 -0.13965507 -26.056946 -28.083397 -105.78436
129880000 -26.742477 -109.7915 -0.14405096 -26.276165 -0.13980906 -26.255915 -28.042019 -105.74579
130879000 -26.683994 -110.04087 -0.14334485 -26.47616 -0.14087503 -26.458021 -27.956182 -105.90434
131878000 -26.613115 -110.29927 -0.14362122 -26.677744 -0.14147297 -26.658831 -27.877676 -105.84454
132877000 -26.543192 -110.41061 -0.14366886 -26.878376 -0.14141573 -26.859919 -27.792404 -105.89207
133876000 -26.456846 -110.6372 -0.14391208 -27.080252 -0.14111033 -27.062046 -27.696457 -105.83914
134875000 -26.360596 -110.82232 -0.14429019 -27.281069 -0.14215817 -27.261312 -27.576292 -105.81239
135874000 -26.276241 -110.92152 -0.14416094 -27.481794 -0.14170162 -27.465715 -27.464882 -105.84283
136873000 -26.15929 -110.93907 -0.14449625 -27.679979 -0.14187092 -27.665592 -27.376167 -105.85372
137872000 -26.081863 -111.0832 -0.14491054 -27.882547 -0.14275868 -27.86902 -27.262392 -105.87193
138871000 -26.009275 -111.35457 -0.1457288 -28.085054 -0.14298287 -28.069683 -27.167248 -106.15172
139870000 -25.911802 -111.70925 -0.14632902 -28.282839 -0.14451417 -28.265633 -27.078362 -106.32267
140869000 -25.830004 -112.19466 -0.14779106 -28.480282 -0.14492981 -28.460949 -26.971472 -106.57427
141868000 -25.747189 -112.71745 -0.14903313 -28.671556 -0.14616624 -28.655994 -26.905708 -106.96969
142867000 -25.6717 -113.05244 -0.14658363 -28.869652 -0.1445768 -28.851669 -26.826406 -107.22031
143866000 -25.60535 -113.58078 -0.14871621 -29.065651 -0.14610064 -29.053623 -26.767206 -107.78366
144865000 -25.552359 -114.12389 -0.15018256 -29.265633 -0.14800854 -29.249994 -26.709164 -108.15971
145864000 -25.502094 -114.46687 -0.15097125 -29.468506 -0.14886409 -29.454689 -26.684975 -108.43742
146863000 -25.463329 -114.90056 -0.15190673 -29.66758 -0.14972757 -29.654001 -26.63817 -108.81179
147862000 -25.424583 -115.30125 -0.15291347 -29.863014 -0.15028679 -29.851311 -26.608889 -109.18997
148861000 -25.399763 -115.83312 -0.15283544 -30.062788 -0.15095517 -30.048126 -26.590261 -109.44611
149860000 -25.378448 -116.04303 -0.15370856 -30.260748 -0.15159042 -30.248251 -26.562389 -109.66236
150859000 -25.361273 -116.45307 -0.15373297 -30.463085 -0.15152822 -30.443407 -26.555855 -109.89669
151858000 -25.346188 -116.77261 -0.15346614 -30.660791 -0.15274481 -30.64419 -26.553919 -110.18448
152857000 -25.329082 -117.11026 -0.15437426 -30.857254 -0.15248045 -30.84593 -26.539417 -110.37607
153856000 -25.325083 -117.34635 -0.15511462 -31.056393 -0.15176547 -31.042633 -26.562273 -110.64827
154855000 -25.31768 -117.50207 -0.15460198 -31.253767 -0.15207589 -31.241367 -26.558813 -110.86221
155854000 -25.33334 -117.79604 -0.15546365 -31.453459 -0.15290435 -31.441807 -26.559427 -111.13923
156853000 -25.324711 -118.4746 -0.15288103 -31.642273 -0.1521574 -31.632 -26.555796 -111.45023
157852000 -25.325029 -118.72825 -0.15435816 -31.843851 -0.15391776 -31.832518 -26.553339 -111.82616
158851000 -25.319323 -118.92791 -0.15539604 -32.040718 -0.15433617 -32.030357 -26.538942 -112.11076
159850000 -25.305183 -119.09002 -0.15588087 -32.23959 -0.15404381 -32.230389 -26.547571 -112.23704
160849000 -25.283834 -119.23165 -0.15634939 -32.43895 -0.15514198 -32.433636 -26.522911 -112.5834
161848000 -25.259569 -119.34801 -0.15715611 -32.640827 -0.15520744 -32.633965 -26.479544 -112.70787
162847000 -25.218914 -119.59735 -0.15683995 -32.839722 -0.15608427 -32.8335 -26.45192 -112.96758
163846000 -25.182123 -119.84732 -0.15654528 -33.038815 -0.15584922 -33.026749 -26.366945 -113.01881
164845000 -25.112963 -119.90228 -0.15716417 -33.23373 -0.15633167 -33.232914 -26.299986 -113.18346
165844000 -25.063332 -119.99461 -0.15797964 -33.435696 -0.15690973 -33.429115 -26.21797 -113.36199
166843000 -24.997868 -120.1353 -0.1580999 -33.634945 -0.15706003 -33.629471 -26.141468 -113.56534
167842000 -24.938515 -120.30922 -0.15833347 -33.83234 -0.15739231 -33.826641 -26.053951 -113.56136
168841000 -24.858192 -120.55463 -0.15838932 -34.03093 -0.15731394 -34.027393 -25.978489 -113.68429
169840000 -24.796295 -120.86523 -0.15869592 -34.226063 -0.15899988 -34.223358 -25.885569 -113.9593
170839000 -24.738764 -121.15948 -0.15953371 -34.426277 -0.15855201 -34.42519 -25.800993 -114.21062
171838000 -24.684149 -121.60651 -0.15956378 -34.626766 -0.15977997 -34.616394 -25.734819 -114.49648
172837000 -24.615999 -122.01867 -0.16126321 -34.824753 -0.16047667 -34.81554 -25.660276 -114.74821
173836000 -24.549009 -122.49573 -0.16216598 -35.022034 -0.16159071 -35.021854 -25.623564 -115.07095
174835000 -24.500809 -122.91438 -0.16316031 -35.215122 -0.16209638 -35.216351 -25.577164 -115.4486
175834000 -24.453999 -123.38077 -0.16433848 -35.416149 -0.16327885 -35.412193 -25.515413 -115.79524
176833000 -24.401442 -123.76813 -0.16519968 -35.612137 -0.16377208 -35.610378 -25.463326 -116.02855
177832000 -24.360353 -124.26744 -0.16518839 -35.811409 -0.16446485 -35.812149 -25.442684 -116.23705
178831000 -24.324026 -124.66238 -0.16614442 -36.009727 -0.16489449 -36.005188 -25.401228 -116.46232
179830000 -24.28941 -125.12997 -0.16662775 -36.204887 -0.16545783 -36.20594 -25.381023 -116.65033
180829000 -24.24778 -125.32638 -0.16739146 -36.399921 -0.1659193 -36.403667 -25.347696 -116.86579
181828000 -24.22617 -125.75883 -0.16716737 -36.599369 -0.16611725 -36.599667 -25.327757 -117.00397
182827000 -24.200329 -126.09591 -0.16687791 -36.793419 -0.16675928 -36.795826 -25.317583 -117.09616
183826000 -24.158323 -126.41798 -0.16791235 -36.993454 -0.16691719 -36.987038 -25.3155 -117.22697
184825000 -24.165607 -126.76819 -0.16808562 -37.188473 -0.16696049 -37.190739 -25.291868 -117.34217
185824000 -24.134584 -127.14777 -0.16835229 -37.385761 -0.16809693 -37.386616 -25.284815 -117.40987
186823000 -24.121458 -127.45576 -0.16835363 -37.582268 -0.16754697 -37.580154 -25.279934 -117.38926
187822000 -24.095751 -127.83229 -0.16875245 -37.779507 -0.16814266 -37.776787 -25.238409 -117.49185
188821000 -24.074881 -128.08261 -0.16876805 -37.972824 -0.16928479 -37.978779 -25.225431 -117.6031
189820000 -24.055836 -128.36371 -0.16971195 -38.175579 -0.16888727 -38.176624 -25.214384 -117.76093
190819000 -24.030092 -128.63138 -0.1706232 -38.375359 -0.16962069 -38.374939 -25.177874 -117.71972
191818000 -23.992006 -128.86082 -0.1718034 -38.570908 -0.17096783 -38.572369 -25.142227 -117.65236
192817000 -23.924717 -129.10898 -0.17263591 -38.757317 -0.17201482 -38.757988 -25.061287 -117.74386
193816000 -23.882538 -129.4911 -0.17175816 -38.947025 -0.1705489 -38.949314 -25.003393 -118.0546
194815000 -23.824293 -129.94293 -0.17211823 -39.142986 -0.17156966 -39.149303 -24.938118 -118.23071
195814000 -23.768564 -130.22781 -0.17264479 -39.346813 -0.17119616 -39.345772 -24.87826 -118.3575
196813000 -23.720997 -130.59161 -0.1722292 -39.539402 -0.17163455 -39.539715 -24.797941 -118.57412
197812000 -23.660667 -130.83987 -0.17213386 -39.736397 -0.17185619 -39.736008 -24.722263 -118.72856
198811000 -23.607262 -131.08051 -0.17207569 -39.934433 -0.17179021 -39.937019 -24.650902 -118.93826
199810000 -23.535679 -131.46684 -0.17307983 -40.128986 -0.17135154 -40.131439 -24.568357 -119.08475
200809000 -23.477701 -131.77609 -0.17352811 -40.321609 -0.1718877 -40.327206 -24.485035 -119.34792
201808000 -23.418987 -132.0385 -0.17406912 -40.523945 -0.17294945 -40.528423 -24.407625 -119.46188
202807000 -23.367001 -132.44278 -0.17475411 -40.726582 -0.17331259 -40.72929 -24.352936 -119.73229
203806000 -23.309046 -132.88986 -0.1766075 -40.92775 -0.17431864 -40.9319 -24.28553 -119.94986
204805000 -23.268589 -133.27472 -0.17744228 -41.129406 -0.17484196 -41.128891 -24.228287 -120.16705
