!Keysight Technologies,E5080B,MY59205177,A.15.75.32
!Date: Friday, February 23, 2024 03:25:51
!Correction: S11(Cdelta 2-Port  ) 
!S21(Cdelta 2-Port  ) 
!S12(Cdelta 2-Port  ) 
!S22(Cdelta 2-Port  ) 
!S2P File: Measurements: S11, S21, S12, S22:
# Hz S  dB   R 50
10000000 -45.926109 -0.12384338 -0.016492421 -2.060132 -0.019600496 -2.1138763 -46.159672 -159.65146
10999000 -45.119354 -2.2347825 -0.0172871 -2.2822912 -0.01945514 -2.3328328 -46.201176 -153.37764
11998000 -44.209614 -4.9112687 -0.018236069 -2.5056975 -0.019284569 -2.5490727 -46.468388 -149.09947
12997000 -43.455029 -10.903091 -0.017644206 -2.6863067 -0.019080205 -2.7198412 -46.130657 -142.98412
13996000 -43.175266 -14.437214 -0.016773064 -2.8685622 -0.019631699 -2.8888605 -45.953056 -137.44987
14995000 -42.836536 -18.974348 -0.01847055 -3.0773568 -0.019454621 -3.1010711 -45.656136 -133.99992
15994000 -42.694912 -23.329115 -0.0200899 -3.2986615 -0.021659646 -3.3214674 -45.552177 -130.19844
16993000 -42.668465 -27.656315 -0.018594554 -3.4968209 -0.021011131 -3.5046742 -44.734055 -130.15721
17992000 -42.739143 -32.822533 -0.019658742 -3.6950614 -0.021958834 -3.6999493 -44.142998 -130.00728
18991000 -43.043999 -37.855747 -0.020793419 -3.9081519 -0.022565076 -3.9059474 -43.517185 -128.68814
19990000 -42.880638 -43.611412 -0.023728883 -4.1161103 -0.025181215 -4.1141677 -42.817242 -129.41776
20989000 -42.725998 -46.914879 -0.02601186 -4.3226061 -0.0264387 -4.3118191 -42.284863 -128.8031
21988000 -42.585045 -52.241699 -0.025845978 -4.5211978 -0.027566813 -4.5087233 -42.01384 -128.0444
22987000 -42.31292 -56.944157 -0.027463654 -4.7204108 -0.028520899 -4.7135077 -41.766659 -127.35587
23986000 -42.294235 -61.289597 -0.027497258 -4.9171438 -0.027983386 -4.9164348 -41.643974 -127.57777
24985000 -41.901798 -64.102631 -0.028421365 -5.1257243 -0.028340591 -5.1223168 -41.462479 -124.79693
25984000 -41.547054 -66.105263 -0.029481187 -5.3311224 -0.02848416 -5.3342652 -41.133129 -122.62179
26983000 -41.248672 -68.251747 -0.030195875 -5.5347466 -0.02986823 -5.5512152 -41.023258 -122.35831
27982000 -41.072643 -68.675316 -0.03113698 -5.7370777 -0.031070758 -5.770051 -40.74033 -120.72665
28981000 -41.087242 -70.761497 -0.029836953 -5.93401 -0.030970642 -5.9574575 -40.514763 -119.89001
29980000 -40.641903 -71.90686 -0.029871879 -6.1303988 -0.032034479 -6.1368809 -40.254131 -119.17572
30979000 -40.266068 -71.037148 -0.026810626 -6.4830322 -0.026308741 -6.4750252 -39.730865 -119.44882
31978000 -40.042797 -72.250343 -0.026994254 -6.6811886 -0.02743578 -6.6687641 -39.491821 -118.60506
32977000 -39.857422 -73.685196 -0.02622176 -6.8906546 -0.028173579 -6.8887196 -39.241802 -118.60942
33976000 -39.707455 -74.88784 -0.027550401 -7.0904036 -0.028729877 -7.0895867 -38.947414 -117.90573
34975000 -39.409016 -75.679794 -0.027606672 -7.2951851 -0.029725399 -7.2908249 -38.717686 -117.80428
35974000 -39.218864 -76.234322 -0.026485059 -7.4917684 -0.029275822 -7.4921284 -38.443321 -116.68401
36973000 -38.966507 -76.946304 -0.02770202 -7.6903558 -0.030197179 -7.6936626 -38.167217 -115.70065
37972000 -38.789089 -76.655579 -0.026841881 -7.9051204 -0.030227937 -7.909595 -37.942532 -114.94277
38971000 -38.462692 -76.305901 -0.028533667 -8.1017113 -0.030121846 -8.1165094 -37.775223 -113.33633
39970000 -38.113308 -76.5755 -0.026183216 -8.2995939 -0.029160894 -8.3183479 -37.510128 -112.81437
40969000 -37.807865 -76.422066 -0.026958831 -8.4958124 -0.029315695 -8.514308 -37.234848 -111.08914
41968000 -37.440788 -76.326378 -0.026998684 -8.7000103 -0.029569019 -8.7179203 -37.041626 -109.90979
42967000 -37.186676 -76.432205 -0.026209518 -8.9127159 -0.030916937 -8.9326906 -36.836193 -107.89497
43966000 -36.900829 -77.212349 -0.028308284 -9.1153231 -0.031321052 -9.1343651 -36.565739 -107.10136
44965000 -36.643593 -77.859856 -0.028727012 -9.320056 -0.031859241 -9.3349962 -36.342823 -106.80061
45964000 -36.414593 -79.053734 -0.030838463 -9.5170536 -0.033818033 -9.5369825 -36.1147 -106.43623
46963000 -36.220337 -81.094688 -0.029987868 -9.7146244 -0.033622112 -9.735939 -35.914738 -106.7496
47962000 -36.065018 -82.571526 -0.032687772 -9.9176693 -0.034824114 -9.9343243 -35.69976 -106.82336
48961000 -35.853355 -83.952477 -0.034195285 -10.114365 -0.036554776 -10.137149 -35.482433 -106.95807
49960000 -35.612625 -85.271927 -0.035643555 -10.310249 -0.037329115 -10.339822 -35.341003 -107.0265
50959000 -35.389847 -86.614021 -0.036090136 -10.530937 -0.039059993 -10.537976 -35.159794 -107.20599
51958000 -35.172756 -87.724342 -0.037510578 -10.727215 -0.039963309 -10.73845 -34.985641 -107.6741
52957000 -34.979557 -88.827057 -0.03961429 -10.925789 -0.041483805 -10.935952 -34.814522 -107.38459
53956000 -34.807159 -89.543259 -0.040854797 -11.132888 -0.042494539 -11.135903 -34.670097 -107.31449
54955000 -34.640652 -89.964691 -0.04150654 -11.330868 -0.043005615 -11.328113 -34.526127 -107.24023
55954000 -34.465748 -90.824295 -0.043186795 -11.530579 -0.04348224 -11.535513 -34.425575 -106.97207
56953000 -34.341469 -90.91394 -0.043057382 -11.734821 -0.042963266 -11.719728 -34.345448 -107.09468
57952000 -34.176189 -91.417816 -0.043884654 -11.931275 -0.044095155 -11.92399 -34.239201 -107.16887
58951000 -34.05529 -91.779068 -0.044660036 -12.136794 -0.045165353 -12.120504 -34.090363 -107.27779
59950000 -33.924286 -92.100761 -0.04574031 -12.337522 -0.045512203 -12.315499 -34.020187 -107.58837
60949000 -33.816505 -92.71035 -0.046314299 -12.541405 -0.045900937 -12.512715 -33.938354 -107.74766
61948000 -33.76149 -93.064133 -0.046817455 -12.742771 -0.046154708 -12.723612 -33.829121 -107.85356
62947000 -33.669243 -93.192299 -0.046872143 -12.952767 -0.046754394 -12.934261 -33.685345 -108.06205
63946000 -33.599842 -93.950714 -0.04776714 -13.153651 -0.048303183 -13.132165 -33.588406 -108.31078
64945000 -33.499348 -94.134537 -0.048489816 -13.355833 -0.048974898 -13.335111 -33.470459 -108.74979
65944000 -33.383465 -94.425018 -0.049664259 -13.556893 -0.049155802 -13.53972 -33.375809 -109.24102
66943000 -33.244614 -94.82618 -0.047786247 -13.756293 -0.047139313 -13.739517 -33.278507 -109.46667
67942000 -33.191063 -94.754539 -0.049723696 -13.953068 -0.049077522 -13.943756 -33.161015 -109.76899
68941000 -33.064945 -94.862473 -0.049369179 -14.145359 -0.048462857 -14.140924 -33.041744 -109.68826
69940000 -32.975986 -94.874397 -0.04952313 -14.34783 -0.049602203 -14.338454 -32.902931 -109.99737
70939000 -32.854931 -94.782013 -0.049132239 -14.546481 -0.049125433 -14.539541 -32.76297 -109.91693
71938000 -32.709023 -94.367104 -0.048915207 -14.743375 -0.049888659 -14.739811 -32.627693 -109.80201
72937000 -32.547783 -94.116905 -0.048512593 -14.94172 -0.048889291 -14.935699 -32.482277 -109.4986
73936000 -32.403973 -93.774933 -0.048589814 -15.140026 -0.048635885 -15.137609 -32.371056 -109.25249
74935000 -32.276588 -94.018486 -0.047796454 -15.338708 -0.047928888 -15.335411 -32.208462 -108.94337
75934000 -32.151081 -94.301735 -0.048569132 -15.546248 -0.048122838 -15.542697 -32.109715 -108.81476
76933000 -32.01403 -94.631393 -0.049477834 -15.744196 -0.049000293 -15.733327 -31.93634 -109.17463
77932000 -31.908844 -95.434128 -0.050898734 -15.942249 -0.050956618 -15.931693 -31.83079 -109.13329
78931000 -31.830475 -96.161278 -0.049374677 -16.140591 -0.050790042 -16.133137 -31.732954 -108.97817
79930000 -31.720631 -97.122154 -0.05175003 -16.334484 -0.053138129 -16.331913 -31.628069 -109.19553
80929000 -31.597462 -97.832726 -0.054390106 -16.530773 -0.054540042 -16.529324 -31.528742 -109.53246
81928000 -31.506554 -98.642532 -0.054368611 -16.723953 -0.055221897 -16.721764 -31.388348 -109.47744
82927000 -31.391273 -99.37706 -0.055514753 -16.921715 -0.056525089 -16.919531 -31.288946 -109.82751
83926000 -31.276831 -100.05119 -0.05736516 -17.119986 -0.05705408 -17.119524 -31.156651 -109.96126
84925000 -31.168352 -100.45882 -0.058228482 -17.320801 -0.05764452 -17.317892 -31.062504 -110.01546
85924000 -31.077652 -100.87138 -0.059184339 -17.523262 -0.059073605 -17.519636 -30.974241 -109.95257
86923000 -30.968019 -101.4073 -0.059551205 -17.722618 -0.059645422 -17.714325 -30.86644 -109.78166
87922000 -30.86138 -101.722 -0.059910495 -17.925495 -0.0593515 -17.920303 -30.77062 -109.84973
88921000 -30.775314 -102.01135 -0.061004806 -18.124741 -0.060297631 -18.120159 -30.691294 -109.80331
89920000 -30.672543 -102.48602 -0.061901674 -18.328711 -0.060586631 -18.313065 -30.620142 -109.92205
90919000 -30.572361 -102.80585 -0.062569983 -18.521009 -0.061802946 -18.518574 -30.541899 -110.15977
91918000 -30.478531 -103.13084 -0.062540568 -18.725027 -0.061553251 -18.718988 -30.466486 -110.09575
92917000 -30.385988 -103.4396 -0.064395286 -18.922295 -0.063155651 -18.918703 -30.402117 -110.22652
93916000 -30.30534 -103.78304 -0.063511826 -19.116119 -0.063380755 -19.114708 -30.316345 -110.83768
94915000 -30.224659 -104.44389 -0.065080792 -19.319914 -0.064408422 -19.311659 -30.243122 -110.67651
95914000 -30.158541 -104.64572 -0.066437677 -19.513763 -0.065846302 -19.511875 -30.160095 -110.94758
96913000 -30.059193 -104.90176 -0.067568868 -19.716969 -0.066610634 -19.713388 -30.093273 -111.277
97912000 -29.985983 -105.40449 -0.068619356 -19.911177 -0.067121662 -19.912573 -30.007378 -111.53775
98911000 -29.87183 -105.54762 -0.069253184 -20.11355 -0.068079218 -20.109812 -29.968555 -111.8082
99910000 -29.8104 -105.65028 -0.069797143 -20.31255 -0.068387143 -20.313868 -29.864883 -112.08516
100909000 -29.725544 -105.9314 -0.069624059 -20.524092 -0.068035044 -20.517923 -29.778088 -112.27647
101908000 -29.624264 -106.18652 -0.07103052 -20.726425 -0.069403373 -20.72233 -29.672525 -112.07536
102907000 -29.488153 -106.18658 -0.071266815 -20.924013 -0.069070391 -20.923521 -29.589769 -112.04564
103906000 -29.396021 -106.25126 -0.071534701 -21.128225 -0.069105372 -21.123425 -29.435404 -111.9851
104905000 -29.246309 -106.13684 -0.072070785 -21.329128 -0.070145182 -21.325592 -29.317543 -111.67889
105904000 -29.105803 -106.21733 -0.073026806 -21.530413 -0.070270665 -21.527063 -29.203228 -111.55704
106903000 -28.989742 -106.25473 -0.073419854 -21.737185 -0.070606902 -21.731653 -29.073639 -111.41373
107902000 -28.819241 -106.6613 -0.073846377 -21.937891 -0.071508385 -21.928553 -28.941916 -111.38808
108901000 -28.719494 -106.88889 -0.074548386 -22.139954 -0.072857536 -22.131235 -28.804743 -111.33447
109900000 -28.589605 -107.37895 -0.075337693 -22.340469 -0.073680498 -22.332428 -28.655668 -111.42992
110899000 -28.46768 -107.96364 -0.077407107 -22.536148 -0.075136729 -22.531923 -28.535257 -111.68313
111898000 -28.374069 -108.63521 -0.078669004 -22.742107 -0.076302595 -22.736387 -28.403498 -111.79986
112897000 -28.258202 -109.24879 -0.080231592 -22.942717 -0.077254534 -22.930662 -28.27261 -112.01535
113896000 -28.148579 -109.77519 -0.081098147 -23.141438 -0.078549072 -23.130432 -28.157984 -112.07941
114895000 -28.052719 -110.43885 -0.081918716 -23.336514 -0.079819992 -23.328953 -28.047487 -112.21212
115894000 -27.926962 -110.83543 -0.083518364 -23.542923 -0.081383787 -23.529499 -27.978178 -112.38514
116893000 -27.854643 -111.27041 -0.084243849 -23.740494 -0.082292259 -23.723692 -27.86293 -112.45135
117892000 -27.768196 -111.78045 -0.084377401 -23.932699 -0.082634702 -23.92098 -27.785915 -112.63956
118891000 -27.716175 -112.25069 -0.08508613 -24.138214 -0.082771897 -24.127249 -27.685827 -112.74055
119890000 -27.623623 -112.59697 -0.085705735 -24.342005 -0.083617322 -24.322918 -27.671097 -112.88106
120889000 -27.576706 -113.07208 -0.086982459 -24.539629 -0.08320646 -24.525204 -27.594872 -112.8324
121888000 -27.53606 -113.38871 -0.087641694 -24.735723 -0.084020831 -24.723448 -27.540264 -113.05581
122887000 -27.493238 -113.6085 -0.088351481 -24.941582 -0.084832981 -24.928875 -27.4911 -113.10408
123886000 -27.439882 -114.03196 -0.088660054 -25.144846 -0.085978739 -25.123663 -27.470119 -113.24089
124885000 -27.410505 -114.49342 -0.08889097 -25.340927 -0.086065345 -25.327963 -27.449224 -113.28065
125884000 -27.356773 -114.71796 -0.089697428 -25.542065 -0.08624173 -25.529184 -27.421082 -113.40531
126883000 -27.33436 -115.06697 -0.089923106 -25.746437 -0.086936504 -25.731176 -27.378759 -113.39115
127882000 -27.288597 -115.39227 -0.090171799 -25.9438 -0.087629274 -25.929642 -27.339172 -113.59422
128881000 -27.261612 -115.70277 -0.090728693 -26.147528 -0.088072255 -26.129501 -27.303114 -113.66729
129880000 -27.200886 -116.02181 -0.091586515 -26.349428 -0.088067763 -26.329565 -27.253981 -113.62473
130879000 -27.136883 -116.2001 -0.091663979 -26.549786 -0.088907093 -26.531713 -27.179468 -113.68032
131878000 -27.070383 -116.43168 -0.091564044 -26.751801 -0.089152023 -26.731968 -27.12332 -113.53815
132877000 -26.998184 -116.54475 -0.091428153 -26.955854 -0.08933197 -26.936398 -27.033258 -113.52869
133876000 -26.917664 -116.6799 -0.09202408 -27.154972 -0.089924164 -27.135445 -26.944799 -113.40957
134875000 -26.816303 -116.84887 -0.092193298 -27.357296 -0.090545788 -27.335382 -26.841097 -113.27464
135874000 -26.731337 -116.8653 -0.092406422 -27.559155 -0.089844093 -27.538448 -26.743099 -113.21104
136873000 -26.613014 -116.80366 -0.093584605 -27.760166 -0.090148807 -27.741257 -26.659037 -113.18539
137872000 -26.534697 -116.97509 -0.092223182 -27.963371 -0.090628251 -27.946497 -26.549706 -113.13165
138871000 -26.458603 -117.13376 -0.094542459 -28.162876 -0.090343066 -28.144716 -26.445501 -113.28545
139870000 -26.355593 -117.4636 -0.094561242 -28.361643 -0.091111451 -28.346064 -26.368361 -113.4781
140869000 -26.277494 -118.00881 -0.095727831 -28.559658 -0.092513785 -28.53919 -26.257254 -113.66914
141868000 -26.197502 -118.38828 -0.096073449 -28.760281 -0.093994856 -28.74172 -26.210304 -113.92879
142867000 -26.11277 -118.63091 -0.095431194 -28.954012 -0.092900135 -28.940372 -26.125858 -114.09517
143866000 -26.036228 -119.10417 -0.097555742 -29.1516 -0.094218917 -29.135344 -26.052855 -114.51271
144865000 -25.979807 -119.60007 -0.099284314 -29.353518 -0.096021317 -29.338449 -25.996939 -114.82216
145864000 -25.925255 -119.94224 -0.099658817 -29.553553 -0.096987121 -29.541157 -25.962399 -115.06633
146863000 -25.875044 -120.32935 -0.10067391 -29.754961 -0.09794943 -29.742847 -25.905504 -115.37167
147862000 -25.84013 -120.63154 -0.10202183 -29.951363 -0.098630719 -29.938894 -25.878754 -115.68516
148861000 -25.808697 -121.05191 -0.10208146 -30.150881 -0.09935423 -30.137304 -25.857866 -115.83617
149860000 -25.774151 -121.23564 -0.10431983 -30.343679 -0.09982013 -30.334991 -25.805962 -115.89307
150859000 -25.751118 -121.7203 -0.10333569 -30.540306 -0.10032952 -30.52865 -25.788914 -116.2261
151858000 -25.736675 -122.07468 -0.1032954 -30.748409 -0.10087685 -30.728571 -25.776421 -116.59859
152857000 -25.726749 -122.40633 -0.1033447 -30.939419 -0.10067497 -30.928453 -25.758539 -116.72478
153856000 -25.723795 -122.59769 -0.10292641 -31.142019 -0.1002972 -31.127535 -25.784611 -117.03465
154855000 -25.721899 -122.76176 -0.10315119 -31.342672 -0.10014886 -31.329439 -25.771441 -117.28559
155854000 -25.74247 -123.01537 -0.10416604 -31.541229 -0.10077724 -31.527218 -25.761944 -117.5472
156853000 -25.724798 -123.73026 -0.10146401 -31.731888 -0.099662267 -31.721243 -25.759972 -117.85896
157852000 -25.73391 -123.95814 -0.10320262 -31.931801 -0.10210954 -31.924578 -25.750841 -118.21431
158851000 -25.732769 -124.13713 -0.10373256 -32.13092 -0.10213525 -32.121674 -25.740992 -118.45934
159850000 -25.723305 -124.25279 -0.10447097 -32.326229 -0.10203534 -32.322041 -25.743698 -118.63535
160849000 -25.713573 -124.32507 -0.10468814 -32.528679 -0.10339931 -32.524475 -25.71069 -118.96555
161848000 -25.69191 -124.44833 -0.10484672 -32.729656 -0.10304145 -32.724133 -25.673302 -119.04035
162847000 -25.651457 -124.58447 -0.10447203 -32.931648 -0.10410585 -32.921852 -25.643049 -119.31871
163846000 -25.617109 -124.82865 -0.1052591 -33.131462 -0.10397143 -33.125771 -25.567581 -119.3249
164845000 -25.554874 -124.79586 -0.10584552 -33.32629 -0.10409366 -33.322643 -25.505674 -119.43645
165844000 -25.502165 -124.8756 -0.10500981 -33.529995 -0.10475496 -33.524681 -25.427345 -119.57559
166843000 -25.441793 -124.92541 -0.10545854 -33.730595 -0.10500345 -33.725723 -25.360922 -119.74995
167842000 -25.380241 -124.99294 -0.10606117 -33.929695 -0.10553917 -33.9216 -25.279535 -119.65814
168841000 -25.302214 -125.17039 -0.10666309 -34.128536 -0.10511483 -34.127136 -25.203924 -119.7526
169840000 -25.237803 -125.42986 -0.106952 -34.323174 -0.10597973 -34.323711 -25.11903 -119.9424
170839000 -25.176678 -125.69519 -0.10789131 -34.52515 -0.10605374 -34.520622 -25.035376 -120.13161
171838000 -25.116302 -126.08786 -0.1080118 -34.725163 -0.10758668 -34.71941 -24.97056 -120.35736
172837000 -25.044069 -126.40746 -0.10894231 -34.920971 -0.1085317 -34.913639 -24.901384 -120.56792
173836000 -24.979115 -126.84341 -0.11078907 -35.119659 -0.10884091 -35.119274 -24.860266 -120.8045
174835000 -24.925732 -127.2577 -0.11103152 -35.313919 -0.11012924 -35.319878 -24.817095 -121.11433
175834000 -24.87463 -127.62428 -0.1118065 -35.518158 -0.11119059 -35.51178 -24.751467 -121.35903
176833000 -24.818882 -127.96938 -0.1129084 -35.716747 -0.11208966 -35.716469 -24.703949 -121.5547
177832000 -24.775154 -128.42981 -0.11363775 -35.913441 -0.11251681 -35.915134 -24.681307 -121.64938
178831000 -24.736429 -128.67975 -0.11469439 -36.113503 -0.11408444 -36.112896 -24.643881 -121.79446
179830000 -24.679186 -129.01201 -0.11712728 -36.303547 -0.11624367 -36.308064 -24.599098 -121.77573
180829000 -24.609991 -129.31168 -0.116893 -36.494701 -0.11542749 -36.490517 -24.534252 -122.0451
181828000 -24.583187 -129.80075 -0.11601555 -36.694073 -0.11457957 -36.692696 -24.508539 -122.2686
182827000 -24.559935 -130.18028 -0.11580817 -36.887077 -0.11424842 -36.890533 -24.492973 -122.40941
183826000 -24.517767 -130.50684 -0.11690257 -37.086754 -0.11506225 -37.080399 -24.486357 -122.56123
184825000 -24.525206 -130.84108 -0.11677972 -37.284992 -0.11493413 -37.285496 -24.468437 -122.69659
185824000 -24.489874 -131.20934 -0.11640772 -37.480556 -0.11548942 -37.48315 -24.460014 -122.77111
186823000 -24.467323 -131.58104 -0.1165202 -37.680542 -0.11622825 -37.685726 -24.454302 -122.78214
187822000 -24.45056 -131.91512 -0.11758924 -37.877548 -0.11650637 -37.875751 -24.415371 -122.858
188821000 -24.420818 -132.16638 -0.1170834 -38.075752 -0.11646941 -38.077065 -24.394144 -122.98531
189820000 -24.40341 -132.45587 -0.11791585 -38.27478 -0.11638299 -38.275223 -24.378311 -123.18815
190819000 -24.367655 -132.7641 -0.11846435 -38.47163 -0.11673239 -38.470798 -24.338253 -123.22489
191818000 -24.333744 -133.09166 -0.11851862 -38.668236 -0.11767807 -38.670849 -24.305859 -123.25881
192817000 -24.292313 -133.3477 -0.11923534 -38.866653 -0.11806109 -38.868778 -24.258797 -123.36196
193816000 -24.255468 -133.60808 -0.11905707 -39.06142 -0.11838215 -39.062672 -24.207781 -123.52262
194815000 -24.194592 -133.99892 -0.11916776 -39.258663 -0.11898365 -39.260693 -24.139229 -123.61629
195814000 -24.137428 -134.202 -0.12105401 -39.454487 -0.11951259 -39.459579 -24.085785 -123.68598
196813000 -24.080965 -134.57195 -0.11974195 -39.64801 -0.11943968 -39.65514 -24.001909 -123.85055
197812000 -24.017769 -134.75777 -0.12052648 -39.849113 -0.11951472 -39.847427 -23.933392 -123.97791
198811000 -23.968138 -134.92427 -0.12067073 -40.046276 -0.11951844 -40.049557 -23.858055 -124.15443
199810000 -23.896944 -135.27542 -0.12086609 -40.242367 -0.11926833 -40.242954 -23.779116 -124.22395
200809000 -23.835892 -135.54413 -0.12128745 -40.439564 -0.11941946 -40.439445 -23.702579 -124.44507
201808000 -23.776358 -135.75189 -0.12282977 -40.636791 -0.12088845 -40.641277 -23.633236 -124.48561
202807000 -23.717112 -136.08714 -0.1230199 -40.837448 -0.12157894 -40.843456 -23.574749 -124.69008
203806000 -23.664986 -136.51865 -0.12460092 -41.040619 -0.12263165 -41.042057 -23.513784 -124.86214
