!Keysight Technologies,E5080B,MY59205177,A.15.75.32
!Date: Friday, February 23, 2024 02:53:12
!Correction: S11(Cdelta 2-Port  ) 
!S21(Cdelta 2-Port  ) 
!S12(Cdelta 2-Port  ) 
!S22(Cdelta 2-Port  ) 
!S2P File: Measurements: S11, S21, S12, S22:
# Hz S  dB   R 50
10000000 -43.404091 -3.632448 -0.032773059 -2.0464773 -0.035363518 -2.1009831 -49.30468 -146.47426
10999000 -42.755348 -5.4316106 -0.034034573 -2.2636747 -0.035810594 -2.3133056 -48.923836 -136.68791
11998000 -42.061451 -7.2607484 -0.034044225 -2.4883339 -0.034726784 -2.5268195 -48.906315 -130.85229
12997000 -41.451172 -12.110713 -0.03299972 -2.6639538 -0.035100985 -2.6978614 -48.197647 -124.3038
13996000 -41.226665 -15.032487 -0.032120798 -2.8444915 -0.035346556 -2.8661025 -47.620678 -118.60538
14995000 -40.923336 -18.446756 -0.034610931 -3.054544 -0.034866389 -3.0793121 -47.086609 -114.73196
15994000 -40.843029 -21.832352 -0.035659216 -3.2738144 -0.037936721 -3.2934403 -46.78371 -111.12304
16993000 -40.855045 -25.572344 -0.034807935 -3.4705038 -0.036457669 -3.4762735 -45.90115 -113.1005
17992000 -40.937149 -29.975269 -0.035193887 -3.665308 -0.036804345 -3.6681843 -45.262768 -114.24873
18991000 -41.22522 -33.810879 -0.036396585 -3.8785229 -0.038127873 -3.8764901 -44.518963 -114.29048
19990000 -41.113304 -38.566044 -0.039013237 -4.086587 -0.03994032 -4.0789776 -43.823822 -116.40667
20989000 -41.071999 -41.42775 -0.040902093 -4.2925568 -0.041835587 -4.2788992 -43.186283 -116.46001
21988000 -40.987701 -45.9398 -0.041723985 -4.4871845 -0.042541072 -4.4757466 -42.899353 -116.1339
22987000 -40.830853 -50.317665 -0.043125093 -4.6865025 -0.043517016 -4.6765347 -42.602573 -116.02663
23986000 -40.896282 -53.708992 -0.042774513 -4.8784847 -0.042747065 -4.8755455 -42.507347 -115.90955
24985000 -40.615753 -56.600063 -0.043759663 -5.0887694 -0.043358047 -5.0834222 -42.198597 -113.59721
25984000 -40.358063 -58.486855 -0.043941397 -5.296092 -0.042593092 -5.2975202 -41.860939 -112.34241
26983000 -40.130772 -60.695862 -0.044993769 -5.4928069 -0.043981668 -5.5107841 -41.683094 -111.56003
27982000 -40.001293 -61.891575 -0.046165433 -5.6927977 -0.04667354 -5.7262855 -41.335213 -110.3054
28981000 -39.998543 -62.911377 -0.044815652 -5.8903308 -0.045827687 -5.9136281 -41.067825 -109.73887
29980000 -39.665356 -64.596619 -0.044696391 -6.0828047 -0.046379972 -6.0906262 -40.75346 -108.87302
30979000 -39.285145 -64.017258 -0.041828532 -6.4371362 -0.04105261 -6.4268832 -40.217258 -109.97131
31978000 -39.123142 -65.232109 -0.041837417 -6.6289597 -0.041998424 -6.6225829 -39.978863 -109.56261
32977000 -38.945206 -66.820198 -0.042324368 -6.8396163 -0.042843267 -6.8380566 -39.707535 -109.79841
33976000 -38.804714 -68.105522 -0.04210088 -7.0426373 -0.043282486 -7.0367312 -39.389973 -109.41045
34975000 -38.55563 -68.969513 -0.042560153 -7.2390666 -0.044179361 -7.2394147 -39.150032 -109.28455
35974000 -38.350357 -69.874786 -0.041183792 -7.4341812 -0.043701615 -7.4417748 -38.831158 -108.57097
36973000 -38.132053 -70.580719 -0.041467339 -7.6371155 -0.044250231 -7.6415482 -38.51186 -107.80959
37972000 -37.970375 -70.647728 -0.04181651 -7.8455472 -0.043674681 -7.8544426 -38.27145 -107.16976
38971000 -37.645088 -70.536278 -0.04251885 -8.0480013 -0.044696912 -8.059391 -38.070133 -105.55318
39970000 -37.346313 -71.21109 -0.041121334 -8.2427092 -0.043231502 -8.2589626 -37.764065 -105.27878
40969000 -37.047173 -71.069443 -0.04105914 -8.4359913 -0.043177124 -8.4560995 -37.486885 -103.90466
41968000 -36.720482 -71.399948 -0.041220117 -8.6398001 -0.043686971 -8.659544 -37.276211 -102.80953
42967000 -36.484825 -71.669182 -0.041621011 -8.854929 -0.044059332 -8.8695307 -37.042503 -101.1032
43966000 -36.203133 -72.629807 -0.042041287 -9.0552959 -0.044829775 -9.0714722 -36.745674 -100.60138
44965000 -36.009861 -73.379044 -0.043220785 -9.2549534 -0.044558823 -9.2703829 -36.521172 -100.43017
45964000 -35.789051 -74.721275 -0.043695863 -9.4561062 -0.046298604 -9.4718885 -36.266254 -100.33257
46963000 -35.631832 -76.633324 -0.043980882 -9.6455774 -0.046715666 -9.6682606 -36.103203 -100.69321
47962000 -35.505939 -78.175407 -0.045788709 -9.8528833 -0.048061326 -9.8687334 -35.870403 -101.05796
48961000 -35.30547 -79.613152 -0.048397414 -10.0464 -0.049745169 -10.069923 -35.660961 -101.37189
49960000 -35.099182 -80.993393 -0.049189314 -10.245628 -0.051181868 -10.270503 -35.531754 -101.66252
50959000 -34.908016 -82.578423 -0.049860641 -10.459756 -0.052048676 -10.467454 -35.352505 -102.03622
51958000 -34.722061 -83.676262 -0.051749766 -10.658551 -0.052995577 -10.667337 -35.166828 -102.6776
52957000 -34.518982 -84.883163 -0.053008679 -10.856698 -0.054626547 -10.863267 -34.99902 -102.46229
53956000 -34.374699 -85.65078 -0.054424968 -11.059117 -0.056118358 -11.057503 -34.862068 -102.53577
54955000 -34.215702 -86.228561 -0.055779837 -11.262625 -0.05629484 -11.258412 -34.711327 -102.61345
55954000 -34.053909 -87.149773 -0.056018449 -11.459064 -0.056574918 -11.458877 -34.586765 -102.42445
56953000 -33.945419 -87.217041 -0.055450518 -11.656787 -0.055017933 -11.650322 -34.521294 -102.57618
57952000 -33.785011 -87.950859 -0.057567399 -11.856135 -0.057071391 -11.846604 -34.421261 -102.7873
58951000 -33.679855 -88.256866 -0.058081828 -12.061584 -0.057286207 -12.041257 -34.255253 -102.97765
59950000 -33.558163 -88.732422 -0.059310563 -12.258844 -0.058748234 -12.235802 -34.182335 -103.33686
60949000 -33.444767 -89.36454 -0.059522338 -12.464255 -0.058580048 -12.441733 -34.107697 -103.57562
61948000 -33.399975 -89.643921 -0.060009964 -12.659941 -0.058218509 -12.641658 -34.0121 -103.68002
62947000 -33.300549 -89.918129 -0.059666153 -12.87052 -0.059644897 -12.851988 -33.877953 -104.045
63946000 -33.246376 -90.641083 -0.060966481 -13.070069 -0.059914954 -13.048074 -33.770241 -104.19378
64945000 -33.139606 -90.811531 -0.061703697 -13.268872 -0.061070438 -13.25352 -33.66061 -104.77326
65944000 -33.033997 -91.145493 -0.062432896 -13.470431 -0.061491549 -13.455932 -33.572289 -105.22305
66943000 -32.908283 -91.562622 -0.06077642 -13.673546 -0.059699222 -13.653365 -33.466084 -105.51627
67942000 -32.840225 -91.525383 -0.062489621 -13.868168 -0.061670087 -13.855445 -33.346413 -105.8508
68941000 -32.733231 -91.719574 -0.062020358 -14.063113 -0.061105356 -14.05235 -33.239746 -105.80637
69940000 -32.632469 -91.658981 -0.062359106 -14.259566 -0.062282424 -14.250896 -33.098377 -106.1596
70939000 -32.51757 -91.730721 -0.062277962 -14.454986 -0.061899312 -14.449023 -32.962811 -106.09499
71938000 -32.380512 -91.346542 -0.062154278 -14.653983 -0.061467919 -14.644286 -32.832455 -105.94261
72937000 -32.22401 -91.175385 -0.061701857 -14.854183 -0.061605237 -14.847322 -32.68771 -105.70941
73936000 -32.080399 -90.962257 -0.061664574 -15.049316 -0.060162194 -15.044675 -32.558571 -105.52138
74935000 -31.948023 -91.204071 -0.060793221 -15.244914 -0.059742525 -15.240169 -32.400131 -105.19644
75934000 -31.830101 -91.593712 -0.060995355 -15.453876 -0.059306625 -15.448811 -32.313213 -105.209
76933000 -31.699728 -91.96862 -0.062292404 -15.645406 -0.060635194 -15.637861 -32.157341 -105.5587
77932000 -31.614708 -92.75103 -0.06404797 -15.843224 -0.062889859 -15.837191 -32.052803 -105.57137
78931000 -31.543299 -93.563103 -0.061850209 -16.046791 -0.061692145 -16.039192 -31.954052 -105.56728
79930000 -31.436934 -94.272842 -0.064570002 -16.232384 -0.064640149 -16.234514 -31.858337 -105.83134
80929000 -31.323793 -95.249031 -0.066173777 -16.43095 -0.065736443 -16.428501 -31.751085 -106.2472
81928000 -31.249296 -96.146004 -0.065975606 -16.622635 -0.066037111 -16.621134 -31.633877 -106.35905
82927000 -31.153601 -96.918503 -0.068008222 -16.819344 -0.067514971 -16.821037 -31.539476 -106.65372
83926000 -31.042599 -97.605484 -0.070077837 -17.017023 -0.068313777 -17.0208 -31.418243 -106.98914
84925000 -30.941513 -98.114624 -0.070598483 -17.21936 -0.068725862 -17.216364 -31.317739 -107.03453
85924000 -30.852938 -98.591454 -0.071201287 -17.420267 -0.070220158 -17.416143 -31.231239 -107.08535
86923000 -30.754305 -99.135246 -0.071272865 -17.615631 -0.07104446 -17.612123 -31.125933 -107.00005
87922000 -30.642069 -99.610069 -0.071983144 -17.824976 -0.07044141 -17.818863 -31.044241 -107.10641
88921000 -30.580952 -99.904686 -0.073039174 -18.01988 -0.071896821 -18.013973 -30.94445 -107.07276
89920000 -30.483685 -100.51234 -0.073205024 -18.220976 -0.071841814 -18.213821 -30.891092 -107.29948
90919000 -30.383356 -100.79564 -0.073603883 -18.411163 -0.072810151 -18.41168 -30.810745 -107.48412
91918000 -30.292784 -101.27382 -0.074775919 -18.61595 -0.072873071 -18.608393 -30.738844 -107.54541
92917000 -30.194593 -101.57671 -0.075503632 -18.812653 -0.074150495 -18.810865 -30.68116 -107.67538
93916000 -30.118801 -101.98782 -0.074934989 -19.005779 -0.074686378 -19.002817 -30.594395 -108.32889
94915000 -30.047699 -102.68858 -0.076362401 -19.207211 -0.075037442 -19.20126 -30.528685 -108.16549
95914000 -29.986414 -102.83504 -0.077426344 -19.404259 -0.076315507 -19.40283 -30.436939 -108.49878
96913000 -29.893579 -103.14876 -0.078970559 -19.601149 -0.077268764 -19.601215 -30.378716 -108.792
97912000 -29.828459 -103.59219 -0.079753287 -19.796991 -0.077803716 -19.797163 -30.298485 -109.06878
98911000 -29.723166 -103.78662 -0.080302261 -19.998472 -0.079090767 -19.996353 -30.262215 -109.28391
99910000 -29.660797 -103.92984 -0.080742113 -20.198339 -0.0789297 -20.197353 -30.150711 -109.57686
100909000 -29.571157 -104.19147 -0.080435686 -20.405912 -0.078842446 -20.40134 -30.059296 -109.86003
101908000 -29.475733 -104.49286 -0.082360849 -20.605436 -0.07995183 -20.601843 -29.947844 -109.59326
102907000 -29.344582 -104.53335 -0.081807666 -20.804569 -0.079715587 -20.802092 -29.875517 -109.56089
103906000 -29.249807 -104.59159 -0.082291201 -21.011753 -0.079458795 -21.004553 -29.72427 -109.53794
104905000 -29.108637 -104.53382 -0.083015688 -21.20677 -0.080207855 -21.206692 -29.591858 -109.14143
105904000 -28.968092 -104.67196 -0.082830995 -21.412973 -0.079854004 -21.404833 -29.471899 -109.04958
106903000 -28.8563 -104.77052 -0.083244726 -21.616945 -0.080812529 -21.610569 -29.347395 -108.94413
107902000 -28.686626 -105.09721 -0.084072031 -21.816202 -0.081317849 -21.808731 -29.202204 -108.96093
108901000 -28.582579 -105.4279 -0.085413739 -22.017599 -0.081734598 -22.006678 -29.069901 -108.89785
109900000 -28.46073 -105.89958 -0.086256519 -22.216335 -0.083296709 -22.208412 -28.919397 -109.02161
110899000 -28.340292 -106.55605 -0.086973473 -22.415417 -0.083654791 -22.405966 -28.795296 -109.29153
111898000 -28.251213 -107.25933 -0.088192716 -22.615431 -0.085000597 -22.610476 -28.672514 -109.51387
112897000 -28.126066 -107.84856 -0.089748956 -22.816093 -0.086002506 -22.803034 -28.542683 -109.71151
113896000 -28.032829 -108.49313 -0.090181053 -23.015631 -0.087434612 -23.002815 -28.431168 -109.83063
114895000 -27.924278 -109.10226 -0.091867819 -23.212111 -0.089405686 -23.196333 -28.325272 -109.95218
115894000 -27.79405 -109.50111 -0.093257166 -23.415392 -0.090330377 -23.402502 -28.25168 -110.15685
116893000 -27.721813 -110.05739 -0.0931601 -23.607132 -0.091010474 -23.591606 -28.115278 -110.333
117892000 -27.647631 -110.58809 -0.09406469 -23.803572 -0.090812221 -23.794052 -28.051094 -110.54055
118891000 -27.586069 -111.0199 -0.094293252 -24.006216 -0.091404893 -23.996048 -27.949913 -110.72895
119890000 -27.493006 -111.39318 -0.09587656 -24.205383 -0.092098378 -24.193066 -27.941689 -110.84682
120889000 -27.443495 -111.9379 -0.09658584 -24.408792 -0.092596024 -24.390001 -27.865393 -110.80663
121888000 -27.4055 -112.26315 -0.096537143 -24.60285 -0.093053259 -24.589149 -27.804966 -111.13055
122887000 -27.364721 -112.49526 -0.097097501 -24.805159 -0.094066277 -24.792641 -27.765648 -111.19436
123886000 -27.310984 -112.90965 -0.097337075 -25.008059 -0.093596242 -24.989189 -27.744101 -111.34491
124885000 -27.276844 -113.39655 -0.098404847 -25.207331 -0.094673678 -25.19179 -27.720823 -111.44749
125884000 -27.225288 -113.64046 -0.099215455 -25.405724 -0.094553567 -25.389511 -27.684946 -111.62497
126883000 -27.200731 -113.98473 -0.099535659 -25.606541 -0.095258407 -25.595364 -27.650839 -111.66955
127882000 -27.152908 -114.30837 -0.099762119 -25.804918 -0.096283056 -25.789001 -27.604664 -111.86635
128881000 -27.122532 -114.65702 -0.099995218 -26.006042 -0.095978178 -25.991537 -27.567657 -111.94304
129880000 -27.07136 -114.95076 -0.10071763 -26.210855 -0.095891379 -26.189426 -27.518164 -111.94061
130879000 -27.007166 -115.09424 -0.10061166 -26.408161 -0.09703318 -26.393526 -27.446201 -111.97823
131878000 -26.942219 -115.31303 -0.1002972 -26.613295 -0.097463347 -26.592739 -27.382599 -111.87872
132877000 -26.870934 -115.42204 -0.10033747 -26.811579 -0.097099356 -26.795038 -27.293455 -111.89754
133876000 -26.783953 -115.58379 -0.10089222 -27.011934 -0.097800374 -26.991671 -27.203836 -111.78547
134875000 -26.692616 -115.73394 -0.1004784 -27.212244 -0.097579837 -27.194569 -27.096605 -111.69244
135874000 -26.608046 -115.74029 -0.10084612 -27.414442 -0.097721741 -27.394495 -26.99477 -111.64574
136873000 -26.492651 -115.65554 -0.10133205 -27.613476 -0.098084465 -27.596645 -26.903605 -111.61597
137872000 -26.418364 -115.81879 -0.10137869 -27.816517 -0.098004505 -27.799574 -26.797104 -111.61803
138871000 -26.345367 -115.99402 -0.10219223 -28.016291 -0.097705856 -28.005865 -26.700096 -111.78304
139870000 -26.241718 -116.24381 -0.1030319 -28.217894 -0.099942505 -28.196617 -26.623159 -111.94442
140869000 -26.158262 -116.73599 -0.10471996 -28.411608 -0.10105914 -28.391085 -26.512863 -112.11967
141868000 -26.061586 -117.217 -0.10496791 -28.600416 -0.10132543 -28.587034 -26.444504 -112.46113
142867000 -25.983696 -117.49141 -0.10301812 -28.801516 -0.10058516 -28.785246 -26.363239 -112.65208
143866000 -25.916796 -117.99431 -0.10496128 -28.997265 -0.10192059 -28.984554 -26.291307 -113.17928
144865000 -25.862452 -118.49634 -0.10662435 -29.196255 -0.1034009 -29.182671 -26.238836 -113.51712
145864000 -25.804493 -118.84538 -0.10671535 -29.396841 -0.10504853 -29.385258 -26.201242 -113.76231
146863000 -25.760984 -119.2442 -0.1076891 -29.59482 -0.10440441 -29.584446 -26.1532 -114.10415
147862000 -25.717436 -119.61925 -0.10785629 -29.797567 -0.10527899 -29.780869 -26.11347 -114.42129
148861000 -25.686338 -120.12445 -0.10871298 -29.991837 -0.10537924 -29.971533 -26.090023 -114.68426
149860000 -25.668219 -120.3185 -0.10921466 -30.189102 -0.10637764 -30.181599 -26.065659 -114.83932
150859000 -25.653522 -120.70374 -0.10986904 -30.392935 -0.10669068 -30.375423 -26.053511 -115.13377
151858000 -25.633265 -121.03236 -0.10960382 -30.592978 -0.10676628 -30.574362 -26.045311 -115.42789
152857000 -25.614662 -121.35931 -0.10980639 -30.783854 -0.10696951 -30.772806 -26.025364 -115.59807
153856000 -25.608038 -121.59044 -0.11003073 -30.982964 -0.10654397 -30.969799 -26.04664 -115.86618
154855000 -25.594662 -121.72448 -0.11012737 -31.184305 -0.10612165 -31.17382 -26.033787 -116.04847
155854000 -25.610279 -121.99181 -0.11054265 -31.388128 -0.10708307 -31.372105 -26.0224 -116.37973
156853000 -25.594194 -122.70598 -0.10871298 -31.570908 -0.10649993 -31.562454 -26.023134 -116.66476
157852000 -25.599697 -122.92571 -0.10976497 -31.771603 -0.10854391 -31.760773 -26.011284 -117.02077
158851000 -25.598341 -123.18585 -0.11012127 -31.96686 -0.1087013 -31.959688 -25.994661 -117.25195
159850000 -25.580042 -123.29729 -0.11048317 -32.168346 -0.10851339 -32.161285 -25.993391 -117.44367
160849000 -25.558498 -123.39034 -0.11045157 -32.364899 -0.10949631 -32.360771 -25.960342 -117.74383
161848000 -25.543768 -123.49449 -0.11151142 -32.565517 -0.10956666 -32.559914 -25.921316 -117.87004
162847000 -25.497898 -123.70749 -0.11110243 -32.765247 -0.11060903 -32.758949 -25.890446 -118.07823
163846000 -25.458576 -123.93895 -0.11161394 -32.964367 -0.11032093 -32.956642 -25.808994 -118.10152
164845000 -25.39374 -123.94699 -0.11212286 -33.168396 -0.11065949 -33.155094 -25.7449 -118.2011
165844000 -25.336866 -123.99819 -0.1125192 -33.366592 -0.11114572 -33.357742 -25.662317 -118.33839
166843000 -25.27742 -124.07741 -0.11247404 -33.564301 -0.11106525 -33.555969 -25.587784 -118.50681
167842000 -25.211514 -124.21397 -0.11265681 -33.759468 -0.1117316 -33.751442 -25.513733 -118.42179
168841000 -25.136873 -124.42415 -0.11283109 -33.955673 -0.11151142 -33.958408 -25.434128 -118.50626
169840000 -25.069895 -124.70878 -0.1129533 -34.153229 -0.11251309 -34.150303 -25.343298 -118.72313
170839000 -25.006851 -124.95363 -0.11390401 -34.347595 -0.11248838 -34.350307 -25.25901 -118.90504
171838000 -24.952248 -125.38207 -0.11387902 -34.550888 -0.1128874 -34.545559 -25.193413 -119.15731
172837000 -24.881475 -125.76064 -0.11533764 -34.744457 -0.11404511 -34.744499 -25.12113 -119.4025
173836000 -24.812197 -126.21107 -0.11635986 -34.94582 -0.11550617 -34.940754 -25.079721 -119.62638
174835000 -24.762442 -126.6499 -0.11671617 -35.140301 -0.11571034 -35.141933 -25.032877 -119.99016
175834000 -24.712973 -127.04659 -0.1174411 -35.341251 -0.11694964 -35.335461 -24.974705 -120.2904
176833000 -24.662374 -127.45085 -0.11884158 -35.535461 -0.11735839 -35.53635 -24.921125 -120.43649
177832000 -24.620672 -127.93343 -0.11914062 -35.733902 -0.11783952 -35.73497 -24.891029 -120.62981
178831000 -24.582506 -128.30786 -0.11944553 -35.929142 -0.11823026 -35.92622 -24.855078 -120.86922
179830000 -24.541201 -128.74515 -0.12035881 -36.129375 -0.11857288 -36.129028 -24.835001 -120.97933
180829000 -24.503962 -128.95451 -0.12081925 -36.326454 -0.119238 -36.324062 -24.801685 -121.17869
181828000 -24.479246 -129.315 -0.12027472 -36.525681 -0.11914913 -36.521065 -24.78867 -121.28703
182827000 -24.45772 -129.65491 -0.12099226 -36.719418 -0.11889851 -36.718689 -24.771923 -121.37337
183826000 -24.417191 -130.01624 -0.12193035 -36.915195 -0.11967437 -36.908939 -24.767361 -121.50016
184825000 -24.420271 -130.32047 -0.12245326 -37.109585 -0.11994739 -37.111038 -24.752295 -121.61928
185824000 -24.395325 -130.69687 -0.12189547 -37.306412 -0.12023905 -37.309525 -24.744864 -121.641
186823000 -24.379993 -131.0136 -0.1213894 -37.507229 -0.12066621 -37.502247 -24.746521 -121.62202
187822000 -24.360655 -131.36711 -0.12270355 -37.700741 -0.12103591 -37.699284 -24.707693 -121.72697
188821000 -24.342064 -131.6031 -0.12238616 -37.897289 -0.12144291 -37.898403 -24.695148 -121.8196
189820000 -24.325279 -131.87547 -0.12254831 -38.094536 -0.12176742 -38.097919 -24.685059 -121.95841
190819000 -24.301102 -132.1254 -0.12443097 -38.296177 -0.12188003 -38.295223 -24.653708 -121.92262
191818000 -24.262632 -132.2979 -0.12524511 -38.490215 -0.123992 -38.490704 -24.618824 -121.82829
192817000 -24.188944 -132.58112 -0.12540232 -38.674454 -0.12436064 -38.677814 -24.543304 -121.88169
193816000 -24.152958 -132.91626 -0.12484548 -38.870693 -0.12339486 -38.867764 -24.485723 -122.16063
194815000 -24.09193 -133.37297 -0.12480792 -39.065613 -0.12395258 -39.068314 -24.421951 -122.24551
195814000 -24.040739 -133.60634 -0.12602504 -39.265198 -0.12393712 -39.264317 -24.374636 -122.37839
196813000 -23.98867 -133.92134 -0.12505488 -39.457954 -0.12330005 -39.459927 -24.292799 -122.54185
197812000 -23.934727 -134.18619 -0.12540604 -39.654972 -0.12415873 -39.655647 -24.222078 -122.64139
198811000 -23.876944 -134.38927 -0.12568076 -39.852139 -0.12406338 -39.855408 -24.154404 -122.82602
199810000 -23.810301 -134.75867 -0.12549664 -40.047592 -0.12407643 -40.049324 -24.075365 -122.92345
200809000 -23.750057 -135.03171 -0.12581693 -40.243328 -0.12424184 -40.244949 -23.99411 -123.14578
201808000 -23.692822 -135.26721 -0.12628673 -40.445976 -0.12547798 -40.448502 -23.921934 -123.22334
202807000 -23.635675 -135.62746 -0.12680377 -40.644112 -0.12558509 -40.651073 -23.87141 -123.44026
203806000 -23.585918 -136.06207 -0.12855655 -40.845184 -0.12631685 -40.848 -23.803614 -123.62353
