!Keysight Technologies,E5080B,MY59205177,A.15.75.32
!Date: Friday, February 23, 2024 03:31:25
!Correction: S11(Cdelta 2-Port  ) 
!S21(Cdelta 2-Port  ) 
!S12(Cdelta 2-Port  ) 
!S22(Cdelta 2-Port  ) 
!S2P File: Measurements: S11, S21, S12, S22:
# Hz S  dB   R 50
10000000 -46.071323 -2.0557635 -0.015862344 -2.050597 -0.018486148 -2.1007144 -45.981823 -158.49292
10999000 -45.279594 -3.9405022 -0.016715894 -2.2643375 -0.018560238 -2.3205714 -45.923168 -151.86784
11998000 -44.289272 -7.1894836 -0.016847644 -2.4938161 -0.018133391 -2.5367203 -46.125576 -147.49054
12997000 -43.551956 -12.668174 -0.01634925 -2.6708605 -0.018190058 -2.7063992 -45.776829 -141.65894
13996000 -43.255199 -16.583281 -0.015718933 -2.8515706 -0.018211894 -2.8740044 -45.564156 -136.45099
14995000 -42.862705 -20.915491 -0.018310675 -3.0634387 -0.017616656 -3.0882108 -45.279583 -133.09312
15994000 -42.678219 -25.551828 -0.018758597 -3.2794557 -0.020277668 -3.3047287 -45.122017 -129.4613
16993000 -42.659683 -29.664055 -0.018545939 -3.4808128 -0.019788502 -3.4890258 -44.298256 -129.27541
17992000 -42.769115 -35.415512 -0.018274281 -3.6785026 -0.020563236 -3.6846552 -43.719124 -129.35925
18991000 -42.991409 -40.594921 -0.019693067 -3.8894076 -0.021138588 -3.8871033 -43.129616 -128.4028
19990000 -42.778809 -46.264614 -0.02233818 -4.0990796 -0.023439202 -4.0974269 -42.44313 -129.28841
20989000 -42.606121 -49.386894 -0.024166953 -4.3021765 -0.025151273 -4.2948194 -41.886471 -128.40579
21988000 -42.428341 -54.653503 -0.024548054 -4.4996796 -0.025787126 -4.4907146 -41.653275 -127.55369
22987000 -42.125 -59.394241 -0.026687948 -4.7004824 -0.02719222 -4.6913047 -41.369934 -127.21194
23986000 -42.051491 -63.651585 -0.025757963 -4.8964925 -0.026078526 -4.8960171 -41.251774 -127.09796
24985000 -41.652534 -66.516922 -0.026225144 -5.1058841 -0.026698887 -5.1014643 -41.044487 -124.56918
25984000 -41.325886 -68.64576 -0.027739795 -5.311317 -0.027045568 -5.3119593 -40.681881 -122.79124
26983000 -41.039474 -70.473045 -0.028282488 -5.5104146 -0.028061546 -5.5282931 -40.610146 -122.29409
27982000 -40.848362 -71.337212 -0.029773096 -5.7105165 -0.029530706 -5.7486577 -40.309273 -120.65055
28981000 -40.775455 -72.745712 -0.02819312 -5.9038997 -0.029183306 -5.9311433 -40.139481 -120.1525
29980000 -40.394836 -74.534912 -0.027311003 -6.1001105 -0.029527579 -6.1118083 -39.858807 -119.19064
30979000 -40.015675 -73.038017 -0.025641305 -6.4596701 -0.024887012 -6.449892 -39.323685 -119.5527
31978000 -39.824394 -74.388794 -0.024527228 -6.654767 -0.025524391 -6.6466584 -39.077847 -118.78079
32977000 -39.62067 -75.829193 -0.024696704 -6.867415 -0.025517881 -6.8587747 -38.86261 -118.92986
33976000 -39.45084 -76.896416 -0.026006391 -7.062634 -0.026268376 -7.0584173 -38.569386 -118.24208
34975000 -39.140057 -77.692039 -0.025150754 -7.2635641 -0.026914291 -7.2642856 -38.33535 -117.77873
35974000 -38.975319 -78.283096 -0.024495469 -7.4630337 -0.027131526 -7.463398 -38.041954 -117.00199
36973000 -38.724438 -78.905724 -0.025186684 -7.6581182 -0.028149609 -7.6650014 -37.79665 -115.90565
37972000 -38.569996 -78.765724 -0.024865145 -7.8711681 -0.02840599 -7.8825097 -37.580238 -115.24757
38971000 -38.228569 -78.163292 -0.026085297 -8.0714169 -0.028399998 -8.08251 -37.391647 -113.61886
39970000 -37.897354 -78.561172 -0.024444966 -8.2657061 -0.02711121 -8.2842464 -37.152378 -112.97601
40969000 -37.607864 -78.152924 -0.024345003 -8.4596567 -0.026748374 -8.4792147 -36.894482 -111.56998
41968000 -37.244415 -78.018631 -0.024566798 -8.6664867 -0.027504032 -8.6835957 -36.714222 -110.23659
42967000 -37.002533 -78.209694 -0.024139881 -8.875495 -0.027010664 -8.8989353 -36.51178 -108.49613
43966000 -36.697441 -78.889908 -0.0244244 -9.0781202 -0.028087601 -9.0961781 -36.244678 -107.73203
44965000 -36.466511 -79.700485 -0.026329316 -9.2861109 -0.02876297 -9.3023758 -36.030304 -107.32021
45964000 -36.236931 -80.703613 -0.027487881 -9.4809465 -0.029386844 -9.5058012 -35.809093 -107.14694
46963000 -36.041508 -82.679794 -0.027446982 -9.6803608 -0.030754518 -9.7007093 -35.623783 -107.22316
47962000 -35.868584 -84.04705 -0.028536532 -9.8800917 -0.03180135 -9.8988514 -35.420486 -107.37546
48961000 -35.664017 -85.37043 -0.030858276 -10.078935 -0.033588462 -10.097492 -35.18277 -107.50503
49960000 -35.409679 -86.729248 -0.032995284 -10.275119 -0.034536041 -10.302992 -35.056911 -107.62971
50959000 -35.195858 -88.094681 -0.033161178 -10.49247 -0.035618238 -10.50053 -34.87878 -107.93912
51958000 -34.997559 -89.08873 -0.035279747 -10.691161 -0.037358619 -10.699078 -34.684368 -108.2886
52957000 -34.780079 -90.158401 -0.03642321 -10.889205 -0.038129441 -10.900526 -34.545769 -108.06512
53956000 -34.617893 -90.806046 -0.03756332 -11.09305 -0.039293509 -11.097111 -34.403046 -108.02531
54955000 -34.438358 -91.357117 -0.038447786 -11.295397 -0.04010674 -11.289012 -34.255623 -108.03572
55954000 -34.27272 -92.129845 -0.039516851 -11.4967 -0.039925691 -11.494212 -34.149544 -107.66637
56953000 -34.143101 -92.201729 -0.039656088 -11.696981 -0.03962082 -11.683789 -34.069984 -107.97596
57952000 -33.987648 -92.802887 -0.040449791 -11.892852 -0.040896341 -11.881856 -33.97076 -108.00115
58951000 -33.859875 -93.043564 -0.041103303 -12.099264 -0.041442253 -12.079269 -33.816902 -108.05794
59950000 -33.733746 -93.478363 -0.041640874 -12.299356 -0.042435464 -12.278419 -33.743668 -108.33533
60949000 -33.61937 -94.097031 -0.043021563 -12.500317 -0.043181043 -12.478921 -33.649323 -108.64252
61948000 -33.569733 -94.295685 -0.042676222 -12.698292 -0.042240463 -12.681967 -33.569603 -108.68974
62947000 -33.468548 -94.562752 -0.042808499 -12.909582 -0.043561205 -12.889118 -33.421761 -109.00704
63946000 -33.389389 -95.254395 -0.044901442 -13.109859 -0.044513319 -13.09073 -33.317684 -109.13233
64945000 -33.298515 -95.488487 -0.044202372 -13.311871 -0.044964474 -13.290788 -33.199554 -109.63167
65944000 -33.192638 -95.75486 -0.045323864 -13.50955 -0.04528515 -13.494787 -33.10535 -110.02782
66943000 -33.040966 -96.146973 -0.043295298 -13.71413 -0.043696385 -13.694818 -33.006672 -110.30322
67942000 -32.982788 -96.161583 -0.045603234 -13.909067 -0.04545439 -13.898119 -32.882034 -110.56907
68941000 -32.876358 -96.204155 -0.045021493 -14.102602 -0.044825591 -14.089856 -32.764942 -110.48386
69940000 -32.767704 -96.125473 -0.045604542 -14.301735 -0.045612652 -14.296093 -32.63245 -110.77505
70939000 -32.661877 -96.110184 -0.044732481 -14.495833 -0.045148611 -14.490826 -32.498619 -110.71562
71938000 -32.52034 -95.711258 -0.044553071 -14.699295 -0.045576815 -14.687258 -32.370579 -110.53392
72937000 -32.363903 -95.448097 -0.044411846 -14.89747 -0.045217142 -14.890048 -32.222008 -110.2504
73936000 -32.230988 -95.149384 -0.044986445 -15.095391 -0.044368956 -15.088322 -32.105598 -110.01872
74935000 -32.103889 -95.279907 -0.044160534 -15.288694 -0.043864518 -15.284353 -31.95117 -109.69196
75934000 -31.96969 -95.586853 -0.044425447 -15.498811 -0.043490086 -15.49515 -31.865231 -109.59116
76933000 -31.842924 -95.921875 -0.04538795 -15.690063 -0.045528419 -15.686755 -31.697466 -109.87399
77932000 -31.73748 -96.686302 -0.046527278 -15.887923 -0.046758316 -15.887597 -31.590773 -109.87938
78931000 -31.662342 -97.535194 -0.045061249 -16.092493 -0.045606114 -16.08568 -31.491941 -109.75701
79930000 -31.547781 -98.317276 -0.047340553 -16.284851 -0.048056092 -16.285032 -31.393024 -110.05389
80929000 -31.437557 -99.133263 -0.049031969 -16.481634 -0.049894944 -16.481085 -31.290817 -110.29794
81928000 -31.334169 -99.788605 -0.049395621 -16.671272 -0.05016885 -16.670753 -31.153074 -110.31958
82927000 -31.237289 -100.57081 -0.050962117 -16.871841 -0.051675893 -16.872639 -31.053339 -110.59351
83926000 -31.122316 -101.24102 -0.052457385 -17.069241 -0.05205182 -17.069712 -30.937778 -110.8121
84925000 -31.012877 -101.70585 -0.053453643 -17.268894 -0.052371971 -17.268244 -30.844969 -110.80858
85924000 -30.927036 -102.10029 -0.053690556 -17.469282 -0.053762369 -17.465338 -30.756756 -110.74165
86923000 -30.811893 -102.61949 -0.054101255 -17.669231 -0.054184344 -17.664648 -30.654844 -110.62552
87922000 -30.694073 -102.92584 -0.053948976 -17.875397 -0.054107547 -17.865007 -30.566441 -110.6219
88921000 -30.630962 -103.1535 -0.055500858 -18.073349 -0.054865882 -18.066635 -30.475309 -110.66064
89920000 -30.530012 -103.71024 -0.056429368 -18.273449 -0.055186242 -18.267015 -30.415796 -110.81064
90919000 -30.436199 -103.9728 -0.057086341 -18.473099 -0.05635358 -18.467661 -30.324965 -110.98102
91918000 -30.332661 -104.34617 -0.057923898 -18.672527 -0.056481294 -18.66754 -30.259747 -110.99531
92917000 -30.243063 -104.66775 -0.05879179 -18.874321 -0.057851493 -18.862577 -30.200256 -111.09096
93916000 -30.146141 -105.02541 -0.058196209 -19.061998 -0.058043264 -19.058029 -30.104507 -111.67546
94915000 -30.069214 -105.65845 -0.059722316 -19.265358 -0.058909602 -19.258673 -30.049522 -111.54173
95914000 -29.997601 -105.81742 -0.061261561 -19.462236 -0.060154323 -19.45628 -29.957111 -111.80859
96913000 -29.918484 -106.04099 -0.06214036 -19.660412 -0.061015572 -19.658718 -29.888487 -112.17247
97912000 -29.840685 -106.46427 -0.063257828 -19.854355 -0.060965165 -19.858433 -29.80801 -112.37679
98911000 -29.728912 -106.69883 -0.063550435 -20.060871 -0.062279012 -20.058891 -29.765392 -112.65237
99910000 -29.659081 -106.81841 -0.064364545 -20.258457 -0.062215202 -20.254519 -29.661304 -112.89946
100909000 -29.572908 -107.02908 -0.063700162 -20.467371 -0.061915852 -20.462606 -29.574499 -113.10065
101908000 -29.483759 -107.31126 -0.065327272 -20.664934 -0.063756905 -20.663187 -29.462917 -112.87258
102907000 -29.354124 -107.25565 -0.065467075 -20.868731 -0.063448258 -20.865746 -29.381422 -112.83898
103906000 -29.257441 -107.34503 -0.065722257 -21.078878 -0.062756181 -21.068859 -29.246239 -112.80928
104905000 -29.106676 -107.2336 -0.065575086 -21.275442 -0.063328221 -21.273458 -29.120884 -112.49411
105904000 -28.968044 -107.33644 -0.065921471 -21.478342 -0.063492909 -21.471283 -29.007622 -112.40063
106903000 -28.853014 -107.39268 -0.066641122 -21.682541 -0.06395182 -21.673517 -28.875824 -112.2691
107902000 -28.688675 -107.68246 -0.067140326 -21.880539 -0.064458072 -21.873501 -28.744541 -112.25861
108901000 -28.58569 -107.89769 -0.068398453 -22.084896 -0.066023968 -22.076933 -28.61408 -112.17926
109900000 -28.450285 -108.39492 -0.069144562 -22.282772 -0.067803659 -22.274141 -28.467073 -112.25563
110899000 -28.332691 -109.0131 -0.070779502 -22.48012 -0.068035573 -22.472931 -28.348148 -112.507
111898000 -28.238422 -109.70286 -0.071681544 -22.681515 -0.069343142 -22.676855 -28.223631 -112.64072
112897000 -28.115953 -110.23396 -0.073183969 -22.878574 -0.070294343 -22.870995 -28.088043 -112.79689
113896000 -28.01079 -110.79868 -0.074276626 -23.083508 -0.071470492 -23.071913 -27.981106 -112.94511
114895000 -27.914207 -111.43958 -0.074989244 -23.280655 -0.073312961 -23.267588 -27.871967 -113.02113
115894000 -27.782919 -111.81128 -0.076274671 -23.484068 -0.073667862 -23.470989 -27.802452 -113.19595
116893000 -27.716002 -112.25973 -0.077392355 -23.679367 -0.075203627 -23.660955 -27.67894 -113.24191
117892000 -27.632881 -112.78954 -0.077544667 -23.876816 -0.075396426 -23.860304 -27.596066 -113.4799
118891000 -27.571541 -113.17664 -0.077619508 -24.076515 -0.075711459 -24.062088 -27.508205 -113.58013
119890000 -27.490204 -113.55174 -0.079201221 -24.281963 -0.076235943 -24.266447 -27.493782 -113.70755
120889000 -27.439289 -114.03912 -0.079890653 -24.48274 -0.076869309 -24.465229 -27.425192 -113.64918
121888000 -27.401979 -114.38673 -0.08011952 -24.674652 -0.077500127 -24.658241 -27.368769 -113.93034
122887000 -27.362423 -114.58931 -0.080941752 -24.878063 -0.077928372 -24.862356 -27.319359 -113.91685
123886000 -27.305578 -114.96351 -0.081424937 -25.081623 -0.078117602 -25.06354 -27.303129 -114.07193
124885000 -27.273438 -115.48565 -0.081727475 -25.283005 -0.078409635 -25.266689 -27.273188 -114.11971
125884000 -27.216177 -115.7204 -0.082636282 -25.481785 -0.078528248 -25.468422 -27.243551 -114.29021
126883000 -27.198681 -116.09608 -0.082956851 -25.685095 -0.079525761 -25.668865 -27.20537 -114.28619
127882000 -27.15135 -116.36823 -0.083132841 -25.882639 -0.080387428 -25.869579 -27.171661 -114.43554
128881000 -27.123512 -116.68394 -0.082880601 -26.085636 -0.080377407 -26.066664 -27.126926 -114.51139
129880000 -27.067293 -117.0152 -0.084171794 -26.289289 -0.080439113 -26.2658 -27.085703 -114.45062
130879000 -27.008875 -117.17593 -0.084089711 -26.48732 -0.081120566 -26.470985 -27.009653 -114.48309
131878000 -26.946909 -117.39791 -0.08434467 -26.691854 -0.081745677 -26.672003 -26.952087 -114.36787
132877000 -26.871265 -117.4783 -0.083875947 -26.890562 -0.081810035 -26.874161 -26.877026 -114.33635
133876000 -26.791599 -117.62891 -0.084558994 -27.090448 -0.082010515 -27.071903 -26.785252 -114.1989
134875000 -26.69372 -117.73767 -0.084329359 -27.293219 -0.08260911 -27.270988 -26.682852 -114.05013
135874000 -26.61356 -117.79942 -0.084666945 -27.493668 -0.082181461 -27.472425 -26.589241 -113.96697
136873000 -26.501892 -117.72148 -0.085268542 -27.69536 -0.082102843 -27.67881 -26.507318 -113.95259
137872000 -26.41921 -117.81501 -0.084499337 -27.898651 -0.082058527 -27.880322 -26.404129 -113.90472
138871000 -26.350592 -118.06458 -0.085095108 -28.098763 -0.082389079 -28.082066 -26.308372 -114.02388
139870000 -26.247042 -118.34142 -0.086091749 -28.298668 -0.083508074 -28.279778 -26.229828 -114.22002
140869000 -26.167362 -118.90123 -0.087558486 -28.495161 -0.084156752 -28.475943 -26.129744 -114.43616
141868000 -26.090683 -119.28148 -0.087688446 -28.695641 -0.085684091 -28.677973 -26.078074 -114.68139
142867000 -26.004969 -119.47382 -0.08644294 -28.88736 -0.084780976 -28.874281 -26.002127 -114.80719
143866000 -25.936956 -119.96643 -0.08875306 -29.088537 -0.086360022 -29.07408 -25.926819 -115.28428
144865000 -25.871849 -120.45728 -0.089848846 -29.291056 -0.087851159 -29.269567 -25.862907 -115.56314
145864000 -25.813953 -120.77515 -0.0905931 -29.4897 -0.089482851 -29.472662 -25.832573 -115.81955
146863000 -25.766907 -121.14185 -0.091008887 -29.688879 -0.090025119 -29.672834 -25.786163 -116.12527
147862000 -25.73641 -121.4893 -0.092033066 -29.88718 -0.090227038 -29.873249 -25.748362 -116.41473
148861000 -25.700781 -121.90787 -0.092909388 -30.085123 -0.091502175 -30.071411 -25.72514 -116.58183
149860000 -25.668257 -122.12474 -0.094490342 -30.277136 -0.092037037 -30.261547 -25.678846 -116.6688
150859000 -25.643993 -122.555 -0.09421812 -30.477049 -0.09130311 -30.46162 -25.65403 -117.04196
151858000 -25.629381 -122.91223 -0.092760772 -30.678946 -0.091506407 -30.66115 -25.645798 -117.39442
152857000 -25.617277 -123.22762 -0.093731135 -30.873446 -0.09179987 -30.8622 -25.628424 -117.59155
153856000 -25.60902 -123.45608 -0.093841173 -31.075821 -0.091725841 -31.062916 -25.647346 -117.90694
154855000 -25.608124 -123.63142 -0.094052523 -31.273193 -0.091590479 -31.261219 -25.635719 -118.13842
155854000 -25.630873 -123.85763 -0.094362035 -31.47423 -0.091905892 -31.45965 -25.623404 -118.3706
156853000 -25.616188 -124.5747 -0.09178295 -31.664803 -0.091280378 -31.653196 -25.618132 -118.73065
157852000 -25.619581 -124.77671 -0.093332015 -31.864779 -0.092915207 -31.852049 -25.613255 -119.0842
158851000 -25.620667 -124.9911 -0.094099082 -32.06451 -0.093161158 -32.054279 -25.596807 -119.33416
159850000 -25.608152 -125.10117 -0.095008895 -32.262867 -0.093620837 -32.253368 -25.597937 -119.51786
160849000 -25.594925 -125.20222 -0.094801202 -32.460064 -0.094188496 -32.453602 -25.566359 -119.80296
161848000 -25.575968 -125.27451 -0.094766274 -32.661797 -0.094458856 -32.655827 -25.524197 -119.88281
162847000 -25.535206 -125.46578 -0.095204957 -32.860584 -0.095497608 -32.856033 -25.49827 -120.14233
163846000 -25.496058 -125.65032 -0.095709838 -33.065037 -0.094399333 -33.053307 -25.425001 -120.15991
164845000 -25.43092 -125.63436 -0.095873646 -33.265137 -0.095039323 -33.253651 -25.360283 -120.25514
165844000 -25.388279 -125.67029 -0.096098326 -33.4631 -0.095434368 -33.455624 -25.281355 -120.36829
166843000 -25.324535 -125.70165 -0.095983207 -33.663074 -0.095895343 -33.654499 -25.213957 -120.55818
167842000 -25.262424 -125.83564 -0.09552487 -33.858772 -0.095719896 -33.85696 -25.141396 -120.46053
168841000 -25.187525 -125.97977 -0.096748628 -34.059513 -0.09597712 -34.054119 -25.063688 -120.56622
169840000 -25.126844 -126.22619 -0.096797064 -34.25684 -0.096221924 -34.253529 -24.977507 -120.72313
170839000 -25.065712 -126.49519 -0.097892508 -34.453415 -0.096389718 -34.452938 -24.900747 -120.89887
171838000 -25.001911 -126.88074 -0.097592279 -34.658382 -0.098051369 -34.649204 -24.835197 -121.12971
172837000 -24.934935 -127.23061 -0.099434219 -34.852016 -0.098994054 -34.843147 -24.768078 -121.29374
173836000 -24.869268 -127.61785 -0.10072054 -35.053669 -0.099731393 -35.04739 -24.726879 -121.53415
174835000 -24.814051 -127.99146 -0.10096481 -35.249279 -0.10052873 -35.246941 -24.681564 -121.82174
175834000 -24.764624 -128.37328 -0.10194974 -35.44775 -0.10128886 -35.443863 -24.620417 -122.11851
176833000 -24.714695 -128.72459 -0.10352815 -35.647476 -0.10206396 -35.645679 -24.572052 -122.25494
177832000 -24.668768 -129.13521 -0.10404354 -35.846596 -0.10309022 -35.846481 -24.556047 -122.38506
178831000 -24.628138 -129.38995 -0.10555456 -36.042969 -0.10512438 -36.039242 -24.515055 -122.4635
179830000 -24.554434 -129.77122 -0.10615931 -36.225502 -0.10551398 -36.227867 -24.450741 -122.51489
180829000 -24.502882 -130.12904 -0.1053018 -36.420502 -0.10495571 -36.418922 -24.407667 -122.8652
181828000 -24.479109 -130.57303 -0.10442112 -36.623013 -0.10424823 -36.619373 -24.384708 -123.03929
182827000 -24.462236 -130.92401 -0.10458446 -36.811867 -0.10460514 -36.816246 -24.377329 -123.1763
183826000 -24.417835 -131.2675 -0.10509627 -37.019157 -0.10475841 -37.013958 -24.367331 -123.34211
184825000 -24.421206 -131.61575 -0.10563572 -37.216385 -0.10536519 -37.215359 -24.352348 -123.47068
185824000 -24.389935 -131.98056 -0.10551345 -37.410801 -0.1056946 -37.40942 -24.343662 -123.52917
186823000 -24.374134 -132.34273 -0.10575932 -37.611942 -0.10533866 -37.612099 -24.339502 -123.53729
187822000 -24.352318 -132.65024 -0.1061487 -37.804642 -0.10581183 -37.805 -24.299086 -123.61495
188821000 -24.32999 -132.90843 -0.10640814 -38.002232 -0.10583783 -38.003029 -24.279896 -123.74818
189820000 -24.309032 -133.21538 -0.10624474 -38.202682 -0.10576568 -38.200748 -24.261953 -123.93736
190819000 -24.271364 -133.52542 -0.10732399 -38.398449 -0.10681564 -38.398643 -24.220655 -123.98717
191818000 -24.241877 -133.83075 -0.10707086 -38.596252 -0.106692 -38.594177 -24.192844 -123.99489
192817000 -24.196667 -134.09991 -0.10754051 -38.792797 -0.10749593 -38.795135 -24.149689 -124.09923
193816000 -24.162193 -134.34969 -0.10764983 -38.990276 -0.1066416 -38.98954 -24.093685 -124.24363
194815000 -24.101492 -134.72585 -0.10811476 -39.188568 -0.10855798 -39.187889 -24.028517 -124.29321
195814000 -24.047436 -134.92671 -0.10898107 -39.380783 -0.10790219 -39.381184 -23.969969 -124.39156
196813000 -23.990429 -135.29431 -0.10850861 -39.57782 -0.10797279 -39.575924 -23.893179 -124.55631
197812000 -23.932209 -135.47865 -0.10857231 -39.773186 -0.10886746 -39.771343 -23.823988 -124.64911
198811000 -23.881104 -135.62337 -0.10850888 -39.97356 -0.10845686 -39.970135 -23.754107 -124.83996
199810000 -23.809481 -135.99495 -0.1093219 -40.164982 -0.10774855 -40.163158 -23.671797 -124.91419
200809000 -23.752325 -136.25012 -0.10993648 -40.366638 -0.10877854 -40.36721 -23.600992 -125.0855
201808000 -23.692699 -136.44206 -0.11083262 -40.564011 -0.10985232 -40.566017 -23.531887 -125.15443
202807000 -23.635813 -136.80191 -0.11072906 -40.765182 -0.11069746 -40.768394 -23.474985 -125.31328
