!Keysight Technologies,E5080B,MY59205177,A.15.75.32
!Date: Friday, February 23, 2024 03:31:32
!Correction: S11(Cdelta 2-Port  ) 
!S21(Cdelta 2-Port  ) 
!S12(Cdelta 2-Port  ) 
!S22(Cdelta 2-Port  ) 
!S2P File: Measurements: S11, S21, S12, S22:
# Hz S  dB   R 50
10000000 -46.057583 -1.922769 -0.015449271 -2.0481665 -0.019094765 -2.1025229 -46.006023 -157.95239
10999000 -45.273689 -4.3060284 -0.016443832 -2.2683878 -0.018418036 -2.3212938 -45.935432 -151.58109
11998000 -44.350697 -7.0831475 -0.016690688 -2.4941461 -0.01828156 -2.5320954 -46.134937 -147.62616
12997000 -43.559086 -12.883576 -0.016350549 -2.6707933 -0.018210074 -2.7043104 -45.715534 -141.6169
13996000 -43.272568 -16.641588 -0.015689317 -2.8535185 -0.018049169 -2.8729606 -45.556431 -136.68962
14995000 -42.857006 -20.973181 -0.017648105 -3.0626874 -0.018160684 -3.0874395 -45.262043 -133.07869
15994000 -42.722672 -25.391617 -0.018936688 -3.283947 -0.021198157 -3.3040953 -45.129253 -129.74817
16993000 -42.696205 -29.870266 -0.017610157 -3.4773395 -0.019982496 -3.4881876 -44.262554 -129.34358
17992000 -42.745762 -35.370754 -0.017895289 -3.680161 -0.020555953 -3.6842971 -43.723953 -129.31064
18991000 -42.987808 -40.569359 -0.019600755 -3.893219 -0.021060813 -3.8887961 -43.10157 -128.16879
19990000 -42.761673 -46.133511 -0.021643257 -4.1005893 -0.022727188 -4.0943289 -42.430927 -129.12843
20989000 -42.622917 -49.795319 -0.02461626 -4.3083124 -0.025231987 -4.2926364 -41.890961 -128.53568
21988000 -42.418079 -55.011574 -0.024561591 -4.5011206 -0.026278272 -4.491538 -41.619995 -127.61417
22987000 -42.140125 -59.950443 -0.025990246 -4.6994181 -0.027096622 -4.6883368 -41.369099 -127.06956
23986000 -42.042042 -63.91349 -0.025160387 -4.8930612 -0.025316088 -4.89257 -41.256474 -126.89914
24985000 -41.639816 -66.201866 -0.02636135 -5.1031327 -0.026456932 -5.101346 -41.028542 -124.68459
25984000 -41.308784 -68.35759 -0.027633244 -5.3088245 -0.026816094 -5.3126173 -40.715881 -122.83781
26983000 -40.972939 -70.64991 -0.028172798 -5.5137453 -0.027748652 -5.5278473 -40.617611 -122.17517
27982000 -40.853874 -71.448166 -0.029277125 -5.7074943 -0.029181482 -5.7449646 -40.353634 -120.87012
28981000 -40.786766 -72.629822 -0.027353723 -5.9060736 -0.029110597 -5.9327502 -40.117592 -119.84608
29980000 -40.436935 -74.555458 -0.027422756 -6.0988908 -0.02932612 -6.1121545 -39.851788 -119.14831
30979000 -39.999592 -73.338501 -0.024873216 -6.4582601 -0.023579486 -6.449832 -39.345791 -119.52083
31978000 -39.79623 -74.156532 -0.024064394 -6.6514697 -0.025805356 -6.6433969 -39.078518 -118.82616
32977000 -39.614243 -75.78299 -0.024274981 -6.8650379 -0.025911862 -6.8617182 -38.848995 -118.87999
33976000 -39.46059 -76.949348 -0.025327804 -7.061717 -0.026553556 -7.0587468 -38.5382 -118.2074
34975000 -39.134617 -77.678352 -0.025351757 -7.2678227 -0.027312305 -7.2626514 -38.318405 -117.92144
35974000 -38.959141 -78.217461 -0.024526447 -7.4580364 -0.02737326 -7.4620824 -38.064907 -117.00438
36973000 -38.729927 -78.98735 -0.024818283 -7.6604791 -0.027697591 -7.6647797 -37.775616 -115.98508
37972000 -38.565628 -78.620117 -0.024012335 -7.8696108 -0.026955705 -7.8766322 -37.562714 -115.12673
38971000 -38.244213 -78.231514 -0.025405917 -8.0739832 -0.027485797 -8.0845566 -37.401657 -113.73538
39970000 -37.885796 -78.511375 -0.02396366 -8.2678108 -0.027174506 -8.282403 -37.14637 -112.93764
40969000 -37.624355 -78.200256 -0.024137018 -8.459177 -0.026972895 -8.4815197 -36.911465 -111.49532
41968000 -37.254879 -78.11377 -0.024893783 -8.6692648 -0.027619697 -8.6873541 -36.708832 -110.33223
42967000 -36.983891 -78.202927 -0.024177624 -8.8793459 -0.027243536 -8.9005365 -36.517063 -108.48151
43966000 -36.698238 -78.908844 -0.025340041 -9.0783901 -0.02828796 -9.0951185 -36.254047 -107.76509
44965000 -36.458141 -79.670418 -0.025462419 -9.2806129 -0.028880494 -9.3016748 -36.048954 -107.50637
45964000 -36.231853 -80.760971 -0.026793955 -9.4823027 -0.029214319 -9.5059004 -35.80299 -107.18351
46963000 -36.029125 -82.666023 -0.027214622 -9.6804123 -0.030421095 -9.699708 -35.611256 -107.41234
47962000 -35.867367 -84.09552 -0.028543567 -9.8786764 -0.031650111 -9.8953009 -35.421837 -107.46902
48961000 -35.65757 -85.55616 -0.03046098 -10.077166 -0.033125963 -10.099614 -35.185005 -107.5815
49960000 -35.41872 -86.868652 -0.031931736 -10.276313 -0.034255035 -10.298328 -35.066654 -107.6098
50959000 -35.19569 -88.151245 -0.032627784 -10.493171 -0.035157613 -10.49941 -34.873043 -107.86305
51958000 -34.981037 -89.099174 -0.034249295 -10.690644 -0.036973517 -10.699555 -34.699844 -108.28729
52957000 -34.765427 -90.296516 -0.036011834 -10.889028 -0.038215358 -10.897033 -34.543892 -108.11704
53956000 -34.601078 -90.903389 -0.037009545 -11.093763 -0.039447889 -11.094166 -34.408413 -108.10149
54955000 -34.448215 -91.346024 -0.038408089 -11.296297 -0.039071225 -11.289267 -34.247772 -108.00141
55954000 -34.267334 -92.159966 -0.039465912 -11.497725 -0.039881017 -11.490892 -34.143768 -107.65933
56953000 -34.147022 -92.232849 -0.03882518 -11.692756 -0.039393295 -11.684312 -34.074089 -107.94154
57952000 -33.979885 -92.79171 -0.040023137 -11.889176 -0.040305041 -11.880255 -33.971542 -108.00535
58951000 -33.855904 -93.153687 -0.041223254 -12.09531 -0.041867737 -12.077861 -33.815937 -108.10439
59950000 -33.7453 -93.449402 -0.041769203 -12.30197 -0.041433889 -12.276237 -33.742107 -108.27808
60949000 -33.611053 -94.001755 -0.041860942 -12.497512 -0.042114995 -12.480589 -33.651466 -108.62922
61948000 -33.552044 -94.356178 -0.042387366 -12.698195 -0.042520158 -12.680522 -33.561005 -108.69844
62947000 -33.462044 -94.525986 -0.043476749 -12.910198 -0.043308109 -12.891441 -33.421967 -108.94728
63946000 -33.389778 -95.319939 -0.044029519 -13.109305 -0.04395055 -13.091926 -33.312813 -109.01427
64945000 -33.284306 -95.458969 -0.044690896 -13.310898 -0.044627868 -13.294694 -33.21196 -109.57368
65944000 -33.182457 -95.771843 -0.045520574 -13.510221 -0.044911377 -13.49334 -33.099876 -110.07178
66943000 -33.038074 -96.138138 -0.043452173 -13.713798 -0.04324327 -13.695358 -32.987812 -110.29932
67942000 -32.975101 -96.146599 -0.04574842 -13.910994 -0.045200925 -13.898983 -32.886635 -110.57732
68941000 -32.881424 -96.222023 -0.045015737 -14.105798 -0.044570591 -14.097907 -32.768127 -110.49055
69940000 -32.772358 -96.217514 -0.045430064 -14.303335 -0.045053925 -14.296971 -32.623569 -110.79547
70939000 -32.668438 -96.070778 -0.045780338 -14.500821 -0.044536069 -14.491763 -32.499855 -110.65644
71938000 -32.521217 -95.744316 -0.04513815 -14.695234 -0.045082174 -14.685062 -32.35582 -110.61984
72937000 -32.366848 -95.468475 -0.04481199 -14.898448 -0.04485096 -14.88797 -32.22892 -110.22701
73936000 -32.218468 -95.095535 -0.044262521 -15.096849 -0.044614527 -15.089913 -32.104996 -110.01529
74935000 -32.090813 -95.363571 -0.043889623 -15.29251 -0.043279611 -15.29003 -31.951479 -109.67744
75934000 -31.975122 -95.622437 -0.043871317 -15.500459 -0.042738438 -15.494136 -31.862024 -109.61778
76933000 -31.844275 -95.885818 -0.045068312 -15.691962 -0.044862468 -15.685156 -31.691166 -109.9584
77932000 -31.739927 -96.726631 -0.046490908 -15.891483 -0.046176158 -15.883318 -31.588623 -109.92448
78931000 -31.659647 -97.493141 -0.04533302 -16.088772 -0.04491321 -16.085882 -31.487501 -109.74401
79930000 -31.542849 -98.364494 -0.047384258 -16.287207 -0.047982283 -16.283844 -31.395439 -110.05558
80929000 -31.434906 -99.168961 -0.048878033 -16.482853 -0.04920188 -16.481066 -31.292465 -110.29946
81928000 -31.333664 -99.836464 -0.049517371 -16.675316 -0.050265741 -16.67132 -31.169422 -110.2559
82927000 -31.237829 -100.58594 -0.051017907 -16.869972 -0.051357627 -16.872345 -31.05504 -110.59135
83926000 -31.121098 -101.28424 -0.051687159 -17.066418 -0.051944148 -17.069778 -30.942181 -110.77384
84925000 -31.010983 -101.71607 -0.053601451 -17.271996 -0.052603062 -17.264395 -30.835415 -110.82627
85924000 -30.921501 -102.10883 -0.054143455 -17.471056 -0.053751621 -17.468435 -30.761995 -110.82091
86923000 -30.813704 -102.61725 -0.054735333 -17.667261 -0.054459829 -17.661707 -30.652124 -110.6385
87922000 -30.694185 -102.95425 -0.054343447 -17.87388 -0.053459935 -17.865465 -30.567064 -110.67139
88921000 -30.622833 -103.23904 -0.056141958 -18.074396 -0.054729041 -18.072931 -30.477804 -110.66648
89920000 -30.529467 -103.72765 -0.05645664 -18.269547 -0.055417482 -18.267647 -30.416512 -110.77851
90919000 -30.418625 -103.98006 -0.057086341 -18.467056 -0.055962596 -18.468864 -30.334261 -110.96707
91918000 -30.326328 -104.3942 -0.057860937 -18.668276 -0.056573343 -18.664499 -30.258327 -110.98824
92917000 -30.231995 -104.64664 -0.059699748 -18.867577 -0.057317421 -18.868401 -30.195982 -111.11056
93916000 -30.147696 -105.02409 -0.058814093 -19.06489 -0.057247125 -19.059317 -30.10224 -111.70461
94915000 -30.068712 -105.67055 -0.060361151 -19.262985 -0.058517605 -19.256371 -30.040506 -111.61227
95914000 -30.00412 -105.83332 -0.06082052 -19.460796 -0.059979782 -19.456312 -29.957411 -111.8006
96913000 -29.912777 -106.03088 -0.061588958 -19.658836 -0.060518645 -19.656841 -29.890305 -112.16103
97912000 -29.837954 -106.50987 -0.063349493 -19.855556 -0.061040509 -19.857147 -29.810738 -112.41995
98911000 -29.738716 -106.66477 -0.063642636 -20.060402 -0.062155854 -20.056984 -29.761652 -112.59244
99910000 -29.666058 -106.83966 -0.064258933 -20.258467 -0.062144037 -20.258747 -29.656507 -112.9715
100909000 -29.574047 -107.05266 -0.063339777 -20.468145 -0.061185163 -20.461376 -29.575623 -113.13615
101908000 -29.479103 -107.27435 -0.065246865 -20.665932 -0.063511558 -20.662313 -29.461197 -112.89645
102907000 -29.350067 -107.24322 -0.065528572 -20.868671 -0.063528635 -20.867554 -29.388138 -112.8812
103906000 -29.254719 -107.33202 -0.065673634 -21.073799 -0.063129388 -21.065948 -29.24317 -112.78342
104905000 -29.10717 -107.25572 -0.066381954 -21.271721 -0.063173778 -21.273378 -29.112877 -112.49723
105904000 -28.962477 -107.32427 -0.066701584 -21.471153 -0.063444056 -21.466459 -29.004459 -112.36668
106903000 -28.853489 -107.36755 -0.065775082 -21.680981 -0.063629769 -21.672966 -28.881262 -112.27689
107902000 -28.689121 -107.68644 -0.06735906 -21.881355 -0.06489554 -21.871798 -28.749382 -112.20765
108901000 -28.58432 -107.94283 -0.068660378 -22.084497 -0.065789275 -22.074099 -28.612402 -112.16061
109900000 -28.456255 -108.42443 -0.068805285 -22.28224 -0.066414021 -22.272926 -28.4687 -112.27093
110899000 -28.335764 -109.01293 -0.070962369 -22.480772 -0.067396656 -22.471964 -28.341269 -112.51041
111898000 -28.24078 -109.65049 -0.071745232 -22.681082 -0.068973869 -22.677839 -28.227613 -112.60667
112897000 -28.117659 -110.22491 -0.073130257 -22.880308 -0.069732964 -22.870125 -28.096785 -112.79073
113896000 -28.010403 -110.80066 -0.074178405 -23.084269 -0.071269445 -23.070557 -27.98959 -112.90453
114895000 -27.918669 -111.4753 -0.075505473 -23.280197 -0.072342411 -23.268908 -27.87686 -113.02139
115894000 -27.792938 -111.79186 -0.076634288 -23.483648 -0.073740266 -23.469002 -27.806831 -113.16711
116893000 -27.712856 -112.25943 -0.077650867 -23.676384 -0.074389331 -23.661091 -27.687805 -113.26849
117892000 -27.632885 -112.7973 -0.077497758 -23.873619 -0.074165508 -23.862894 -27.608273 -113.44896
118891000 -27.57188 -113.21275 -0.07793048 -24.078629 -0.075323731 -24.060352 -27.511234 -113.61335
119890000 -27.487202 -113.5425 -0.077991359 -24.281904 -0.075324789 -24.263861 -27.495823 -113.71667
120889000 -27.432194 -114.06404 -0.079799429 -24.480618 -0.076317877 -24.464167 -27.421101 -113.64716
121888000 -27.397749 -114.34784 -0.078754932 -24.674116 -0.076787628 -24.660763 -27.367136 -113.89869
122887000 -27.361176 -114.58453 -0.080986589 -24.879412 -0.078223027 -24.864424 -27.315561 -113.94398
123886000 -27.301205 -114.96748 -0.081501953 -25.08292 -0.077559948 -25.065271 -27.300861 -114.16549
124885000 -27.269295 -115.49529 -0.081667334 -25.282303 -0.078158982 -25.263601 -27.271933 -114.13936
125884000 -27.219261 -115.6869 -0.082632326 -25.481176 -0.078444161 -25.466854 -27.241383 -114.27731
126883000 -27.204811 -116.0937 -0.082617812 -25.681719 -0.079564512 -25.665234 -27.211346 -114.32121
127882000 -27.15222 -116.37465 -0.082753688 -25.882299 -0.079845041 -25.86241 -27.164055 -114.4225
128881000 -27.118887 -116.72507 -0.083368741 -26.085129 -0.079581127 -26.067005 -27.124887 -114.54933
129880000 -27.069687 -117.03587 -0.083808117 -26.285057 -0.079424523 -26.269361 -27.085449 -114.46504
130879000 -27.004831 -117.17265 -0.084317483 -26.484098 -0.081054367 -26.472307 -27.011494 -114.50494
131878000 -26.94112 -117.40624 -0.084288448 -26.689524 -0.081288837 -26.669832 -26.948725 -114.35457
132877000 -26.878496 -117.48651 -0.084030598 -26.888929 -0.08186543 -26.872833 -26.867764 -114.32948
133876000 -26.79464 -117.6469 -0.084425963 -27.093287 -0.081404097 -27.074646 -26.784157 -114.20888
134875000 -26.694187 -117.77029 -0.084813975 -27.289661 -0.081571057 -27.273386 -26.684288 -114.07214
135874000 -26.615784 -117.81739 -0.083930306 -27.493237 -0.082089126 -27.47121 -26.584227 -114.02141
136873000 -26.500586 -117.71543 -0.085001923 -27.696121 -0.081829555 -27.678392 -26.504484 -113.99345
137872000 -26.418745 -117.88843 -0.084599636 -27.897413 -0.081803709 -27.878162 -26.401482 -113.91376
138871000 -26.344576 -118.06594 -0.085109361 -28.095203 -0.081970684 -28.082813 -26.312155 -114.03793
139870000 -26.245779 -118.3344 -0.086179942 -28.296274 -0.083073214 -28.277584 -26.224426 -114.22401
140869000 -26.1703 -118.9001 -0.087299116 -28.497965 -0.083514407 -28.474394 -26.124317 -114.45179
141868000 -26.082418 -119.29986 -0.087708518 -28.689205 -0.085504562 -28.675648 -26.07712 -114.69972
142867000 -26.008781 -119.4871 -0.087084666 -28.890236 -0.084390067 -28.874071 -25.996096 -114.8065
143866000 -25.928822 -119.96889 -0.088499956 -29.087692 -0.085754052 -29.070311 -25.918365 -115.27626
144865000 -25.870384 -120.48541 -0.090127133 -29.285532 -0.087331869 -29.270315 -25.86858 -115.59654
145864000 -25.811558 -120.78848 -0.090673715 -29.48811 -0.088550948 -29.475637 -25.831907 -115.81427
146863000 -25.77062 -121.14632 -0.091422074 -29.684494 -0.088641301 -29.672211 -25.782976 -116.13809
147862000 -25.726276 -121.51291 -0.092177697 -29.888136 -0.089563712 -29.87295 -25.75424 -116.43205
148861000 -25.700081 -121.93452 -0.093307681 -30.086687 -0.090814337 -30.069313 -25.728024 -116.58312
149860000 -25.66095 -122.12822 -0.093837209 -30.281887 -0.091563515 -30.264378 -25.6765 -116.70709
150859000 -25.637749 -122.60503 -0.094251454 -30.475948 -0.090485521 -30.458557 -25.658556 -117.06622
151858000 -25.630341 -122.93713 -0.093300276 -30.67576 -0.091316596 -30.660952 -25.648407 -117.41238
152857000 -25.61763 -123.31039 -0.093640678 -30.872295 -0.091694377 -30.861361 -25.630211 -117.59443
153856000 -25.610933 -123.46052 -0.093132861 -31.074469 -0.090940952 -31.060459 -25.641159 -117.89994
154855000 -25.610855 -123.63787 -0.0945324 -31.272118 -0.091064401 -31.26149 -25.636301 -118.14443
155854000 -25.626381 -123.9026 -0.094328701 -31.474752 -0.091461733 -31.460787 -25.62417 -118.40833
156853000 -25.611498 -124.56461 -0.091907479 -31.658772 -0.091062814 -31.651541 -25.617289 -118.7152
157852000 -25.619907 -124.7549 -0.09322913 -31.861633 -0.092090711 -31.85323 -25.610733 -119.06975
158851000 -25.618563 -125.0043 -0.094018139 -32.060108 -0.092924729 -32.052227 -25.593006 -119.33898
159850000 -25.605249 -125.12772 -0.095043555 -32.259388 -0.092148088 -32.251175 -25.59277 -119.4774
160849000 -25.588688 -125.21452 -0.094650395 -32.460724 -0.093581691 -32.456898 -25.562445 -119.78568
161848000 -25.573032 -125.27053 -0.095290162 -32.659309 -0.093451031 -32.655334 -25.524652 -119.92999
162847000 -25.534227 -125.47171 -0.095289096 -32.860264 -0.093869738 -32.855869 -25.494192 -120.18785
163846000 -25.497183 -125.68391 -0.095865175 -33.059597 -0.094180293 -33.051964 -25.422884 -120.17299
164845000 -25.43479 -125.6246 -0.095612459 -33.260925 -0.095036149 -33.25153 -25.35396 -120.25463
165844000 -25.380798 -125.70126 -0.095798224 -33.460514 -0.094112575 -33.455853 -25.278677 -120.4269
166843000 -25.322752 -125.73861 -0.096064456 -33.662834 -0.094576851 -33.654915 -25.211807 -120.53619
167842000 -25.268093 -125.85327 -0.09654773 -33.859791 -0.095271103 -33.854969 -25.139196 -120.45656
168841000 -25.190437 -126.0055 -0.096924648 -34.060116 -0.095621981 -34.054317 -25.061247 -120.54478
169840000 -25.118893 -126.22776 -0.097841673 -34.254662 -0.096233301 -34.250427 -24.971979 -120.7168
170839000 -25.062569 -126.49235 -0.097729415 -34.453484 -0.096748888 -34.452118 -24.893913 -120.88398
171838000 -25.001265 -126.90104 -0.097520001 -34.656719 -0.096722953 -34.645958 -24.8316 -121.12659
172837000 -24.928236 -127.21253 -0.09888415 -34.849762 -0.098230883 -34.845978 -24.765352 -121.32069
173836000 -24.865337 -127.63627 -0.10013084 -35.051842 -0.099308416 -35.050285 -24.729551 -121.5164
174835000 -24.812618 -128.03398 -0.10074174 -35.247829 -0.10007124 -35.249054 -24.680954 -121.86354
175834000 -24.762283 -128.40393 -0.10178412 -35.448143 -0.10098495 -35.444656 -24.624315 -122.10364
176833000 -24.709879 -128.72119 -0.10316338 -35.644928 -0.10124514 -35.646706 -24.573755 -122.27733
177832000 -24.667492 -129.15187 -0.10382402 -35.843552 -0.10232051 -35.844185 -24.552549 -122.39892
178831000 -24.615494 -129.37862 -0.10519677 -36.041504 -0.10431293 -36.037163 -24.513456 -122.44234
179830000 -24.552763 -129.7702 -0.10686073 -36.227962 -0.10528032 -36.226856 -24.453276 -122.53141
180829000 -24.503565 -130.15427 -0.10532752 -36.419231 -0.10471758 -36.419872 -24.412092 -122.83521
181828000 -24.479696 -130.53745 -0.10421191 -36.616856 -0.10424187 -36.616638 -24.387562 -123.07059
182827000 -24.455799 -130.93282 -0.10492919 -36.814526 -0.10406847 -36.819809 -24.372206 -123.18518
183826000 -24.415783 -131.26968 -0.10577019 -37.019524 -0.10434078 -37.012798 -24.366463 -123.33938
184825000 -24.418922 -131.62186 -0.10526758 -37.21442 -0.10477804 -37.2136 -24.341892 -123.44794
185824000 -24.390259 -131.97951 -0.10539966 -37.406349 -0.10443305 -37.409172 -24.342079 -123.52878
186823000 -24.371323 -132.32657 -0.10549276 -37.61161 -0.10482683 -37.605747 -24.333149 -123.5261
187822000 -24.347588 -132.68033 -0.10635668 -37.805511 -0.10511562 -37.80262 -24.293886 -123.64679
188821000 -24.326363 -132.96432 -0.10593995 -37.998405 -0.10612854 -38.004093 -24.272627 -123.76008
189820000 -24.306944 -133.2287 -0.10628108 -38.198612 -0.10536147 -38.196613 -24.259592 -123.94135
190819000 -24.269615 -133.53844 -0.1071372 -38.397751 -0.10615189 -38.396149 -24.214096 -124.01169
191818000 -24.241632 -133.82002 -0.10755219 -38.59462 -0.10620654 -38.595486 -24.190683 -124.01746
192817000 -24.191811 -134.10414 -0.10761189 -38.790142 -0.10696846 -38.794071 -24.143274 -124.11525
193816000 -24.163593 -134.36386 -0.10799003 -38.98999 -0.10592005 -38.987583 -24.092617 -124.27565
194815000 -24.105526 -134.74971 -0.10824162 -39.182205 -0.10716585 -39.185894 -24.023546 -124.30849
195814000 -24.049595 -134.95648 -0.10915732 -39.381718 -0.10754582 -39.382282 -23.968779 -124.4124
196813000 -23.994143 -135.28432 -0.1081758 -39.573753 -0.10689576 -39.575539 -23.892521 -124.56201
197812000 -23.933031 -135.49339 -0.10891417 -39.770863 -0.10788017 -39.773727 -23.818167 -124.67008
198811000 -23.877735 -135.66431 -0.10820871 -39.974625 -0.10803939 -39.971256 -23.752604 -124.81698
199810000 -23.811178 -136.01424 -0.10794333 -40.167938 -0.10754077 -40.164268 -23.671528 -124.90763
200809000 -23.748465 -136.26199 -0.10923111 -40.360683 -0.10788282 -40.365597 -23.593378 -125.08732
201808000 -23.695213 -136.47276 -0.1100387 -40.56562 -0.10867158 -40.570778 -23.529404 -125.15632
202807000 -23.635101 -136.79303 -0.11077261 -40.759205 -0.10987993 -40.769421 -23.474455 -125.35166
