!Keysight Technologies,E5080B,MY59205177,A.15.75.32
!Date: Friday, February 23, 2024 02:53:18
!Correction: S11(Cdelta 2-Port  ) 
!S21(Cdelta 2-Port  ) 
!S12(Cdelta 2-Port  ) 
!S22(Cdelta 2-Port  ) 
!S2P File: Measurements: S11, S21, S12, S22:
# Hz S  dB   R 50
10000000 -43.398449 -3.6596286 -0.032567278 -2.0468233 -0.035578046 -2.0967474 -49.182819 -146.30777
10999000 -42.79184 -5.2850547 -0.034464289 -2.2624676 -0.035489835 -2.3148177 -48.884071 -137.75142
11998000 -42.05542 -7.5062585 -0.034780536 -2.4830186 -0.035052184 -2.5298247 -48.986404 -131.1067
12997000 -41.454601 -11.741214 -0.033606984 -2.6654339 -0.034472637 -2.697988 -48.159027 -124.46723
13996000 -41.262573 -15.073838 -0.032751672 -2.8442264 -0.035509668 -2.866678 -47.588413 -118.73053
14995000 -40.963562 -18.31493 -0.034669898 -3.0550539 -0.034852296 -3.0785828 -47.075718 -115.84998
15994000 -40.888317 -21.915493 -0.036041848 -3.2724063 -0.037527028 -3.2917786 -46.760586 -111.64337
16993000 -40.83699 -25.895403 -0.035423804 -3.4714429 -0.036159568 -3.4773417 -45.857494 -113.43125
17992000 -40.975658 -30.007671 -0.035505492 -3.6690888 -0.036151215 -3.6699324 -45.262093 -114.87653
18991000 -41.199299 -33.842094 -0.037308488 -3.8784392 -0.038619112 -3.8795671 -44.528229 -114.47262
19990000 -41.13332 -38.682961 -0.039080102 -4.0878396 -0.03986064 -4.0809093 -43.769672 -116.41999
20989000 -41.096779 -41.731236 -0.041180655 -4.2891712 -0.041843951 -4.2784839 -43.166218 -117.07719
21988000 -41.056583 -46.075462 -0.042094871 -4.4866381 -0.042506304 -4.471591 -42.918961 -116.2821
22987000 -40.872429 -50.211704 -0.043346543 -4.6870866 -0.043192547 -4.6749167 -42.609756 -115.89905
23986000 -40.88842 -53.902573 -0.042984962 -4.8781161 -0.042545252 -4.8749785 -42.473907 -116.40247
24985000 -40.600853 -56.578262 -0.043156728 -5.0854473 -0.042977642 -5.0873747 -42.20179 -113.84538
25984000 -40.399063 -58.871281 -0.045031432 -5.2933044 -0.043612976 -5.2934613 -41.83876 -112.39401
26983000 -40.12991 -60.808647 -0.045892827 -5.4917464 -0.044538423 -5.5075192 -41.690319 -111.61757
27982000 -39.997234 -61.726143 -0.046737649 -5.6935968 -0.04628709 -5.725153 -41.33746 -110.3416
28981000 -39.993954 -63.193104 -0.044372879 -5.8900714 -0.04559565 -5.9156051 -41.086281 -109.75852
29980000 -39.682377 -64.838844 -0.044549931 -6.0811214 -0.046321101 -6.088604 -40.75108 -108.97127
30979000 -39.322193 -64.327583 -0.042508654 -6.4376235 -0.041621011 -6.4274454 -40.225285 -110.27303
31978000 -39.124538 -65.360268 -0.041606378 -6.6293545 -0.042052265 -6.6208329 -39.920784 -109.68578
32977000 -38.986797 -66.953674 -0.040953308 -6.841259 -0.042369328 -6.8373232 -39.686382 -109.8362
33976000 -38.842937 -68.161774 -0.041991625 -7.0434351 -0.043144964 -7.0348878 -39.374836 -109.5595
34975000 -38.543709 -69.130226 -0.04225301 -7.2419319 -0.043493744 -7.241219 -39.118511 -109.29397
35974000 -38.375202 -69.977608 -0.04188551 -7.4353552 -0.043779273 -7.4387293 -38.798096 -108.72746
36973000 -38.149792 -70.704346 -0.041827746 -7.6361394 -0.043757834 -7.6420321 -38.51181 -107.92582
37972000 -37.997559 -70.800941 -0.041497916 -7.8448334 -0.044170208 -7.8574452 -38.269367 -107.32565
38971000 -37.681099 -70.598618 -0.043101825 -8.0454369 -0.044521686 -8.0554361 -38.049801 -105.70924
39970000 -37.356693 -71.321854 -0.041299559 -8.2422457 -0.043421842 -8.2592163 -37.758804 -105.38149
40969000 -37.079292 -71.315903 -0.041193463 -8.4361935 -0.0430464 -8.4559422 -37.48217 -104.18122
41968000 -36.736565 -71.419281 -0.041026477 -8.6396008 -0.044124182 -8.6546774 -37.261757 -102.92229
42967000 -36.482357 -71.778618 -0.041926805 -8.8517647 -0.043963101 -8.8704157 -37.024914 -101.13369
43966000 -36.206043 -72.639557 -0.042545252 -9.0522223 -0.045719907 -9.0677109 -36.733074 -100.61239
44965000 -35.990917 -73.5187 -0.04316039 -9.2552052 -0.045031171 -9.269207 -36.508808 -100.51221
45964000 -35.802616 -74.805374 -0.043729853 -9.4529514 -0.046479136 -9.4724884 -36.267117 -100.55872
46963000 -35.634899 -76.752213 -0.044530839 -9.6470699 -0.04676643 -9.6680136 -36.079422 -100.85876
47962000 -35.509338 -78.221222 -0.045619454 -9.8501854 -0.048930652 -9.8693342 -35.864639 -101.1944
48961000 -35.307625 -79.784843 -0.04819246 -10.047279 -0.049979258 -10.06632 -35.646614 -101.47916
49960000 -35.104458 -81.308502 -0.049104489 -10.246243 -0.050962903 -10.26526 -35.508438 -101.69304
50959000 -34.909676 -82.701569 -0.050220173 -10.459048 -0.052136179 -10.467798 -35.33551 -102.1631
51958000 -34.727745 -83.865005 -0.052313548 -10.656802 -0.053646527 -10.664214 -35.156612 -102.8256
52957000 -34.531574 -84.894295 -0.053344101 -10.857002 -0.054889213 -10.862956 -34.987324 -102.61211
53956000 -34.38023 -85.76226 -0.054375164 -11.055235 -0.055809464 -11.06295 -34.856861 -102.74223
54955000 -34.221199 -86.426636 -0.055563521 -11.260457 -0.056627106 -11.256182 -34.706631 -102.76226
55954000 -34.071423 -87.254044 -0.056286186 -11.460793 -0.056445889 -11.457352 -34.5779 -102.46432
56953000 -33.955395 -87.390854 -0.055537827 -11.651874 -0.055673644 -11.644632 -34.513195 -102.89101
57952000 -33.800732 -88.043846 -0.056924514 -11.855268 -0.05651696 -11.847445 -34.416679 -102.92994
58951000 -33.684841 -88.41571 -0.05751992 -12.060316 -0.057789583 -12.038633 -34.256542 -103.09978
59950000 -33.56179 -88.856117 -0.058905669 -12.260737 -0.059196673 -12.234746 -34.186241 -103.35632
60949000 -33.448223 -89.494453 -0.058698643 -12.463484 -0.058632787 -12.438885 -34.097763 -103.75695
61948000 -33.404976 -89.80117 -0.060224924 -12.661101 -0.058822751 -12.639727 -33.994736 -103.80793
62947000 -33.311939 -90.030159 -0.060256422 -12.868612 -0.059830446 -12.848677 -33.867191 -104.13652
63946000 -33.24577 -90.815094 -0.061224807 -13.070149 -0.060663544 -13.048278 -33.759953 -104.36099
64945000 -33.14917 -90.927605 -0.061425913 -13.270005 -0.061159171 -13.250194 -33.654968 -104.86931
65944000 -33.045841 -91.287239 -0.062068675 -13.472652 -0.062276646 -13.451024 -33.54908 -105.36635
66943000 -32.903316 -91.744728 -0.060301833 -13.670378 -0.059803151 -13.65242 -33.46553 -105.5861
67942000 -32.842072 -91.679466 -0.062319715 -13.866162 -0.06188802 -13.852977 -33.347378 -105.98675
68941000 -32.73315 -91.786041 -0.062091783 -14.060061 -0.061244234 -14.052313 -33.224327 -105.94443
69940000 -32.631668 -91.788277 -0.062508002 -14.258301 -0.061691619 -14.249393 -33.085464 -106.29474
70939000 -32.524868 -91.829971 -0.061559815 -14.454593 -0.061562438 -14.449259 -32.951572 -106.21632
71938000 -32.378914 -91.400482 -0.061850995 -14.649747 -0.061356861 -14.647947 -32.818699 -106.04203
72937000 -32.231373 -91.259521 -0.061831828 -14.84963 -0.061805833 -14.844605 -32.686222 -105.82572
73936000 -32.085293 -90.99128 -0.06070292 -15.051784 -0.060670629 -15.041895 -32.56316 -105.67632
74935000 -31.95311 -91.247185 -0.061024759 -15.244415 -0.059603695 -15.240561 -32.403629 -105.29041
75934000 -31.846546 -91.57254 -0.061062038 -15.454789 -0.059784777 -15.44754 -32.310078 -105.26208
76933000 -31.707737 -91.992935 -0.06223122 -15.64253 -0.061514392 -15.638191 -32.139774 -105.6468
77932000 -31.616716 -92.852852 -0.062974162 -15.84225 -0.063024066 -15.835068 -32.044407 -105.656
78931000 -31.551878 -93.552666 -0.061836556 -16.044069 -0.062273495 -16.036631 -31.951981 -105.55426
79930000 -31.441992 -94.373604 -0.064574204 -16.234053 -0.064329602 -16.235615 -31.861328 -105.90773
80929000 -31.322844 -95.351822 -0.066112012 -16.426891 -0.065840781 -16.427982 -31.754946 -106.24117
81928000 -31.245245 -96.252602 -0.066120952 -16.62484 -0.065714896 -16.618765 -31.627802 -106.40471
82927000 -31.153564 -96.952621 -0.06799797 -16.816751 -0.067721888 -16.818253 -31.51944 -106.77352
83926000 -31.048126 -97.719688 -0.069616169 -17.01786 -0.068605937 -17.015881 -31.417961 -106.99606
84925000 -30.93589 -98.259056 -0.070462987 -17.217428 -0.068745583 -17.214621 -31.315119 -107.10595
85924000 -30.86307 -98.729042 -0.070839755 -17.41531 -0.07053981 -17.41461 -31.226278 -107.12578
86923000 -30.750317 -99.282082 -0.071567334 -17.614775 -0.070877902 -17.611626 -31.127544 -107.0781
87922000 -30.649982 -99.669083 -0.071183659 -17.821764 -0.070243306 -17.809811 -31.047768 -107.16064
88921000 -30.576042 -99.986877 -0.072299771 -18.015911 -0.070787393 -18.01363 -30.945862 -107.16715
89920000 -30.485489 -100.55901 -0.072660372 -18.218832 -0.072407156 -18.209991 -30.890835 -107.34232
90919000 -30.385311 -100.90588 -0.073337711 -18.413692 -0.072023675 -18.411097 -30.805105 -107.58382
91918000 -30.297489 -101.31318 -0.074151546 -18.613752 -0.072729342 -18.612053 -30.73591 -107.58492
92917000 -30.212475 -101.64085 -0.075405121 -18.814785 -0.073590979 -18.809324 -30.676516 -107.74342
93916000 -30.117619 -102.04652 -0.075369298 -19.003437 -0.074060179 -19.000603 -30.588949 -108.39883
94915000 -30.046768 -102.6674 -0.076694094 -19.208149 -0.074526794 -19.201097 -30.51786 -108.24065
95914000 -29.983793 -102.92857 -0.077823743 -19.402987 -0.075734109 -19.396326 -30.437956 -108.5481
96913000 -29.903627 -103.1856 -0.078337416 -19.601772 -0.076943085 -19.599434 -30.37117 -108.92126
97912000 -29.830399 -103.69746 -0.07987088 -19.797398 -0.077338599 -19.797844 -30.287848 -109.12901
98911000 -29.728706 -103.86834 -0.080100015 -19.999704 -0.07875625 -19.996664 -30.255884 -109.38074
99910000 -29.663986 -104.03316 -0.081096038 -20.198193 -0.078853257 -20.194672 -30.14122 -109.67682
100909000 -29.569925 -104.29794 -0.080444656 -20.401239 -0.077973172 -20.398926 -30.057447 -109.86746
101908000 -29.48506 -104.52888 -0.081244528 -20.60783 -0.079516269 -20.604618 -29.9433 -109.624
102907000 -29.345552 -104.57684 -0.082048237 -20.802011 -0.079898305 -20.801254 -29.863712 -109.61314
103906000 -29.254763 -104.67357 -0.082554497 -21.009199 -0.07917513 -21.003399 -29.710785 -109.57628
104905000 -29.10792 -104.56689 -0.082904875 -21.206448 -0.079092085 -21.205486 -29.581408 -109.2763
105904000 -28.964336 -104.74635 -0.082605675 -21.407492 -0.079482518 -21.402519 -29.461578 -109.15288
106903000 -28.86142 -104.80019 -0.082400158 -21.620329 -0.079768315 -21.60836 -29.336563 -109.04591
107902000 -28.692993 -105.15505 -0.083465323 -21.814316 -0.081271164 -21.804346 -29.195955 -109.05424
108901000 -28.586494 -105.46678 -0.084368423 -22.016554 -0.082183309 -22.009661 -29.065681 -108.97268
109900000 -28.458218 -105.94123 -0.085278839 -22.215014 -0.083332591 -22.207064 -28.907848 -109.09451
110899000 -28.348345 -106.5749 -0.086905338 -22.411047 -0.083420992 -22.406496 -28.786762 -109.38342
111898000 -28.263771 -107.33387 -0.088434435 -22.615183 -0.084978692 -22.607813 -28.663279 -109.53612
112897000 -28.132051 -107.90472 -0.090007946 -22.813671 -0.086002238 -22.801525 -28.528877 -109.74266
113896000 -28.030527 -108.51529 -0.09047918 -23.013096 -0.087335832 -23.00248 -28.423683 -109.87952
114895000 -27.924768 -109.18353 -0.091486841 -23.214214 -0.088392697 -23.198959 -28.306068 -110.03626
115894000 -27.80555 -109.56387 -0.092914678 -23.41305 -0.08967153 -23.401369 -28.236523 -110.22496
116893000 -27.724543 -110.12833 -0.093679562 -23.60874 -0.090259016 -23.594185 -28.110491 -110.41118
117892000 -27.643625 -110.63269 -0.093347885 -23.802673 -0.091104582 -23.791002 -28.044472 -110.61169
118891000 -27.587265 -111.04855 -0.09454193 -24.00563 -0.091272712 -23.993389 -27.946943 -110.7672
119890000 -27.49663 -111.46571 -0.095647916 -24.201498 -0.092115037 -24.193628 -27.933641 -110.953
120889000 -27.446743 -111.98369 -0.096792303 -24.40469 -0.092298806 -24.392973 -27.857727 -110.91589
121888000 -27.402603 -112.33372 -0.096582666 -24.604723 -0.093113825 -24.589916 -27.803354 -111.22106
122887000 -27.365911 -112.51675 -0.096902676 -24.80504 -0.094198279 -24.79184 -27.75379 -111.24847
123886000 -27.31217 -112.96494 -0.098014824 -25.012236 -0.094430283 -24.988163 -27.740173 -111.44187
124885000 -27.276438 -113.48727 -0.09794572 -25.206255 -0.094841942 -25.195894 -27.714952 -111.49825
125884000 -27.224236 -113.68462 -0.09872473 -25.406055 -0.09522295 -25.387331 -27.6849 -111.69241
126883000 -27.206959 -114.09382 -0.099163547 -25.607506 -0.095865175 -25.589949 -27.641642 -111.73602
127882000 -27.149677 -114.37193 -0.099455141 -25.805759 -0.096346579 -25.786657 -27.598791 -111.91633
128881000 -27.124897 -114.67464 -0.099571943 -26.00672 -0.096652545 -25.991114 -27.557682 -112.0333
129880000 -27.068237 -115.00118 -0.09998621 -26.209053 -0.096170053 -26.190838 -27.5154 -111.98663
130879000 -27.009117 -115.1727 -0.10015548 -26.407417 -0.097306892 -26.392359 -27.44183 -112.05896
131878000 -26.942963 -115.35399 -0.10035601 -26.610979 -0.097577982 -26.591492 -27.379204 -111.94349
132877000 -26.877626 -115.4601 -0.10036237 -26.810486 -0.097936988 -26.79269 -27.286188 -111.9315
133876000 -26.785908 -115.65296 -0.10087235 -27.009554 -0.097433701 -26.992584 -27.196299 -111.84195
134875000 -26.691612 -115.75904 -0.10115346 -27.21463 -0.09783002 -27.190945 -27.084774 -111.7143
135874000 -26.606161 -115.75851 -0.10115638 -27.408978 -0.097929046 -27.392561 -26.989534 -111.7376
136873000 -26.493254 -115.71787 -0.10253572 -27.613003 -0.098274045 -27.595699 -26.900837 -111.65806
137872000 -26.418913 -115.83979 -0.10138875 -27.814558 -0.099139705 -27.798096 -26.797295 -111.65125
138871000 -26.343868 -116.01243 -0.10217235 -28.012907 -0.098723143 -27.996988 -26.697172 -111.86115
139870000 -26.2453 -116.30706 -0.10277452 -28.218222 -0.10022382 -28.196396 -26.617069 -112.0114
140869000 -26.162397 -116.7382 -0.10454839 -28.4125 -0.10110366 -28.389112 -26.508884 -112.14128
141868000 -26.067383 -117.26001 -0.10460408 -28.603121 -0.10214347 -28.586226 -26.438412 -112.46378
142867000 -25.987427 -117.49911 -0.10306107 -28.80047 -0.10088798 -28.785088 -26.360052 -112.68092
143866000 -25.915655 -118.04794 -0.10468098 -28.997318 -0.10228843 -28.982775 -26.289457 -113.20537
144865000 -25.85457 -118.5909 -0.10656944 -29.195583 -0.10347089 -29.1821 -26.234972 -113.52567
145864000 -25.807774 -118.9099 -0.10630999 -29.396961 -0.10493158 -29.382826 -26.195993 -113.85236
146863000 -25.755344 -119.28114 -0.10756598 -29.593679 -0.10525963 -29.583015 -26.152452 -114.14998
147862000 -25.718393 -119.65987 -0.10882659 -29.791769 -0.10591953 -29.779064 -26.113247 -114.49709
148861000 -25.687452 -120.22406 -0.10875651 -29.991364 -0.10672888 -29.975468 -26.085337 -114.76009
149860000 -25.671095 -120.37627 -0.10918705 -30.190966 -0.10711969 -30.176397 -26.059107 -114.93034
150859000 -25.65605 -120.78606 -0.1098125 -30.393051 -0.10641742 -30.373705 -26.051208 -115.18357
151858000 -25.635849 -121.07333 -0.10988948 -30.589531 -0.10783638 -30.572453 -26.042303 -115.5001
152857000 -25.617956 -121.40939 -0.10974586 -30.784742 -0.10750972 -30.771877 -26.023493 -115.59174
153856000 -25.609684 -121.60402 -0.1098024 -30.982527 -0.10674454 -30.969847 -26.042356 -115.92495
154855000 -25.601606 -121.81166 -0.11038253 -31.182686 -0.10736034 -31.170115 -26.024599 -116.16698
155854000 -25.613722 -122.06161 -0.11079545 -31.380779 -0.10760791 -31.367706 -26.022787 -116.3967
156853000 -25.597967 -122.76349 -0.10831381 -31.569937 -0.10684694 -31.564472 -26.016775 -116.72528
157852000 -25.602604 -122.94356 -0.10962878 -31.769884 -0.10839024 -31.760374 -26.005367 -117.05727
158851000 -25.595894 -123.22758 -0.11061328 -31.96895 -0.10815059 -31.957514 -25.991011 -117.35492
159850000 -25.583897 -123.32998 -0.11088015 -32.167969 -0.10849401 -32.159737 -25.990047 -117.49651
160849000 -25.561996 -123.4483 -0.11135791 -32.364765 -0.10950772 -32.361389 -25.958912 -117.77768
161848000 -25.538597 -123.55269 -0.11176375 -32.567738 -0.10906494 -32.562428 -25.916134 -117.8677
162847000 -25.498289 -123.76637 -0.11161819 -32.761639 -0.11016507 -32.760044 -25.886793 -118.13103
163846000 -25.453886 -124.00255 -0.11214676 -32.963573 -0.11001799 -32.957199 -25.808426 -118.11414
164845000 -25.390429 -123.97292 -0.11217864 -33.163235 -0.11043803 -33.157036 -25.73922 -118.24122
165844000 -25.33305 -124.06905 -0.11244535 -33.363682 -0.11060531 -33.355568 -25.656664 -118.41872
166843000 -25.271023 -124.14281 -0.11183865 -33.558182 -0.11056336 -33.555408 -25.5797 -118.55333
167842000 -25.211142 -124.24039 -0.11285447 -33.759769 -0.11051636 -33.755383 -25.502453 -118.48969
168841000 -25.133614 -124.47108 -0.11323971 -33.954216 -0.11066745 -33.951344 -25.420919 -118.55677
169840000 -25.070372 -124.71996 -0.11312015 -34.151463 -0.11180305 -34.148724 -25.33322 -118.74815
170839000 -25.009472 -125.00319 -0.11389896 -34.34655 -0.11255692 -34.346924 -25.250965 -118.94721
171838000 -24.952644 -125.45535 -0.11335343 -34.551517 -0.11368451 -34.545219 -25.186995 -119.22382
172837000 -24.882986 -125.80494 -0.11524327 -34.745792 -0.11398692 -34.740894 -25.118362 -119.43154
173836000 -24.820517 -126.22828 -0.11665235 -34.94421 -0.11518931 -34.940571 -25.074682 -119.66286
174835000 -24.764219 -126.67594 -0.11701746 -35.140388 -0.11568801 -35.139679 -25.022537 -119.99982
175834000 -24.716486 -127.07401 -0.11753897 -35.338882 -0.11700043 -35.333069 -24.967638 -120.30217
176833000 -24.665144 -127.47301 -0.11839492 -35.53569 -0.11719483 -35.533833 -24.911482 -120.4767
177832000 -24.619141 -127.95844 -0.11894321 -35.731747 -0.11742275 -35.734299 -24.889288 -120.65132
178831000 -24.577356 -128.34618 -0.11974568 -35.92881 -0.11842418 -35.926414 -24.855679 -120.90223
179830000 -24.542822 -128.78551 -0.12008364 -36.123703 -0.11879741 -36.13047 -24.829647 -121.03543
180829000 -24.50596 -128.98213 -0.11991066 -36.323437 -0.11862237 -36.320847 -24.798649 -121.20506
181828000 -24.481262 -129.37521 -0.12087514 -36.521626 -0.11897859 -36.519909 -24.783043 -121.34047
182827000 -24.456499 -129.72507 -0.12010599 -36.715496 -0.11972014 -36.716969 -24.769802 -121.43271
183826000 -24.416483 -130.03279 -0.12139606 -36.914734 -0.11951046 -36.910385 -24.763725 -121.55012
184825000 -24.422642 -130.35367 -0.12099279 -37.109676 -0.12048043 -37.109032 -24.74885 -121.64677
185824000 -24.396833 -130.69514 -0.12097549 -37.299557 -0.120568 -37.30328 -24.745539 -121.72318
186823000 -24.379854 -131.07745 -0.12173973 -37.504383 -0.12005942 -37.504189 -24.740477 -121.71481
187822000 -24.361986 -131.40082 -0.12217236 -37.697529 -0.1207732 -37.695793 -24.706594 -121.74978
188821000 -24.341522 -131.63503 -0.12153741 -37.892616 -0.12089564 -37.898811 -24.686764 -121.8554
189820000 -24.327503 -131.9117 -0.12211671 -38.096645 -0.12189787 -38.094433 -24.680328 -122.0158
190819000 -24.300043 -132.15991 -0.12406977 -38.295387 -0.12251237 -38.292923 -24.646727 -121.97068
191818000 -24.262701 -132.33124 -0.12455218 -38.489098 -0.12383831 -38.49099 -24.616007 -121.84092
192817000 -24.190256 -132.62737 -0.12556858 -38.673382 -0.12436917 -38.676888 -24.536739 -121.90664
193816000 -24.158773 -132.97531 -0.12376826 -38.868252 -0.12270036 -38.867115 -24.480284 -122.18334
194815000 -24.095928 -133.42361 -0.12411718 -39.065643 -0.12340232 -39.066639 -24.415932 -122.31607
195814000 -24.046803 -133.65253 -0.12453726 -39.262833 -0.12358076 -39.263149 -24.362253 -122.38993
196813000 -23.990898 -133.99944 -0.12412251 -39.4571 -0.12314453 -39.458565 -24.284672 -122.56682
197812000 -23.935532 -134.20445 -0.12451142 -39.65202 -0.12387906 -39.655376 -24.216269 -122.67593
198811000 -23.88098 -134.39893 -0.12469789 -39.850708 -0.12371259 -39.852802 -24.147083 -122.86259
199810000 -23.811049 -134.78564 -0.12482737 -40.047215 -0.12374269 -40.045113 -24.070145 -122.95085
200809000 -23.755859 -135.0891 -0.12501013 -40.241631 -0.12375548 -40.244465 -23.987379 -123.17986
201808000 -23.694473 -135.31013 -0.12609565 -40.441547 -0.12498216 -40.445839 -23.921295 -123.2276
202807000 -23.632803 -135.65756 -0.12641385 -40.642712 -0.12499787 -40.647671 -23.860546 -123.46802
203806000 -23.582724 -136.12822 -0.12816088 -40.843632 -0.12567143 -40.846436 -23.797255 -123.62384
