!Keysight Technologies,E5080B,MY59205177,A.15.75.32
!Date: Friday, February 23, 2024 02:53:25
!Correction: S11(Cdelta 2-Port  ) 
!S21(Cdelta 2-Port  ) 
!S12(Cdelta 2-Port  ) 
!S22(Cdelta 2-Port  ) 
!S2P File: Measurements: S11, S21, S12, S22:
# Hz S  dB   R 50
10000000 -43.450268 -3.6590195 -0.032156002 -2.0443752 -0.036126941 -2.0962827 -49.157501 -146.00986
10999000 -42.826233 -5.2292471 -0.032734718 -2.2624629 -0.035773009 -2.3192999 -48.804966 -137.55339
11998000 -42.076229 -7.5570855 -0.033620548 -2.4855943 -0.035336901 -2.5300074 -48.897179 -131.35132
12997000 -41.485275 -11.80798 -0.032868259 -2.663512 -0.035375264 -2.6967933 -48.03957 -124.55573
13996000 -41.252819 -15.019995 -0.031667061 -2.8430507 -0.035203543 -2.8603799 -47.565308 -118.94004
14995000 -40.992786 -18.472416 -0.034158237 -3.0527813 -0.034776624 -3.0759497 -47.069965 -115.33299
15994000 -40.886753 -22.239016 -0.034965288 -3.2695241 -0.037351567 -3.2941699 -46.774834 -112.21452
16993000 -40.883247 -25.749107 -0.034676686 -3.4670053 -0.036574878 -3.4743538 -45.84074 -113.16833
17992000 -40.982281 -30.169411 -0.035038095 -3.6656148 -0.037486557 -3.6668303 -45.245571 -114.6462
18991000 -41.234364 -34.066414 -0.035596315 -3.8756888 -0.037967537 -3.8761678 -44.476067 -114.76517
19990000 -41.172298 -39.048817 -0.037978765 -4.0847311 -0.04005475 -4.0800147 -43.804104 -116.80867
20989000 -41.071186 -41.700069 -0.040194787 -4.2884655 -0.042472322 -4.2781391 -43.164742 -116.98257
21988000 -41.012634 -46.302624 -0.041212276 -4.4823589 -0.042891894 -4.4714956 -42.867046 -116.65025
22987000 -40.890522 -50.422958 -0.042538457 -4.6841445 -0.043780059 -4.6752234 -42.601128 -115.98686
23986000 -40.890453 -53.978935 -0.04149086 -4.8792582 -0.042036843 -4.8763041 -42.458076 -116.08799
24985000 -40.607792 -56.826412 -0.043112546 -5.0857744 -0.043166663 -5.0831394 -42.224686 -113.60089
25984000 -40.385273 -58.793537 -0.043680437 -5.2959414 -0.043652456 -5.2945294 -41.782803 -112.78912
26983000 -40.143082 -61.108459 -0.044544179 -5.4934807 -0.044299655 -5.509449 -41.652695 -111.85275
27982000 -40.029442 -61.882095 -0.045705259 -5.6882186 -0.045637764 -5.7222376 -41.347172 -110.28287
28981000 -40.022175 -63.275707 -0.043148626 -5.8901353 -0.045663923 -5.9149108 -41.063488 -110.04357
29980000 -39.706604 -65.104111 -0.044347774 -6.0839663 -0.046226915 -6.0885677 -40.735447 -109.61043
30979000 -39.310913 -64.386009 -0.041630682 -6.4354539 -0.041571096 -6.4242506 -40.206432 -110.32603
31978000 -39.133545 -65.630028 -0.040517986 -6.6302347 -0.041720066 -6.6214662 -39.923267 -109.82293
32977000 -38.979065 -67.143524 -0.041117415 -6.8417068 -0.04304431 -6.8385453 -39.68602 -109.98151
33976000 -38.843716 -68.421806 -0.041850224 -7.0397325 -0.043347325 -7.0335689 -39.365051 -109.70174
34975000 -38.541008 -69.260559 -0.042124145 -7.2421699 -0.044040766 -7.2409673 -39.103462 -109.52072
35974000 -38.411713 -69.982536 -0.040949911 -7.4355683 -0.04429495 -7.4385996 -38.790768 -108.81721
36973000 -38.159737 -70.958214 -0.04196601 -7.6358876 -0.044883918 -7.63977 -38.491425 -107.96098
37972000 -38.015732 -70.797707 -0.040920645 -7.8469014 -0.045033 -7.8563766 -38.235764 -107.54021
38971000 -37.672024 -70.799332 -0.042123362 -8.0484705 -0.044589423 -8.0562534 -38.0341 -105.89095
39970000 -37.361214 -71.462036 -0.040107783 -8.2414007 -0.043923616 -8.2536469 -37.752911 -105.59115
40969000 -37.077126 -71.180962 -0.040994857 -8.4355822 -0.043645136 -8.4574947 -37.468529 -104.06502
41968000 -36.759441 -71.446136 -0.040679201 -8.6436081 -0.044058807 -8.6608562 -37.257217 -102.94946
42967000 -36.487595 -71.780525 -0.041147992 -8.848341 -0.04467259 -8.874608 -37.005222 -101.3055
43966000 -36.216412 -72.622437 -0.041685566 -9.0503397 -0.045514032 -9.07335 -36.721134 -100.72391
44965000 -36.009632 -73.742477 -0.042418994 -9.2546339 -0.045133181 -9.2701674 -36.49752 -100.69892
45964000 -35.784164 -74.803314 -0.044117909 -9.4545231 -0.046265114 -9.4735928 -36.252205 -100.55132
46963000 -35.634838 -76.791992 -0.04381039 -9.6497974 -0.0476088 -9.6709385 -36.069725 -100.87191
47962000 -35.500565 -78.315727 -0.045777459 -9.8482704 -0.048345063 -9.8669405 -35.875027 -101.14862
48961000 -35.317314 -79.891434 -0.047633141 -10.04535 -0.050192941 -10.067019 -35.659309 -101.51994
49960000 -35.112309 -81.364861 -0.048672009 -10.245677 -0.05114127 -10.268008 -35.514648 -101.75874
50959000 -34.897541 -82.710312 -0.049191929 -10.459731 -0.052434854 -10.469495 -35.330807 -102.23497
51958000 -34.717556 -83.873627 -0.051270403 -10.657949 -0.053554017 -10.666633 -35.159679 -102.81633
52957000 -34.524944 -85.07106 -0.051898565 -10.855032 -0.054721702 -10.863259 -34.987965 -102.63157
53956000 -34.376762 -85.86158 -0.05347592 -11.058867 -0.055496138 -11.060854 -34.857132 -102.76829
54955000 -34.216885 -86.377045 -0.054723538 -11.255709 -0.055963382 -11.256505 -34.703373 -102.83098
55954000 -34.070293 -87.385513 -0.056140646 -11.462442 -0.056966215 -11.457287 -34.575348 -102.62667
56953000 -33.957558 -87.444092 -0.055216391 -11.657117 -0.055409878 -11.647458 -34.516808 -102.87894
57952000 -33.787792 -88.076141 -0.05631372 -11.853898 -0.057182863 -11.847448 -34.405605 -102.97149
58951000 -33.674911 -88.449478 -0.057894778 -12.060183 -0.057591531 -12.040812 -34.251411 -103.19601
59950000 -33.568363 -88.926483 -0.058216672 -12.260607 -0.058177583 -12.239856 -34.175346 -103.46619
60949000 -33.450535 -89.473503 -0.058780506 -12.459974 -0.058673978 -12.438991 -34.077778 -103.86404
61948000 -33.398319 -89.812729 -0.059085675 -12.659022 -0.059026632 -12.641409 -34.00391 -103.92934
62947000 -33.321575 -90.064926 -0.059316333 -12.870975 -0.059675079 -12.84697 -33.860775 -104.20481
63946000 -33.254158 -90.845268 -0.059738327 -13.069486 -0.060857799 -13.051791 -33.758953 -104.39346
64945000 -33.148186 -91.039215 -0.061119795 -13.269892 -0.061045762 -13.250383 -33.653397 -104.99809
65944000 -33.051228 -91.317612 -0.062032174 -13.469981 -0.061424337 -13.453674 -33.555321 -105.4074
66943000 -32.908112 -91.817039 -0.059715495 -13.672014 -0.059656706 -13.655146 -33.446712 -105.69061
67942000 -32.844067 -91.711555 -0.061692931 -13.866998 -0.061279412 -13.854059 -33.324017 -105.97997
68941000 -32.741955 -91.864929 -0.06111113 -14.059529 -0.060619444 -14.048158 -33.225292 -105.9996
69940000 -32.635674 -91.865883 -0.061664574 -14.260741 -0.061151296 -14.24823 -33.074856 -106.31742
70939000 -32.51688 -91.871262 -0.061424337 -14.458423 -0.061089601 -14.44918 -32.948929 -106.23682
71938000 -32.384884 -91.466949 -0.061327722 -14.6524 -0.061675865 -14.642742 -32.804012 -106.19445
72937000 -32.221905 -91.320831 -0.061096165 -14.850916 -0.060472973 -14.842454 -32.665337 -105.84555
73936000 -32.083378 -91.016914 -0.061167836 -15.047752 -0.060592145 -15.038294 -32.550945 -105.65446
74935000 -31.961845 -91.38121 -0.06003201 -15.240473 -0.059330769 -15.23946 -32.390717 -105.39478
75934000 -31.835867 -91.605721 -0.060855959 -15.452846 -0.059502918 -15.451237 -32.31604 -105.24592
76933000 -31.709944 -92.023018 -0.061435625 -15.644922 -0.061120581 -15.637698 -32.141819 -105.74617
77932000 -31.610971 -92.853683 -0.062990449 -15.840435 -0.062726766 -15.835836 -32.036694 -105.76631
78931000 -31.557287 -93.606781 -0.061470546 -16.043381 -0.061684791 -16.036217 -31.937328 -105.63343
79930000 -31.445227 -94.409981 -0.063698851 -16.238228 -0.064730011 -16.234129 -31.851845 -105.92699
80929000 -31.320747 -95.424629 -0.065612666 -16.428108 -0.066250525 -16.423603 -31.74287 -106.32671
81928000 -31.24696 -96.283165 -0.065793738 -16.624199 -0.066230819 -16.619154 -31.625301 -106.46568
82927000 -31.152834 -96.9991 -0.067039907 -16.819601 -0.067775264 -16.818872 -31.524733 -106.80502
83926000 -31.050699 -97.734962 -0.068639867 -17.016224 -0.069034882 -17.018574 -31.411161 -107.06208
84925000 -30.943354 -98.260963 -0.069631428 -17.217308 -0.069197163 -17.213783 -31.308487 -107.21784
85924000 -30.853767 -98.755806 -0.070260145 -17.416389 -0.070711091 -17.410837 -31.233845 -107.17085
86923000 -30.75695 -99.27066 -0.070092827 -17.614233 -0.070524812 -17.611601 -31.126472 -107.14814
87922000 -30.648445 -99.727097 -0.069770314 -17.821678 -0.069812931 -17.814726 -31.033154 -107.18973
88921000 -30.577328 -100.00465 -0.071215235 -18.016342 -0.070661888 -18.011591 -30.946497 -107.21632
89920000 -30.487814 -100.57687 -0.072257392 -18.215935 -0.072108686 -18.207458 -30.89192 -107.42036
90919000 -30.390551 -100.91834 -0.073025487 -18.412968 -0.072139479 -18.40691 -30.804489 -107.63647
91918000 -30.288214 -101.34197 -0.073440127 -18.615612 -0.07298521 -18.609682 -30.731058 -107.63359
92917000 -30.206593 -101.70048 -0.074685059 -18.814669 -0.073803984 -18.807642 -30.670559 -107.7799
93916000 -30.129011 -102.05445 -0.074158661 -19.002047 -0.074129164 -19.004246 -30.591679 -108.44104
94915000 -30.053656 -102.72997 -0.07508564 -19.209324 -0.074469388 -19.20223 -30.51605 -108.33201
95914000 -29.985893 -102.95947 -0.077115938 -19.400663 -0.075933784 -19.395727 -30.434093 -108.62017
96913000 -29.903662 -103.18702 -0.077991098 -19.603785 -0.077361256 -19.598562 -30.366505 -108.97713
97912000 -29.835827 -103.6818 -0.0789297 -19.798162 -0.07683453 -19.796442 -30.288403 -109.21347
98911000 -29.731379 -103.92747 -0.079403162 -19.997372 -0.078187183 -19.996033 -30.250235 -109.41416
99910000 -29.663631 -104.0862 -0.080002449 -20.195379 -0.07867454 -20.195911 -30.135841 -109.70121
100909000 -29.555098 -104.29995 -0.07951574 -20.40313 -0.078026943 -20.399076 -30.050858 -109.89134
101908000 -29.484055 -104.5969 -0.080456518 -20.605087 -0.079065986 -20.603849 -29.940315 -109.69829
102907000 -29.3466 -104.62399 -0.080916703 -20.801849 -0.079563193 -20.803253 -29.863413 -109.6667
103906000 -29.250275 -104.68628 -0.08166153 -21.007944 -0.07988327 -21.002317 -29.705175 -109.5921
104905000 -29.107361 -104.64788 -0.081901304 -21.206949 -0.080194935 -21.205385 -29.578308 -109.27171
105904000 -28.967545 -104.72914 -0.082488805 -21.409996 -0.080063626 -21.402565 -29.464035 -109.15155
106903000 -28.855434 -104.83464 -0.082353994 -21.614876 -0.080480777 -21.608999 -29.337564 -109.06826
107902000 -28.695911 -105.19462 -0.082704619 -21.813786 -0.081174105 -21.805387 -29.195585 -109.00829
108901000 -28.578539 -105.47993 -0.084175229 -22.015896 -0.081827447 -22.006714 -29.056662 -108.98861
109900000 -28.454506 -105.9994 -0.084819779 -22.214163 -0.083627611 -22.206167 -28.911474 -109.10727
110899000 -28.34193 -106.67008 -0.08644373 -22.412548 -0.083756134 -22.405447 -28.782131 -109.39704
111898000 -28.258293 -107.33788 -0.087461293 -22.613403 -0.084858321 -22.609247 -28.66954 -109.54214
112897000 -28.136095 -107.91452 -0.089104988 -22.811935 -0.08612819 -22.802324 -28.528795 -109.75389
113896000 -28.032625 -108.56215 -0.090644643 -23.013288 -0.087535247 -23.001329 -28.422354 -109.95354
114895000 -27.936253 -109.22766 -0.091546595 -23.21052 -0.088957556 -23.197453 -28.309891 -110.01646
115894000 -27.803015 -109.58662 -0.092882417 -23.40988 -0.090808526 -23.401182 -28.244499 -110.27089
116893000 -27.719826 -110.19121 -0.092688575 -23.608334 -0.091186263 -23.592396 -28.110527 -110.38357
117892000 -27.644808 -110.65583 -0.09337645 -23.801548 -0.091215611 -23.791252 -28.043898 -110.63881
118891000 -27.586786 -111.0677 -0.093323812 -24.005796 -0.091505088 -23.991795 -27.943367 -110.83271
119890000 -27.50503 -111.52042 -0.094173677 -24.204248 -0.092893526 -24.190119 -27.936558 -111.00443
120889000 -27.449835 -112.02262 -0.095593669 -24.404848 -0.092704445 -24.391802 -27.858759 -110.96081
121888000 -27.40579 -112.36067 -0.09559314 -24.602482 -0.09315376 -24.587118 -27.798923 -111.22263
122887000 -27.363768 -112.56746 -0.096460387 -24.803839 -0.093680352 -24.787544 -27.75325 -111.3178
123886000 -27.312973 -112.99084 -0.097000092 -25.008482 -0.094308592 -24.988968 -27.739025 -111.48344
124885000 -27.277594 -113.51118 -0.097149387 -25.205046 -0.094325259 -25.186764 -27.706121 -111.52421
125884000 -27.223789 -113.71192 -0.098383665 -25.404556 -0.094829775 -25.389357 -27.679914 -111.7272
126883000 -27.204103 -114.08635 -0.098660909 -25.604437 -0.09560319 -25.592678 -27.632174 -111.80232
127882000 -27.152613 -114.39422 -0.098875143 -25.804138 -0.09614332 -25.789135 -27.594088 -111.9155
128881000 -27.125217 -114.7234 -0.099083565 -26.006527 -0.096042752 -25.99032 -27.558092 -112.07021
129880000 -27.063452 -115.06552 -0.10048608 -26.211138 -0.095817015 -26.189087 -27.512783 -112.00185
130879000 -27.000645 -115.19363 -0.099382304 -26.406643 -0.097370692 -26.389374 -27.434608 -112.09839
131878000 -26.942322 -115.40962 -0.10005932 -26.610811 -0.097737886 -26.590227 -27.372801 -112.00156
132877000 -26.871733 -115.49041 -0.099710733 -26.81098 -0.097657934 -26.794542 -27.279818 -111.95354
133876000 -26.782619 -115.63667 -0.10033508 -27.01186 -0.097169772 -26.990583 -27.192341 -111.8754
134875000 -26.691277 -115.74242 -0.100711 -27.209177 -0.098028064 -27.193411 -27.089514 -111.78071
135874000 -26.60918 -115.80702 -0.10029667 -27.412165 -0.098160714 -27.393517 -26.980473 -111.74387
136873000 -26.49168 -115.72138 -0.10070968 -27.613869 -0.097554684 -27.597549 -26.901827 -111.73902
137872000 -26.412283 -115.86382 -0.10102258 -27.813931 -0.097663492 -27.80022 -26.789326 -111.65051
138871000 -26.346409 -116.03109 -0.10148732 -28.012512 -0.097913161 -27.999535 -26.693264 -111.86741
139870000 -26.243139 -116.34202 -0.10230858 -28.217514 -0.10012342 -28.198166 -26.60955 -112.01669
140869000 -26.15414 -116.8257 -0.10374554 -28.407099 -0.10093091 -28.391916 -26.502527 -112.18587
141868000 -26.062038 -117.26964 -0.10443782 -28.600815 -0.1021493 -28.586269 -26.429756 -112.54424
142867000 -25.979446 -117.51834 -0.10301494 -28.800749 -0.10084957 -28.783346 -26.358356 -112.72808
143866000 -25.912096 -118.05597 -0.10448847 -28.997808 -0.1017131 -28.983013 -26.287247 -113.22982
144865000 -25.860933 -118.59662 -0.10625853 -29.194855 -0.10347115 -29.180368 -26.229782 -113.58328
145864000 -25.804291 -118.89835 -0.10603146 -29.394266 -0.1043946 -29.383652 -26.193869 -113.82638
146863000 -25.756666 -119.31092 -0.10743862 -29.594599 -0.10479341 -29.581396 -26.141632 -114.18959
147862000 -25.719259 -119.72315 -0.10834672 -29.793022 -0.10497374 -29.784754 -26.102894 -114.53336
148861000 -25.685991 -120.17923 -0.10842527 -29.98737 -0.10624579 -29.977198 -26.084372 -114.80252
149860000 -25.671846 -120.44096 -0.10870051 -30.188061 -0.1067058 -30.174471 -26.052198 -114.94466
150859000 -25.65192 -120.78478 -0.10906972 -30.38801 -0.10696394 -30.376566 -26.045639 -115.23308
151858000 -25.638025 -121.11889 -0.10902672 -30.589184 -0.10746887 -30.575861 -26.039225 -115.48201
152857000 -25.618267 -121.4253 -0.11027686 -30.781965 -0.1073553 -30.773209 -26.022449 -115.66809
153856000 -25.609423 -121.65038 -0.10931128 -30.982254 -0.10594499 -30.972322 -26.035074 -115.96838
154855000 -25.602804 -121.82838 -0.10981037 -31.183735 -0.10649463 -31.168325 -26.027727 -116.18791
155854000 -25.611956 -122.10349 -0.10998666 -31.381386 -0.10715365 -31.37068 -26.018238 -116.41928
156853000 -25.599833 -122.75652 -0.10814236 -31.569201 -0.10649993 -31.56156 -26.015532 -116.75866
157852000 -25.601168 -122.99086 -0.10931314 -31.770805 -0.10819358 -31.761917 -26.001871 -117.08017
158851000 -25.595823 -123.23673 -0.10986719 -31.966593 -0.10832867 -31.960587 -25.983168 -117.35326
159850000 -25.585615 -123.35847 -0.11062762 -32.165367 -0.10824958 -32.159332 -25.984928 -117.51547
160849000 -25.566137 -123.47034 -0.11069799 -32.364586 -0.10931659 -32.361794 -25.956078 -117.82545
161848000 -25.542833 -123.55434 -0.11072428 -32.567459 -0.10897947 -32.55851 -25.912346 -117.889
162847000 -25.496075 -123.76657 -0.11063453 -32.763824 -0.10978913 -32.761909 -25.881527 -118.13014
163846000 -25.457935 -123.98074 -0.11095478 -32.964527 -0.11011516 -32.954277 -25.798323 -118.13797
164845000 -25.391724 -124.03617 -0.11122778 -33.161354 -0.1105939 -33.154556 -25.732512 -118.23656
165844000 -25.33843 -124.0598 -0.11162031 -33.361347 -0.11082519 -33.357113 -25.651667 -118.39104
166843000 -25.27607 -124.16332 -0.11097389 -33.55954 -0.1108475 -33.556728 -25.583481 -118.58251
167842000 -25.215181 -124.30316 -0.11210798 -33.756321 -0.11015765 -33.751682 -25.496284 -118.50161
168841000 -25.138498 -124.48987 -0.11254364 -33.961891 -0.11164608 -33.951313 -25.417332 -118.53653
169840000 -25.069393 -124.76117 -0.11242675 -34.153294 -0.1115911 -34.149902 -25.333076 -118.80556
170839000 -25.009134 -125.05618 -0.11341587 -34.350899 -0.11236937 -34.34837 -25.246464 -118.99172
171838000 -24.949121 -125.45714 -0.11284225 -34.548717 -0.11266531 -34.543194 -25.182663 -119.25716
172837000 -24.883934 -125.82915 -0.11449983 -34.748466 -0.11382216 -34.74012 -25.113302 -119.4599
173836000 -24.816053 -126.26594 -0.11619847 -34.946129 -0.11496364 -34.944939 -25.072878 -119.66714
174835000 -24.765415 -126.71838 -0.11611924 -35.139454 -0.1155503 -35.13826 -25.027695 -120.02702
175834000 -24.714142 -127.11048 -0.11698554 -35.339733 -0.11638991 -35.337547 -24.964153 -120.3491
176833000 -24.661442 -127.47302 -0.11772701 -35.533928 -0.11655928 -35.535297 -24.914427 -120.49184
177832000 -24.617182 -127.97448 -0.11882934 -35.734531 -0.11697172 -35.734364 -24.889387 -120.69078
178831000 -24.576923 -128.36011 -0.11881897 -35.929314 -0.11777861 -35.925087 -24.852858 -120.9251
179830000 -24.540663 -128.79121 -0.11941227 -36.125351 -0.11819568 -36.127159 -24.826916 -121.04604
180829000 -24.505938 -129.01572 -0.11967969 -36.322506 -0.11864951 -36.321587 -24.802908 -121.24459
181828000 -24.482983 -129.34937 -0.11991705 -36.520519 -0.11833161 -36.521122 -24.775541 -121.37729
182827000 -24.459753 -129.75011 -0.12015123 -36.71534 -0.1192364 -36.717686 -24.766129 -121.43826
183826000 -24.420055 -130.04544 -0.12091187 -36.910553 -0.11957804 -36.910847 -24.752892 -121.57805
184825000 -24.422178 -130.39273 -0.12017199 -37.109535 -0.11980555 -37.109962 -24.739136 -121.67551
185824000 -24.394009 -130.75548 -0.12106732 -37.304764 -0.1204344 -37.302525 -24.736315 -121.72968
186823000 -24.381088 -131.08246 -0.12094568 -37.505852 -0.12002456 -37.499348 -24.734468 -121.72221
187822000 -24.359468 -131.39903 -0.12189627 -37.697269 -0.12044717 -37.699654 -24.700588 -121.78749
188821000 -24.340664 -131.68158 -0.12179058 -37.89436 -0.12107477 -37.898312 -24.686041 -121.88236
189820000 -24.327864 -131.89957 -0.12154327 -38.098515 -0.12078731 -38.097466 -24.675467 -122.01983
190819000 -24.298571 -132.18752 -0.12322975 -38.29586 -0.12239734 -38.294792 -24.639801 -121.98
191818000 -24.262003 -132.34282 -0.12429672 -38.489136 -0.12385029 -38.490616 -24.61211 -121.88248
192817000 -24.188257 -132.63692 -0.12511297 -38.67186 -0.12387959 -38.673019 -24.535049 -121.96118
193816000 -24.152117 -133.00443 -0.12377466 -38.868122 -0.12326916 -38.871441 -24.479155 -122.21618
194815000 -24.098162 -133.43526 -0.12420988 -39.062584 -0.12315625 -39.06583 -24.418034 -122.31168
195814000 -24.046738 -133.66264 -0.12427381 -39.263874 -0.1232175 -39.266495 -24.365602 -122.43725
196813000 -23.991009 -133.99319 -0.12330405 -39.45586 -0.12298262 -39.460274 -24.284611 -122.58569
197812000 -23.934296 -134.24648 -0.12419017 -39.654961 -0.12350805 -39.654766 -24.215321 -122.67718
198811000 -23.8794 -134.41989 -0.12415927 -39.852699 -0.12335066 -39.850964 -24.14076 -122.88065
199810000 -23.81168 -134.82156 -0.12386228 -40.045773 -0.12331071 -40.045944 -24.06354 -122.98368
200809000 -23.753857 -135.099 -0.12473679 -40.242043 -0.1240157 -40.24279 -23.982208 -123.20087
201808000 -23.69709 -135.3299 -0.1257018 -40.444267 -0.12520754 -40.444447 -23.920467 -123.27768
202807000 -23.634333 -135.66833 -0.12666596 -40.644451 -0.12563892 -40.648197 -23.859879 -123.48177
203806000 -23.58861 -136.14543 -0.12766661 -40.845741 -0.12586808 -40.846352 -23.800333 -123.67201
