!Keysight Technologies,E5080B,MY59205177,A.15.75.32
!Date: Friday, February 23, 2024 03:31:38
!Correction: S11(Cdelta 2-Port  ) 
!S21(Cdelta 2-Port  ) 
!S12(Cdelta 2-Port  ) 
!S22(Cdelta 2-Port  ) 
!S2P File: Measurements: S11, S21, S12, S22:
# Hz S  dB   R 50
10000000 -46.046906 -1.8076465 -0.014611814 -2.0468376 -0.018791094 -2.105006 -45.968395 -158.02655
10999000 -45.246098 -4.1429491 -0.016218293 -2.2643037 -0.018642908 -2.3232925 -45.976532 -151.72646
11998000 -44.344608 -6.910749 -0.016599998 -2.4937055 -0.018526182 -2.5346434 -46.106602 -147.43077
12997000 -43.546417 -12.740191 -0.015956655 -2.6712022 -0.018503565 -2.7053962 -45.741856 -141.88066
13996000 -43.28022 -16.674986 -0.015187158 -2.8510191 -0.018677225 -2.8722379 -45.607075 -136.36563
14995000 -42.869282 -20.982893 -0.017337259 -3.0626309 -0.018199157 -3.0892901 -45.286797 -133.29384
15994000 -42.742161 -25.136751 -0.017754931 -3.2817929 -0.020290412 -3.3036835 -45.124897 -129.68364
16993000 -42.661671 -29.751724 -0.017378062 -3.4759536 -0.01963638 -3.4879901 -44.314198 -129.29115
17992000 -42.717335 -35.236851 -0.017418087 -3.6787605 -0.020050891 -3.6810503 -43.724049 -129.35245
18991000 -43.036388 -40.543766 -0.018954366 -3.8908277 -0.020959888 -3.8862495 -43.090336 -128.49095
19990000 -42.737843 -46.442268 -0.02101035 -4.0993304 -0.022864064 -4.093204 -42.469395 -129.0424
20989000 -42.60524 -49.851387 -0.023179991 -4.3009853 -0.024570443 -4.2922292 -41.888012 -128.55991
21988000 -42.451153 -55.15358 -0.024026912 -4.503387 -0.025476741 -4.4924655 -41.654621 -127.51294
22987000 -42.115849 -59.878624 -0.025273126 -4.6989675 -0.027301624 -4.6942239 -41.42292 -127.31573
23986000 -42.068748 -64.078766 -0.024691757 -4.8927674 -0.02542232 -4.8929672 -41.212795 -126.91904
24985000 -41.677105 -66.378601 -0.026551733 -5.1024232 -0.026367601 -5.1024828 -41.036419 -124.60537
25984000 -41.312878 -68.690964 -0.027301885 -5.3087654 -0.026873136 -5.3095503 -40.706604 -123.10728
26983000 -41.020496 -70.389008 -0.028365605 -5.5072365 -0.027553529 -5.5259585 -40.611351 -122.19212
27982000 -40.850147 -71.163788 -0.028803101 -5.7076826 -0.028892482 -5.7445855 -40.330582 -120.72565
28981000 -40.779709 -72.77636 -0.027204461 -5.9070411 -0.028656134 -5.9321799 -40.095024 -119.91711
29980000 -40.430103 -74.298843 -0.027657211 -6.1000109 -0.029296411 -6.1087775 -39.831211 -119.02448
30979000 -40.022827 -73.277489 -0.025029166 -6.4556594 -0.023792131 -6.4500451 -39.335751 -119.63734
31978000 -39.770008 -74.22229 -0.02435828 -6.6520181 -0.025453046 -6.6418538 -39.089466 -118.76614
32977000 -39.617687 -75.840622 -0.024233591 -6.8628049 -0.025824364 -6.859817 -38.829212 -118.74757
33976000 -39.448093 -76.804504 -0.024928149 -7.0630803 -0.026537407 -7.0590773 -38.543026 -118.1964
34975000 -39.154243 -77.705002 -0.025118988 -7.264235 -0.027145332 -7.2609844 -38.323643 -117.92085
35974000 -38.959133 -78.112701 -0.024279146 -7.4592838 -0.026887462 -7.459867 -38.050465 -116.88666
36973000 -38.72961 -79.02243 -0.025390293 -7.6589799 -0.027891159 -7.6623335 -37.792973 -115.95398
37972000 -38.570595 -78.772057 -0.023920711 -7.8754654 -0.027721038 -7.8777218 -37.566719 -115.17106
38971000 -38.206718 -78.236977 -0.025894154 -8.0680914 -0.028192079 -8.0795317 -37.393517 -113.74866
39970000 -37.896267 -78.586433 -0.023947001 -8.2677832 -0.026862718 -8.2825222 -37.129642 -113.08241
40969000 -37.586834 -78.237335 -0.024395244 -8.4604025 -0.026654871 -8.4807253 -36.904854 -111.54637
41968000 -37.249237 -78.212479 -0.024291119 -8.6679144 -0.026646797 -8.6826143 -36.703644 -110.30955
42967000 -36.979126 -78.227943 -0.024178926 -8.8785601 -0.027486058 -8.8989258 -36.513397 -108.54011
43966000 -36.691387 -78.859055 -0.024497291 -9.0774145 -0.028222041 -9.0992556 -36.230785 -107.85871
44965000 -36.455418 -79.684525 -0.026388956 -9.2829723 -0.028377069 -9.3039513 -36.029354 -107.59016
45964000 -36.234455 -80.750969 -0.027474595 -9.4832621 -0.02930944 -9.500968 -35.805305 -107.15803
46963000 -36.029362 -82.639679 -0.027589478 -9.6771088 -0.030458374 -9.7017937 -35.609844 -107.33363
47962000 -35.869713 -84.051132 -0.028761929 -9.8811045 -0.031675406 -9.899559 -35.424213 -107.47506
48961000 -35.65036 -85.50518 -0.030871052 -10.078649 -0.032926425 -10.101871 -35.194317 -107.63136
49960000 -35.406326 -86.751404 -0.03184177 -10.275946 -0.034343485 -10.301312 -35.045444 -107.62275
50959000 -35.195145 -88.16729 -0.03287426 -10.491857 -0.035265654 -10.501451 -34.859608 -107.95749
51958000 -34.980705 -89.009583 -0.034965027 -10.688702 -0.036725506 -10.697542 -34.692898 -108.37022
52957000 -34.767273 -90.074593 -0.035993561 -10.891712 -0.037315276 -10.899661 -34.523972 -108.14731
53956000 -34.610458 -90.846527 -0.037257314 -11.092399 -0.038056061 -11.094264 -34.406498 -108.12633
54955000 -34.436237 -91.333405 -0.038027335 -11.294424 -0.040114578 -11.29082 -34.249966 -108.04765
55954000 -34.269257 -92.17659 -0.039047975 -11.494246 -0.039941888 -11.491045 -34.141685 -107.67602
56953000 -34.145576 -92.172401 -0.038831972 -11.693588 -0.03941419 -11.681851 -34.06826 -107.98555
57952000 -33.987148 -92.834007 -0.040278915 -11.892647 -0.040525563 -11.879229 -33.963154 -107.95564
58951000 -33.853752 -93.093002 -0.040906794 -12.096627 -0.041670669 -12.076573 -33.808067 -108.09846
59950000 -33.737747 -93.378998 -0.041068286 -12.29573 -0.042120486 -12.276055 -33.741016 -108.27708
60949000 -33.621414 -94.106628 -0.041961044 -12.502463 -0.0417036 -12.477316 -33.648705 -108.59628
61948000 -33.554649 -94.383675 -0.042553619 -12.697648 -0.042273134 -12.68306 -33.556057 -108.74174
62947000 -33.464821 -94.558716 -0.042442258 -12.91035 -0.043079082 -12.891951 -33.417984 -108.98361
63946000 -33.385265 -95.26989 -0.043508127 -13.10652 -0.043979835 -13.089147 -33.310329 -109.00304
64945000 -33.279667 -95.515106 -0.044298086 -13.311052 -0.044374187 -13.292675 -33.206139 -109.56995
65944000 -33.186222 -95.764374 -0.045030385 -13.508658 -0.044639114 -13.493468 -33.098194 -110.00143
66943000 -33.039509 -96.160744 -0.042975031 -13.711529 -0.043839417 -13.695128 -32.992989 -110.23457
67942000 -32.986629 -96.104546 -0.044738237 -13.910862 -0.045509323 -13.896238 -32.872643 -110.58652
68941000 -32.873291 -96.20256 -0.044874761 -14.105111 -0.044487428 -14.091618 -32.76804 -110.56425
69940000 -32.769863 -96.227753 -0.044672068 -14.305714 -0.045233622 -14.293503 -32.623718 -110.81916
70939000 -32.670509 -96.172829 -0.045549348 -14.499285 -0.044417601 -14.491267 -32.487183 -110.70078
71938000 -32.523884 -95.672531 -0.044787668 -14.696732 -0.044777468 -14.68923 -32.354637 -110.54573
72937000 -32.356079 -95.511818 -0.044017754 -14.893969 -0.044461012 -14.886416 -32.21888 -110.27942
73936000 -32.229229 -95.168892 -0.044128891 -15.093999 -0.044194527 -15.085086 -32.097374 -110.05501
74935000 -32.096703 -95.398949 -0.043923352 -15.290644 -0.042758044 -15.286232 -31.952045 -109.70825
75934000 -31.967138 -95.675911 -0.042961434 -15.49643 -0.043075945 -15.493546 -31.861048 -109.6409
76933000 -31.844049 -96.007347 -0.044871885 -15.692583 -0.044585239 -15.683523 -31.683365 -109.94131
77932000 -31.742479 -96.785309 -0.045437649 -15.891911 -0.0464896 -15.883287 -31.588306 -109.8505
78931000 -31.662561 -97.470856 -0.044762038 -16.09017 -0.044934135 -16.086206 -31.486317 -109.72058
79930000 -31.547924 -98.368423 -0.046780035 -16.283546 -0.047641777 -16.279678 -31.387756 -110.09785
80929000 -31.433792 -99.129272 -0.049074642 -16.480972 -0.049486998 -16.477396 -31.290377 -110.28825
81928000 -31.33342 -99.891052 -0.048946623 -16.673429 -0.049756426 -16.669069 -31.152124 -110.31996
82927000 -31.231461 -100.60767 -0.050058078 -16.871435 -0.050870184 -16.867544 -31.04501 -110.62102
83926000 -31.111094 -101.33221 -0.05222211 -17.0709 -0.051891752 -17.069563 -30.943686 -110.77658
84925000 -31.009233 -101.73977 -0.053333882 -17.270147 -0.052461054 -17.267611 -30.837208 -110.87952
85924000 -30.920166 -102.16968 -0.053669591 -17.470476 -0.053663563 -17.468706 -30.753721 -110.79911
86923000 -30.809565 -102.57525 -0.054445151 -17.669439 -0.054230474 -17.662476 -30.652903 -110.64958
87922000 -30.692356 -103.00359 -0.054124322 -17.876225 -0.053570528 -17.866871 -30.564503 -110.73354
88921000 -30.624958 -103.16826 -0.054487091 -18.071022 -0.054370709 -18.074339 -30.46616 -110.62111
89920000 -30.514088 -103.7234 -0.055328604 -18.273975 -0.054920409 -18.264982 -30.417057 -110.8103
90919000 -30.419912 -104.0106 -0.056268878 -18.47146 -0.055419579 -18.465786 -30.322422 -110.94829
91918000 -30.316015 -104.32163 -0.057139847 -18.671463 -0.05627517 -18.663881 -30.261955 -110.95469
92917000 -30.232002 -104.65656 -0.058265995 -18.869141 -0.05731139 -18.868336 -30.181227 -111.10577
93916000 -30.146774 -105.01002 -0.057981089 -19.060547 -0.057293814 -19.058203 -30.10253 -111.66811
94915000 -30.06608 -105.65203 -0.059613403 -19.266216 -0.05880281 -19.257389 -30.031803 -111.56821
95914000 -29.994026 -105.82516 -0.060866985 -19.459606 -0.059616815 -19.456215 -29.953888 -111.82172
96913000 -29.90954 -106.05041 -0.062026136 -19.662102 -0.060638867 -19.656527 -29.885004 -112.15143
97912000 -29.840372 -106.50817 -0.062748298 -19.852058 -0.061047859 -19.855825 -29.80348 -112.39577
98911000 -29.725245 -106.71278 -0.063159332 -20.058475 -0.061739404 -20.056307 -29.760405 -112.61622
99910000 -29.662872 -106.84396 -0.063700952 -20.257887 -0.062431846 -20.254799 -29.657183 -112.9622
100909000 -29.56776 -107.10264 -0.063000694 -20.464861 -0.061638318 -20.458607 -29.572229 -113.07523
101908000 -29.477032 -107.30016 -0.063669696 -20.663931 -0.062868319 -20.665491 -29.456072 -112.92727
102907000 -29.349533 -107.3168 -0.064585239 -20.868122 -0.063580647 -20.861992 -29.384577 -112.90149
103906000 -29.247524 -107.35287 -0.065312818 -21.072884 -0.062570244 -21.064405 -29.237808 -112.8497
104905000 -29.106848 -107.24876 -0.065384299 -21.268911 -0.062719934 -21.273064 -29.115866 -112.55183
105904000 -28.960005 -107.30795 -0.065509915 -21.473118 -0.063418835 -21.465851 -29.001791 -112.41264
106903000 -28.856602 -107.39768 -0.065305464 -21.68084 -0.063571453 -21.673403 -28.878042 -112.3024
107902000 -28.691607 -107.74069 -0.066552803 -21.880577 -0.06469664 -21.873394 -28.740971 -112.20546
108901000 -28.578413 -107.98409 -0.067494988 -22.080872 -0.065072648 -22.071707 -28.609375 -112.19588
109900000 -28.451443 -108.43662 -0.068440005 -22.283447 -0.06662903 -22.273621 -28.462162 -112.26192
110899000 -28.337383 -109.02541 -0.070159912 -22.480335 -0.067343548 -22.471094 -28.338457 -112.51853
111898000 -28.242638 -109.70278 -0.071771547 -22.680744 -0.068180986 -22.673584 -28.221916 -112.64734
112897000 -28.118103 -110.24655 -0.07315632 -22.882212 -0.069321834 -22.868202 -28.088594 -112.81842
113896000 -28.014959 -110.84866 -0.073593616 -23.082333 -0.071260497 -23.069244 -27.979954 -113.00026
114895000 -27.913416 -111.47723 -0.074692965 -23.281261 -0.072579041 -23.267372 -27.874746 -113.08067
115894000 -27.788057 -111.77581 -0.075999111 -23.479763 -0.073301382 -23.468491 -27.800423 -113.21875
116893000 -27.714825 -112.30911 -0.077053219 -23.679333 -0.074366949 -23.663853 -27.681482 -113.24377
117892000 -27.635475 -112.79562 -0.076864302 -23.874704 -0.074669264 -23.861259 -27.604116 -113.44463
118891000 -27.568558 -113.18863 -0.077612653 -24.078671 -0.075190984 -24.059444 -27.51055 -113.56358
119890000 -27.483427 -113.54849 -0.077938385 -24.275723 -0.076434322 -24.258402 -27.496702 -113.71032
120889000 -27.43063 -114.08898 -0.079054914 -24.47784 -0.076402709 -24.464512 -27.422447 -113.67312
121888000 -27.395523 -114.3873 -0.079671293 -24.672533 -0.076770239 -24.661518 -27.364618 -113.92484
122887000 -27.354778 -114.575 -0.080322564 -24.878592 -0.077588938 -24.86544 -27.310286 -113.93774
123886000 -27.303991 -115.01045 -0.080819122 -25.081356 -0.077042155 -25.062895 -27.299738 -114.10664
124885000 -27.267769 -115.47544 -0.081307828 -25.278883 -0.077869862 -25.265297 -27.272688 -114.15351
125884000 -27.217716 -115.72252 -0.082003661 -25.478678 -0.07824754 -25.465273 -27.246883 -114.29968
126883000 -27.200798 -116.10081 -0.082912259 -25.682503 -0.07942795 -25.66935 -27.202028 -114.26396
127882000 -27.151993 -116.36542 -0.082756594 -25.880018 -0.079499923 -25.864676 -27.161129 -114.43599
128881000 -27.122065 -116.68695 -0.082938381 -26.085739 -0.079503611 -26.069138 -27.126127 -114.52001
129880000 -27.06522 -117.04476 -0.08383029 -26.289066 -0.080082081 -26.265802 -27.085394 -114.49325
130879000 -27.004599 -117.19858 -0.083546862 -26.485163 -0.081502482 -26.46833 -27.016453 -114.5129
131878000 -26.94236 -117.39818 -0.083817355 -26.686657 -0.081250064 -26.668558 -26.951477 -114.36078
132877000 -26.87528 -117.4914 -0.083238654 -26.892044 -0.081164613 -26.869307 -26.86759 -114.35828
133876000 -26.792618 -117.66662 -0.083871722 -27.088518 -0.081163026 -27.071468 -26.784756 -114.22375
134875000 -26.693388 -117.7726 -0.084260739 -27.289644 -0.082481682 -27.272505 -26.687349 -114.06635
135874000 -26.616707 -117.81168 -0.084381096 -27.495354 -0.082118936 -27.47587 -26.588682 -114.00095
136873000 -26.501871 -117.74051 -0.085160047 -27.694035 -0.081796587 -27.674297 -26.503483 -114.01253
137872000 -26.429125 -117.85526 -0.084745608 -27.894821 -0.081893131 -27.879589 -26.402445 -113.90017
138871000 -26.349464 -118.05557 -0.085425623 -28.098679 -0.082513869 -28.07831 -26.303164 -114.06849
139870000 -26.24538 -118.36356 -0.085938081 -28.294846 -0.083936647 -28.278191 -26.224138 -114.25466
140869000 -26.166147 -118.93373 -0.086488627 -28.492781 -0.083928458 -28.471775 -26.123949 -114.42328
141868000 -26.087378 -119.29348 -0.087692671 -28.690859 -0.085612275 -28.679358 -26.07756 -114.71692
142867000 -26.003706 -119.51034 -0.086638615 -28.889082 -0.085306823 -28.871841 -25.991329 -114.85019
143866000 -25.930752 -119.9799 -0.088803254 -29.085289 -0.08641389 -29.070757 -25.916088 -115.3206
144865000 -25.872936 -120.50698 -0.09018977 -29.28693 -0.087333456 -29.270851 -25.864496 -115.5896
145864000 -25.813646 -120.82147 -0.090273023 -29.487604 -0.08874777 -29.474699 -25.823462 -115.84577
146863000 -25.770208 -121.17652 -0.091611363 -29.685713 -0.089621849 -29.673403 -25.781506 -116.13548
147862000 -25.730259 -121.53095 -0.092649437 -29.88427 -0.090440854 -29.871778 -25.749035 -116.44944
148861000 -25.698744 -121.94274 -0.093214318 -30.085777 -0.091127843 -30.067453 -25.721779 -116.61677
149860000 -25.668291 -122.10983 -0.094822101 -30.274954 -0.091617972 -30.264153 -25.673046 -116.71545
150859000 -25.636662 -122.57591 -0.093412682 -30.474232 -0.091802515 -30.457832 -25.658258 -117.06075
151858000 -25.631718 -122.94106 -0.092831641 -30.671873 -0.091474153 -30.657345 -25.646313 -117.40732
152857000 -25.615412 -123.24091 -0.09373828 -30.87183 -0.091055416 -30.861336 -25.628954 -117.61079
153856000 -25.610666 -123.47239 -0.093858629 -31.072464 -0.090999901 -31.056009 -25.641293 -117.89557
154855000 -25.610012 -123.62252 -0.093173064 -31.271669 -0.091058582 -31.260263 -25.630117 -118.1246
155854000 -25.625971 -123.89753 -0.094193786 -31.469933 -0.09160687 -31.460569 -25.62343 -118.41956
156853000 -25.608965 -124.60755 -0.092028841 -31.660181 -0.090800859 -31.652081 -25.617542 -118.72636
157852000 -25.615551 -124.78829 -0.093098216 -31.863283 -0.092580944 -31.853384 -25.610502 -119.06412
158851000 -25.615854 -124.99612 -0.09369649 -32.0611 -0.092834815 -32.051003 -25.589201 -119.34422
159850000 -25.604681 -125.13758 -0.094888508 -32.261093 -0.092607394 -32.249798 -25.593607 -119.52449
160849000 -25.591791 -125.2142 -0.09468744 -32.457859 -0.093802288 -32.453175 -25.560259 -119.80787
161848000 -25.574287 -125.26064 -0.09470278 -32.660671 -0.093593858 -32.654991 -25.522161 -119.92525
162847000 -25.53611 -125.50231 -0.095107585 -32.861767 -0.094861791 -32.85672 -25.487617 -120.20268
163846000 -25.490358 -125.66957 -0.0952764 -33.059082 -0.093811281 -33.05418 -25.418283 -120.15002
164845000 -25.431026 -125.63078 -0.096070804 -33.257538 -0.094499595 -33.252213 -25.348536 -120.25764
165844000 -25.382402 -125.68671 -0.095537305 -33.458908 -0.094839297 -33.452961 -25.275858 -120.39851
166843000 -25.319994 -125.72679 -0.095441513 -33.6618 -0.094901741 -33.652714 -25.209902 -120.57117
167842000 -25.26263 -125.8662 -0.096137233 -33.857044 -0.095236182 -33.850842 -25.13533 -120.45737
168841000 -25.18388 -126.01329 -0.096699923 -34.054634 -0.095505551 -34.05122 -25.055792 -120.53854
169840000 -25.119467 -126.23716 -0.096575789 -34.252804 -0.096196249 -34.250053 -24.971781 -120.74046
170839000 -25.061268 -126.48457 -0.097745828 -34.451275 -0.096623428 -34.450199 -24.89374 -120.9178
171838000 -25.001663 -126.87032 -0.097667202 -34.652367 -0.097273007 -34.646366 -24.830305 -121.15872
172837000 -24.933062 -127.20475 -0.098683946 -34.852173 -0.098332033 -34.843773 -24.766973 -121.34849
173836000 -24.866789 -127.61453 -0.10003892 -35.052799 -0.09996926 -35.048244 -24.726969 -121.53038
174835000 -24.811333 -128.01944 -0.10051972 -35.244827 -0.099889793 -35.245663 -24.676254 -121.88571
175834000 -24.760357 -128.39525 -0.10111849 -35.444416 -0.10119798 -35.442738 -24.617182 -122.14735
176833000 -24.711123 -128.71599 -0.1024024 -35.646252 -0.10191555 -35.641933 -24.571428 -122.2682
177832000 -24.664528 -129.14832 -0.10338606 -35.845261 -0.10269952 -35.844215 -24.553314 -122.37632
178831000 -24.627075 -129.40623 -0.10497348 -36.041767 -0.10427475 -36.035904 -24.510012 -122.44608
179830000 -24.548056 -129.77211 -0.10599433 -36.228336 -0.10543334 -36.225864 -24.451025 -122.54078
180829000 -24.501629 -130.15717 -0.10537129 -36.421108 -0.10466772 -36.416576 -24.404066 -122.85392
181828000 -24.483139 -130.6037 -0.10462821 -36.620243 -0.10448635 -36.618164 -24.385147 -123.08034
182827000 -24.455824 -130.95424 -0.1051371 -36.817471 -0.10476159 -36.814457 -24.371212 -123.1945
183826000 -24.416786 -131.23706 -0.10523842 -37.016632 -0.10463431 -37.00938 -24.368196 -123.31828
184825000 -24.413734 -131.62531 -0.10485282 -37.210846 -0.10484724 -37.209927 -24.345442 -123.47614
185824000 -24.389603 -131.98343 -0.10478546 -37.409412 -0.10492097 -37.407112 -24.334869 -123.5308
186823000 -24.373924 -132.34531 -0.10477698 -37.607605 -0.10463803 -37.604946 -24.332659 -123.53036
187822000 -24.348221 -132.65422 -0.10508698 -37.804466 -0.10507293 -37.80262 -24.292068 -123.62795
188821000 -24.322449 -132.95642 -0.10559328 -37.998821 -0.1058617 -38.004578 -24.272221 -123.77181
189820000 -24.306726 -133.2292 -0.10606117 -38.196712 -0.10542725 -38.199116 -24.255856 -123.96895
190819000 -24.271786 -133.53268 -0.10667821 -38.399124 -0.10587629 -38.394577 -24.217419 -123.9994
191818000 -24.236479 -133.82368 -0.10697667 -38.592964 -0.1065307 -38.593452 -24.184074 -124.03357
192817000 -24.192741 -134.07768 -0.10726243 -38.793396 -0.1069069 -38.790169 -24.144646 -124.10798
193816000 -24.164684 -134.35957 -0.1071571 -38.985588 -0.10608929 -38.983189 -24.09169 -124.24844
194815000 -24.100109 -134.77026 -0.10752194 -39.180641 -0.10767531 -39.183701 -24.026602 -124.31394
195814000 -24.048994 -134.94682 -0.10825462 -39.381153 -0.10768725 -39.383698 -23.968452 -124.42214
196813000 -23.992281 -135.28134 -0.10739616 -39.575546 -0.10686498 -39.576939 -23.888149 -124.56984
197812000 -23.933392 -135.48601 -0.10864344 -39.774414 -0.10765196 -39.770889 -23.820087 -124.63653
198811000 -23.879541 -135.65607 -0.10825011 -39.971989 -0.10790034 -39.972645 -23.749561 -124.84583
199810000 -23.805243 -135.99675 -0.10871775 -40.16383 -0.10847464 -40.163025 -23.673777 -124.90427
200809000 -23.748135 -136.25261 -0.10871882 -40.362381 -0.1085954 -40.361633 -23.595873 -125.1027
201808000 -23.690229 -136.46754 -0.10993197 -40.560219 -0.10958152 -40.563953 -23.528091 -125.18153
202807000 -23.634853 -136.81778 -0.11074313 -40.761799 -0.10935535 -40.765987 -23.472681 -125.35526
