!Keysight Technologies,E5080B,MY59205177,A.15.75.32
!Date: Friday, February 23, 2024 03:31:45
!Correction: S11(Cdelta 2-Port  ) 
!S21(Cdelta 2-Port  ) 
!S12(Cdelta 2-Port  ) 
!S22(Cdelta 2-Port  ) 
!S2P File: Measurements: S11, S21, S12, S22:
# Hz S  dB   R 50
10000000 -46.119736 -2.3990073 -0.015680224 -2.047502 -0.018404 -2.103693 -45.947914 -158.20085
10999000 -45.262798 -4.2252579 -0.016533738 -2.2688017 -0.018077504 -2.3182316 -45.867165 -151.70772
11998000 -44.308147 -7.4191189 -0.016857259 -2.4945271 -0.018111035 -2.5381808 -46.114773 -147.71002
12997000 -43.586529 -12.450888 -0.016086303 -2.6713586 -0.01757117 -2.7054121 -45.787567 -141.34343
13996000 -43.293991 -16.635107 -0.014833631 -2.8481321 -0.018100377 -2.8754632 -45.546215 -136.44682
14995000 -42.881374 -21.012886 -0.017773904 -3.0631635 -0.017447455 -3.0866957 -45.225433 -132.85297
15994000 -42.720581 -25.288761 -0.018754957 -3.2849948 -0.019652762 -3.3022494 -45.077656 -129.72015
16993000 -42.701817 -29.9312 -0.018000562 -3.4783993 -0.018686844 -3.4852495 -44.318695 -129.20201
17992000 -42.78138 -35.208572 -0.018099599 -3.6785538 -0.019242188 -3.6811924 -43.766552 -129.42227
18991000 -43.009281 -40.660564 -0.019127265 -3.8886974 -0.020497693 -3.8876412 -43.063221 -128.42935
19990000 -42.757874 -46.278358 -0.021769952 -4.0994034 -0.022669161 -4.0963025 -42.409569 -128.87305
20989000 -42.619141 -49.515766 -0.023907958 -4.3033352 -0.024727423 -4.2924733 -41.901207 -128.31044
21988000 -42.462971 -54.767838 -0.024238275 -4.5018086 -0.025196837 -4.4893336 -41.652637 -127.7299
22987000 -42.131401 -59.614349 -0.026060557 -4.6997538 -0.026274106 -4.6921468 -41.381577 -127.37165
23986000 -42.054279 -63.766293 -0.025812127 -4.8944259 -0.024920078 -4.8920436 -41.247585 -126.9698
24985000 -41.666412 -66.534821 -0.026007432 -5.1016645 -0.025732704 -5.1028571 -41.001171 -124.58356
25984000 -41.34465 -68.281998 -0.026837192 -5.307385 -0.026000923 -5.3081126 -40.689362 -123.17082
26983000 -41.01115 -70.522438 -0.027776789 -5.5085301 -0.027357111 -5.5257235 -40.601387 -122.22086
27982000 -40.843075 -71.321144 -0.029623751 -5.7118707 -0.028897433 -5.7454066 -40.317757 -120.54424
28981000 -40.798168 -73.093979 -0.026749156 -5.9069347 -0.027841659 -5.9318056 -40.1371 -120.13691
29980000 -40.397312 -74.264191 -0.027700717 -6.103898 -0.029354006 -6.1075478 -39.814804 -118.99892
30979000 -39.995049 -73.291077 -0.025443152 -6.4559627 -0.024011293 -6.4485097 -39.330517 -119.61536
31978000 -39.803173 -74.289993 -0.024147689 -6.6534939 -0.025209336 -6.64258 -39.076637 -118.87461
32977000 -39.601944 -75.927147 -0.024041487 -6.8596702 -0.025992589 -6.8578506 -38.835361 -118.84705
33976000 -39.442673 -76.934792 -0.024244523 -7.0614195 -0.026433751 -7.0578542 -38.535061 -118.28432
34975000 -39.152988 -77.643021 -0.02517757 -7.2637801 -0.02728912 -7.2630343 -38.337566 -117.83866
35974000 -38.951054 -78.325813 -0.024082353 -7.4574032 -0.026510842 -7.4587135 -38.045441 -116.92309
36973000 -38.706287 -78.946083 -0.024026129 -7.656311 -0.027571242 -7.6652193 -37.76268 -116.01301
37972000 -38.556026 -78.805588 -0.024332508 -7.8687091 -0.02731986 -7.8789964 -37.567253 -115.17956
38971000 -38.207947 -78.277992 -0.025342906 -8.070013 -0.027252393 -8.0815268 -37.391342 -113.67331
39970000 -37.875694 -78.493645 -0.023936849 -8.2656937 -0.026996078 -8.2793674 -37.121166 -112.95598
40969000 -37.617481 -78.241478 -0.02379135 -8.463376 -0.026510062 -8.4837828 -36.916832 -111.661
41968000 -37.252407 -78.209518 -0.024335632 -8.6638298 -0.026665289 -8.6840286 -36.695435 -110.3422
42967000 -36.975647 -78.262642 -0.024244523 -8.8793526 -0.0267739 -8.8957567 -36.512646 -108.49454
43966000 -36.688904 -78.993721 -0.025281718 -9.0775309 -0.028162897 -9.0977983 -36.233543 -107.70034
44965000 -36.457817 -79.731728 -0.025645731 -9.2770987 -0.028471392 -9.3016348 -36.032791 -107.47375
45964000 -36.215057 -80.74794 -0.026315253 -9.4848366 -0.029740516 -9.4991493 -35.795155 -107.12637
46963000 -36.031826 -82.663574 -0.026812969 -9.6778212 -0.030201089 -9.6979647 -35.617409 -107.39694
47962000 -35.858059 -84.058083 -0.028575096 -9.881566 -0.031746592 -9.8980265 -35.414818 -107.39188
48961000 -35.65255 -85.481049 -0.030945875 -10.076314 -0.033079013 -10.095371 -35.183681 -107.55535
49960000 -35.402214 -86.84449 -0.032115061 -10.273462 -0.034119364 -10.298788 -35.042385 -107.61914
50959000 -35.192554 -88.126228 -0.032032132 -10.489469 -0.035400838 -10.501705 -34.871685 -108.02392
51958000 -34.984192 -89.131371 -0.034895092 -10.687515 -0.036385883 -10.697685 -34.688316 -108.40285
52957000 -34.766712 -90.118874 -0.035939269 -10.888675 -0.037532773 -10.893795 -34.519989 -108.15324
53956000 -34.589355 -90.879997 -0.036754746 -11.090645 -0.038298666 -11.094174 -34.391552 -108.04922
54955000 -34.429493 -91.298317 -0.037662283 -11.291195 -0.039616641 -11.290235 -34.247372 -108.051
55954000 -34.267536 -92.203407 -0.039437439 -11.492906 -0.039620299 -11.487859 -34.149124 -107.77132
56953000 -34.153576 -92.258911 -0.039088983 -11.689087 -0.03841044 -11.678465 -34.062107 -107.95319
57952000 -33.976559 -92.776573 -0.03949935 -11.889148 -0.039933003 -11.88208 -33.96677 -107.98969
58951000 -33.862549 -93.155228 -0.04139756 -12.094954 -0.041004263 -12.076583 -33.800575 -108.11812
59950000 -33.727062 -93.503532 -0.041268464 -12.297278 -0.041127607 -12.273487 -33.739986 -108.30222
60949000 -33.622604 -94.047188 -0.041566912 -12.496751 -0.042505782 -12.476144 -33.641628 -108.59771
61948000 -33.554829 -94.299835 -0.042259019 -12.697839 -0.041143026 -12.678752 -33.553162 -108.67677
62947000 -33.46703 -94.561707 -0.042448796 -12.908256 -0.04236776 -12.891595 -33.415726 -108.92864
63946000 -33.398247 -95.321404 -0.044176746 -13.108768 -0.043696906 -13.088755 -33.306568 -109.12438
64945000 -33.288395 -95.510269 -0.044323452 -13.308412 -0.043718349 -13.290395 -33.196552 -109.61874
65944000 -33.190182 -95.737213 -0.0451065 -13.511811 -0.044569809 -13.491901 -33.095634 -109.94625
66943000 -33.043163 -96.172562 -0.043199345 -13.714109 -0.042865489 -13.698327 -33.0014 -110.3086
67942000 -32.986187 -96.143044 -0.045500431 -13.908978 -0.04507773 -13.895823 -32.880768 -110.63018
68941000 -32.86882 -96.254219 -0.045129254 -14.101404 -0.043368243 -14.092849 -32.768871 -110.56503
69940000 -32.775455 -96.203033 -0.045534961 -14.302968 -0.044367649 -14.290157 -32.616379 -110.87632
70939000 -32.665592 -96.159546 -0.045013908 -14.49676 -0.04430018 -14.491683 -32.492134 -110.63218
71938000 -32.514446 -95.737144 -0.045426663 -14.696209 -0.044301223 -14.68589 -32.35117 -110.53079
72937000 -32.357983 -95.548767 -0.044686452 -14.891966 -0.04422434 -14.888641 -32.221848 -110.23326
73936000 -32.221172 -95.203491 -0.044309594 -15.089829 -0.04322575 -15.088775 -32.109283 -110.06314
74935000 -32.10236 -95.409409 -0.044169161 -15.28847 -0.041895702 -15.28986 -31.953371 -109.73794
75934000 -31.980911 -95.671066 -0.042879868 -15.496065 -0.042927708 -15.494223 -31.866169 -109.64317
76933000 -31.841454 -96.048523 -0.044656634 -15.69187 -0.044070575 -15.68638 -31.686235 -110.0126
77932000 -31.742926 -96.763748 -0.046353545 -15.891745 -0.046087209 -15.885162 -31.594395 -109.8939
78931000 -31.665874 -97.536346 -0.044363204 -16.088772 -0.044804405 -16.080925 -31.483074 -109.8007
79930000 -31.546005 -98.459 -0.046799924 -16.284508 -0.046971839 -16.281393 -31.392807 -110.10595
80929000 -31.435337 -99.18383 -0.048821751 -16.480909 -0.048636146 -16.476612 -31.285652 -110.34562
81928000 -31.331537 -99.897858 -0.048651591 -16.671953 -0.049192976 -16.664921 -31.155291 -110.3252
82927000 -31.229271 -100.66904 -0.051096741 -16.870468 -0.050369442 -16.870369 -31.050943 -110.63603
83926000 -31.117044 -101.35279 -0.052529961 -17.067423 -0.05163791 -17.067228 -30.937452 -110.80072
84925000 -31.009825 -101.73906 -0.05336795 -17.269442 -0.052051295 -17.264681 -30.840778 -110.79267
85924000 -30.910934 -102.11184 -0.053910449 -17.469618 -0.053247143 -17.4688 -30.759914 -110.81952
86923000 -30.804884 -102.64058 -0.054098111 -17.665327 -0.054094441 -17.663063 -30.656425 -110.62297
87922000 -30.691324 -102.94239 -0.053867202 -17.877867 -0.053250812 -17.862169 -30.560236 -110.72923
88921000 -30.617468 -103.23744 -0.055184931 -18.07258 -0.054178577 -18.069662 -30.46629 -110.69461
89920000 -30.521215 -103.72416 -0.055683609 -18.27212 -0.054895245 -18.263428 -30.401653 -110.87299
90919000 -30.411606 -104.0007 -0.056598257 -18.467373 -0.056224823 -18.461695 -30.322227 -111.02726
91918000 -30.317734 -104.42473 -0.057397421 -18.66741 -0.055978853 -18.664803 -30.256115 -110.98414
92917000 -30.222551 -104.67894 -0.058115143 -18.86615 -0.05769882 -18.863035 -30.191036 -111.13069
93916000 -30.133755 -104.97789 -0.057567399 -19.063623 -0.057705641 -19.061108 -30.103636 -111.69389
94915000 -30.06465 -105.62299 -0.05959687 -19.264549 -0.058227431 -19.256241 -30.038664 -111.60962
95914000 -29.993082 -105.86992 -0.060308918 -19.457661 -0.059249945 -19.453337 -29.946173 -111.84103
96913000 -29.91227 -106.05978 -0.061350301 -19.65732 -0.06037559 -19.655277 -29.88637 -112.2038
97912000 -29.833939 -106.50613 -0.062782444 -19.854006 -0.060498431 -19.857765 -29.805649 -112.4642
98911000 -29.724972 -106.72823 -0.063079223 -20.057884 -0.06154301 -20.055363 -29.755955 -112.66316
99910000 -29.660782 -106.85967 -0.063846745 -20.255905 -0.062034275 -20.256371 -29.653917 -112.93545
100909000 -29.568033 -107.05888 -0.063194789 -20.465721 -0.061494961 -20.459896 -29.57201 -113.13974
101908000 -29.477678 -107.2954 -0.064395286 -20.665094 -0.062567614 -20.66366 -29.455355 -112.93877
102907000 -29.341269 -107.34731 -0.065483108 -20.864109 -0.063275427 -20.864958 -29.385178 -112.92381
103906000 -29.252831 -107.3804 -0.064973056 -21.074982 -0.062760115 -21.067457 -29.231606 -112.87572
104905000 -29.101728 -107.26943 -0.065584287 -21.268572 -0.062611736 -21.267767 -29.109825 -112.56104
105904000 -28.964422 -107.30437 -0.065759577 -21.473696 -0.063097082 -21.465757 -28.996145 -112.40523
106903000 -28.852758 -107.44908 -0.066599332 -21.678133 -0.06303063 -21.672691 -28.87022 -112.27937
107902000 -28.682341 -107.73533 -0.067210525 -21.876951 -0.063250475 -21.867737 -28.736084 -112.28902
108901000 -28.574984 -107.95299 -0.067540206 -22.079147 -0.065586649 -22.07324 -28.610777 -112.16688
109900000 -28.452105 -108.4663 -0.068431586 -22.282434 -0.066317819 -22.269209 -28.464434 -112.27187
110899000 -28.33251 -109.044 -0.070643999 -22.47698 -0.067144535 -22.471445 -28.335506 -112.5025
111898000 -28.239849 -109.72888 -0.071618386 -22.682024 -0.068060026 -22.676208 -28.221994 -112.65359
112897000 -28.116856 -110.23223 -0.073031805 -22.88052 -0.06985081 -22.867805 -28.080906 -112.80486
113896000 -28.009951 -110.80949 -0.074128903 -23.081787 -0.070919216 -23.06872 -27.972971 -112.93662
114895000 -27.909439 -111.46073 -0.074605532 -23.277645 -0.072162904 -23.266878 -27.866211 -113.00792
115894000 -27.787622 -111.81155 -0.075984098 -23.479689 -0.072825946 -23.46526 -27.798395 -113.21312
116893000 -27.713602 -112.32925 -0.076374777 -23.677656 -0.073838472 -23.662529 -27.677177 -113.27268
117892000 -27.615772 -112.80463 -0.076375835 -23.873869 -0.074228965 -23.860407 -27.604084 -113.46889
118891000 -27.579716 -113.23081 -0.07807675 -24.074463 -0.074899696 -24.060692 -27.503712 -113.62506
119890000 -27.490528 -113.56857 -0.078113914 -24.273163 -0.076049954 -24.258585 -27.492117 -113.74699
120889000 -27.430323 -114.05514 -0.078860372 -24.481001 -0.076048903 -24.460152 -27.418287 -113.69006
121888000 -27.394709 -114.35246 -0.079634383 -24.670605 -0.076397702 -24.660637 -27.364159 -113.93677
122887000 -27.352564 -114.6001 -0.080310434 -24.877954 -0.077373378 -24.86219 -27.313961 -113.96809
123886000 -27.300196 -114.99133 -0.081124261 -25.078915 -0.077735461 -25.059084 -27.303547 -114.07944
124885000 -27.268118 -115.5294 -0.081221841 -25.280983 -0.077855632 -25.263254 -27.274714 -114.17543
125884000 -27.219749 -115.71044 -0.08208596 -25.477495 -0.078336358 -25.462868 -27.242226 -114.27683
126883000 -27.201899 -116.07911 -0.082638659 -25.678188 -0.079252101 -25.668886 -27.198717 -114.29485
127882000 -27.151741 -116.35129 -0.082642354 -25.878181 -0.079393409 -25.864077 -27.164312 -114.4521
128881000 -27.117533 -116.7256 -0.0828273 -26.083908 -0.079384975 -26.065817 -27.122101 -114.51181
129880000 -27.062893 -117.05484 -0.0833508 -26.286009 -0.079792045 -26.26667 -27.079842 -114.48988
130879000 -27.008295 -117.18591 -0.083093531 -26.48443 -0.08054512 -26.468107 -27.01391 -114.51711
131878000 -26.941679 -117.43911 -0.083700448 -26.688869 -0.080877401 -26.667641 -26.950758 -114.40074
132877000 -26.873907 -117.50108 -0.083552934 -26.8895 -0.081273541 -26.868902 -26.868353 -114.32681
133876000 -26.788416 -117.66302 -0.084458955 -27.090406 -0.081291735 -27.067339 -26.789192 -114.21912
134875000 -26.692272 -117.77563 -0.083945617 -27.292797 -0.081536241 -27.269798 -26.684227 -114.06351
135874000 -26.612392 -117.78324 -0.084058836 -27.489151 -0.081510127 -27.476698 -26.586069 -113.99115
136873000 -26.49539 -117.76855 -0.084178656 -27.690708 -0.081304133 -27.672037 -26.500748 -113.97562
137872000 -26.41934 -117.88333 -0.083590932 -27.893742 -0.081633575 -27.881687 -26.400661 -113.91273
138871000 -26.346359 -118.07296 -0.084907949 -28.092567 -0.081706107 -28.076626 -26.301689 -114.06466
139870000 -26.242229 -118.3913 -0.085363321 -28.29454 -0.08282809 -28.277746 -26.221804 -114.23934
140869000 -26.163311 -118.91675 -0.086779632 -28.489048 -0.083667725 -28.473227 -26.122887 -114.46836
141868000 -26.080408 -119.28434 -0.087382317 -28.692703 -0.085419022 -28.677025 -26.072708 -114.69272
142867000 -26.000938 -119.51002 -0.086360551 -28.891779 -0.083892308 -28.872347 -25.992548 -114.83512
143866000 -25.931093 -120.01579 -0.088037647 -29.086119 -0.085628644 -29.069723 -25.920851 -115.27251
144865000 -25.873219 -120.55164 -0.089822687 -29.286032 -0.087432496 -29.268406 -25.856709 -115.61234
145864000 -25.819841 -120.83702 -0.090434775 -29.48621 -0.088164449 -29.473633 -25.824482 -115.83642
146863000 -25.771637 -121.14955 -0.0909243 -29.684196 -0.089278325 -29.671438 -25.783785 -116.16413
147862000 -25.731302 -121.51604 -0.091892406 -29.884964 -0.088868253 -29.872026 -25.743366 -116.4578
148861000 -25.691847 -121.95425 -0.092204668 -30.083889 -0.090585433 -30.06637 -25.721321 -116.60647
149860000 -25.663816 -122.12839 -0.093358465 -30.276102 -0.091190495 -30.264482 -25.668425 -116.71275
150859000 -25.644388 -122.58343 -0.093104564 -30.469933 -0.090625614 -30.457651 -25.652145 -117.05733
151858000 -25.630184 -122.93948 -0.092898548 -30.675009 -0.090849757 -30.659224 -25.640125 -117.42152
152857000 -25.616274 -123.25948 -0.092798851 -30.87088 -0.09123306 -30.860762 -25.623859 -117.57819
153856000 -25.611153 -123.47391 -0.09286496 -31.071009 -0.090506405 -31.060049 -25.64142 -117.89799
154855000 -25.608334 -123.66963 -0.093441777 -31.272926 -0.091230147 -31.256138 -25.636272 -118.15165
155854000 -25.624666 -123.89513 -0.093869478 -31.472178 -0.091882624 -31.458551 -25.624697 -118.41161
156853000 -25.608326 -124.58076 -0.09174937 -31.660212 -0.089993939 -31.64966 -25.621283 -118.74124
157852000 -25.613655 -124.79226 -0.093200833 -31.86062 -0.091577262 -31.853127 -25.607777 -119.07141
158851000 -25.616026 -125.0039 -0.094203837 -32.060623 -0.092150994 -32.049255 -25.592304 -119.36107
159850000 -25.603397 -125.10303 -0.094128974 -32.260899 -0.092094146 -32.247837 -25.590452 -119.52486
160849000 -25.591074 -125.21024 -0.094629765 -32.458702 -0.092890352 -32.453365 -25.562729 -119.82665
161848000 -25.574846 -125.27811 -0.094282143 -32.660942 -0.093086317 -32.65379 -25.522434 -119.94659
162847000 -25.536119 -125.48524 -0.094632939 -32.856441 -0.093336247 -32.85228 -25.491707 -120.19454
163846000 -25.490873 -125.66415 -0.095226124 -33.055862 -0.093766056 -33.048145 -25.41424 -120.16523
164845000 -25.438517 -125.66697 -0.09520866 -33.260349 -0.09389884 -33.250423 -25.357859 -120.29776
165844000 -25.381094 -125.69242 -0.095109701 -33.458244 -0.094470762 -33.453484 -25.277296 -120.43524
166843000 -25.320549 -125.76578 -0.095199399 -33.658989 -0.094231881 -33.653927 -25.211119 -120.55865
167842000 -25.262634 -125.85989 -0.09560293 -33.858696 -0.094894066 -33.85162 -25.132523 -120.48818
168841000 -25.181175 -126.04006 -0.095949858 -34.058231 -0.095171086 -34.051353 -25.05863 -120.56568
169840000 -25.125938 -126.2682 -0.09623754 -34.252243 -0.096086681 -34.252026 -24.977608 -120.74735
170839000 -25.064054 -126.49867 -0.09736196 -34.452843 -0.095718302 -34.450687 -24.890305 -120.92898
171838000 -25.002728 -126.86328 -0.097447202 -34.649872 -0.096939206 -34.642944 -24.831375 -121.16821
172837000 -24.930908 -127.23714 -0.098763131 -34.848846 -0.097957112 -34.842422 -24.764702 -121.34464
173836000 -24.863464 -127.6141 -0.099639483 -35.048061 -0.099442691 -35.048073 -24.718086 -121.57443
174835000 -24.815123 -128.02524 -0.1009007 -35.242683 -0.09987019 -35.244007 -24.67753 -121.88763
175834000 -24.76548 -128.39351 -0.1015912 -35.445313 -0.10106629 -35.443233 -24.614662 -122.16646
176833000 -24.711908 -128.75446 -0.10283735 -35.645752 -0.10128859 -35.644142 -24.56811 -122.27963
177832000 -24.662445 -129.17903 -0.1034192 -35.84515 -0.10254472 -35.843555 -24.54837 -122.38791
178831000 -24.621416 -129.39182 -0.10447574 -36.039242 -0.10410002 -36.037476 -24.509985 -122.48152
179830000 -24.551695 -129.78571 -0.10611953 -36.223755 -0.10498727 -36.227516 -24.449289 -122.54473
180829000 -24.497627 -130.1268 -0.10505755 -36.415749 -0.10429596 -36.417747 -24.403866 -122.88091
181828000 -24.47563 -130.56827 -0.10454256 -36.618042 -0.10313582 -36.614864 -24.381826 -123.0573
182827000 -24.453773 -130.95847 -0.10430074 -36.816189 -0.10335292 -36.812958 -24.374632 -123.19579
183826000 -24.412867 -131.29509 -0.10527077 -37.015656 -0.10379592 -37.015491 -24.360373 -123.34155
184825000 -24.415514 -131.62572 -0.1056389 -37.210445 -0.10370896 -37.212269 -24.339611 -123.48227
185824000 -24.390909 -131.98662 -0.10472765 -37.409142 -0.10436092 -37.407791 -24.337934 -123.54882
186823000 -24.368631 -132.35791 -0.10545907 -37.60622 -0.10410718 -37.606853 -24.333441 -123.54189
187822000 -24.348557 -132.69049 -0.10564606 -37.801334 -0.10444604 -37.801777 -24.289841 -123.62553
188821000 -24.325821 -132.93616 -0.10592324 -37.997437 -0.10502864 -38.000885 -24.275501 -123.76825
189820000 -24.303595 -133.23325 -0.10624208 -38.197941 -0.1048438 -38.197948 -24.255156 -123.95435
190819000 -24.2701 -133.53297 -0.10643043 -38.393658 -0.1055153 -38.394398 -24.217871 -124.00075
191818000 -24.238228 -133.86006 -0.10683049 -38.592831 -0.10574048 -38.59473 -24.185444 -124.05491
192817000 -24.193159 -134.11588 -0.106796 -38.792889 -0.10623678 -38.78801 -24.141869 -124.12537
193816000 -24.16123 -134.38206 -0.10693476 -38.98716 -0.10605268 -38.983387 -24.095192 -124.2513
194815000 -24.099997 -134.78256 -0.10754051 -39.182182 -0.10715152 -39.184246 -24.022528 -124.32144
195814000 -24.04805 -134.96315 -0.10845553 -39.379314 -0.10759384 -39.382057 -23.966818 -124.45567
196813000 -23.987198 -135.27879 -0.10767584 -39.571484 -0.10769335 -39.575661 -23.889881 -124.56715
197812000 -23.928787 -135.50406 -0.10824799 -39.770805 -0.10736697 -39.76796 -23.819878 -124.69338
198811000 -23.875708 -135.67097 -0.10774271 -39.967857 -0.10686339 -39.972179 -23.748913 -124.87576
199810000 -23.808048 -135.99443 -0.1087098 -40.161785 -0.10725951 -40.1647 -23.673002 -124.94389
200809000 -23.7474 -136.28812 -0.10902619 -40.357792 -0.10747364 -40.363338 -23.591602 -125.10819
201808000 -23.690084 -136.47057 -0.10954011 -40.563107 -0.10912599 -40.56366 -23.528013 -125.16306
202807000 -23.634682 -136.79697 -0.1098571 -40.763142 -0.10943021 -40.765903 -23.473114 -125.37513
