!Keysight Technologies,E5080B,MY59205177,A.15.75.32
!Date: Friday, February 23, 2024 02:53:31
!Correction: S11(Cdelta 2-Port  ) 
!S21(Cdelta 2-Port  ) 
!S12(Cdelta 2-Port  ) 
!S22(Cdelta 2-Port  ) 
!S2P File: Measurements: S11, S21, S12, S22:
# Hz S  dB   R 50
10000000 -43.445885 -3.749193 -0.031824298 -2.044225 -0.03523251 -2.0964599 -49.193241 -146.15611
10999000 -42.8535 -5.3994985 -0.033020325 -2.2623556 -0.03480063 -2.3174906 -48.823765 -137.55217
11998000 -42.095554 -7.4682236 -0.033218302 -2.4848433 -0.034488816 -2.5280228 -48.874771 -131.27644
12997000 -41.501339 -12.115021 -0.032106977 -2.661319 -0.034414191 -2.6973503 -48.035526 -125.13728
13996000 -41.275814 -14.932414 -0.031890012 -2.8456085 -0.034471072 -2.8636606 -47.601101 -118.91726
14995000 -40.975246 -18.657093 -0.034544915 -3.0522099 -0.034038223 -3.0775747 -47.067322 -115.99063
15994000 -40.891529 -22.227278 -0.03503418 -3.270643 -0.036694441 -3.2960486 -46.721428 -112.09217
16993000 -40.909248 -25.87771 -0.034189284 -3.4689679 -0.035905339 -3.478617 -45.842468 -114.06823
17992000 -40.988773 -30.083124 -0.035014607 -3.6703687 -0.036586624 -3.6685357 -45.170979 -114.96218
18991000 -41.270489 -34.246967 -0.036346465 -3.8785076 -0.037502483 -3.8718724 -44.437706 -114.74147
19990000 -41.197952 -38.894405 -0.038383801 -4.0868926 -0.039503269 -4.08039 -43.784939 -117.02563
20989000 -41.121426 -41.641308 -0.039993875 -4.289958 -0.041542869 -4.2804985 -43.14156 -117.04138
21988000 -41.063301 -46.17609 -0.040951479 -4.4850602 -0.042947579 -4.4760957 -42.857311 -116.37038
22987000 -40.910706 -50.270164 -0.042164136 -4.6842284 -0.043238822 -4.678688 -42.571323 -116.52032
23986000 -40.925125 -54.075119 -0.041818861 -4.8812475 -0.042473365 -4.8770132 -42.452248 -116.48724
24985000 -40.630726 -56.854061 -0.042488527 -5.0899968 -0.042308163 -5.0851703 -42.164387 -113.70074
25984000 -40.414406 -58.820694 -0.04342838 -5.2934966 -0.043268107 -5.2930093 -41.798756 -112.86728
26983000 -40.164253 -60.776711 -0.044477489 -5.4941521 -0.044274028 -5.5104322 -41.644768 -111.72425
27982000 -39.989628 -61.902668 -0.045280702 -5.6924744 -0.045411229 -5.7246842 -41.29924 -110.4399
28981000 -40.050365 -63.381992 -0.043529306 -5.8870645 -0.045724355 -5.9130769 -41.067081 -110.08318
29980000 -39.669266 -65.08976 -0.043566957 -6.0835323 -0.045760978 -6.0861402 -40.762424 -109.15836
30979000 -39.29607 -64.382576 -0.041779134 -6.4385581 -0.04063243 -6.4295669 -40.211269 -110.32975
31978000 -39.132 -65.52832 -0.040779799 -6.6318827 -0.041201301 -6.6196599 -39.909325 -109.64871
32977000 -38.991795 -67.225136 -0.039884411 -6.8386207 -0.041952681 -6.8382778 -39.670547 -109.86872
33976000 -38.850658 -68.348763 -0.041479886 -7.039525 -0.042379785 -7.0352979 -39.356842 -109.7282
34975000 -38.571251 -69.405937 -0.041341897 -7.2418356 -0.04338707 -7.2410293 -39.092415 -109.46429
35974000 -38.389866 -70.158356 -0.040644709 -7.4354491 -0.04352669 -7.4387131 -38.779324 -108.87452
36973000 -38.151722 -70.963524 -0.040844604 -7.6350851 -0.043439362 -7.6377287 -38.489635 -108.1379
37972000 -38.003544 -70.998177 -0.040816646 -7.8445253 -0.044160534 -7.8570647 -38.247082 -107.43915
38971000 -37.692501 -70.842751 -0.042475197 -8.0437984 -0.044232707 -8.0573215 -38.031662 -105.97825
39970000 -37.375187 -71.416336 -0.039384149 -8.2414026 -0.042921696 -8.2554712 -37.744865 -105.67226
40969000 -37.089413 -71.205025 -0.040531833 -8.4385214 -0.043044049 -8.4552307 -37.477959 -104.31242
41968000 -36.742443 -71.630608 -0.041354965 -8.6416931 -0.043999448 -8.6586447 -37.247272 -103.12768
42967000 -36.488518 -71.845116 -0.040717348 -8.8492756 -0.043885961 -8.8743849 -37.007599 -101.2942
43966000 -36.226536 -72.938118 -0.040932402 -9.0492725 -0.044791851 -9.0650759 -36.719193 -100.74659
44965000 -35.995155 -73.748238 -0.042292479 -9.2535963 -0.045307122 -9.2712498 -36.48708 -100.64591
45964000 -35.82151 -74.865067 -0.043737959 -9.4518366 -0.046602108 -9.4757538 -36.252876 -100.73949
46963000 -35.630325 -77.000801 -0.043307062 -9.6442947 -0.046641357 -9.6666088 -36.067799 -101.0917
47962000 -35.507183 -78.376099 -0.045178693 -9.8497667 -0.048395321 -9.8666306 -35.87434 -101.26569
48961000 -35.31382 -79.898445 -0.047391586 -10.047102 -0.049484644 -10.067461 -35.634762 -101.64728
49960000 -35.102402 -81.35804 -0.048459452 -10.240572 -0.050453506 -10.267953 -35.500069 -101.84834
50959000 -34.895927 -82.795319 -0.048959188 -10.457735 -0.052236784 -10.468348 -35.315685 -102.34946
51958000 -34.73378 -83.896828 -0.05081309 -10.655366 -0.052658349 -10.668119 -35.149681 -102.96979
52957000 -34.524632 -85.091904 -0.051728811 -10.856507 -0.054823153 -10.86242 -34.983261 -102.79144
53956000 -34.388783 -85.906975 -0.05340359 -11.059731 -0.055531271 -11.056663 -34.850674 -102.79737
54955000 -34.227295 -86.42218 -0.054678448 -11.258721 -0.05591907 -11.253761 -34.686573 -102.87032
55954000 -34.074345 -87.445778 -0.055896781 -11.456594 -0.056030251 -11.455277 -34.578197 -102.61755
56953000 -33.951092 -87.529411 -0.055496402 -11.656127 -0.055703536 -11.648958 -34.504314 -102.94392
57952000 -33.798573 -88.050316 -0.055764627 -11.852619 -0.056375608 -11.846845 -34.403652 -103.05824
58951000 -33.685631 -88.472862 -0.056774758 -12.056028 -0.057385094 -12.040362 -34.243141 -103.2658
59950000 -33.578022 -88.913071 -0.058299053 -12.257527 -0.058379598 -12.233293 -34.171173 -103.53541
60949000 -33.456749 -89.596123 -0.058559056 -12.463469 -0.058452535 -12.435329 -34.086403 -103.82736
61948000 -33.400532 -89.920227 -0.059113227 -12.659481 -0.05885319 -12.639047 -34.004326 -103.93495
62947000 -33.311897 -90.120537 -0.058679752 -12.869819 -0.058826949 -12.851598 -33.866917 -104.32895
63946000 -33.247288 -90.86203 -0.060365353 -13.067166 -0.060356691 -13.046773 -33.754734 -104.43465
64945000 -33.14687 -91.046028 -0.060646217 -13.269457 -0.061158385 -13.253855 -33.640182 -104.95621
65944000 -33.0368 -91.312309 -0.061677702 -13.471292 -0.061242659 -13.450361 -33.559578 -105.42179
66943000 -32.898819 -91.764603 -0.059032407 -13.669935 -0.059386402 -13.655187 -33.448631 -105.70771
67942000 -32.842346 -91.764023 -0.061172564 -13.868129 -0.061596308 -13.850698 -33.326504 -106.00364
68941000 -32.744602 -91.847107 -0.061004806 -14.059497 -0.060718406 -14.050275 -33.219849 -105.98724
69940000 -32.637939 -91.855392 -0.061277315 -14.258656 -0.061482359 -14.246685 -33.071205 -106.35598
70939000 -32.527977 -91.919273 -0.061084878 -14.450108 -0.061175451 -14.447846 -32.947334 -106.22285
71938000 -32.383308 -91.474304 -0.061105091 -14.652855 -0.06150179 -14.645944 -32.818981 -106.14329
72937000 -32.228512 -91.358719 -0.060503945 -14.851842 -0.061019771 -14.845759 -32.67017 -105.89882
73936000 -32.080269 -91.122734 -0.060609732 -15.048628 -0.060884051 -15.041839 -32.549252 -105.735
74935000 -31.965223 -91.382759 -0.0594276 -15.245199 -0.059281435 -15.23993 -32.393356 -105.42053
75934000 -31.839909 -91.706001 -0.059613667 -15.452861 -0.059589524 -15.446886 -32.300388 -105.38269
76933000 -31.709112 -92.053253 -0.061122682 -15.647571 -0.061540123 -15.641118 -32.124859 -105.825
77932000 -31.612623 -92.88739 -0.062062372 -15.841572 -0.062377486 -15.834209 -32.033344 -105.79987
78931000 -31.546503 -93.671608 -0.06114132 -16.042286 -0.061820012 -16.034826 -31.939672 -105.7097
79930000 -31.43972 -94.545204 -0.064023018 -16.232769 -0.064278901 -16.234207 -31.844513 -105.99106
80929000 -31.323202 -95.482529 -0.06501615 -16.428553 -0.065500975 -16.424694 -31.736523 -106.41049
81928000 -31.248901 -96.386002 -0.065625019 -16.621313 -0.065910429 -16.618376 -31.619921 -106.56379
82927000 -31.150688 -97.040291 -0.066787019 -16.820805 -0.067480788 -16.817656 -31.50836 -106.84463
83926000 -31.05093 -97.775681 -0.068325877 -17.016188 -0.06833192 -17.016375 -31.398689 -107.11848
84925000 -30.94054 -98.307365 -0.069474131 -17.213985 -0.069072492 -17.213854 -31.304291 -107.19772
85924000 -30.85791 -98.726265 -0.069952615 -17.41371 -0.069977865 -17.414249 -31.218475 -107.26404
86923000 -30.756426 -99.360428 -0.070705302 -17.614082 -0.070014432 -17.60512 -31.125237 -107.21785
87922000 -30.642275 -99.75602 -0.070583746 -17.82144 -0.069835551 -17.809637 -31.023104 -107.20844
88921000 -30.582378 -100.0554 -0.071741544 -18.015797 -0.07088501 -18.012745 -30.93952 -107.1943
89920000 -30.483704 -100.63284 -0.071393125 -18.217375 -0.071706809 -18.210016 -30.885315 -107.47431
90919000 -30.387056 -100.97466 -0.072678015 -18.415369 -0.072109215 -18.409536 -30.795368 -107.70567
91918000 -30.293268 -101.36249 -0.073361404 -18.614098 -0.072595619 -18.608046 -30.726555 -107.70847
92917000 -30.210232 -101.74546 -0.074563131 -18.812218 -0.073417485 -18.80872 -30.661901 -107.82657
93916000 -30.12085 -102.11429 -0.073913783 -19.003008 -0.073419586 -19.002296 -30.575428 -108.4296
94915000 -30.043608 -102.80453 -0.07563138 -19.206793 -0.074128643 -19.195698 -30.522093 -108.3386
95914000 -29.981756 -103.02345 -0.077216856 -19.401838 -0.075676158 -19.397451 -30.427004 -108.64473
96913000 -29.903372 -103.19711 -0.077565484 -19.60076 -0.076572903 -19.599646 -30.352573 -108.98085
97912000 -29.835382 -103.70251 -0.078587286 -19.79476 -0.077031091 -19.794281 -30.287624 -109.26272
98911000 -29.726515 -103.94035 -0.078913093 -19.996973 -0.077711746 -19.997154 -30.236019 -109.47216
99910000 -29.663782 -104.0691 -0.079625152 -20.196514 -0.078730159 -20.194925 -30.131329 -109.74552
100909000 -29.574635 -104.41234 -0.079235762 -20.403414 -0.077978186 -20.394989 -30.03775 -109.98576
101908000 -29.485888 -104.64009 -0.079992957 -20.601059 -0.079425313 -20.600245 -29.931263 -109.71825
102907000 -29.351908 -104.64338 -0.081026413 -20.804783 -0.079258434 -20.801159 -29.854956 -109.72585
103906000 -29.246002 -104.74158 -0.080917493 -21.010902 -0.078630254 -21.000786 -29.70998 -109.66531
104905000 -29.111341 -104.64677 -0.082096249 -21.207558 -0.080043584 -21.205101 -29.566856 -109.3032
105904000 -28.971592 -104.77327 -0.08205431 -21.406147 -0.080144837 -21.403971 -29.455231 -109.17268
106903000 -28.862574 -104.86944 -0.081954859 -21.616306 -0.079807863 -21.610893 -29.331966 -109.11099
107902000 -28.689381 -105.25785 -0.083451338 -21.811846 -0.08096575 -21.804398 -29.193436 -109.06619
108901000 -28.585045 -105.56319 -0.083662182 -22.015369 -0.081596382 -22.006138 -29.056267 -109.03968
109900000 -28.458559 -106.01618 -0.084273405 -22.213543 -0.082491174 -22.203394 -28.904112 -109.17681
110899000 -28.343472 -106.71826 -0.085258514 -22.411909 -0.083148941 -22.407177 -28.785425 -109.42249
111898000 -28.259804 -107.37511 -0.087182909 -22.616474 -0.084980011 -22.604979 -28.665333 -109.5847
112897000 -28.134029 -107.96472 -0.088624127 -22.813295 -0.085723691 -22.801823 -28.527185 -109.84375
113896000 -28.024767 -108.52776 -0.089404106 -23.012501 -0.087047428 -23.000227 -28.417999 -110.00455
114895000 -27.92878 -109.25061 -0.090742707 -23.210304 -0.089156248 -23.196142 -28.308434 -110.08257
115894000 -27.797239 -109.58885 -0.091848254 -23.412851 -0.090207741 -23.39669 -28.24227 -110.29295
116893000 -27.723072 -110.17469 -0.09254393 -23.605471 -0.090270646 -23.588413 -28.110308 -110.44109
117892000 -27.639368 -110.68574 -0.092546046 -23.801409 -0.090753011 -23.789684 -28.039587 -110.64224
118891000 -27.588655 -111.14651 -0.093211144 -24.001686 -0.090793453 -23.992105 -27.940643 -110.86575
119890000 -27.49991 -111.50213 -0.093856782 -24.206575 -0.091853805 -24.191397 -27.923595 -110.97476
120889000 -27.437155 -112.03567 -0.094704896 -24.404213 -0.09174858 -24.388762 -27.855186 -110.97555
121888000 -27.403048 -112.39183 -0.095011279 -24.60306 -0.092921555 -24.588575 -27.794975 -111.29394
122887000 -27.369452 -112.57318 -0.096193336 -24.80337 -0.093500227 -24.793495 -27.745159 -111.29443
123886000 -27.312429 -113.04713 -0.096825652 -25.006428 -0.094051994 -24.985235 -27.728827 -111.48679
124885000 -27.278109 -113.54205 -0.096968062 -25.202234 -0.094100937 -25.189125 -27.704798 -111.52753
125884000 -27.231009 -113.7513 -0.098030716 -25.403175 -0.094555154 -25.387907 -27.673864 -111.76189
126883000 -27.205044 -114.09383 -0.097947046 -25.607565 -0.095469296 -25.589476 -27.634005 -111.774
127882000 -27.152182 -114.40861 -0.098069899 -25.804295 -0.096059427 -25.789913 -27.595482 -111.93204
128881000 -27.124083 -114.7443 -0.098392136 -26.006519 -0.09553466 -25.987726 -27.548834 -112.08321
129880000 -27.070318 -115.08249 -0.099242464 -26.207487 -0.095572762 -26.186588 -27.510073 -112.07562
130879000 -27.011667 -115.21545 -0.099206448 -26.406767 -0.09652523 -26.3906 -27.430836 -112.13591
131878000 -26.941647 -115.43058 -0.099552877 -26.609303 -0.0964498 -26.590008 -27.363306 -112.02159
132877000 -26.869825 -115.51083 -0.099322714 -26.808432 -0.09710253 -26.793629 -27.278845 -112.03016
133876000 -26.786428 -115.65912 -0.099293843 -27.0105 -0.096312962 -26.991371 -27.193153 -111.90466
134875000 -26.689022 -115.80293 -0.099361382 -27.208977 -0.097041123 -27.193581 -27.086325 -111.79346
135874000 -26.609457 -115.8327 -0.099452756 -27.407206 -0.097346872 -27.396242 -26.979233 -111.78932
136873000 -26.495235 -115.77735 -0.099910714 -27.613083 -0.097747684 -27.598551 -26.896879 -111.74921
137872000 -26.415346 -115.87469 -0.10005905 -27.813583 -0.097958699 -27.79731 -26.793667 -111.70087
138871000 -26.34243 -116.09702 -0.10063364 -28.012823 -0.097803548 -27.995943 -26.688982 -111.90329
139870000 -26.243876 -116.32911 -0.1018016 -28.210529 -0.098974451 -28.193714 -26.612648 -112.04911
140869000 -26.157633 -116.80966 -0.10393458 -28.409016 -0.10034992 -28.388735 -26.506432 -112.21802
141868000 -26.063349 -117.3322 -0.10354114 -28.601028 -0.1015382 -28.586647 -26.430948 -112.55865
142867000 -25.98476 -117.58047 -0.10223331 -28.798985 -0.10033137 -28.782305 -26.356152 -112.77819
143866000 -25.912527 -118.10914 -0.10391735 -28.996834 -0.10187793 -28.97963 -26.286291 -113.26968
144865000 -25.861637 -118.62543 -0.10557126 -29.192366 -0.10314165 -29.179985 -26.225222 -113.59304
145864000 -25.805517 -118.95432 -0.10506921 -29.394823 -0.10415331 -29.379847 -26.190445 -113.84881
146863000 -25.759159 -119.35346 -0.10677796 -29.595692 -0.10429623 -29.583069 -26.142649 -114.21449
147862000 -25.714447 -119.71009 -0.10746037 -29.791626 -0.10500901 -29.777876 -26.10454 -114.5415
148861000 -25.686541 -120.21244 -0.10787486 -29.989544 -0.10551636 -29.975145 -26.084349 -114.79375
149860000 -25.672302 -120.45113 -0.10806965 -30.191544 -0.1054596 -30.176292 -26.052095 -114.96304
150859000 -25.649342 -120.81288 -0.10803887 -30.38995 -0.10649224 -30.372103 -26.045473 -115.2313
151858000 -25.633322 -121.10941 -0.1081413 -30.588039 -0.10666759 -30.568693 -26.033697 -115.53951
152857000 -25.619093 -121.44044 -0.10881809 -30.782648 -0.10679096 -30.770798 -26.020048 -115.67946
153856000 -25.604525 -121.66925 -0.10868485 -30.980988 -0.10532328 -30.968374 -26.032713 -115.99155
154855000 -25.604053 -121.87496 -0.10931818 -31.183477 -0.10608292 -31.170801 -26.023458 -116.19933
155854000 -25.612823 -122.09156 -0.10954595 -31.381769 -0.10723404 -31.367661 -26.013723 -116.47379
156853000 -25.600248 -122.8167 -0.10713375 -31.568043 -0.10667237 -31.557489 -26.010607 -116.7683
157852000 -25.603043 -123.02287 -0.10844465 -31.766523 -0.10794227 -31.761694 -25.999943 -117.10939
158851000 -25.602406 -123.24316 -0.10921174 -31.966951 -0.1081543 -31.959579 -25.982838 -117.37372
159850000 -25.582603 -123.38854 -0.109744 -32.165462 -0.10830133 -32.1548 -25.983734 -117.54044
160849000 -25.563766 -123.47093 -0.10969833 -32.365166 -0.10916953 -32.359959 -25.948814 -117.82627
161848000 -25.54261 -123.59843 -0.11087086 -32.564465 -0.10927942 -32.557663 -25.908514 -117.94559
162847000 -25.498184 -123.79845 -0.11078801 -32.760971 -0.11006711 -32.758991 -25.877136 -118.17652
163846000 -25.459452 -124.01132 -0.11099567 -32.964157 -0.10972834 -32.954884 -25.800743 -118.19748
164845000 -25.394924 -123.99928 -0.11057186 -33.159752 -0.1099256 -33.157024 -25.730795 -118.28857
165844000 -25.336044 -124.09666 -0.11135048 -33.361473 -0.11081881 -33.353504 -25.649479 -118.44712
166843000 -25.273523 -124.17261 -0.11191302 -33.559261 -0.11086661 -33.553371 -25.577606 -118.58938
167842000 -25.212376 -124.29755 -0.11196826 -33.755627 -0.11124053 -33.750931 -25.496157 -118.50349
168841000 -25.135387 -124.50091 -0.11208859 -33.955513 -0.11105037 -33.951645 -25.41795 -118.58813
169840000 -25.067953 -124.79124 -0.11199217 -34.153969 -0.11187371 -34.145145 -25.325111 -118.82676
170839000 -25.009281 -125.06293 -0.11277184 -34.346745 -0.11227533 -34.347614 -25.242561 -119.0196
171838000 -24.953255 -125.47005 -0.11315575 -34.549549 -0.11321393 -34.544128 -25.178867 -119.23706
172837000 -24.883404 -125.88401 -0.11399037 -34.743877 -0.11404857 -34.742699 -25.110235 -119.47195
173836000 -24.818077 -126.30812 -0.11526321 -34.945652 -0.11465213 -34.944195 -25.067465 -119.69157
174835000 -24.75951 -126.70466 -0.11619847 -35.138214 -0.11558858 -35.139778 -25.01984 -120.07344
175834000 -24.710911 -127.11575 -0.11692571 -35.337933 -0.11653402 -35.332134 -24.960464 -120.37946
176833000 -24.660503 -127.49364 -0.11731105 -35.533676 -0.11721797 -35.534534 -24.90774 -120.53194
177832000 -24.621628 -128.01668 -0.118172 -35.731365 -0.11784404 -35.72921 -24.887339 -120.69157
178831000 -24.576191 -128.377 -0.11812306 -35.927338 -0.11781106 -35.925148 -24.850258 -120.93407
179830000 -24.542583 -128.81369 -0.11925875 -36.12394 -0.11883999 -36.127304 -24.823675 -121.07703
180829000 -24.503845 -129.01402 -0.1195807 -36.32214 -0.11887749 -36.32375 -24.795153 -121.22738
181828000 -24.478743 -129.40657 -0.12000088 -36.522076 -0.11975526 -36.51783 -24.77894 -121.40173
182827000 -24.460802 -129.78209 -0.11983509 -36.71254 -0.11936811 -36.709969 -24.765455 -121.45162
183826000 -24.419134 -130.11295 -0.12122569 -36.913445 -0.12035934 -36.912182 -24.753283 -121.59787
184825000 -24.421665 -130.43639 -0.12061298 -37.10947 -0.12023639 -37.107136 -24.738968 -121.69082
185824000 -24.396175 -130.77748 -0.1203998 -37.301891 -0.1203817 -37.305939 -24.735256 -121.73969
186823000 -24.379473 -131.12337 -0.12099226 -37.505234 -0.12016986 -37.499874 -24.734583 -121.70891
187822000 -24.360725 -131.45224 -0.1213532 -37.69912 -0.12074871 -37.700024 -24.700514 -121.8177
188821000 -24.342854 -131.68179 -0.1208448 -37.897163 -0.12128399 -37.896049 -24.682379 -121.87974
189820000 -24.327063 -131.95511 -0.12181055 -38.096275 -0.12157361 -38.095276 -24.674051 -122.04881
190819000 -24.294811 -132.18535 -0.12282924 -38.293732 -0.12237231 -38.292671 -24.638479 -122.02327
191818000 -24.261049 -132.37059 -0.12387799 -38.489628 -0.12356585 -38.489296 -24.606382 -121.88597
192817000 -24.19043 -132.64815 -0.12432548 -38.673153 -0.12389291 -38.674297 -24.532619 -121.97588
193816000 -24.155731 -133.02277 -0.12332775 -38.866909 -0.12332456 -38.866138 -24.473969 -122.21102
194815000 -24.098139 -133.41823 -0.12334613 -39.065273 -0.12341617 -39.064335 -24.4123 -122.35686
195814000 -24.04801 -133.6778 -0.12417605 -39.261272 -0.12361858 -39.262615 -24.35906 -122.43362
196813000 -23.989809 -134.01457 -0.12366812 -39.45422 -0.12338661 -39.457413 -24.279873 -122.63895
197812000 -23.933983 -134.26865 -0.12403994 -39.651009 -0.1235227 -39.653599 -24.207794 -122.71884
198811000 -23.879787 -134.39906 -0.12395284 -39.850952 -0.12359141 -39.851543 -24.142319 -122.88256
199810000 -23.810341 -134.82364 -0.12432176 -40.048878 -0.12354454 -40.042023 -24.066607 -122.98966
200809000 -23.756802 -135.11353 -0.1243777 -40.243412 -0.12378264 -40.246059 -23.98531 -123.20503
201808000 -23.695686 -135.32521 -0.12489451 -40.444611 -0.1250453 -40.448402 -23.916916 -123.25251
202807000 -23.637337 -135.68034 -0.1258028 -40.642723 -0.12550996 -40.648411 -23.860943 -123.49205
203806000 -23.589548 -136.13611 -0.12749866 -40.839844 -0.12597173 -40.847713 -23.796253 -123.65926
