!Keysight Technologies,E5080B,MY59205177,A.15.75.32
!Date: Friday, February 23, 2024 02:53:38
!Correction: S11(Cdelta 2-Port  ) 
!S21(Cdelta 2-Port  ) 
!S12(Cdelta 2-Port  ) 
!S22(Cdelta 2-Port  ) 
!S2P File: Measurements: S11, S21, S12, S22:
# Hz S  dB   R 50
10000000 -43.430599 -3.7796919 -0.032544848 -2.0431306 -0.036128506 -2.0994473 -49.180233 -146.40633
10999000 -42.87571 -5.6487088 -0.033713941 -2.261265 -0.034957983 -2.3138936 -48.789268 -138.29831
11998000 -42.106537 -7.7894502 -0.033789858 -2.4859507 -0.034666248 -2.5297141 -48.901073 -131.64537
12997000 -41.501701 -12.15221 -0.032968421 -2.6623433 -0.034937628 -2.7002811 -48.072544 -124.97248
13996000 -41.274078 -15.149556 -0.032794707 -2.8426769 -0.034663897 -2.8636026 -47.573391 -119.43053
14995000 -41.032574 -18.821194 -0.034720782 -3.0544262 -0.034261558 -3.0747058 -47.048435 -115.59905
15994000 -40.902458 -22.277273 -0.035525586 -3.272409 -0.037047662 -3.2912204 -46.730919 -112.61306
16993000 -40.884247 -26.024406 -0.035277918 -3.4675684 -0.03593614 -3.4750855 -45.813873 -113.71481
17992000 -40.993973 -30.116104 -0.036026709 -3.6682043 -0.037106145 -3.6691678 -45.178688 -114.94904
18991000 -41.276413 -34.613697 -0.03615696 -3.877744 -0.037592828 -3.8702934 -44.431999 -114.84245
19990000 -41.187687 -38.91824 -0.0386259 -4.0836 -0.039727144 -4.079257 -43.749172 -116.97274
20989000 -41.076382 -41.852913 -0.040583566 -4.291853 -0.041773383 -4.2802601 -43.165833 -117.01563
21988000 -41.049118 -46.334682 -0.041915305 -4.4869823 -0.041768156 -4.4741139 -42.808468 -116.80124
22987000 -40.890625 -50.541821 -0.042100098 -4.6847653 -0.0434676 -4.6769156 -42.567928 -116.28304
23986000 -40.922527 -54.264008 -0.042250656 -4.8802271 -0.042001296 -4.8749499 -42.426071 -116.32091
24985000 -40.615974 -56.86895 -0.04302052 -5.0899038 -0.042363841 -5.0858397 -42.140953 -113.76786
25984000 -40.442799 -59.116478 -0.044586547 -5.2932239 -0.042829674 -5.2945819 -41.770912 -112.77044
26983000 -40.18264 -60.755573 -0.045384027 -5.4950676 -0.0434574 -5.5098114 -41.686676 -112.24548
27982000 -40.044903 -61.911758 -0.045880269 -5.6910262 -0.045301106 -5.7239752 -41.300266 -110.74229
28981000 -40.051491 -63.460327 -0.044950612 -5.887888 -0.044648267 -5.9154634 -40.986595 -110.17793
29980000 -39.678753 -65.078918 -0.043948717 -6.0816951 -0.046482798 -6.0864983 -40.737144 -109.68587
30979000 -39.293453 -64.340698 -0.041844998 -6.4380755 -0.040039856 -6.4213557 -40.205238 -110.45195
31978000 -39.13974 -65.762917 -0.040819518 -6.6329012 -0.04108867 -6.6203837 -39.912651 -109.85488
32977000 -38.970699 -67.108383 -0.041264802 -6.8403616 -0.042396255 -6.8329105 -39.658009 -110.2097
33976000 -38.851265 -68.409424 -0.041416902 -7.0395021 -0.042422131 -7.0353279 -39.353905 -109.73177
34975000 -38.560516 -69.432083 -0.041869827 -7.2417903 -0.043076988 -7.2398982 -39.101974 -109.59466
35974000 -38.408955 -70.017052 -0.040748969 -7.439086 -0.043855626 -7.4377327 -38.786339 -108.99139
36973000 -38.168282 -71.021858 -0.041070901 -7.6351366 -0.044132289 -7.6370702 -38.467766 -108.12506
37972000 -38.01059 -71.198952 -0.04145924 -7.8455567 -0.043652456 -7.8522696 -38.228558 -107.41994
38971000 -37.6838 -70.839195 -0.041813895 -8.0470104 -0.043405633 -8.0560341 -38.021481 -105.86413
39970000 -37.37038 -71.546127 -0.040339269 -8.2394934 -0.042638578 -8.2528343 -37.730762 -105.59945
40969000 -37.099228 -71.44239 -0.041091282 -8.4337645 -0.042383969 -8.4521589 -37.461708 -104.23488
41968000 -36.749969 -71.552261 -0.040945731 -8.639452 -0.042501338 -8.654068 -37.221664 -103.20448
42967000 -36.506084 -71.940186 -0.04096742 -8.8489504 -0.043270983 -8.8708391 -37.000458 -101.34069
43966000 -36.231953 -72.835709 -0.041764759 -9.0540676 -0.043342881 -9.0662813 -36.717728 -100.90483
44965000 -36.00742 -73.792725 -0.042383969 -9.2476692 -0.044784527 -9.274044 -36.484642 -100.86437
45964000 -35.795231 -74.958923 -0.043736916 -9.4527044 -0.045583092 -9.4704237 -36.249638 -100.81026
46963000 -35.644535 -77.006866 -0.043764107 -9.6478968 -0.046795212 -9.6641188 -36.054016 -101.04888
47962000 -35.49826 -78.510597 -0.044677299 -9.8493023 -0.048258945 -9.8659115 -35.860233 -101.25941
48961000 -35.319485 -79.902374 -0.047765311 -10.043537 -0.050063841 -10.066294 -35.646408 -101.74774
49960000 -35.106319 -81.453506 -0.048767298 -10.242064 -0.050357658 -10.268864 -35.508236 -101.89944
50959000 -34.912643 -82.761391 -0.049295608 -10.459605 -0.051487025 -10.466723 -35.315353 -102.36999
51958000 -34.736546 -84.022858 -0.051687159 -10.655273 -0.05293557 -10.668019 -35.142876 -102.91419
52957000 -34.536583 -85.14003 -0.05338341 -10.856605 -0.05438434 -10.862224 -34.977798 -102.75336
53956000 -34.38628 -85.991104 -0.054528244 -11.057171 -0.054185916 -11.056218 -34.829605 -102.81641
54955000 -34.224709 -86.497971 -0.055311561 -11.258739 -0.05580553 -11.253407 -34.678806 -102.93327
55954000 -34.066334 -87.478607 -0.055743914 -11.456604 -0.056569409 -11.454897 -34.583881 -102.67315
56953000 -33.950954 -87.52935 -0.055590529 -11.653852 -0.055540971 -11.647014 -34.484695 -102.96866
57952000 -33.804539 -88.179344 -0.057477951 -11.852856 -0.056121767 -11.845596 -34.378441 -103.12125
58951000 -33.687813 -88.52475 -0.05803303 -12.060648 -0.05641206 -12.041329 -34.249847 -103.24958
59950000 -33.558044 -88.972656 -0.058221396 -12.258798 -0.057521757 -12.235311 -34.163063 -103.62943
60949000 -33.467052 -89.606956 -0.05870704 -12.457908 -0.058105964 -12.434057 -34.08186 -103.86097
61948000 -33.400681 -89.892159 -0.059461191 -12.65995 -0.058294069 -12.639482 -33.993031 -103.99113
62947000 -33.31464 -90.139847 -0.059242859 -12.86382 -0.059181977 -12.850266 -33.848473 -104.35423
63946000 -33.249363 -90.89595 -0.059844617 -13.06764 -0.060169283 -13.049214 -33.74889 -104.47701
64945000 -33.141479 -91.088409 -0.060758308 -13.269903 -0.060610257 -13.251132 -33.635227 -105.01574
65944000 -33.044903 -91.445213 -0.061446652 -13.468987 -0.061472382 -13.450816 -33.545052 -105.49139
66943000 -32.906887 -91.879265 -0.059490323 -13.670235 -0.059843041 -13.650911 -33.443233 -105.73818
67942000 -32.845638 -91.78614 -0.06157504 -13.865019 -0.061589219 -13.854396 -33.319637 -106.07329
68941000 -32.737213 -91.985382 -0.061395455 -14.055804 -0.060383726 -14.051464 -33.224773 -105.97931
69940000 -32.639416 -91.908936 -0.061449017 -14.25716 -0.061438251 -14.249701 -33.078938 -106.39165
70939000 -32.534286 -91.945755 -0.061455581 -14.452139 -0.061146572 -14.448017 -32.941723 -106.33214
71938000 -32.378864 -91.550262 -0.061340585 -14.651869 -0.060884837 -14.643668 -32.808147 -106.14813
72937000 -32.221596 -91.453201 -0.061014522 -14.849057 -0.060640704 -14.842174 -32.6618 -105.89642
73936000 -32.080158 -91.107872 -0.060644116 -15.044826 -0.06077012 -15.040052 -32.544075 -105.73364
74935000 -31.959997 -91.406357 -0.060466148 -15.241041 -0.059398212 -15.238717 -32.384426 -105.43832
75934000 -31.842163 -91.686287 -0.060366664 -15.449815 -0.059865087 -15.446834 -32.301521 -105.41595
76933000 -31.708387 -92.142357 -0.061874367 -15.641627 -0.061144471 -15.639723 -32.131119 -105.82578
77932000 -31.617624 -92.950867 -0.062242512 -15.839891 -0.062333893 -15.835003 -32.034302 -105.86636
78931000 -31.559715 -93.677559 -0.061194878 -16.040667 -0.06164882 -16.035055 -31.934118 -105.71642
79930000 -31.442745 -94.522301 -0.064539 -16.23411 -0.064086325 -16.229734 -31.837902 -106.05759
80929000 -31.325848 -95.460747 -0.065958522 -16.427877 -0.065569043 -16.427036 -31.736898 -106.40562
81928000 -31.247791 -96.400414 -0.065897286 -16.622709 -0.065903336 -16.618443 -31.608757 -106.52789
82927000 -31.156357 -97.089371 -0.068041883 -16.820168 -0.066652693 -16.818764 -31.514883 -106.86832
83926000 -31.040583 -97.846581 -0.068733223 -17.014475 -0.067643009 -17.015659 -31.389296 -107.15207
84925000 -30.938204 -98.357292 -0.069706127 -17.216368 -0.068077117 -17.214949 -31.293827 -107.21944
85924000 -30.857832 -98.817596 -0.070256464 -17.418783 -0.069944456 -17.41297 -31.214382 -107.2079
86923000 -30.750292 -99.339249 -0.070416152 -17.61339 -0.070352487 -17.607544 -31.11693 -107.20786
87922000 -30.647612 -99.775642 -0.070657678 -17.821072 -0.069218993 -17.809031 -31.023886 -107.27097
88921000 -30.581177 -100.11127 -0.071692333 -18.018385 -0.070654258 -18.011854 -30.928549 -107.29649
89920000 -30.485346 -100.67358 -0.072575614 -18.214924 -0.070924215 -18.205654 -30.879637 -107.4971
90919000 -30.381826 -101.03847 -0.072532713 -18.412638 -0.072387941 -18.405832 -30.78957 -107.66375
91918000 -30.291718 -101.39367 -0.073579922 -18.610237 -0.071967617 -18.603836 -30.732559 -107.72082
92917000 -30.212656 -101.74404 -0.074766964 -18.810114 -0.073180281 -18.804401 -30.661415 -107.82398
93916000 -30.122311 -102.172 -0.07461001 -19.005138 -0.073901407 -18.994862 -30.578268 -108.50795
94915000 -30.05246 -102.81532 -0.076134779 -19.203382 -0.074558131 -19.199198 -30.504612 -108.35708
95914000 -29.985472 -103.07774 -0.077069826 -19.397669 -0.075463593 -19.393833 -30.423037 -108.68263
96913000 -29.896826 -103.2543 -0.077778414 -19.60037 -0.076379523 -19.595791 -30.356371 -109.0253
97912000 -29.828068 -103.77376 -0.079664439 -19.79228 -0.07650651 -19.794407 -30.278059 -109.25017
98911000 -29.729952 -103.95911 -0.079842143 -19.997822 -0.077542298 -19.99267 -30.238836 -109.46989
99910000 -29.655691 -104.1438 -0.080980256 -20.193518 -0.078106798 -20.195251 -30.132797 -109.77797
100909000 -29.569775 -104.37715 -0.080615267 -20.402073 -0.077288531 -20.396675 -30.045315 -109.939
101908000 -29.486061 -104.64223 -0.081083909 -20.604662 -0.079352021 -20.599356 -29.92868 -109.72865
102907000 -29.34992 -104.69241 -0.081063069 -20.80061 -0.078860901 -20.800785 -29.856812 -109.77067
103906000 -29.249336 -104.77946 -0.081473731 -21.010172 -0.078179277 -20.99811 -29.703068 -109.68583
104905000 -29.109673 -104.72088 -0.082085438 -21.207811 -0.078986377 -21.205809 -29.564909 -109.35549
105904000 -28.967117 -104.82059 -0.082734428 -21.406586 -0.079246305 -21.400604 -29.462479 -109.27374
106903000 -28.858124 -104.99339 -0.082771368 -21.614843 -0.079475142 -21.605728 -29.328621 -109.11619
107902000 -28.69899 -105.31554 -0.083362147 -21.814585 -0.080540903 -21.805582 -29.185375 -109.08873
108901000 -28.584846 -105.53588 -0.084160976 -22.014511 -0.081832193 -22.004452 -29.048889 -109.06802
109900000 -28.462858 -106.04366 -0.08557637 -22.216105 -0.082138985 -22.20475 -28.899145 -109.15585
110899000 -28.346502 -106.69683 -0.086616963 -22.413958 -0.083160289 -22.405624 -28.779242 -109.44003
111898000 -28.26252 -107.38603 -0.087626897 -22.612434 -0.084676713 -22.608484 -28.661341 -109.61398
112897000 -28.129398 -108.0056 -0.089106314 -22.81139 -0.085108303 -22.80319 -28.526682 -109.8421
113896000 -28.029078 -108.6148 -0.090252936 -23.011776 -0.086428948 -22.999701 -28.411249 -110.03164
114895000 -27.929934 -109.2789 -0.090826765 -23.210447 -0.088163659 -23.196512 -28.30409 -110.10067
115894000 -27.807404 -109.61644 -0.092275001 -23.412291 -0.089921527 -23.395546 -28.233465 -110.27975
116893000 -27.727043 -110.2313 -0.092072994 -23.605734 -0.090281218 -23.58873 -28.10272 -110.48669
117892000 -27.647896 -110.72359 -0.092739612 -23.800688 -0.090607375 -23.788563 -28.033709 -110.7049
118891000 -27.591829 -111.14156 -0.093645439 -24.004322 -0.09069407 -23.988985 -27.936586 -110.83637
119890000 -27.503794 -111.56873 -0.094760194 -24.202768 -0.091078937 -24.192097 -27.927879 -111.02443
120889000 -27.447735 -112.06684 -0.095874965 -24.405651 -0.091962472 -24.39324 -27.846596 -111.01318
121888000 -27.412968 -112.40806 -0.095347315 -24.600573 -0.092451379 -24.586981 -27.79406 -111.31704
122887000 -27.37211 -112.65688 -0.096451916 -24.800081 -0.092722163 -24.790052 -27.742264 -111.34935
123886000 -27.313801 -113.03003 -0.097117357 -25.00293 -0.093693048 -24.986244 -27.734926 -111.4971
124885000 -27.279268 -113.55952 -0.097526357 -25.205139 -0.093771875 -25.184679 -27.701149 -111.5899
125884000 -27.230852 -113.75664 -0.098501496 -25.400587 -0.093694374 -25.38534 -27.677963 -111.7837
126883000 -27.205011 -114.14637 -0.098751739 -25.603874 -0.095194906 -25.589973 -27.635328 -111.78763
127882000 -27.154394 -114.45235 -0.099190556 -25.801367 -0.095308147 -25.788038 -27.588135 -111.98502
128881000 -27.120693 -114.76575 -0.099199295 -26.005022 -0.095084041 -25.988297 -27.547348 -112.09903
129880000 -27.067545 -115.1047 -0.10039946 -26.209209 -0.095283806 -26.187065 -27.508116 -112.08022
130879000 -27.008961 -115.23771 -0.09997429 -26.407169 -0.09669251 -26.388756 -27.431732 -112.17249
131878000 -26.944326 -115.46327 -0.10015097 -26.608652 -0.097483471 -26.592026 -27.362688 -112.00946
132877000 -26.879246 -115.5251 -0.099438451 -26.810499 -0.096869588 -26.789967 -27.274988 -112.05627
133876000 -26.79101 -115.68591 -0.099816151 -27.010801 -0.096869059 -26.995285 -27.186258 -111.94851
134875000 -26.684694 -115.80704 -0.099995747 -27.209276 -0.097357191 -27.191332 -27.086554 -111.81015
135874000 -26.60969 -115.8646 -0.10000369 -27.40962 -0.097293131 -27.388918 -26.97613 -111.77293
136873000 -26.494865 -115.78463 -0.10085407 -27.608448 -0.097814664 -27.597044 -26.898943 -111.76619
137872000 -26.418776 -115.91977 -0.099666238 -27.812189 -0.098185606 -27.800222 -26.790831 -111.75179
138871000 -26.342409 -116.14668 -0.10045509 -28.014786 -0.097763568 -27.997223 -26.684532 -111.91184
139870000 -26.24814 -116.33912 -0.10254128 -28.21298 -0.099166721 -28.199537 -26.606247 -112.06747
140869000 -26.162003 -116.82608 -0.10384576 -28.410038 -0.10042701 -28.388994 -26.502851 -112.19536
141868000 -26.068617 -117.30081 -0.10373706 -28.599773 -0.10152416 -28.585205 -26.432413 -112.54417
142867000 -25.987032 -117.58851 -0.10237351 -28.799629 -0.099826485 -28.779388 -26.346952 -112.7653
143866000 -25.917025 -118.11206 -0.10421933 -28.993778 -0.10142585 -28.979828 -26.281076 -113.28049
144865000 -25.857624 -118.61713 -0.10574287 -29.194605 -0.10358568 -29.176065 -26.220842 -113.59043
145864000 -25.801579 -118.93246 -0.10620229 -29.393553 -0.10340806 -29.383806 -26.191181 -113.8847
146863000 -25.764215 -119.36133 -0.1070369 -29.593954 -0.10430445 -29.581854 -26.141748 -114.19299
147862000 -25.719507 -119.72245 -0.10773847 -29.789595 -0.10426017 -29.777344 -26.101711 -114.55237
148861000 -25.688202 -120.26861 -0.10810123 -29.98646 -0.1051021 -29.975325 -26.071024 -114.81158
149860000 -25.675171 -120.43511 -0.10861265 -30.182781 -0.10546385 -30.172419 -26.051264 -114.99496
150859000 -25.653442 -120.81781 -0.10884516 -30.386427 -0.10549992 -30.370794 -26.047733 -115.25685
151858000 -25.635748 -121.14111 -0.10902035 -30.58625 -0.10620654 -30.571415 -26.030785 -115.55669
152857000 -25.619795 -121.47209 -0.10949658 -30.782417 -0.10670845 -30.774607 -26.015152 -115.66707
153856000 -25.607845 -121.70316 -0.10938853 -30.983183 -0.10582722 -30.969639 -26.032202 -115.99501
154855000 -25.598705 -121.86624 -0.10923855 -31.18408 -0.1052469 -31.170959 -26.018482 -116.22418
155854000 -25.614607 -122.13056 -0.10970577 -31.376854 -0.10655272 -31.364817 -26.016556 -116.48009
156853000 -25.598473 -122.84101 -0.10764904 -31.564671 -0.10616303 -31.560627 -26.009392 -116.81469
157852000 -25.603558 -123.04377 -0.10855957 -31.766865 -0.10751928 -31.759338 -25.991966 -117.15501
158851000 -25.593979 -123.30538 -0.1096155 -31.965023 -0.10821826 -31.958067 -25.977489 -117.40887
159850000 -25.584028 -123.39819 -0.11008064 -32.165306 -0.10824746 -32.154152 -25.981367 -117.57461
160849000 -25.56628 -123.50956 -0.11014225 -32.363701 -0.10845234 -32.358696 -25.942709 -117.87711
161848000 -25.539927 -123.60571 -0.11071047 -32.562725 -0.10921519 -32.557976 -25.900034 -117.94714
162847000 -25.500278 -123.77601 -0.111061 -32.762775 -0.1093219 -32.755802 -25.872002 -118.18056
163846000 -25.452707 -124.01252 -0.1107519 -32.961906 -0.10899221 -32.956432 -25.794424 -118.19247
164845000 -25.394201 -124.04663 -0.11178074 -33.159809 -0.10977055 -33.154404 -25.731802 -118.3028
165844000 -25.340775 -124.09738 -0.11130267 -33.357483 -0.11020146 -33.354469 -25.639036 -118.46539
166843000 -25.275648 -124.19422 -0.11144396 -33.561764 -0.11038227 -33.552795 -25.573833 -118.62712
167842000 -25.211081 -124.35212 -0.1118397 -33.758072 -0.11027447 -33.748409 -25.490698 -118.5459
168841000 -25.137733 -124.54907 -0.11239327 -33.958115 -0.11105835 -33.953503 -25.415531 -118.60728
169840000 -25.069401 -124.79153 -0.11221264 -34.150719 -0.11127027 -34.150951 -25.328485 -118.84164
170839000 -25.010902 -125.09176 -0.11313662 -34.345776 -0.11153188 -34.347149 -25.241512 -119.0181
171838000 -24.951246 -125.51003 -0.11348177 -34.547935 -0.11252265 -34.543171 -25.17194 -119.27244
172837000 -24.888166 -125.86718 -0.11471113 -34.745125 -0.11295383 -34.737442 -25.102751 -119.50552
173836000 -24.818378 -126.30882 -0.11560001 -34.945808 -0.11431459 -34.939594 -25.062798 -119.7439
174835000 -24.768475 -126.74734 -0.11676376 -35.139351 -0.11496337 -35.139565 -25.019403 -120.07551
175834000 -24.712992 -127.13586 -0.11718446 -35.335129 -0.11579861 -35.333168 -24.95599 -120.36602
176833000 -24.662107 -127.56011 -0.11775015 -35.534397 -0.11667202 -35.529953 -24.90283 -120.55811
177832000 -24.617365 -128.03189 -0.1182824 -35.731068 -0.11675047 -35.730263 -24.88275 -120.71239
178831000 -24.580204 -128.38152 -0.11846515 -35.929737 -0.11698873 -35.925751 -24.844135 -120.93762
179830000 -24.544472 -128.83638 -0.11966904 -36.121983 -0.11760014 -36.12785 -24.822939 -121.06931
180829000 -24.506866 -129.0731 -0.11983882 -36.320667 -0.1175802 -36.321411 -24.790539 -121.29468
181828000 -24.479336 -129.4128 -0.11945271 -36.522739 -0.11798289 -36.520023 -24.772871 -121.39307
182827000 -24.458757 -129.79286 -0.12020552 -36.711666 -0.11897513 -36.711662 -24.761629 -121.49442
183826000 -24.421364 -130.0827 -0.12091427 -36.909504 -0.11893203 -36.908596 -24.75325 -121.62488
184825000 -24.425812 -130.41946 -0.12053819 -37.104771 -0.11954319 -37.108604 -24.737286 -121.73579
185824000 -24.396469 -130.79312 -0.12118097 -37.298714 -0.11982232 -37.303848 -24.734964 -121.77287
186823000 -24.383202 -131.12473 -0.12110325 -37.504303 -0.11985531 -37.501217 -24.732155 -121.74966
187822000 -24.361931 -131.45923 -0.12175331 -37.695606 -0.12017571 -37.69445 -24.690985 -121.82058
188821000 -24.341148 -131.72417 -0.12146553 -37.893326 -0.12093317 -37.898079 -24.679821 -121.91442
189820000 -24.32688 -131.98181 -0.12216437 -38.091049 -0.12102339 -38.096432 -24.672602 -122.07267
190819000 -24.298904 -132.21452 -0.12306038 -38.293247 -0.1219378 -38.291916 -24.635935 -122.00768
191818000 -24.262409 -132.39334 -0.12450875 -38.486008 -0.12343508 -38.487179 -24.60288 -121.91863
192817000 -24.189838 -132.67955 -0.12477195 -38.672791 -0.12344653 -38.677055 -24.53047 -121.9988
193816000 -24.156187 -133.01875 -0.12396856 -38.867085 -0.12256829 -38.864914 -24.476126 -122.23203
194815000 -24.098892 -133.47473 -0.1235765 -39.062363 -0.12318528 -39.064934 -24.409864 -122.34689
195814000 -24.043583 -133.72478 -0.12467445 -39.257591 -0.12302576 -39.264462 -24.357807 -122.43465
196813000 -23.993788 -134.06297 -0.12407377 -39.457279 -0.12298741 -39.45586 -24.282265 -122.64835
197812000 -23.933701 -134.29369 -0.12395843 -39.65062 -0.12271101 -39.652191 -24.211668 -122.73323
198811000 -23.879892 -134.47859 -0.12356718 -39.850304 -0.12291232 -39.846405 -24.139847 -122.92368
199810000 -23.812468 -134.81537 -0.12456896 -40.04221 -0.12227886 -40.047958 -24.058598 -123.01611
200809000 -23.755371 -135.10582 -0.12447625 -40.239666 -0.12293468 -40.244694 -23.981714 -123.22639
201808000 -23.693874 -135.34843 -0.12577322 -40.441593 -0.12370434 -40.446739 -23.912054 -123.28696
202807000 -23.63817 -135.73572 -0.12635975 -40.638851 -0.12455618 -40.644802 -23.854643 -123.52672
203806000 -23.586824 -136.17673 -0.12757224 -40.84132 -0.1252166 -40.843834 -23.793098 -123.70345
