!Keysight Technologies,E5080B,MY59205177,A.15.75.32
!Date: Friday, February 23, 2024 03:31:51
!Correction: S11(Cdelta 2-Port  ) 
!S21(Cdelta 2-Port  ) 
!S12(Cdelta 2-Port  ) 
!S22(Cdelta 2-Port  ) 
!S2P File: Measurements: S11, S21, S12, S22:
# Hz S  dB   R 50
10000000 -46.06076 -2.1496735 -0.015314446 -2.0485044 -0.018068666 -2.0999184 -45.985741 -157.71622
10999000 -45.304287 -4.0423117 -0.016462021 -2.2664835 -0.01785266 -2.3231394 -45.939598 -151.70782
11998000 -44.352081 -7.0644999 -0.016207121 -2.4939017 -0.018205915 -2.5351872 -46.09166 -147.34676
12997000 -43.579578 -12.594185 -0.015636317 -2.6713459 -0.017854741 -2.7042365 -45.706257 -141.77477
13996000 -43.303093 -16.909395 -0.014842462 -2.8524866 -0.018173942 -2.8762519 -45.521378 -136.67474
14995000 -42.899765 -20.89185 -0.017020978 -3.0631428 -0.017460192 -3.0866556 -45.244259 -133.00307
15994000 -42.748772 -25.244251 -0.018191097 -3.2817914 -0.020583782 -3.3045437 -45.097164 -129.46794
16993000 -42.6772 -29.942186 -0.017158195 -3.4811645 -0.019800983 -3.4860492 -44.294754 -129.2843
17992000 -42.749863 -35.400574 -0.018139629 -3.6766195 -0.020534106 -3.682322 -43.726517 -129.01024
18991000 -43.003319 -40.503845 -0.019696968 -3.8865912 -0.021214545 -3.8857889 -43.093723 -128.4622
19990000 -42.766857 -46.449108 -0.02224269 -4.0980392 -0.022987414 -4.0953121 -42.45837 -128.71547
20989000 -42.618603 -49.878841 -0.023710662 -4.3020773 -0.025186162 -4.2946806 -41.900177 -128.52937
21988000 -42.415428 -54.834438 -0.024519159 -4.4996128 -0.026200924 -4.4863682 -41.632778 -127.48643
22987000 -42.13018 -59.646183 -0.025646253 -4.6978726 -0.02633765 -4.6885514 -41.376629 -127.2541
23986000 -42.035072 -63.933002 -0.025303068 -4.8941269 -0.025630107 -4.8931923 -41.237736 -126.89783
24985000 -41.648266 -66.639702 -0.02619181 -5.1024423 -0.026592102 -5.0996423 -41.059818 -124.54515
25984000 -41.326694 -68.650375 -0.02783254 -5.3065586 -0.02631942 -5.3099747 -40.725685 -122.8711
26983000 -41.003475 -70.269241 -0.027478764 -5.5095949 -0.027139341 -5.5241251 -40.551201 -122.24827
27982000 -40.866474 -71.569237 -0.029508553 -5.709651 -0.028625127 -5.7396626 -40.340111 -120.74808
28981000 -40.772057 -72.605598 -0.027045308 -5.9055986 -0.028761668 -5.9331427 -40.072857 -120.02033
29980000 -40.3923 -74.198227 -0.028348669 -6.1010189 -0.029033722 -6.1085715 -39.827148 -119.35735
30979000 -40.024311 -73.144058 -0.024654789 -6.4569464 -0.023853818 -6.4499397 -39.330078 -119.50181
31978000 -39.803467 -74.470711 -0.024604285 -6.6533346 -0.025371807 -6.6407514 -39.073921 -118.82587
32977000 -39.629059 -75.756798 -0.023844447 -6.8596582 -0.025863165 -6.8589959 -38.826603 -118.95573
33976000 -39.42691 -76.795242 -0.024584239 -7.0632138 -0.026542356 -7.0549111 -38.54129 -118.30886
34975000 -39.144466 -77.627396 -0.024476204 -7.2629771 -0.027081255 -7.2598639 -38.330925 -117.95024
35974000 -38.964012 -78.265778 -0.024092507 -7.4574594 -0.02683589 -7.4620228 -38.06255 -117.02766
36973000 -38.710472 -78.967079 -0.024872694 -7.6616497 -0.027635068 -7.6623197 -37.795834 -116.15359
37972000 -38.53175 -78.725807 -0.025215063 -7.8671007 -0.02760016 -7.8771839 -37.562168 -115.24585
38971000 -38.224033 -78.117188 -0.025171582 -8.0709543 -0.028423971 -8.0803957 -37.378784 -113.6325
39970000 -37.896049 -78.652115 -0.024557166 -8.2731037 -0.026718162 -8.2811775 -37.137936 -113.03186
40969000 -37.588474 -78.271965 -0.024369475 -8.4624338 -0.026233478 -8.4767895 -36.895172 -111.68302
41968000 -37.25737 -78.188957 -0.024085999 -8.6688128 -0.027638715 -8.6856146 -36.716545 -110.25882
42967000 -37.009182 -78.233879 -0.024465011 -8.8821564 -0.027196648 -8.8960581 -36.492741 -108.47356
43966000 -36.703186 -79.111404 -0.024889356 -9.0783157 -0.028453413 -9.0978203 -36.22739 -107.63976
44965000 -36.445023 -79.756332 -0.025831396 -9.2822275 -0.028848702 -9.2958317 -36.024662 -107.46774
45964000 -36.221375 -80.792946 -0.027453495 -9.4753256 -0.029275561 -9.5033169 -35.788475 -107.22673
46963000 -36.028019 -82.695053 -0.027340177 -9.6755371 -0.029837996 -9.7022991 -35.621319 -107.34131
47962000 -35.859562 -84.174187 -0.029157246 -9.8782263 -0.031545028 -9.8944473 -35.41246 -107.40163
48961000 -35.639057 -85.511696 -0.03036896 -10.073831 -0.033029716 -10.097245 -35.177441 -107.55067
49960000 -35.410103 -86.869789 -0.031741899 -10.27678 -0.03382612 -10.301132 -35.043171 -107.73698
50959000 -35.188931 -87.989822 -0.032637697 -10.489561 -0.035488788 -10.500251 -34.871387 -107.96938
51958000 -34.979294 -89.086258 -0.034665726 -10.68958 -0.036715586 -10.698429 -34.68285 -108.45948
52957000 -34.77153 -90.217247 -0.036364477 -10.889403 -0.038172007 -10.894532 -34.522827 -108.1355
53956000 -34.597221 -90.904587 -0.037215278 -11.091329 -0.038667168 -11.09306 -34.400608 -108.11786
54955000 -34.418339 -91.355698 -0.037867263 -11.29283 -0.038799584 -11.290727 -34.237225 -108.05862
55954000 -34.25399 -92.206322 -0.038722277 -11.495505 -0.039742816 -11.492486 -34.126614 -107.76524
56953000 -34.138657 -92.217384 -0.038796712 -11.691026 -0.038656197 -11.682646 -34.06855 -107.96806
57952000 -33.973389 -92.830933 -0.039921507 -11.89122 -0.040663522 -11.880129 -33.965664 -108.0956
58951000 -33.856121 -93.156639 -0.040748969 -12.097416 -0.041393641 -12.075378 -33.816753 -108.11924
59950000 -33.72147 -93.460434 -0.042058539 -12.292426 -0.041980386 -12.275229 -33.73938 -108.37443
60949000 -33.612236 -94.071175 -0.041983262 -12.500307 -0.042099576 -12.471638 -33.634712 -108.66077
61948000 -33.556572 -94.333298 -0.043228365 -12.69632 -0.042120486 -12.677547 -33.56345 -108.80366
62947000 -33.464012 -94.620415 -0.042766411 -12.906769 -0.043382887 -12.890688 -33.417641 -108.94823
63946000 -33.387169 -95.29377 -0.043931197 -13.107976 -0.043786597 -13.085806 -33.30267 -109.12874
64945000 -33.280319 -95.49015 -0.04446546 -13.308626 -0.044446107 -13.289496 -33.194733 -109.64835
65944000 -33.187073 -95.822678 -0.045092113 -13.511383 -0.045006584 -13.491589 -33.103973 -110.02948
66943000 -33.048115 -96.115646 -0.042636748 -13.709946 -0.043499496 -13.698414 -32.988201 -110.34782
67942000 -32.983654 -96.108353 -0.045104932 -13.907602 -0.045306861 -13.897155 -32.867138 -110.62248
68941000 -32.868969 -96.236649 -0.044784006 -14.100108 -0.044803098 -14.092378 -32.761623 -110.50005
69940000 -32.76981 -96.257301 -0.044870839 -14.30274 -0.045050789 -14.293965 -32.621284 -110.80632
70939000 -32.668041 -96.120918 -0.044607729 -14.49663 -0.045153581 -14.491649 -32.485737 -110.70631
71938000 -32.521156 -95.796677 -0.044776682 -14.693303 -0.045737173 -14.688952 -32.348713 -110.55412
72937000 -32.360683 -95.557838 -0.044158962 -14.893644 -0.044789236 -14.888433 -32.21143 -110.25958
73936000 -32.22068 -95.263115 -0.043787643 -15.092681 -0.044268534 -15.084869 -32.10062 -110.06293
74935000 -32.097939 -95.418671 -0.043986898 -15.286877 -0.043209542 -15.287846 -31.949911 -109.67747
75934000 -31.974743 -95.722755 -0.043998927 -15.49904 -0.043489039 -15.495239 -31.865736 -109.62065
76933000 -31.841776 -96.058533 -0.044339929 -15.693164 -0.044408184 -15.687003 -31.689842 -109.99954
77932000 -31.738577 -96.807251 -0.046614669 -15.888525 -0.046666998 -15.87857 -31.582705 -109.83901
78931000 -31.660896 -97.594574 -0.04487947 -16.088078 -0.045337725 -16.08456 -31.486912 -109.82852
79930000 -31.557442 -98.392204 -0.047589697 -16.282946 -0.0473505 -16.278137 -31.377787 -110.08488
80929000 -31.432384 -99.180328 -0.049689919 -16.480225 -0.049243771 -16.475906 -31.283297 -110.30955
81928000 -31.334747 -99.900757 -0.048926204 -16.674116 -0.049246386 -16.665028 -31.146444 -110.28901
82927000 -31.21994 -100.65526 -0.050504576 -16.870838 -0.051390894 -16.868801 -31.043676 -110.60604
83926000 -31.109583 -101.28236 -0.052182026 -17.066158 -0.052232329 -17.069502 -30.933788 -110.79319
84925000 -31.000921 -101.70826 -0.053082053 -17.268339 -0.05207409 -17.267601 -30.833416 -110.79969
85924000 -30.908743 -102.13737 -0.053638667 -17.467373 -0.05336795 -17.463383 -30.75057 -110.79012
86923000 -30.803265 -102.62487 -0.053385768 -17.667305 -0.053606953 -17.662983 -30.644337 -110.69727
87922000 -30.691629 -102.92757 -0.053527284 -17.876537 -0.053519946 -17.866125 -30.552109 -110.69561
88921000 -30.614408 -103.29739 -0.055266466 -18.067671 -0.055075347 -18.069443 -30.467701 -110.66573
89920000 -30.516083 -103.79282 -0.05591435 -18.272203 -0.055415649 -18.264448 -30.40715 -110.86031
90919000 -30.415394 -103.98725 -0.056995068 -18.468479 -0.05575414 -18.462517 -30.324638 -110.97984
91918000 -30.322979 -104.36631 -0.057626944 -18.668278 -0.056606125 -18.660631 -30.254963 -111.03551
92917000 -30.231625 -104.71417 -0.058775261 -18.86689 -0.057913404 -18.86455 -30.181614 -111.08453
93916000 -30.138273 -105.0088 -0.057446737 -19.061272 -0.057064049 -19.05736 -30.095291 -111.68211
94915000 -30.060558 -105.67764 -0.059788715 -19.264175 -0.058415804 -19.256544 -30.036901 -111.57942
95914000 -29.998663 -105.85409 -0.060518906 -19.455894 -0.059535723 -19.455923 -29.945255 -111.81448
96913000 -29.908596 -106.03794 -0.061674025 -19.657204 -0.060711842 -19.65749 -29.87631 -112.18346
97912000 -29.833525 -106.52659 -0.063042715 -19.853374 -0.06092605 -19.854401 -29.801992 -112.44219
98911000 -29.71711 -106.71216 -0.063309304 -20.055883 -0.06192163 -20.056986 -29.758675 -112.61491
99910000 -29.652122 -106.85565 -0.063671269 -20.254034 -0.062266931 -20.255938 -29.643925 -112.94448
100909000 -29.565771 -107.16132 -0.063058734 -20.46348 -0.062313937 -20.455236 -29.562973 -113.16891
101908000 -29.47842 -107.32166 -0.064563431 -20.665638 -0.063523903 -20.663109 -29.451311 -112.94362
102907000 -29.34194 -107.33678 -0.064460963 -20.863432 -0.06328252 -20.863127 -29.381922 -112.91956
103906000 -29.247833 -107.375 -0.064879514 -21.073507 -0.063251257 -21.062559 -29.234129 -112.87372
104905000 -29.096834 -107.2467 -0.065423191 -21.26689 -0.062879354 -21.26865 -29.107471 -112.55862
105904000 -28.960138 -107.31136 -0.065775082 -21.47024 -0.063511036 -21.465435 -28.993162 -112.43202
106903000 -28.853796 -107.45737 -0.065999523 -21.679253 -0.064196929 -21.669371 -28.877781 -112.28539
107902000 -28.675488 -107.74695 -0.066767827 -21.877645 -0.064560279 -21.871107 -28.737047 -112.26687
108901000 -28.578762 -107.96594 -0.068598837 -22.079914 -0.065622918 -22.072601 -28.609045 -112.18345
109900000 -28.440426 -108.41975 -0.069235034 -22.281706 -0.067649059 -22.268816 -28.458773 -112.25462
110899000 -28.327833 -109.09047 -0.070905797 -22.478043 -0.067230769 -22.470131 -28.325527 -112.52487
111898000 -28.232616 -109.71175 -0.071402334 -22.677618 -0.068823166 -22.672918 -28.21681 -112.68108
112897000 -28.113884 -110.26233 -0.072958097 -22.879051 -0.069736116 -22.869173 -28.08337 -112.86172
113896000 -28.008039 -110.85502 -0.073856905 -23.079813 -0.070866063 -23.069492 -27.973225 -113.01437
114895000 -27.904041 -111.46806 -0.074944474 -23.274574 -0.07204973 -23.264109 -27.86673 -113.02456
115894000 -27.786829 -111.82018 -0.076328412 -23.476112 -0.073417746 -23.467476 -27.796743 -113.22818
116893000 -27.707556 -112.32294 -0.076868251 -23.680004 -0.074441731 -23.659534 -27.674295 -113.26759
117892000 -27.62598 -112.83578 -0.077135436 -23.87693 -0.074418828 -23.858202 -27.59672 -113.48388
118891000 -27.564816 -113.20671 -0.077688292 -24.075703 -0.075480975 -24.06395 -27.496248 -113.58326
119890000 -27.481617 -113.59515 -0.078306839 -24.274586 -0.075238399 -24.258007 -27.489458 -113.74498
120889000 -27.430233 -114.0753 -0.079394728 -24.479357 -0.076023877 -24.461897 -27.413548 -113.69651
121888000 -27.391111 -114.40913 -0.079752497 -24.675636 -0.076485693 -24.655727 -27.358173 -113.95338
122887000 -27.35569 -114.62044 -0.080692798 -24.873232 -0.077661671 -24.861973 -27.312 -113.96991
123886000 -27.299393 -114.97759 -0.08107204 -25.076134 -0.077448219 -25.058483 -27.29423 -114.06868
124885000 -27.269922 -115.47872 -0.08087609 -25.276878 -0.077753909 -25.26095 -27.266027 -114.14478
125884000 -27.222361 -115.69928 -0.081771262 -25.47604 -0.077832706 -25.46282 -27.242996 -114.30278
126883000 -27.195187 -116.11514 -0.082318112 -25.679113 -0.079072312 -25.665001 -27.199993 -114.29425
127882000 -27.153933 -116.3836 -0.083148673 -25.880091 -0.079394996 -25.866131 -27.156322 -114.4323
128881000 -27.115585 -116.7153 -0.0826004 -26.08297 -0.07973589 -26.064869 -27.121328 -114.5626
129880000 -27.061527 -117.05466 -0.083890192 -26.283043 -0.079555817 -26.263035 -27.082117 -114.50915
130879000 -27.002251 -117.21521 -0.083791494 -26.484251 -0.080669329 -26.469244 -27.009298 -114.5233
131878000 -26.941437 -117.45228 -0.083800733 -26.683054 -0.081226066 -26.669781 -26.946833 -114.37841
132877000 -26.868065 -117.50559 -0.083326787 -26.886663 -0.080858417 -26.871769 -26.86791 -114.33443
133876000 -26.789087 -117.67748 -0.084172055 -27.088625 -0.080402195 -27.068882 -26.781088 -114.21519
134875000 -26.688488 -117.7802 -0.083971217 -27.289192 -0.081697144 -27.272373 -26.683624 -114.08957
135874000 -26.60877 -117.80704 -0.083789907 -27.488415 -0.081270374 -27.469929 -26.582937 -114.07943
136873000 -26.500292 -117.75871 -0.084002361 -27.692942 -0.08057835 -27.674978 -26.501144 -114.02848
137872000 -26.414957 -117.89934 -0.084586971 -27.888964 -0.08172062 -27.879353 -26.400871 -113.93758
138871000 -26.345655 -118.1165 -0.084934339 -28.091879 -0.081573166 -28.077841 -26.304989 -114.10771
139870000 -26.242207 -118.36623 -0.085326359 -28.294956 -0.082464002 -28.279131 -26.224503 -114.28219
140869000 -26.162113 -118.92509 -0.086696975 -28.490662 -0.083173476 -28.476334 -26.122458 -114.46454
141868000 -26.084288 -119.33906 -0.086941518 -28.690042 -0.085403442 -28.677076 -26.07439 -114.74004
142867000 -26.001738 -119.53502 -0.08623381 -28.887671 -0.084206894 -28.871021 -25.992239 -114.83779
143866000 -25.930136 -120.0146 -0.088120066 -29.08345 -0.085416913 -29.068207 -25.917217 -115.32695
144865000 -25.870926 -120.511 -0.089978606 -29.284754 -0.086895831 -29.267487 -25.854618 -115.62164
145864000 -25.811848 -120.83027 -0.090071902 -29.4806 -0.088173434 -29.475296 -25.82379 -115.83903
146863000 -25.766172 -121.20251 -0.09126927 -29.683842 -0.088629939 -29.671179 -25.777296 -116.15324
147862000 -25.727238 -121.52406 -0.092596546 -29.880394 -0.088839449 -29.870577 -25.744913 -116.46996
148861000 -25.69758 -121.99811 -0.093278855 -30.086136 -0.090587288 -30.066595 -25.715305 -116.64532
149860000 -25.663155 -122.12711 -0.094636112 -30.273991 -0.091119118 -30.263725 -25.666033 -116.74411
150859000 -25.64292 -122.59315 -0.093683265 -30.468771 -0.090751953 -30.46138 -25.649286 -117.07958
151858000 -25.625746 -122.96667 -0.093672149 -30.669912 -0.090988003 -30.653154 -25.641935 -117.43789
152857000 -25.612795 -123.26206 -0.093451031 -30.869505 -0.091774486 -30.86128 -25.62237 -117.60375
153856000 -25.61079 -123.49197 -0.093562648 -31.072456 -0.090607636 -31.058414 -25.643852 -117.88766
154855000 -25.607706 -123.67558 -0.093370102 -31.268412 -0.090932228 -31.255615 -25.62484 -118.13383
155854000 -25.625765 -123.89947 -0.094007559 -31.471815 -0.091182567 -31.455956 -25.619383 -118.43715
156853000 -25.608709 -124.60416 -0.091770791 -31.659 -0.090442181 -31.651052 -25.615746 -118.74583
157852000 -25.61351 -124.82414 -0.093469016 -31.858358 -0.091835298 -31.850822 -25.604132 -119.08954
158851000 -25.617739 -125.03838 -0.094154634 -32.05801 -0.092216834 -32.05024 -25.590157 -119.34425
159850000 -25.603609 -125.12561 -0.094747759 -32.260189 -0.092694655 -32.250362 -25.589912 -119.52818
160849000 -25.590773 -125.22202 -0.094193786 -32.458397 -0.093775839 -32.451439 -25.560425 -119.83317
161848000 -25.570213 -125.30631 -0.09475781 -32.65826 -0.093027867 -32.651127 -25.520046 -119.92733
162847000 -25.532608 -125.49992 -0.094743527 -32.855865 -0.09352985 -32.855278 -25.493416 -120.18927
163846000 -25.493891 -125.68855 -0.094422877 -33.059429 -0.093454733 -33.049599 -25.412409 -120.20068
164845000 -25.432358 -125.62856 -0.095213689 -33.257809 -0.094520502 -33.251171 -25.351038 -120.29536
165844000 -25.383606 -125.70635 -0.095488615 -33.45565 -0.094391927 -33.452591 -25.277348 -120.41653
166843000 -25.3218 -125.76595 -0.095199138 -33.656559 -0.094414681 -33.65049 -25.208693 -120.56176
167842000 -25.264437 -125.86563 -0.09601523 -33.855225 -0.094225526 -33.851158 -25.135563 -120.51794
168841000 -25.186752 -125.99721 -0.096166082 -34.056328 -0.095747411 -34.054951 -25.057554 -120.58546
169840000 -25.11462 -126.26402 -0.096427567 -34.247711 -0.095749266 -34.250484 -24.973875 -120.75848
170839000 -25.058456 -126.48791 -0.097649463 -34.447552 -0.096382573 -34.446838 -24.891611 -120.91737
171838000 -24.999891 -126.9021 -0.096670806 -34.647861 -0.097243361 -34.646278 -24.828062 -121.14816
172837000 -24.926533 -127.24749 -0.098445363 -34.849075 -0.098238036 -34.840405 -24.764181 -121.32609
173836000 -24.865631 -127.65153 -0.099578038 -35.050911 -0.099198505 -35.047218 -24.720091 -121.58029
174835000 -24.810369 -128.05269 -0.099693514 -35.243816 -0.099711791 -35.244102 -24.674023 -121.88908
175834000 -24.757473 -128.39873 -0.10056847 -35.444202 -0.10086546 -35.439327 -24.617424 -122.14378
176833000 -24.708708 -128.77139 -0.10210954 -35.643799 -0.10139935 -35.640499 -24.563921 -122.30134
177832000 -24.6681 -129.17606 -0.10292163 -35.841034 -0.10234356 -35.842464 -24.549229 -122.40862
178831000 -24.620113 -129.41542 -0.10476557 -36.040146 -0.1044402 -36.035282 -24.508001 -122.49324
179830000 -24.549891 -129.78442 -0.10623518 -36.220219 -0.104904 -36.224354 -24.446259 -122.5329
180829000 -24.498919 -130.16336 -0.10474038 -36.414734 -0.10486608 -36.416382 -24.399977 -122.89977
181828000 -24.477438 -130.5847 -0.10468788 -36.615772 -0.10330388 -36.613354 -24.38184 -123.06313
182827000 -24.453243 -130.97383 -0.10413635 -36.811768 -0.10471227 -36.81496 -24.372814 -123.1927
183826000 -24.414854 -131.28091 -0.10533893 -37.012287 -0.10325484 -37.01416 -24.362343 -123.34999
184825000 -24.418642 -131.63776 -0.10497056 -37.209412 -0.10441263 -37.208214 -24.346071 -123.48702
185824000 -24.389198 -131.98708 -0.10502042 -37.405972 -0.10466029 -37.404579 -24.332937 -123.54623
186823000 -24.37043 -132.36121 -0.10496049 -37.605339 -0.10456881 -37.604122 -24.330526 -123.57389
187822000 -24.34552 -132.67667 -0.10536864 -37.799999 -0.10492229 -37.799709 -24.288719 -123.64632
188821000 -24.325029 -132.93405 -0.10526971 -37.995045 -0.10548957 -37.999023 -24.269665 -123.7758
189820000 -24.300842 -133.23611 -0.10566622 -38.195507 -0.10532328 -38.197945 -24.256798 -123.959
190819000 -24.271702 -133.53247 -0.10629673 -38.395538 -0.10557789 -38.390831 -24.216465 -123.98378
191818000 -24.240284 -133.84068 -0.10633652 -38.590504 -0.10619221 -38.592419 -24.19149 -124.06461
192817000 -24.195065 -134.12537 -0.10703743 -38.786152 -0.10658748 -38.791641 -24.142345 -124.13739
193816000 -24.162811 -134.37675 -0.10698729 -38.984421 -0.10679679 -38.985073 -24.0938 -124.27827
194815000 -24.099651 -134.78552 -0.10741632 -39.179058 -0.10724518 -39.182426 -24.023344 -124.33949
195814000 -24.046574 -134.96324 -0.10812166 -39.372982 -0.10729002 -39.379574 -23.964869 -124.40764
196813000 -23.989574 -135.30122 -0.10794465 -39.56963 -0.10685702 -39.574093 -23.887644 -124.60038
197812000 -23.932297 -135.50493 -0.10835256 -39.770935 -0.10850596 -39.769489 -23.821032 -124.67345
198811000 -23.875877 -135.66455 -0.10785204 -39.968712 -0.10792263 -39.970409 -23.750465 -124.84716
199810000 -23.805311 -136.02525 -0.10841466 -40.159859 -0.10722263 -40.159534 -23.66894 -124.93378
200809000 -23.750418 -136.245 -0.10888816 -40.360435 -0.10835733 -40.361958 -23.593332 -125.10683
201808000 -23.688568 -136.47862 -0.10986533 -40.557079 -0.10954171 -40.560802 -23.524885 -125.18151
202807000 -23.631191 -136.81995 -0.1100902 -40.760723 -0.10967046 -40.768139 -23.471931 -125.39364
