!Keysight Technologies,E5080B,MY59205177,A.15.75.32
!Date: Friday, February 23, 2024 03:31:57
!Correction: S11(Cdelta 2-Port  ) 
!S21(Cdelta 2-Port  ) 
!S12(Cdelta 2-Port  ) 
!S22(Cdelta 2-Port  ) 
!S2P File: Measurements: S11, S21, S12, S22:
# Hz S  dB   R 50
10000000 -46.023605 -1.976241 -0.01526431 -2.0481484 -0.018074123 -2.1039176 -45.941723 -158.29657
10999000 -45.266998 -3.7591505 -0.016339116 -2.2667818 -0.017700087 -2.3206909 -45.895233 -151.75087
11998000 -44.358597 -7.2610822 -0.016789693 -2.4914191 -0.017791579 -2.5312991 -46.046227 -147.69159
12997000 -43.606155 -12.800154 -0.016032521 -2.6711783 -0.01760054 -2.7007794 -45.719772 -141.66818
13996000 -43.307026 -16.606344 -0.015159364 -2.8540862 -0.017224986 -2.8713994 -45.503822 -136.37482
14995000 -42.903976 -20.924524 -0.017302692 -3.0633485 -0.017082049 -3.0880117 -45.254932 -133.03734
15994000 -42.770638 -25.467724 -0.018747158 -3.2797985 -0.019861054 -3.3056493 -45.130474 -129.62651
16993000 -42.685909 -30.095518 -0.017421465 -3.4760561 -0.019008446 -3.4861174 -44.251438 -129.36476
17992000 -42.762253 -35.457363 -0.017899709 -3.678704 -0.019666284 -3.6799643 -43.74609 -129.19295
18991000 -42.95356 -40.713432 -0.019199546 -3.8899324 -0.021036362 -3.8858309 -43.061508 -128.15048
19990000 -42.749554 -46.532478 -0.021387532 -4.0986953 -0.022390999 -4.0950232 -42.438923 -128.83662
20989000 -42.600742 -49.742329 -0.023350716 -4.3029385 -0.024344223 -4.2903605 -41.880798 -128.36571
21988000 -42.428993 -55.157074 -0.024378324 -4.4991088 -0.025488717 -4.4867859 -41.577774 -127.53445
22987000 -42.121174 -59.701115 -0.025535066 -4.7019348 -0.026579341 -4.689837 -41.328846 -126.98729
23986000 -42.028652 -63.72858 -0.024667546 -4.8936939 -0.02533978 -4.8914938 -41.224419 -127.00461
24985000 -41.662075 -66.515289 -0.025606934 -5.1036777 -0.025112741 -5.1000085 -41.042179 -124.61862
25984000 -41.333138 -68.622643 -0.027539721 -5.310986 -0.026116027 -5.3105588 -40.705963 -122.6606
26983000 -40.99028 -70.319733 -0.027134392 -5.5081711 -0.026594447 -5.5241246 -40.583561 -122.2836
27982000 -40.828785 -71.403961 -0.028417977 -5.7105517 -0.02875828 -5.7397628 -40.356052 -120.60807
28981000 -40.811478 -73.127541 -0.026559286 -5.9058466 -0.028507611 -5.9276538 -40.088188 -119.96128
29980000 -40.375736 -74.182617 -0.026457712 -6.0994711 -0.029567456 -6.1080341 -39.780861 -119.04713
30979000 -39.993664 -73.193008 -0.024814898 -6.4546566 -0.022891128 -6.4457979 -39.324883 -119.57398
31978000 -39.791939 -74.266144 -0.023936329 -6.6507282 -0.024659997 -6.6408224 -39.059612 -118.69405
32977000 -39.597622 -75.727165 -0.023813214 -6.864759 -0.025118208 -6.8604403 -38.816158 -118.77134
33976000 -39.451092 -76.861557 -0.025117688 -7.0639462 -0.02593009 -7.0582495 -38.565025 -118.14213
34975000 -39.150394 -77.588509 -0.024804745 -7.2608094 -0.026349109 -7.2631488 -38.317902 -117.74937
35974000 -38.965103 -78.267754 -0.024139101 -7.4581857 -0.026574653 -7.4596691 -38.042271 -117.03838
36973000 -38.708351 -78.951668 -0.02427524 -7.6615872 -0.027404521 -7.6631989 -37.76405 -116.01542
37972000 -38.601109 -78.726128 -0.023763759 -7.8693256 -0.026742645 -7.8783116 -37.556 -115.28039
38971000 -38.205318 -78.328598 -0.025529858 -8.0717583 -0.026684564 -8.0795517 -37.397614 -113.78626
39970000 -37.898113 -78.686653 -0.023610719 -8.2689552 -0.026103787 -8.2793808 -37.133511 -113.12101
40969000 -37.615318 -78.259209 -0.023583129 -8.4630127 -0.025721766 -8.4801922 -36.904488 -111.66793
41968000 -37.263817 -78.336311 -0.023374138 -8.6681948 -0.025949361 -8.6830769 -36.71727 -110.38833
42967000 -37.002258 -78.288857 -0.024507442 -8.8787918 -0.026676228 -8.8964176 -36.510384 -108.50972
43966000 -36.707512 -79.031303 -0.025328325 -9.0812683 -0.028179312 -9.0941505 -36.247746 -107.87518
44965000 -36.456223 -79.798454 -0.02556449 -9.2785645 -0.028279623 -9.2992516 -35.999573 -107.52556
45964000 -36.210838 -80.836876 -0.027819254 -9.4822598 -0.029379547 -9.5003357 -35.793304 -107.13139
46963000 -36.030861 -82.801727 -0.027059894 -9.6748085 -0.029451476 -9.6970224 -35.590752 -107.43347
47962000 -35.867207 -84.154533 -0.028358569 -9.8795691 -0.031637333 -9.8979359 -35.411968 -107.4537
48961000 -35.645611 -85.580292 -0.030704463 -10.077193 -0.032756366 -10.094049 -35.182556 -107.58578
49960000 -35.420692 -86.937134 -0.031745549 -10.274065 -0.033707157 -10.298529 -35.036366 -107.65519
50959000 -35.184509 -88.129669 -0.031987019 -10.489081 -0.034789931 -10.498524 -34.85754 -107.99766
51958000 -34.973091 -89.238754 -0.034784712 -10.687567 -0.035988864 -10.698224 -34.67762 -108.44762
52957000 -34.748672 -90.35463 -0.035883937 -10.891198 -0.037877187 -10.894437 -34.524128 -108.17156
53956000 -34.595089 -91.020599 -0.037414491 -11.089633 -0.038460061 -11.0907 -34.381161 -108.11987
54955000 -34.426315 -91.403381 -0.037982419 -11.293242 -0.038278297 -11.28841 -34.243603 -108.09183
55954000 -34.249557 -92.147392 -0.038799845 -11.49079 -0.03951424 -11.488095 -34.135643 -107.72092
56953000 -34.12941 -92.252426 -0.038604487 -11.692477 -0.038877156 -11.683632 -34.04549 -107.83752
57952000 -33.966763 -92.773132 -0.039408185 -11.890533 -0.038978759 -11.877843 -33.951302 -108.05071
58951000 -33.848782 -93.131996 -0.04079809 -12.093196 -0.039937444 -12.074223 -33.795101 -107.99582
59950000 -33.721928 -93.489761 -0.041250952 -12.295971 -0.041144595 -12.274096 -33.728985 -108.33032
60949000 -33.619785 -93.968376 -0.042030573 -12.500218 -0.042302936 -12.475329 -33.633331 -108.65862
61948000 -33.544407 -94.342285 -0.042593613 -12.699584 -0.041604023 -12.677315 -33.545372 -108.82153
62947000 -33.454609 -94.598145 -0.042240202 -12.912607 -0.042675696 -12.890504 -33.397442 -109.02649
63946000 -33.382545 -95.348564 -0.043441713 -13.108558 -0.043230981 -13.087855 -33.298676 -109.07298
64945000 -33.277252 -95.510918 -0.043826342 -13.307809 -0.043707106 -13.29154 -33.195637 -109.59835
65944000 -33.178848 -95.770599 -0.045067005 -13.508602 -0.044263829 -13.490692 -33.084778 -109.99292
66943000 -33.037422 -96.191856 -0.042249873 -13.710457 -0.042657398 -13.692695 -32.988571 -110.29234
67942000 -32.968395 -96.200119 -0.044798128 -13.906336 -0.044068482 -13.896616 -32.864948 -110.5838
68941000 -32.853214 -96.271248 -0.04465716 -14.102373 -0.043306801 -14.095424 -32.750286 -110.58495
69940000 -32.764221 -96.222015 -0.044482719 -14.30089 -0.044213619 -14.289569 -32.610447 -110.85963
70939000 -32.668915 -96.21756 -0.044969182 -14.497859 -0.043953687 -14.489157 -32.472549 -110.73775
71938000 -32.517529 -95.774765 -0.044521686 -14.696779 -0.04395055 -14.684052 -32.353298 -110.59573
72937000 -32.36108 -95.596344 -0.044863254 -14.892271 -0.043457665 -14.889108 -32.211895 -110.29879
73936000 -32.221069 -95.153137 -0.044745561 -15.093467 -0.043219477 -15.085289 -32.101387 -110.01595
74935000 -32.087692 -95.457573 -0.043603562 -15.285226 -0.042067949 -15.288581 -31.945114 -109.76347
75934000 -31.964085 -95.70211 -0.043497145 -15.49659 -0.042845361 -15.488935 -31.858097 -109.63715
76933000 -31.845745 -96.06279 -0.044302795 -15.691255 -0.043563556 -15.684439 -31.676844 -110.00924
77932000 -31.742174 -96.839615 -0.044759683 -15.887688 -0.045085315 -15.881846 -31.579168 -109.97287
78931000 -31.656805 -97.519516 -0.044177268 -16.089296 -0.044804666 -16.083422 -31.475784 -109.77728
79930000 -31.542816 -98.506783 -0.046849117 -16.282843 -0.04690171 -16.279503 -31.370077 -110.13041
80929000 -31.430689 -99.179062 -0.049029876 -16.478388 -0.048535105 -16.475809 -31.277058 -110.37965
81928000 -31.325392 -99.959457 -0.048741121 -16.673857 -0.049441963 -16.666227 -31.156988 -110.32127
82927000 -31.225122 -100.66644 -0.050313402 -16.871424 -0.050362635 -16.864176 -31.043993 -110.57001
83926000 -31.114311 -101.34707 -0.052409176 -17.070004 -0.051127125 -17.065092 -30.919899 -110.78224
84925000 -31.001759 -101.70148 -0.052586555 -17.266548 -0.051497504 -17.264606 -30.829229 -110.83075
85924000 -30.908705 -102.13905 -0.052804034 -17.468315 -0.05281923 -17.464016 -30.74818 -110.8073
86923000 -30.809132 -102.65611 -0.054392204 -17.665937 -0.053123455 -17.657032 -30.638931 -110.66013
87922000 -30.682064 -102.92414 -0.053648099 -17.874884 -0.052929807 -17.864462 -30.551867 -110.75043
88921000 -30.616409 -103.29288 -0.054728255 -18.068048 -0.0541563 -18.063681 -30.45068 -110.65483
89920000 -30.514837 -103.71424 -0.055807892 -18.271116 -0.054459829 -18.264235 -30.396357 -110.82095
90919000 -30.407337 -104.03902 -0.056210663 -18.466265 -0.054994076 -18.462645 -30.315783 -111.02074
91918000 -30.315582 -104.42841 -0.057668127 -18.668688 -0.056422025 -18.65967 -30.246059 -111.02396
92917000 -30.224426 -104.73991 -0.058400851 -18.866179 -0.057150077 -18.859453 -30.186264 -111.17069
93916000 -30.13451 -105.05653 -0.057635076 -19.062729 -0.057315849 -19.058487 -30.090706 -111.69653
94915000 -30.053108 -105.65515 -0.059391651 -19.264271 -0.057958789 -19.256989 -30.03187 -111.58168
95914000 -29.995348 -105.83761 -0.059800789 -19.455608 -0.058743775 -19.454075 -29.941055 -111.80566
96913000 -29.909451 -106.08723 -0.061511502 -19.65859 -0.0598769 -19.657406 -29.877954 -112.2373
97912000 -29.827824 -106.51326 -0.06238484 -19.855396 -0.060666956 -19.852633 -29.792036 -112.38754
98911000 -29.71809 -106.70803 -0.06313175 -20.055754 -0.061478421 -20.054241 -29.754257 -112.64753
99910000 -29.650255 -106.87637 -0.063439324 -20.256947 -0.062139835 -20.255035 -29.640951 -112.95747
100909000 -29.559858 -107.12413 -0.063213438 -20.4634 -0.061572153 -20.456589 -29.560007 -113.12358
101908000 -29.478081 -107.35797 -0.065029554 -20.667313 -0.063034572 -20.661104 -29.448793 -112.92975
102907000 -29.347296 -107.32932 -0.065010108 -20.862795 -0.063117303 -20.863688 -29.382196 -112.91399
103906000 -29.239243 -107.389 -0.064960971 -21.072144 -0.062505111 -21.064123 -29.235676 -112.85069
104905000 -29.096718 -107.27242 -0.06535802 -21.26737 -0.062525071 -21.264273 -29.110613 -112.57057
105904000 -28.954203 -107.34643 -0.066351987 -21.472469 -0.06233836 -21.465963 -28.992073 -112.43654
106903000 -28.844988 -107.44785 -0.066427685 -21.680124 -0.063468486 -21.668365 -28.872023 -112.29681
107902000 -28.681337 -107.74187 -0.066950791 -21.877752 -0.063824676 -21.869371 -28.730185 -112.30495
108901000 -28.572435 -107.9994 -0.068183616 -22.077782 -0.064871371 -22.072598 -28.602264 -112.21923
109900000 -28.442646 -108.48269 -0.068421066 -22.279446 -0.065963522 -22.271172 -28.45347 -112.27788
110899000 -28.32078 -109.06376 -0.069675878 -22.475372 -0.066900313 -22.468214 -28.329557 -112.54273
111898000 -28.236364 -109.74648 -0.071289182 -22.678745 -0.068134703 -22.67267 -28.211166 -112.71255
112897000 -28.110929 -110.30453 -0.073068134 -22.878914 -0.069360502 -22.866892 -28.076593 -112.82269
113896000 -27.99983 -110.87287 -0.073920622 -23.082788 -0.070476927 -23.06842 -27.966471 -112.94851
114895000 -27.903122 -111.48109 -0.074062549 -23.278196 -0.071571805 -23.264 -27.86068 -113.01722
115894000 -27.783762 -111.84214 -0.075539187 -23.480608 -0.07276962 -23.465494 -27.794348 -113.22697
116893000 -27.700327 -112.30814 -0.076320507 -23.674776 -0.0740823 -23.659121 -27.670048 -113.28567
117892000 -27.621784 -112.83717 -0.076417461 -23.876514 -0.074050173 -23.860668 -27.594303 -113.4852
118891000 -27.55648 -113.2105 -0.077103548 -24.075636 -0.074658461 -24.059944 -27.49312 -113.59869
119890000 -27.478899 -113.58915 -0.078261241 -24.274599 -0.074737996 -24.25852 -27.484112 -113.76163
120889000 -27.429712 -114.08372 -0.079337783 -24.478691 -0.076030724 -24.459303 -27.41761 -113.67213
121888000 -27.388601 -114.39143 -0.079970285 -24.672504 -0.075971715 -24.660557 -27.357048 -113.92628
122887000 -27.351458 -114.58772 -0.079817355 -24.874825 -0.076988667 -24.862833 -27.309843 -113.99322
123886000 -27.303438 -115.01999 -0.080425404 -25.079947 -0.076737039 -25.060207 -27.292048 -114.09821
124885000 -27.26656 -115.52001 -0.08024504 -25.276724 -0.07813447 -25.261984 -27.267117 -114.12033
125884000 -27.213453 -115.73481 -0.082006827 -25.477325 -0.077527799 -25.461143 -27.237812 -114.31747
126883000 -27.197628 -116.12775 -0.082035579 -25.679955 -0.078814246 -25.663111 -27.199705 -114.3211
127882000 -27.147215 -116.38995 -0.082594067 -25.878523 -0.079533666 -25.865837 -27.162025 -114.45507
128881000 -27.119753 -116.7303 -0.082903817 -26.08045 -0.07919991 -26.06531 -27.124088 -114.56071
129880000 -27.066311 -117.06529 -0.083701506 -26.282339 -0.079746172 -26.264908 -27.085421 -114.51746
130879000 -27.004026 -117.26263 -0.082932048 -26.482996 -0.080439113 -26.465458 -27.009821 -114.51949
131878000 -26.941708 -117.45491 -0.083860375 -26.684744 -0.081161186 -26.667648 -26.949045 -114.37194
132877000 -26.869413 -117.51351 -0.083483003 -26.887035 -0.080480255 -26.868212 -26.87011 -114.38161
133876000 -26.786501 -117.70237 -0.084322497 -27.087912 -0.080333106 -27.070972 -26.779579 -114.23252
134875000 -26.688372 -117.8144 -0.084144607 -27.290812 -0.081313893 -27.268375 -26.6833 -114.11133
135874000 -26.613544 -117.83535 -0.083566919 -27.488272 -0.08099819 -27.471968 -26.58667 -114.05022
136873000 -26.499102 -117.78986 -0.084390327 -27.69101 -0.080565959 -27.675392 -26.503714 -114.00313
137872000 -26.418514 -117.89642 -0.084877588 -27.894352 -0.081604026 -27.880566 -26.397112 -113.94483
138871000 -26.341528 -118.09631 -0.08450488 -28.09083 -0.081245318 -28.07555 -26.304085 -114.11232
139870000 -26.244686 -118.43152 -0.08527831 -28.294245 -0.083072416 -28.274858 -26.22006 -114.27699
140869000 -26.164085 -118.93102 -0.086446635 -28.489922 -0.083490923 -28.471962 -26.122864 -114.47869
141868000 -26.085495 -119.31994 -0.087236263 -28.689644 -0.084430449 -28.678953 -26.073092 -114.74332
142867000 -25.999126 -119.54293 -0.086137168 -28.886496 -0.083465584 -28.872269 -25.990564 -114.85708
143866000 -25.930298 -120.0254 -0.088311061 -29.084015 -0.085206769 -29.072222 -25.914749 -115.32861
144865000 -25.865177 -120.52682 -0.089331172 -29.284136 -0.086651027 -29.266962 -25.853443 -115.61039
145864000 -25.812681 -120.83607 -0.090319544 -29.483103 -0.087982439 -29.474916 -25.830584 -115.84703
146863000 -25.768431 -121.20248 -0.091290683 -29.686287 -0.088182941 -29.673952 -25.771185 -116.13787
147862000 -25.729527 -121.54962 -0.091748841 -29.88048 -0.089177914 -29.870478 -25.742237 -116.48357
148861000 -25.694281 -121.9952 -0.092686459 -30.078997 -0.090400681 -30.065947 -25.717642 -116.64593
149860000 -25.662552 -122.13701 -0.094107546 -30.275251 -0.090053134 -30.261683 -25.665361 -116.70776
150859000 -25.637802 -122.60373 -0.093564764 -30.474245 -0.090122908 -30.453587 -25.646732 -117.07748
151858000 -25.626205 -122.98336 -0.09232498 -30.671225 -0.090497151 -30.655266 -25.64053 -117.4322
152857000 -25.609844 -123.2908 -0.093522184 -30.869337 -0.090636186 -30.856941 -25.618561 -117.57822
153856000 -25.605705 -123.51378 -0.093741983 -31.073038 -0.090098329 -31.055632 -25.639143 -117.91816
154855000 -25.604675 -123.67243 -0.093487002 -31.273462 -0.090214349 -31.259321 -25.628946 -118.14597
155854000 -25.620829 -123.90215 -0.094204366 -31.473061 -0.09083654 -31.457581 -25.619081 -118.41638
156853000 -25.609093 -124.63454 -0.091421813 -31.658125 -0.090155415 -31.652279 -25.618711 -118.73295
157852000 -25.618496 -124.84072 -0.092616647 -31.860582 -0.091518037 -31.850676 -25.605497 -119.10834
158851000 -25.614344 -125.04275 -0.093773723 -32.05909 -0.092325509 -32.047916 -25.589495 -119.37339
159850000 -25.60586 -125.15893 -0.094168916 -32.257286 -0.092613734 -32.249275 -25.588154 -119.53149
160849000 -25.588644 -125.24352 -0.09403374 -32.457348 -0.093103506 -32.452736 -25.558266 -119.80636
161848000 -25.568445 -125.29491 -0.094226055 -32.657787 -0.092971273 -32.652477 -25.523956 -119.929
162847000 -25.530666 -125.49205 -0.094785325 -32.855518 -0.093816571 -32.851276 -25.490999 -120.21592
163846000 -25.494247 -125.71632 -0.094616003 -33.056599 -0.093205594 -33.047497 -25.412561 -120.19387
164845000 -25.434715 -125.69126 -0.094394304 -33.260612 -0.094056495 -33.251446 -25.349707 -120.29444
165844000 -25.382072 -125.70704 -0.094863109 -33.456768 -0.094557799 -33.45253 -25.275173 -120.41412
166843000 -25.317265 -125.79058 -0.094901472 -33.654881 -0.093659192 -33.650841 -25.2069 -120.6111
167842000 -25.258478 -125.85677 -0.095903017 -33.854435 -0.095263436 -33.848972 -25.131094 -120.48543
168841000 -25.185699 -126.03878 -0.096031636 -34.054092 -0.095273226 -34.053898 -25.058485 -120.55965
169840000 -25.117348 -126.27811 -0.095854327 -34.249851 -0.095571704 -34.245365 -24.971182 -120.76097
170839000 -25.05883 -126.50941 -0.097015709 -34.448486 -0.095827863 -34.446426 -24.886864 -120.9572
171838000 -24.999189 -126.90754 -0.09726613 -34.648354 -0.096559644 -34.64159 -24.82342 -121.16492
172837000 -24.929302 -127.26929 -0.099231876 -34.847118 -0.097782105 -34.839668 -24.754614 -121.37051
173836000 -24.864288 -127.64834 -0.099621207 -35.048676 -0.098762594 -35.042015 -24.714426 -121.59258
174835000 -24.807779 -128.06454 -0.1003825 -35.243233 -0.099548109 -35.241379 -24.673983 -121.91877
175834000 -24.75824 -128.44579 -0.10091183 -35.445885 -0.1004837 -35.43692 -24.614698 -122.17755
176833000 -24.707937 -128.77953 -0.10219912 -35.641846 -0.1013294 -35.639473 -24.566936 -122.31561
177832000 -24.663189 -129.17163 -0.10316418 -35.840115 -0.10230301 -35.840363 -24.549877 -122.38367
178831000 -24.616693 -129.42409 -0.10476982 -36.038296 -0.1033561 -36.034355 -24.503721 -122.49174
179830000 -24.544256 -129.81854 -0.10589406 -36.224293 -0.10435536 -36.224197 -24.44125 -122.54448
180829000 -24.496639 -130.1711 -0.10464332 -36.417366 -0.10391496 -36.417713 -24.399527 -122.90297
181828000 -24.474638 -130.58589 -0.10406635 -36.616165 -0.10304198 -36.610756 -24.382988 -123.09966
182827000 -24.450056 -130.98392 -0.10423922 -36.813511 -0.10280818 -36.813511 -24.367601 -123.205
183826000 -24.40844 -131.28784 -0.10485865 -37.015293 -0.10356686 -37.008942 -24.35639 -123.36661
184825000 -24.414494 -131.60809 -0.10484884 -37.208378 -0.10422649 -37.206848 -24.341043 -123.48272
185824000 -24.387629 -132.01259 -0.10465075 -37.400181 -0.10410453 -37.403858 -24.338737 -123.5498
186823000 -24.367674 -132.36386 -0.10466666 -37.604534 -0.10403321 -37.604893 -24.326653 -123.55075
187822000 -24.343998 -132.67627 -0.10541134 -37.800358 -0.10380175 -37.800346 -24.291489 -123.61815
188821000 -24.32556 -132.95432 -0.1052241 -37.993534 -0.10454256 -37.997967 -24.269461 -123.76672
189820000 -24.303301 -133.2307 -0.10554341 -38.194801 -0.10428032 -38.195881 -24.249477 -123.97026
190819000 -24.270891 -133.56625 -0.10640708 -38.394314 -0.10533919 -38.394115 -24.211861 -123.99594
191818000 -24.238955 -133.87592 -0.10669837 -38.592571 -0.10544555 -38.59166 -24.185699 -124.0556
192817000 -24.191883 -134.14508 -0.10649595 -38.787079 -0.1061556 -38.785896 -24.146288 -124.13709
193816000 -24.15575 -134.40128 -0.10682306 -38.985836 -0.10573836 -38.984093 -24.090061 -124.26276
194815000 -24.098785 -134.77179 -0.10712101 -39.17923 -0.10671163 -39.182796 -24.02342 -124.35851
195814000 -24.042402 -134.9525 -0.10822145 -39.377205 -0.10641796 -39.380402 -23.96776 -124.41709
196813000 -23.986237 -135.30931 -0.1077114 -39.569775 -0.10700772 -39.574371 -23.889006 -124.60298
197812000 -23.928699 -135.52003 -0.10850357 -39.77 -0.10715577 -39.769352 -23.819626 -124.67251
198811000 -23.876898 -135.65707 -0.10861743 -39.969036 -0.10714357 -39.969234 -23.746073 -124.87257
199810000 -23.806818 -136.02977 -0.10847942 -40.166412 -0.10723271 -40.158585 -23.66717 -124.95237
200809000 -23.747093 -136.30269 -0.10857921 -40.35891 -0.10720565 -40.359818 -23.591387 -125.14319
201808000 -23.690491 -136.51057 -0.10939012 -40.557327 -0.10829257 -40.562241 -23.521122 -125.1974
202807000 -23.629786 -136.83868 -0.1099532 -40.758644 -0.10880136 -40.763123 -23.47072 -125.39056
