!Keysight Technologies,E5080B,MY59205177,A.15.75.32
!Date: Friday, February 23, 2024 02:53:44
!Correction: S11(Cdelta 2-Port  ) 
!S21(Cdelta 2-Port  ) 
!S12(Cdelta 2-Port  ) 
!S22(Cdelta 2-Port  ) 
!S2P File: Measurements: S11, S21, S12, S22:
# Hz S  dB   R 50
10000000 -43.485268 -3.9973171 -0.032351073 -2.0442376 -0.035924654 -2.1000621 -49.076485 -146.26096
10999000 -42.874447 -5.2487245 -0.033048496 -2.2647386 -0.035624765 -2.3185225 -48.658432 -137.7077
11998000 -42.101879 -7.883513 -0.033365946 -2.4852347 -0.034688689 -2.5291054 -48.801701 -132.53699
12997000 -41.553387 -12.034822 -0.032347683 -2.6653793 -0.034790713 -2.6962991 -47.997555 -125.19999
13996000 -41.305397 -15.201442 -0.031237882 -2.838732 -0.034749486 -2.8598783 -47.531799 -119.66504
14995000 -41.051613 -18.492485 -0.033259779 -3.0506644 -0.034813415 -3.0792351 -46.980122 -116.40503
15994000 -40.911449 -22.051632 -0.035267219 -3.2708664 -0.037109278 -3.2932184 -46.752064 -112.3066
16993000 -40.919968 -25.739611 -0.033860035 -3.471225 -0.035969809 -3.4754546 -45.813156 -114.28074
17992000 -41.00568 -30.340609 -0.034589794 -3.664233 -0.036123026 -3.671056 -45.191769 -115.45319
18991000 -41.286709 -34.404362 -0.034899268 -3.8722482 -0.037596744 -3.8751855 -44.455196 -114.99436
19990000 -41.167774 -39.070976 -0.037332509 -4.0810533 -0.04007617 -4.0822096 -43.740887 -117.06866
20989000 -41.121628 -42.033527 -0.03958451 -4.2872543 -0.041583378 -4.2799377 -43.158825 -117.25319
21988000 -41.098 -46.145241 -0.040573116 -4.483892 -0.041888908 -4.4713411 -42.84021 -116.75147
22987000 -40.924095 -50.692078 -0.041826442 -4.6854801 -0.043077514 -4.6762853 -42.562 -116.49387
23986000 -40.923756 -54.420933 -0.041323602 -4.8773355 -0.042421609 -4.8787599 -42.443211 -116.83595
24985000 -40.661266 -57.121799 -0.042411152 -5.0872316 -0.04191792 -5.0821419 -42.155975 -114.13639
25984000 -40.436176 -59.353893 -0.043133199 -5.2938023 -0.042858168 -5.2928104 -41.786381 -113.04163
26983000 -40.184326 -61.307377 -0.044339668 -5.4924269 -0.043969639 -5.5067387 -41.65276 -112.22334
27982000 -40.063576 -62.233517 -0.045583878 -5.6914091 -0.04536964 -5.7224984 -41.331738 -110.81464
28981000 -40.022072 -63.509052 -0.043584999 -5.8928299 -0.045634888 -5.910234 -41.020309 -110.30752
29980000 -39.672775 -65.289612 -0.043073069 -6.0837445 -0.045472439 -6.0853424 -40.774197 -109.45065
30979000 -39.326859 -64.755997 -0.041136492 -6.4356647 -0.040630862 -6.4243755 -40.210533 -110.71012
31978000 -39.147697 -65.790901 -0.039954949 -6.6318064 -0.041292503 -6.6198401 -39.909672 -110.0368
32977000 -38.990917 -67.354057 -0.040117711 -6.8424945 -0.041651066 -6.8375716 -39.662235 -110.40553
33976000 -38.838531 -68.395325 -0.041175168 -7.0428891 -0.042478856 -7.0360236 -39.319454 -109.90717
34975000 -38.574509 -69.572922 -0.040632952 -7.2414646 -0.043407463 -7.2400465 -39.075378 -109.72298
35974000 -38.39257 -70.337547 -0.040516678 -7.4332752 -0.043392822 -7.436296 -38.778023 -109.06699
36973000 -38.19878 -71.110168 -0.040493947 -7.6371531 -0.043507341 -7.6397991 -38.482727 -108.28487
37972000 -38.009739 -71.201187 -0.040098641 -7.8433471 -0.043552313 -7.8491631 -38.208374 -107.68088
38971000 -37.687351 -70.995018 -0.041291721 -8.0485697 -0.043788165 -8.0562353 -38.022644 -106.18026
39970000 -37.378708 -71.573143 -0.039569359 -8.2422371 -0.043130584 -8.2614861 -37.738903 -105.7598
40969000 -37.094501 -71.397125 -0.03994032 -8.4317465 -0.042181648 -8.4513788 -37.461044 -104.38167
41968000 -36.761761 -71.820274 -0.039156113 -8.6417036 -0.042995945 -8.6569433 -37.252129 -103.40103
42967000 -36.506084 -72.036766 -0.039921507 -8.8520041 -0.042858955 -8.8651972 -37.00563 -101.6012
43966000 -36.236622 -72.87677 -0.04077588 -9.0499611 -0.044763867 -9.0658197 -36.698296 -101.01979
44965000 -36.017918 -73.908806 -0.041354179 -9.251236 -0.044204988 -9.2708454 -36.484898 -100.99231
45964000 -35.817196 -75.092613 -0.042943396 -9.4537182 -0.04633183 -9.4682455 -36.243793 -100.79735
46963000 -35.654934 -77.084465 -0.042479642 -9.6467295 -0.046307497 -9.6673412 -36.056332 -101.15151
47962000 -35.511002 -78.562454 -0.044294685 -9.851738 -0.04781713 -9.8622551 -35.838982 -101.48898
48961000 -35.318348 -80.132118 -0.046129327 -10.047076 -0.049317338 -10.064249 -35.634277 -101.83373
49960000 -35.100887 -81.435646 -0.047474284 -10.242144 -0.050367609 -10.264089 -35.475185 -101.97362
50959000 -34.90918 -82.938118 -0.04862646 -10.456386 -0.051787488 -10.467252 -35.314823 -102.46507
51958000 -34.726704 -84.069977 -0.050531287 -10.655215 -0.053247403 -10.666502 -35.13781 -103.04148
52957000 -34.535042 -85.169785 -0.051855076 -10.856359 -0.054216322 -10.860977 -34.97673 -102.9426
53956000 -34.375954 -86.066803 -0.052906748 -11.059142 -0.055368453 -11.059242 -34.848183 -102.95134
54955000 -34.226997 -86.509064 -0.054019742 -11.259594 -0.056109704 -11.254265 -34.682453 -102.97185
55954000 -34.063122 -87.597046 -0.055009279 -11.460295 -0.05659065 -11.45961 -34.571022 -102.71056
56953000 -33.96661 -87.687447 -0.054378308 -11.657179 -0.055005088 -11.640769 -34.497231 -103.05149
57952000 -33.801434 -88.166801 -0.055388641 -11.854478 -0.056416254 -11.844615 -34.391701 -103.24895
58951000 -33.68956 -88.650467 -0.056039952 -12.059621 -0.057071131 -12.038853 -34.226688 -103.39491
59950000 -33.566093 -89.037491 -0.056922942 -12.257395 -0.057944622 -12.232975 -34.172432 -103.65357
60949000 -33.465446 -89.706429 -0.057722691 -12.462499 -0.05871281 -12.433843 -34.068333 -103.94453
61948000 -33.412086 -89.843506 -0.058765553 -12.656729 -0.058081564 -12.639204 -33.977257 -104.05837
62947000 -33.316486 -90.275421 -0.058883891 -12.869989 -0.059124511 -12.848064 -33.844467 -104.4156
63946000 -33.248051 -90.972122 -0.05929954 -13.066429 -0.060066395 -13.046306 -33.751793 -104.55681
64945000 -33.145298 -91.160301 -0.060325716 -13.270282 -0.060446724 -13.24931 -33.637249 -105.10036
65944000 -33.046822 -91.447014 -0.060493708 -13.470355 -0.060571931 -13.450249 -33.543652 -105.58968
66943000 -32.917767 -91.910316 -0.058350213 -13.671676 -0.058891498 -13.652445 -33.444443 -105.73492
67942000 -32.840343 -91.884293 -0.061008219 -13.864271 -0.061025545 -13.853497 -33.313484 -106.12235
68941000 -32.726223 -92.011063 -0.060173217 -14.056971 -0.059831757 -14.048607 -33.205017 -106.16886
69940000 -32.636505 -92.043488 -0.060854122 -14.257857 -0.061033946 -14.247895 -33.069546 -106.43829
70939000 -32.531944 -91.951683 -0.06020629 -14.453754 -0.060532559 -14.442122 -32.928917 -106.39581
71938000 -32.391132 -91.65831 -0.05999238 -14.650594 -0.060598444 -14.643783 -32.804779 -106.23994
72937000 -32.233116 -91.448219 -0.060071118 -14.848473 -0.061037362 -14.842754 -32.657658 -105.97454
73936000 -32.092312 -91.21801 -0.059930701 -15.046232 -0.059875064 -15.039045 -32.538261 -105.80439
74935000 -31.965742 -91.493469 -0.05856457 -15.243256 -0.059296127 -15.240028 -32.378807 -105.47927
75934000 -31.823994 -91.813805 -0.058918789 -15.452639 -0.059073865 -15.44462 -32.295254 -105.45595
76933000 -31.713337 -92.184731 -0.060048286 -15.648458 -0.06070948 -15.634897 -32.125454 -105.88238
77932000 -31.632549 -92.999672 -0.061744656 -15.84218 -0.062342037 -15.835819 -32.037956 -105.86546
78931000 -31.553648 -93.761398 -0.060169809 -16.038486 -0.061208002 -16.033249 -31.925104 -105.80938
79930000 -31.441126 -94.577904 -0.062494874 -16.230843 -0.064289406 -16.230976 -31.839363 -106.07846
80929000 -31.326601 -95.516266 -0.064320147 -16.427944 -0.065430284 -16.424959 -31.739845 -106.49506
81928000 -31.25408 -96.375633 -0.064454131 -16.619194 -0.065775342 -16.619568 -31.610262 -106.6176
82927000 -31.1628 -97.177261 -0.066088624 -16.817486 -0.066664785 -16.817774 -31.51697 -106.9465
83926000 -31.042913 -97.855652 -0.067778155 -17.01576 -0.067982718 -17.018187 -31.391636 -107.15627
84925000 -30.949463 -98.358803 -0.068822905 -17.213495 -0.067643538 -17.212086 -31.293928 -107.31499
85924000 -30.858141 -98.832726 -0.069524892 -17.415392 -0.069265023 -17.414286 -31.20746 -107.32838
86923000 -30.757063 -99.444992 -0.069763213 -17.614159 -0.06985081 -17.610243 -31.105324 -107.25979
87922000 -30.641495 -99.824326 -0.069194272 -17.819361 -0.069661148 -17.810638 -31.02022 -107.29324
88921000 -30.588644 -100.16579 -0.070384055 -18.020018 -0.070286982 -18.012659 -30.930422 -107.30869
89920000 -30.48263 -100.75467 -0.070510082 -18.215738 -0.071811818 -18.206331 -30.876261 -107.47786
90919000 -30.383759 -101.05412 -0.071846552 -18.41573 -0.072300561 -18.408499 -30.787104 -107.73531
91918000 -30.288603 -101.43711 -0.071911298 -18.612547 -0.072116055 -18.606241 -30.72015 -107.77637
92917000 -30.201292 -101.78435 -0.073725261 -18.810089 -0.073670231 -18.806173 -30.651531 -107.89353
93916000 -30.116747 -102.22225 -0.073132895 -19.003029 -0.073375098 -18.998837 -30.567865 -108.59576
94915000 -30.049301 -102.85452 -0.074900754 -19.206629 -0.074168399 -19.196985 -30.498186 -108.4328
95914000 -29.983479 -103.04404 -0.075438045 -19.403467 -0.075212851 -19.394157 -30.41152 -108.71628
96913000 -29.906317 -103.3141 -0.076693043 -19.600573 -0.076707534 -19.596348 -30.352747 -109.07322
97912000 -29.828035 -103.7777 -0.078178748 -19.797241 -0.077232137 -19.794687 -30.262348 -109.33164
98911000 -29.725491 -104.02843 -0.078228824 -19.995319 -0.07764902 -19.993679 -30.224525 -109.56539
99910000 -29.665165 -104.13377 -0.07899455 -20.194147 -0.077912822 -20.193413 -30.122166 -109.83971
100909000 -29.574987 -104.47177 -0.07779818 -20.401384 -0.077124894 -20.395998 -30.030708 -110.12118
101908000 -29.483864 -104.69512 -0.079706095 -20.598881 -0.0789297 -20.600855 -29.920134 -109.76432
102907000 -29.348948 -104.72116 -0.080057293 -20.805319 -0.078881726 -20.801218 -29.851042 -109.79387
103906000 -29.25547 -104.78637 -0.080325201 -21.009239 -0.078852467 -21.001318 -29.69323 -109.71285
104905000 -29.111801 -104.73946 -0.080693856 -21.206036 -0.079045951 -21.206379 -29.562403 -109.44393
105904000 -28.970589 -104.86263 -0.081054635 -21.406437 -0.078377478 -21.398149 -29.449961 -109.27343
106903000 -28.860397 -104.98765 -0.081086278 -21.611628 -0.079503879 -21.607698 -29.325312 -109.17345
107902000 -28.692322 -105.32208 -0.081824809 -21.813452 -0.080519281 -21.803539 -29.183361 -109.12553
108901000 -28.586786 -105.6348 -0.082791418 -22.015898 -0.080632411 -22.008181 -29.047956 -109.11913
109900000 -28.460016 -106.10297 -0.08420901 -22.212702 -0.082071722 -22.20332 -28.904577 -109.23048
110899000 -28.341295 -106.75185 -0.085085601 -22.411634 -0.082930729 -22.400734 -28.77072 -109.49657
111898000 -28.256611 -107.41521 -0.087142766 -22.610287 -0.083914474 -22.60594 -28.65099 -109.68295
112897000 -28.131395 -108.02129 -0.087843761 -22.811256 -0.084885247 -22.802855 -28.524149 -109.87038
113896000 -28.034937 -108.67066 -0.089043692 -23.013321 -0.086588182 -22.998522 -28.414509 -110.0285
114895000 -27.935022 -109.27726 -0.090151712 -23.20792 -0.088278838 -23.193478 -28.307421 -110.11008
115894000 -27.803953 -109.65036 -0.091154806 -23.410048 -0.089334346 -23.395884 -28.238508 -110.35918
116893000 -27.725147 -110.29012 -0.092132218 -23.6059 -0.090480767 -23.590601 -28.103792 -110.51868
117892000 -27.641603 -110.78631 -0.091884479 -23.80493 -0.090381913 -23.79167 -28.02593 -110.72229
118891000 -27.589622 -111.22431 -0.092271037 -24.003563 -0.090500325 -23.990219 -27.93211 -110.89518
119890000 -27.502541 -111.55635 -0.093913384 -24.204166 -0.091495037 -24.190544 -27.925362 -111.04268
120889000 -27.453083 -112.06027 -0.094581872 -24.402958 -0.091230415 -24.390612 -27.844784 -110.99097
121888000 -27.404968 -112.41476 -0.094845913 -24.603113 -0.092220798 -24.588881 -27.789789 -111.33584
122887000 -27.365404 -112.66134 -0.095709041 -24.801643 -0.092955671 -24.787968 -27.741352 -111.38339
123886000 -27.31818 -113.07713 -0.096163437 -25.003908 -0.092680909 -24.985638 -27.730379 -111.52428
124885000 -27.272488 -113.58055 -0.095912285 -25.202995 -0.093418501 -25.18737 -27.694975 -111.60822
125884000 -27.233345 -113.78433 -0.097281218 -25.397566 -0.093695432 -25.383453 -27.674627 -111.79102
126883000 -27.203453 -114.19527 -0.097553626 -25.606234 -0.094860733 -25.589153 -27.628075 -111.86668
127882000 -27.153757 -114.47643 -0.097699761 -25.801567 -0.094679497 -25.785606 -27.585253 -112.00481
128881000 -27.128235 -114.7963 -0.098055601 -26.004644 -0.095025033 -25.988516 -27.546486 -112.13152
129880000 -27.07132 -115.11937 -0.09884204 -26.20685 -0.095467977 -26.187744 -27.504276 -112.15504
130879000 -27.006981 -115.28442 -0.09852957 -26.407215 -0.096065246 -26.386566 -27.42849 -112.18953
131878000 -26.943455 -115.45272 -0.098525062 -26.608126 -0.096508555 -26.586138 -27.362823 -112.06466
132877000 -26.874752 -115.56978 -0.098409347 -26.809059 -0.096653074 -26.79315 -27.275906 -112.09492
133876000 -26.795206 -115.72842 -0.098933138 -27.011881 -0.095927365 -26.992455 -27.186422 -111.99137
134875000 -26.693268 -115.85913 -0.098807879 -27.207327 -0.096971236 -27.192713 -27.081333 -111.83794
135874000 -26.61162 -115.91201 -0.099130437 -27.409037 -0.097140387 -27.392279 -26.978697 -111.81403
136873000 -26.497313 -115.82687 -0.099856153 -27.611498 -0.096535817 -27.594849 -26.891935 -111.81886
137872000 -26.422268 -115.93703 -0.099900387 -27.8167 -0.09672454 -27.798742 -26.788038 -111.77399
138871000 -26.348343 -116.14291 -0.10038568 -28.0156 -0.096972823 -27.99703 -26.686548 -111.95486
139870000 -26.24918 -116.41315 -0.10131774 -28.211576 -0.09852533 -28.194088 -26.60606 -112.11604
140869000 -26.160852 -116.86959 -0.10364215 -28.40764 -0.10004263 -28.387051 -26.496637 -112.2544
141868000 -26.067816 -117.35114 -0.10308174 -28.598383 -0.10096721 -28.585291 -26.425421 -112.59781
142867000 -25.984303 -117.64816 -0.10129443 -28.797379 -0.1000572 -28.782089 -26.346931 -112.8281
143866000 -25.92063 -118.10934 -0.1027186 -28.996899 -0.10118738 -28.977833 -26.27426 -113.30325
144865000 -25.859802 -118.66244 -0.10423312 -29.192331 -0.10260569 -29.177656 -26.219175 -113.68149
145864000 -25.804054 -118.97534 -0.1046823 -29.394258 -0.10381076 -29.378883 -26.187582 -113.94146
146863000 -25.75935 -119.38433 -0.10598876 -29.592815 -0.10363737 -29.578316 -26.132694 -114.2439
147862000 -25.716213 -119.74031 -0.1064665 -29.788031 -0.10385583 -29.778143 -26.099468 -114.64069
148861000 -25.690289 -120.29581 -0.10652567 -29.985331 -0.10487933 -29.974566 -26.077185 -114.84187
149860000 -25.675339 -120.46566 -0.10786 -30.186338 -0.10511669 -30.178038 -26.04314 -115.06048
150859000 -25.655018 -120.8346 -0.10755271 -30.385248 -0.10562909 -30.372349 -26.035671 -115.27446
151858000 -25.633005 -121.17366 -0.1077512 -30.584738 -0.10662887 -30.57262 -26.023258 -115.60403
152857000 -25.612347 -121.47688 -0.10775279 -30.783434 -0.10602165 -30.770849 -26.009108 -115.73463
153856000 -25.607969 -121.67905 -0.10699976 -30.981903 -0.10561768 -30.969069 -26.026772 -116.02713
154855000 -25.603018 -121.88138 -0.10832495 -31.181705 -0.10652965 -31.168861 -26.013313 -116.24969
155854000 -25.61677 -122.1161 -0.1085171 -31.379164 -0.10653389 -31.366224 -26.004004 -116.50472
156853000 -25.601496 -122.83459 -0.1061893 -31.56518 -0.10562723 -31.556322 -25.999876 -116.8095
157852000 -25.6029 -123.06133 -0.10773395 -31.766766 -0.10720778 -31.757505 -25.993246 -117.17074
158851000 -25.596794 -123.29643 -0.10840802 -31.966757 -0.1075007 -31.956211 -25.97365 -117.42378
159850000 -25.582994 -123.4201 -0.10885153 -32.163944 -0.1075352 -32.157497 -25.969542 -117.56931
160849000 -25.568756 -123.52477 -0.10883561 -32.364147 -0.10891178 -32.35891 -25.94068 -117.8933
161848000 -25.540615 -123.64352 -0.10909414 -32.563354 -0.10876288 -32.55724 -25.900427 -117.99932
162847000 -25.496275 -123.83715 -0.10914882 -32.762291 -0.10888763 -32.757122 -25.873621 -118.25109
163846000 -25.453411 -124.04298 -0.11011357 -32.962982 -0.10879632 -32.955601 -25.79331 -118.24197
164845000 -25.393373 -124.0759 -0.11059018 -33.159824 -0.10961285 -33.154957 -25.730434 -118.32254
165844000 -25.33815 -124.16433 -0.1097424 -33.35754 -0.10911857 -33.35268 -25.643768 -118.49419
166843000 -25.271845 -124.22142 -0.10964365 -33.554806 -0.10973338 -33.551853 -25.572176 -118.67895
167842000 -25.216862 -124.384 -0.11020012 -33.760803 -0.10966302 -33.751968 -25.498842 -118.60616
168841000 -25.139706 -124.5954 -0.11071365 -33.956173 -0.1098709 -33.951042 -25.414772 -118.67544
169840000 -25.07036 -124.84351 -0.11128806 -34.151524 -0.11067382 -34.149643 -25.325636 -118.86461
170839000 -25.010921 -125.12305 -0.11199536 -34.347309 -0.11142059 -34.346031 -25.236326 -119.04837
171838000 -24.954836 -125.50657 -0.11222885 -34.550468 -0.11253195 -34.543732 -25.172407 -119.27385
172837000 -24.884485 -125.89191 -0.11407249 -34.742882 -0.11329577 -34.738506 -25.104343 -119.54115
173836000 -24.818092 -126.32536 -0.11474594 -34.943516 -0.1143914 -34.938828 -25.061855 -119.75324
174835000 -24.765173 -126.79137 -0.1152765 -35.135239 -0.11464787 -35.138016 -25.012959 -120.09552
175834000 -24.715382 -127.14247 -0.11588634 -35.335552 -0.11539719 -35.332703 -24.951557 -120.40875
176833000 -24.668314 -127.5806 -0.11678983 -35.531681 -0.1158741 -35.531292 -24.90078 -120.55424
177832000 -24.619118 -128.03168 -0.11737887 -35.727909 -0.11654998 -35.730934 -24.879082 -120.72845
178831000 -24.575802 -128.38867 -0.1173052 -35.926685 -0.11686109 -35.924271 -24.843611 -120.99193
179830000 -24.545755 -128.84712 -0.11833241 -36.123531 -0.11794777 -36.122265 -24.817019 -121.11674
180829000 -24.50458 -129.07806 -0.1185806 -36.319527 -0.11831379 -36.320282 -24.78941 -121.31244
181828000 -24.476738 -129.43822 -0.11830102 -36.520081 -0.1184303 -36.517628 -24.76915 -121.41011
182827000 -24.456665 -129.80943 -0.11887404 -36.713207 -0.11860029 -36.715969 -24.756372 -121.50964
183826000 -24.417444 -130.10507 -0.12000779 -36.91048 -0.11901291 -36.907833 -24.753159 -121.64665
184825000 -24.422335 -130.43394 -0.12020286 -37.104393 -0.11945591 -37.106144 -24.740158 -121.75797
185824000 -24.400398 -130.79399 -0.12016241 -37.299114 -0.11948226 -37.302197 -24.727488 -121.76767
186823000 -24.383352 -131.1338 -0.11948119 -37.502087 -0.11947799 -37.497601 -24.729206 -121.76678
187822000 -24.362759 -131.46863 -0.12009136 -37.697754 -0.12020286 -37.699341 -24.687836 -121.84528
188821000 -24.343565 -131.73254 -0.11981646 -37.890362 -0.12106892 -37.897984 -24.677387 -121.93478
189820000 -24.328568 -132.00513 -0.12088659 -38.093945 -0.12022921 -38.094765 -24.665306 -122.08717
190819000 -24.299147 -132.22586 -0.12187018 -38.294704 -0.12164044 -38.291279 -24.632301 -122.05096
191818000 -24.265776 -132.41039 -0.12314719 -38.487022 -0.12337382 -38.486206 -24.600912 -121.92482
192817000 -24.192032 -132.66917 -0.12355945 -38.671768 -0.12346624 -38.672718 -24.526674 -122.0148
193816000 -24.155533 -133.06758 -0.12305772 -38.8671 -0.12234249 -38.865517 -24.470974 -122.27773
194815000 -24.10034 -133.48564 -0.12281699 -39.060432 -0.12282231 -39.061935 -24.409082 -122.38718
195814000 -24.050283 -133.68808 -0.12302949 -39.26384 -0.12302949 -39.264362 -24.352381 -122.50957
196813000 -23.993042 -134.08318 -0.12321563 -39.454838 -0.12223386 -39.459633 -24.275578 -122.65314
197812000 -23.936916 -134.30539 -0.12277358 -39.652679 -0.12289581 -39.649967 -24.20512 -122.75267
198811000 -23.884394 -134.48749 -0.12303428 -39.851517 -0.1224474 -39.854179 -24.135109 -122.94786
199810000 -23.811594 -134.87192 -0.12327342 -40.042824 -0.12270249 -40.047287 -24.059414 -123.05205
200809000 -23.756002 -135.10173 -0.12396296 -40.242752 -0.1236516 -40.24033 -23.978802 -123.23383
201808000 -23.698732 -135.37532 -0.12428126 -40.443077 -0.12338474 -40.442371 -23.90748 -123.33024
202807000 -23.637844 -135.7421 -0.12463342 -40.639984 -0.12476769 -40.644016 -23.854031 -123.52852
203806000 -23.5854 -136.17534 -0.12623316 -40.840897 -0.12489077 -40.845394 -23.788902 -123.71292
