!Keysight Technologies,E5080B,MY59205177,A.15.75.32
!Date: Friday, February 23, 2024 03:32:03
!Correction: S11(Cdelta 2-Port  ) 
!S21(Cdelta 2-Port  ) 
!S12(Cdelta 2-Port  ) 
!S22(Cdelta 2-Port  ) 
!S2P File: Measurements: S11, S21, S12, S22:
# Hz S  dB   R 50
10000000 -46.012119 -2.2073965 -0.015410304 -2.0484037 -0.018961906 -2.1047528 -45.993961 -158.1752
10999000 -45.244896 -4.587749 -0.016597399 -2.2663457 -0.018373584 -2.321645 -45.927502 -151.84471
11998000 -44.330055 -7.1762843 -0.016890261 -2.4920664 -0.018607292 -2.5353217 -46.1259 -147.45862
12997000 -43.57618 -12.607824 -0.016302999 -2.675324 -0.018822553 -2.7034245 -45.710361 -141.46048
13996000 -43.296604 -16.572586 -0.01500091 -2.8526535 -0.01769333 -2.8704665 -45.476833 -136.3546
14995000 -42.907158 -20.86496 -0.017458111 -3.0626547 -0.017969629 -3.0878873 -45.214676 -133.14313
15994000 -42.683891 -25.289623 -0.019230748 -3.2796428 -0.020396782 -3.3032801 -45.136219 -129.44626
16993000 -42.700436 -30.089119 -0.018346028 -3.4785111 -0.019498564 -3.4869514 -44.3088 -129.18204
17992000 -42.734886 -35.655655 -0.019185506 -3.6768591 -0.020274546 -3.6789172 -43.690212 -129.30469
18991000 -42.981476 -40.437626 -0.019067464 -3.8886311 -0.021417189 -3.8857784 -43.075348 -128.06229
19990000 -42.758381 -46.307037 -0.021926312 -4.104044 -0.023721855 -4.095305 -42.398994 -129.01859
20989000 -42.600754 -49.864166 -0.023332758 -4.3014174 -0.025257243 -4.2889175 -41.907795 -128.2365
21988000 -42.378548 -55.134464 -0.024535298 -4.4983678 -0.025742598 -4.4885697 -41.620045 -127.69871
22987000 -42.095882 -59.608448 -0.025916288 -4.6983557 -0.027201597 -4.6954894 -41.402 -127.15457
23986000 -42.030659 -63.730419 -0.025156742 -4.8959808 -0.025934257 -4.8922696 -41.276424 -126.9873
24985000 -41.624695 -66.514709 -0.026159517 -5.1016746 -0.026488444 -5.1006045 -41.015217 -124.67378
25984000 -41.318878 -68.69384 -0.027130485 -5.3088288 -0.027194824 -5.3088493 -40.676319 -122.77974
26983000 -40.967194 -70.777267 -0.028036796 -5.5100307 -0.028192339 -5.5291958 -40.610256 -122.47527
27982000 -40.807228 -71.469398 -0.029230736 -5.7125621 -0.029250283 -5.7462521 -40.30061 -120.89466
28981000 -40.765121 -72.906952 -0.02734174 -5.9117403 -0.028909158 -5.9301834 -40.072636 -119.86044
29980000 -40.417198 -74.03241 -0.028165502 -6.098906 -0.029869273 -6.1075053 -39.834229 -119.28189
30979000 -40.017666 -73.373001 -0.025666563 -6.4563708 -0.024086779 -6.4459949 -39.302017 -119.52837
31978000 -39.820156 -74.478142 -0.024934918 -6.6495552 -0.025515016 -6.6418376 -39.065895 -118.83736
32977000 -39.601948 -75.807236 -0.024860978 -6.8630428 -0.026168371 -6.8591499 -38.812771 -118.83901
33976000 -39.428909 -76.956535 -0.025426747 -7.0648432 -0.026537148 -7.058599 -38.509121 -118.19795
34975000 -39.137966 -77.882584 -0.026091026 -7.2614799 -0.027232334 -7.2631507 -38.296391 -117.81956
35974000 -38.929478 -78.292534 -0.024492605 -7.459137 -0.026503811 -7.459693 -38.027802 -117.01421
36973000 -38.697575 -79.07843 -0.024876339 -7.6580782 -0.027640278 -7.6649227 -37.771351 -115.97279
37972000 -38.553997 -78.734344 -0.024072463 -7.8688922 -0.027436562 -7.8777575 -37.546032 -115.22424
38971000 -38.20816 -78.133987 -0.025418675 -8.0715151 -0.027777309 -8.0769529 -37.389 -113.66558
39970000 -37.878044 -78.587112 -0.023633102 -8.2656221 -0.027648875 -8.2833233 -37.123573 -112.95075
40969000 -37.578281 -78.278214 -0.023994373 -8.4582758 -0.026540793 -8.4775982 -36.896503 -111.65504
41968000 -37.255077 -78.239708 -0.024463188 -8.6655436 -0.027219571 -8.682169 -36.710186 -110.32848
42967000 -36.987144 -78.326454 -0.024830779 -8.8749809 -0.026756709 -8.8977823 -36.491291 -108.54926
43966000 -36.679962 -78.974113 -0.025420759 -9.075675 -0.02897561 -9.1002998 -36.231857 -107.68082
44965000 -36.438217 -79.70266 -0.025725413 -9.2778749 -0.028950853 -9.3013058 -35.996647 -107.55937
45964000 -36.230274 -80.818123 -0.026776504 -9.4756079 -0.03009161 -9.5049286 -35.777496 -107.21468
46963000 -36.000256 -82.698669 -0.026790829 -9.6754656 -0.031076754 -9.6961946 -35.608784 -107.38737
47962000 -35.845093 -84.181999 -0.029201288 -9.87712 -0.032446787 -9.8975677 -35.398071 -107.40078
48961000 -35.636677 -85.514786 -0.031438645 -10.075765 -0.033877775 -10.097061 -35.16507 -107.55854
49960000 -35.412346 -86.874084 -0.031853244 -10.273722 -0.034147542 -10.300496 -35.036221 -107.63418
50959000 -35.181282 -88.175896 -0.033055797 -10.48894 -0.035556905 -10.499258 -34.865505 -107.9007
51958000 -34.978142 -89.278534 -0.035049837 -10.686023 -0.037474807 -10.699726 -34.674526 -108.42928
52957000 -34.754349 -90.252014 -0.03613425 -10.888114 -0.038048748 -10.896173 -34.521877 -108.18095
53956000 -34.580563 -90.956696 -0.037057061 -11.092114 -0.039368216 -11.091402 -34.390675 -108.04031
54955000 -34.422237 -91.46125 -0.038129441 -11.291455 -0.040007982 -11.289266 -34.234501 -108.0411
55954000 -34.248142 -92.195984 -0.038826749 -11.492874 -0.040154289 -11.490776 -34.134872 -107.74453
56953000 -34.129452 -92.234993 -0.038706865 -11.691854 -0.039282799 -11.681245 -34.058102 -107.99962
57952000 -33.967285 -92.824768 -0.039610632 -11.888275 -0.040459458 -11.878203 -33.949627 -108.08109
58951000 -33.848633 -93.194298 -0.040885892 -12.094748 -0.041914783 -12.070229 -33.791271 -108.20947
59950000 -33.723576 -93.605362 -0.041695237 -12.292032 -0.041703079 -12.27496 -33.729115 -108.34339
60949000 -33.59837 -94.093575 -0.041743848 -12.495479 -0.042476241 -12.477214 -33.631111 -108.7105
61948000 -33.541779 -94.346825 -0.042439122 -12.698972 -0.042874638 -12.676819 -33.539154 -108.76826
62947000 -33.458153 -94.575302 -0.042668641 -12.905787 -0.043387331 -12.886418 -33.401939 -109.02277
63946000 -33.386883 -95.312874 -0.043966763 -13.105968 -0.044059332 -13.088499 -33.296078 -109.17244
64945000 -33.271675 -95.487289 -0.043940611 -13.308883 -0.044999521 -13.289078 -33.198059 -109.59099
65944000 -33.17165 -95.871193 -0.045226034 -13.507695 -0.045131348 -13.490984 -33.089626 -110.09007
66943000 -33.039993 -96.216316 -0.043046664 -13.708256 -0.043608006 -13.695737 -32.981934 -110.2825
67942000 -32.986752 -96.1539 -0.045362055 -13.90638 -0.045890473 -13.894738 -32.862007 -110.60184
68941000 -32.863167 -96.237167 -0.044669714 -14.100251 -0.044522211 -14.090904 -32.754471 -110.54935
69940000 -32.760792 -96.235184 -0.044377588 -14.29941 -0.045908526 -14.293351 -32.60696 -110.84107
70939000 -32.653202 -96.184723 -0.04461322 -14.495945 -0.045113299 -14.493937 -32.479752 -110.75862
71938000 -32.516201 -95.759682 -0.044388831 -14.691013 -0.044972058 -14.687395 -32.347897 -110.61871
72937000 -32.354847 -95.589417 -0.044090189 -14.894256 -0.044562485 -14.885304 -32.202042 -110.2748
73936000 -32.2192 -95.203499 -0.044036318 -15.090134 -0.043970421 -15.085202 -32.091122 -110.08678
74935000 -32.098503 -95.452812 -0.04329608 -15.288386 -0.043310724 -15.284859 -31.949932 -109.74107
75934000 -31.961847 -95.74369 -0.04364435 -15.494062 -0.042733211 -15.491407 -31.851986 -109.6605
76933000 -31.827385 -96.05159 -0.04481696 -15.687122 -0.044967089 -15.682584 -31.669254 -109.94128
77932000 -31.735504 -96.814621 -0.04606 -15.889502 -0.046607602 -15.881995 -31.576664 -109.95737
78931000 -31.655062 -97.546196 -0.044449244 -16.086433 -0.045387164 -16.081633 -31.473169 -109.84528
79930000 -31.534067 -98.393768 -0.047164697 -16.280811 -0.047352068 -16.281113 -31.371675 -110.15359
80929000 -31.426479 -99.159721 -0.048884839 -16.476328 -0.049147163 -16.478413 -31.272758 -110.40134
81928000 -31.322113 -99.901108 -0.048845049 -16.670059 -0.05032859 -16.667 -31.149128 -110.35845
82927000 -31.225245 -100.63975 -0.050653592 -16.869308 -0.05090528 -16.865587 -31.044466 -110.60564
83926000 -31.109592 -101.31296 -0.0518074 -17.066814 -0.051482312 -17.069658 -30.920736 -110.83586
84925000 -30.99543 -101.77241 -0.052917492 -17.268105 -0.051884942 -17.261856 -30.828556 -110.81795
85924000 -30.909637 -102.13536 -0.053482208 -17.464615 -0.053863797 -17.462017 -30.747087 -110.8204
86923000 -30.802208 -102.67032 -0.053648099 -17.664833 -0.053991958 -17.659483 -30.637436 -110.67125
87922000 -30.686584 -102.98436 -0.053842042 -17.874073 -0.053216219 -17.861044 -30.55048 -110.69513
88921000 -30.613434 -103.26786 -0.055346429 -18.071573 -0.054673467 -18.063486 -30.459881 -110.72952
89920000 -30.507801 -103.7751 -0.055634052 -18.271334 -0.055199876 -18.264372 -30.402903 -110.86944
90919000 -30.415709 -104.04677 -0.056454543 -18.463129 -0.05543033 -18.465315 -30.311234 -111.02654
91918000 -30.310394 -104.4317 -0.056816459 -18.668137 -0.056510139 -18.661818 -30.250736 -111.01391
92917000 -30.22253 -104.72077 -0.058329489 -18.865557 -0.057690427 -18.863037 -30.181686 -111.15654
93916000 -30.137838 -105.08865 -0.057769123 -19.057865 -0.057203583 -19.05364 -30.096035 -111.74023
94915000 -30.052477 -105.69474 -0.059331294 -19.262451 -0.058068972 -19.255053 -30.031601 -111.61102
95914000 -29.989479 -105.89328 -0.060179781 -19.454798 -0.059658282 -19.453485 -29.939619 -111.8729
96913000 -29.907331 -106.09671 -0.061789293 -19.655489 -0.060447771 -19.654135 -29.874809 -112.17865
97912000 -29.827173 -106.53328 -0.063026167 -19.850832 -0.060691107 -19.856159 -29.783991 -112.41686
98911000 -29.716299 -106.69324 -0.06291008 -20.056799 -0.06207918 -20.053408 -29.74328 -112.67635
99910000 -29.654547 -106.86929 -0.063650779 -20.254984 -0.062098347 -20.252781 -29.64506 -112.9436
100909000 -29.561655 -107.1562 -0.063010938 -20.464052 -0.061662998 -20.457565 -29.560802 -113.12101
101908000 -29.466537 -107.32178 -0.064678513 -20.660072 -0.063140422 -20.659229 -29.446724 -112.94147
102907000 -29.332373 -107.36726 -0.064937063 -20.861074 -0.062896162 -20.861477 -29.366043 -112.90649
103906000 -29.240582 -107.41045 -0.065025344 -21.066942 -0.062978365 -21.065722 -29.230198 -112.87487
104905000 -29.095966 -107.29108 -0.065820806 -21.265989 -0.063487656 -21.267141 -29.100731 -112.56151
105904000 -28.946779 -107.38335 -0.065950118 -21.47086 -0.062826037 -21.464087 -28.990292 -112.44236
106903000 -28.842514 -107.47034 -0.066082314 -21.677568 -0.063791841 -21.67201 -28.871595 -112.32033
107902000 -28.675446 -107.77262 -0.066656634 -21.875397 -0.064799115 -21.870472 -28.733047 -112.24962
108901000 -28.564962 -108.01332 -0.067591213 -22.07667 -0.065513588 -22.068438 -28.594538 -112.22236
109900000 -28.434736 -108.46471 -0.068455517 -22.276312 -0.067139544 -22.270845 -28.456772 -112.29282
110899000 -28.326998 -109.03909 -0.069703765 -22.477783 -0.067888848 -22.470657 -28.330309 -112.56444
111898000 -28.237492 -109.72408 -0.071704969 -22.678242 -0.068688251 -22.672155 -28.214386 -112.67272
112897000 -28.108006 -110.32162 -0.072701178 -22.875631 -0.069746114 -22.867006 -28.079329 -112.85062
113896000 -28.005026 -110.85849 -0.073651537 -23.080626 -0.071402594 -23.066418 -27.970062 -112.99825
114895000 -27.902624 -111.51261 -0.075008206 -23.277885 -0.072328456 -23.264326 -27.855433 -113.03219
115894000 -27.779434 -111.82339 -0.075735956 -23.476826 -0.073666811 -23.464989 -27.795534 -113.21798
116893000 -27.701479 -112.35028 -0.077171005 -23.674591 -0.074627392 -23.658504 -27.667091 -113.28879
117892000 -27.621048 -112.85551 -0.076584756 -23.872128 -0.074505724 -23.858734 -27.591303 -113.54137
118891000 -27.561718 -113.25121 -0.077504344 -24.077356 -0.075537607 -24.061798 -27.495178 -113.64732
119890000 -27.477228 -113.5848 -0.077611864 -24.275831 -0.075381152 -24.257233 -27.48208 -113.7503
120889000 -27.42724 -114.0929 -0.07950414 -24.474058 -0.075576067 -24.458399 -27.414921 -113.69071
121888000 -27.388702 -114.39428 -0.079236284 -24.67486 -0.076269925 -24.660816 -27.350128 -113.9256
122887000 -27.350636 -114.61752 -0.079594046 -24.872152 -0.077833235 -24.863281 -27.302835 -113.97906
123886000 -27.290869 -115.01928 -0.080969706 -25.078499 -0.078008227 -25.058435 -27.293772 -114.12469
124885000 -27.266867 -115.55033 -0.08135847 -25.278622 -0.078106008 -25.261566 -27.259985 -114.15946
125884000 -27.213953 -115.71857 -0.081698194 -25.473822 -0.078674272 -25.45722 -27.242426 -114.28504
126883000 -27.188984 -116.09228 -0.082295686 -25.678085 -0.079142965 -25.663988 -27.194052 -114.34267
127882000 -27.146236 -116.42212 -0.082116827 -25.878099 -0.079975292 -25.858128 -27.156303 -114.44772
128881000 -27.116919 -116.78123 -0.082584046 -26.079552 -0.079522066 -26.063789 -27.112535 -114.56998
129880000 -27.060259 -117.04464 -0.08333391 -26.281418 -0.079539731 -26.263361 -27.077127 -114.49741
130879000 -27.005495 -117.20853 -0.083060548 -26.483971 -0.08062081 -26.466007 -27.002792 -114.52343
131878000 -26.936813 -117.46175 -0.083257385 -26.684542 -0.080717854 -26.665728 -26.945814 -114.43289
132877000 -26.869888 -117.50889 -0.082818069 -26.883715 -0.081362426 -26.869951 -26.863218 -114.3759
133876000 -26.783476 -117.70824 -0.083704405 -27.090651 -0.081039332 -27.072409 -26.779364 -114.26453
134875000 -26.690578 -117.83248 -0.08396145 -27.286461 -0.082309932 -27.269321 -26.67383 -114.10532
135874000 -26.605988 -117.81246 -0.083653741 -27.486965 -0.082157716 -27.468878 -26.57906 -114.05695
136873000 -26.493345 -117.78764 -0.084365785 -27.693491 -0.08156842 -27.674593 -26.497046 -114.03502
137872000 -26.416986 -117.89182 -0.084676981 -27.890398 -0.08203584 -27.876888 -26.390881 -113.92244
138871000 -26.340933 -118.11752 -0.084996641 -28.095646 -0.081011645 -28.076223 -26.295288 -114.10665
139870000 -26.239716 -118.40964 -0.084648997 -28.292936 -0.083062127 -28.271545 -26.218027 -114.25677
140869000 -26.158491 -118.93861 -0.086739756 -28.49161 -0.083283514 -28.472486 -26.117533 -114.46745
141868000 -26.07935 -119.33887 -0.087284595 -28.689482 -0.084715515 -28.672598 -26.066248 -114.72893
142867000 -25.996763 -119.55849 -0.085848838 -28.885338 -0.08382158 -28.868126 -25.988317 -114.87619
143866000 -25.926361 -120.05448 -0.087763458 -29.08131 -0.085112527 -29.066708 -25.917048 -115.32981
144865000 -25.87141 -120.53523 -0.089649327 -29.28093 -0.087001733 -29.267282 -25.858421 -115.63118
145864000 -25.81106 -120.8391 -0.089841977 -29.480125 -0.088325597 -29.474087 -25.822195 -115.888
146863000 -25.764017 -121.20817 -0.090919808 -29.681526 -0.089202225 -29.673016 -25.767879 -116.18166
147862000 -25.721811 -121.55783 -0.09165816 -29.880714 -0.089828767 -29.871248 -25.744162 -116.46038
148861000 -25.692974 -122.02795 -0.092868663 -30.081892 -0.090319276 -30.062763 -25.720263 -116.63156
149860000 -25.662876 -122.15697 -0.094474204 -30.271999 -0.091420755 -30.261946 -25.667086 -116.74628
150859000 -25.635609 -122.63537 -0.093219876 -30.471718 -0.091128901 -30.455858 -25.651405 -117.09464
151858000 -25.624378 -122.95074 -0.09271317 -30.667721 -0.091094799 -30.656355 -25.636768 -117.42874
152857000 -25.61013 -123.25182 -0.093640678 -30.869881 -0.091207676 -30.854462 -25.621147 -117.58434
153856000 -25.611105 -123.53571 -0.093111441 -31.069376 -0.090233378 -31.054781 -25.634733 -117.95061
154855000 -25.601912 -123.65125 -0.093777426 -31.270447 -0.09080641 -31.259407 -25.624516 -118.18191
155854000 -25.622345 -123.92366 -0.094130829 -31.467911 -0.091193929 -31.455442 -25.615902 -118.43697
156853000 -25.61125 -124.60435 -0.091994993 -31.655022 -0.090402268 -31.647388 -25.61577 -118.73248
157852000 -25.615442 -124.80119 -0.093294986 -31.85684 -0.091684066 -31.849985 -25.59922 -119.09315
158851000 -25.610802 -125.0612 -0.094118923 -32.05801 -0.092117153 -32.048332 -25.583452 -119.35104
159850000 -25.598997 -125.14076 -0.094393514 -32.256069 -0.092550799 -32.247723 -25.584444 -119.56555
160849000 -25.585958 -125.2646 -0.094535582 -32.457706 -0.09350314 -32.451214 -25.559937 -119.82205
161848000 -25.569059 -125.34525 -0.095015511 -32.657604 -0.093174383 -32.651329 -25.51499 -119.96947
162847000 -25.526312 -125.49239 -0.09498138 -32.856174 -0.093461081 -32.852516 -25.490597 -120.21708
163846000 -25.489491 -125.71069 -0.094649866 -33.053795 -0.093663685 -33.050808 -25.414663 -120.21043
164845000 -25.429544 -125.68697 -0.095614575 -33.25639 -0.094380021 -33.250679 -25.351549 -120.32088
165844000 -25.378376 -125.72141 -0.095737889 -33.457592 -0.093864188 -33.448513 -25.27187 -120.46842
166843000 -25.319288 -125.76906 -0.095705867 -33.656326 -0.094165742 -33.651131 -25.207411 -120.5733
167842000 -25.258585 -125.88663 -0.095986381 -33.856087 -0.094767861 -33.847984 -25.131998 -120.51382
168841000 -25.180737 -126.07455 -0.096756831 -34.051926 -0.095229298 -34.049816 -25.050613 -120.59577
169840000 -25.114719 -126.30855 -0.096338376 -34.250645 -0.095649503 -34.246475 -24.968582 -120.77926
170839000 -25.052721 -126.54942 -0.097411461 -34.447201 -0.096277498 -34.44405 -24.887289 -120.9603
171838000 -24.996271 -126.91541 -0.097420201 -34.648109 -0.097011469 -34.643551 -24.819967 -121.15814
172837000 -24.924646 -127.25585 -0.098708577 -34.846825 -0.098159395 -34.839119 -24.758411 -121.38992
173836000 -24.858959 -127.65862 -0.10009852 -35.044342 -0.098469727 -35.04253 -24.717209 -121.57485
174835000 -24.804373 -128.07776 -0.10062861 -35.240852 -0.099739343 -35.241138 -24.668606 -121.91325
175834000 -24.756773 -128.4176 -0.10152125 -35.441299 -0.10085778 -35.438614 -24.610096 -122.17886
176833000 -24.705372 -128.76881 -0.10247449 -35.63966 -0.10168077 -35.638157 -24.565523 -122.31078
177832000 -24.661972 -129.19202 -0.10322038 -35.840302 -0.10235549 -35.841309 -24.543159 -122.41916
178831000 -24.619291 -129.43515 -0.10485892 -36.03817 -0.10351331 -36.033569 -24.502176 -122.50304
179830000 -24.550081 -129.81836 -0.1059243 -36.217163 -0.10483956 -36.221268 -24.44278 -122.58555
180829000 -24.498478 -130.16101 -0.1055328 -36.41399 -0.10387121 -36.417099 -24.394623 -122.9207
181828000 -24.474403 -130.5907 -0.10406768 -36.612438 -0.10321932 -36.614594 -24.37907 -123.08844
182827000 -24.450254 -130.97478 -0.10436039 -36.810146 -0.10294205 -36.811424 -24.366642 -123.23347
183826000 -24.409439 -131.3101 -0.10591237 -37.009853 -0.10389508 -37.007496 -24.358919 -123.38324
184825000 -24.413902 -131.66634 -0.10460037 -37.206047 -0.10453275 -37.208492 -24.339569 -123.50183
185824000 -24.379625 -132.02679 -0.10509627 -37.405663 -0.10470749 -37.40873 -24.331835 -123.5943
186823000 -24.368229 -132.37477 -0.10529358 -37.602303 -0.10516177 -37.605392 -24.3277 -123.58511
187822000 -24.343075 -132.6897 -0.10539781 -37.797123 -0.10462689 -37.799397 -24.288567 -123.66618
188821000 -24.318785 -132.9679 -0.10550469 -37.993347 -0.10469902 -37.999199 -24.269016 -123.77463
189820000 -24.302513 -133.29111 -0.1057434 -38.195328 -0.10460355 -38.194832 -24.253618 -123.97826
190819000 -24.264709 -133.57628 -0.10657474 -38.392708 -0.10519253 -38.393974 -24.213385 -123.99508
191818000 -24.237106 -133.856 -0.10666176 -38.589317 -0.10560442 -38.592445 -24.183647 -124.0554
192817000 -24.190647 -134.13075 -0.10665035 -38.784534 -0.10582085 -38.790096 -24.138649 -124.15387
193816000 -24.157763 -134.40045 -0.10742959 -38.979393 -0.10577152 -38.983032 -24.084599 -124.29726
194815000 -24.100691 -134.82146 -0.10763524 -39.179344 -0.10721546 -39.18198 -24.018457 -124.35734
195814000 -24.042952 -134.97334 -0.10801923 -39.378777 -0.10737175 -39.376545 -23.965708 -124.43227
196813000 -23.9851 -135.30952 -0.10759464 -39.571358 -0.10742535 -39.570637 -23.885105 -124.61439
197812000 -23.928793 -135.52647 -0.10785204 -39.769096 -0.1078324 -39.764103 -23.813286 -124.6877
198811000 -23.882156 -135.68517 -0.10812644 -39.96653 -0.10716479 -39.968979 -23.745361 -124.82981
199810000 -23.804464 -136.06049 -0.10805001 -40.159962 -0.10763444 -40.160141 -23.666786 -124.94238
200809000 -23.750252 -136.29883 -0.10871139 -40.3592 -0.10861 -40.360607 -23.590849 -125.1343
201808000 -23.689457 -136.49953 -0.11018207 -40.559052 -0.10855745 -40.561073 -23.523132 -125.21186
202807000 -23.628462 -136.83971 -0.109924 -40.75761 -0.10929111 -40.762257 -23.46909 -125.42146
