!Keysight Technologies,E5080B,MY59205177,A.15.75.32
!Date: Friday, February 23, 2024 02:53:50
!Correction: S11(Cdelta 2-Port  ) 
!S21(Cdelta 2-Port  ) 
!S12(Cdelta 2-Port  ) 
!S22(Cdelta 2-Port  ) 
!S2P File: Measurements: S11, S21, S12, S22:
# Hz S  dB   R 50
10000000 -43.479801 -3.8091693 -0.031024089 -2.0429101 -0.035537854 -2.0999322 -49.072712 -147.06555
10999000 -42.901081 -5.1993608 -0.032471038 -2.2614524 -0.034811329 -2.3139195 -48.752151 -138.37033
11998000 -42.141468 -7.4323125 -0.032893561 -2.4829583 -0.034830898 -2.5285196 -48.825722 -132.50453
12997000 -41.592724 -12.210461 -0.03194686 -2.6658866 -0.035003386 -2.6946609 -48.007385 -125.89896
13996000 -41.336063 -15.0496 -0.031551026 -2.8431036 -0.034643285 -2.8635681 -47.50201 -119.78948
14995000 -41.03886 -18.801195 -0.033127267 -3.0514162 -0.034778971 -3.0739074 -46.945095 -116.41637
15994000 -40.94519 -22.279541 -0.034821767 -3.2708738 -0.037047662 -3.2904768 -46.668812 -112.84721
16993000 -40.925552 -25.930151 -0.03410162 -3.465435 -0.03594945 -3.480953 -45.766022 -114.11557
17992000 -41.016064 -30.324156 -0.034274079 -3.6636908 -0.036901984 -3.6694338 -45.118973 -115.78642
18991000 -41.308048 -34.442039 -0.034807675 -3.8756299 -0.037398044 -3.872623 -44.407742 -115.28879
19990000 -41.213085 -39.574684 -0.037601966 -4.0865135 -0.039678555 -4.0796456 -43.708344 -117.17586
20989000 -41.115429 -41.875183 -0.039177012 -4.2867126 -0.041859373 -4.2763834 -43.047432 -117.26864
21988000 -41.110485 -46.642841 -0.0399944 -4.481998 -0.042447489 -4.4736762 -42.803959 -117.0659
22987000 -40.921158 -50.891464 -0.041633036 -4.6830788 -0.043055028 -4.6776071 -42.510021 -116.74214
23986000 -40.967258 -54.648369 -0.041191369 -4.878685 -0.042454805 -4.8760557 -42.356346 -116.82715
24985000 -40.703899 -57.159958 -0.04163957 -5.0836287 -0.042717263 -5.0805507 -42.098534 -114.41008
25984000 -40.453396 -59.338757 -0.042735301 -5.2932591 -0.042997252 -5.2979689 -41.735424 -113.04292
26983000 -40.189285 -61.206158 -0.043582644 -5.4903879 -0.04383523 -5.5063496 -41.59494 -112.28179
27982000 -40.07766 -62.276096 -0.044813037 -5.6893954 -0.045421954 -5.7246985 -41.257347 -110.71974
28981000 -40.057518 -63.46978 -0.042457942 -5.8883333 -0.045871899 -5.9096355 -40.99332 -110.45464
29980000 -39.677723 -65.323845 -0.042923789 -6.0807495 -0.046524923 -6.0878787 -40.73394 -109.56168
30979000 -39.319477 -64.861542 -0.041523531 -6.4367189 -0.0401893 -6.4286137 -40.1693 -110.71791
31978000 -39.140705 -65.858376 -0.039985515 -6.6322117 -0.040996686 -6.6202822 -39.910496 -110.03323
32977000 -39.019375 -67.453163 -0.039602011 -6.838016 -0.042490095 -6.8384471 -39.664001 -110.25514
33976000 -38.834564 -68.53154 -0.040002234 -7.0416136 -0.042823922 -7.0356855 -39.337646 -109.99483
34975000 -38.578171 -69.593246 -0.04040511 -7.2427087 -0.04342106 -7.2395396 -39.090771 -109.71673
35974000 -38.424377 -70.426857 -0.039326422 -7.4340324 -0.043839678 -7.4364119 -38.786892 -109.02799
36973000 -38.194149 -71.318794 -0.04079365 -7.6359868 -0.044417337 -7.6365204 -38.481918 -108.35881
37972000 -38.030293 -71.126274 -0.039968535 -7.8453331 -0.044178836 -7.8505292 -38.245323 -107.69046
38971000 -37.682789 -71.098221 -0.040455274 -8.0446587 -0.043951333 -8.0560303 -38.016273 -106.2944
39970000 -37.366196 -71.762199 -0.039115887 -8.2405939 -0.042947058 -8.2574015 -37.730137 -105.82708
40969000 -37.113667 -71.420151 -0.039485767 -8.4314861 -0.043473352 -8.4563656 -37.452667 -104.53372
41968000 -36.767426 -71.869133 -0.039310489 -8.6375465 -0.04362971 -8.653429 -37.237514 -103.47434
42967000 -36.515331 -72.096565 -0.039496999 -8.8500385 -0.042844575 -8.8698511 -36.997913 -101.71072
43966000 -36.238293 -73.02948 -0.040053964 -9.0526142 -0.04396284 -9.068635 -36.698933 -101.08646
44965000 -36.018436 -73.95488 -0.041641399 -9.2508078 -0.044171255 -9.2707243 -36.473412 -101.04771
45964000 -35.823654 -75.187279 -0.042000253 -9.4522429 -0.045466948 -9.46628 -36.224018 -100.93629
46963000 -35.652111 -77.24231 -0.042313915 -9.6446486 -0.046529107 -9.6679506 -36.054924 -101.2356
47962000 -35.520222 -78.642731 -0.044053838 -9.8471422 -0.047531076 -9.8656931 -35.846439 -101.54594
48961000 -35.33073 -80.091972 -0.046434391 -10.044374 -0.04939222 -10.068648 -35.615459 -101.83817
49960000 -35.135983 -81.549774 -0.047606971 -10.242161 -0.050703615 -10.266273 -35.485344 -102.09468
50959000 -34.923565 -82.976906 -0.048070487 -10.458263 -0.051813684 -10.468073 -35.301136 -102.59158
51958000 -34.736858 -84.183609 -0.050157327 -10.656232 -0.052878186 -10.663509 -35.122902 -103.12474
52957000 -34.534561 -85.325287 -0.051605165 -10.85745 -0.054268744 -10.863277 -34.966614 -103.02088
53956000 -34.388561 -85.992683 -0.052305948 -11.056615 -0.054777015 -11.05935 -34.821373 -102.94966
54955000 -34.229118 -86.611542 -0.05371834 -11.257624 -0.05600927 -11.254206 -34.67202 -103.06137
55954000 -34.076569 -87.521202 -0.054293122 -11.454671 -0.055825986 -11.454588 -34.554813 -102.81242
56953000 -33.965004 -87.726257 -0.053597257 -11.655983 -0.055293996 -11.644425 -34.482883 -103.12443
57952000 -33.81258 -88.318848 -0.055470705 -11.852736 -0.056141432 -11.843782 -34.391388 -103.22598
58951000 -33.684727 -88.725128 -0.056390557 -12.060206 -0.057091326 -12.038094 -34.220169 -103.38431
59950000 -33.564495 -89.111855 -0.057024181 -12.256653 -0.057899501 -12.234546 -34.171261 -103.74578
60949000 -33.453659 -89.761475 -0.057206471 -12.461838 -0.057630356 -12.43587 -34.057961 -103.99959
61948000 -33.405571 -90.071106 -0.058340769 -12.656515 -0.058258127 -12.639351 -33.965225 -104.14832
62947000 -33.321091 -90.246735 -0.058032244 -12.867903 -0.059058908 -12.844761 -33.840195 -104.39951
63946000 -33.249138 -91.075966 -0.059065208 -13.06953 -0.060383201 -13.051076 -33.740776 -104.60104
64945000 -33.145405 -91.29882 -0.059597656 -13.267575 -0.060830496 -13.24801 -33.621807 -105.12538
65944000 -33.041759 -91.516891 -0.060439374 -13.46787 -0.060783509 -13.450595 -33.53904 -105.60949
66943000 -32.910877 -92.045456 -0.058738261 -13.669373 -0.059377741 -13.653571 -33.424545 -105.88511
67942000 -32.866913 -91.931763 -0.060955714 -13.864557 -0.061578192 -13.851569 -33.311062 -106.17155
68941000 -32.728191 -92.056564 -0.060329128 -14.058736 -0.059704207 -14.046271 -33.197357 -106.16729
69940000 -32.647331 -92.159012 -0.060284507 -14.256793 -0.060604744 -14.246425 -33.057583 -106.55559
70939000 -32.530685 -92.037621 -0.059750922 -14.44973 -0.060693469 -14.451167 -32.931328 -106.45558
71938000 -32.393509 -91.731102 -0.060199466 -14.652523 -0.061054163 -14.640573 -32.795055 -106.37058
72937000 -32.235313 -91.551498 -0.060174532 -14.848405 -0.060891401 -14.840579 -32.647324 -106.03476
73936000 -32.08242 -91.230408 -0.059495047 -15.045601 -0.060359579 -15.039114 -32.534458 -105.88494
74935000 -31.960352 -91.507698 -0.058662172 -15.23892 -0.058803596 -15.238453 -32.373898 -105.54369
75934000 -31.835535 -91.839386 -0.059402145 -15.452714 -0.059281435 -15.445452 -32.296612 -105.5149
76933000 -31.71454 -92.194283 -0.060281884 -15.643592 -0.06094994 -15.634851 -32.117195 -105.9939
77932000 -31.617903 -93.029137 -0.061444815 -15.839602 -0.062188677 -15.836063 -32.036469 -105.9968
78931000 -31.550951 -93.819168 -0.061036311 -16.038849 -0.061750695 -16.034622 -31.920706 -105.86776
79930000 -31.441153 -94.623138 -0.06330432 -16.22802 -0.064038515 -16.230585 -31.818262 -106.24968
80929000 -31.309877 -95.627342 -0.064311996 -16.428768 -0.065644987 -16.423292 -31.721907 -106.52098
81928000 -31.233423 -96.424461 -0.063932382 -16.62031 -0.065684937 -16.618977 -31.600048 -106.68676
82927000 -31.157005 -97.166245 -0.066570155 -16.816101 -0.06716951 -16.817215 -31.496622 -107.01584
83926000 -31.043261 -97.932571 -0.067792617 -17.017693 -0.067405857 -17.016388 -31.378462 -107.26661
84925000 -30.952066 -98.413551 -0.068688251 -17.215151 -0.068268545 -17.208616 -31.28788 -107.36558
85924000 -30.857399 -98.8974 -0.068877868 -17.414856 -0.069157712 -17.41095 -31.20212 -107.3575
86923000 -30.75808 -99.523254 -0.069122463 -17.613508 -0.069843709 -17.607578 -31.091116 -107.31014
87922000 -30.643002 -99.920006 -0.069466241 -17.822529 -0.06954778 -17.807634 -31.01037 -107.38222
88921000 -30.583502 -100.19949 -0.07053481 -18.015728 -0.070353016 -18.009192 -30.91596 -107.38951
89920000 -30.482441 -100.74127 -0.071046568 -18.213793 -0.070283294 -18.206224 -30.869207 -107.63012
90919000 -30.380419 -101.10635 -0.072023936 -18.413401 -0.071540751 -18.404556 -30.781002 -107.82109
91918000 -30.290674 -101.48705 -0.072739609 -18.611547 -0.072089739 -18.604671 -30.714115 -107.85456
92917000 -30.206301 -101.87751 -0.073860854 -18.809586 -0.072818317 -18.805603 -30.655111 -107.97076
93916000 -30.119469 -102.2748 -0.073953539 -19.001345 -0.073148161 -18.999659 -30.55868 -108.58694
94915000 -30.044792 -102.9446 -0.074587889 -19.206099 -0.074068606 -19.195845 -30.501177 -108.46078
95914000 -29.988544 -103.14264 -0.075662993 -19.397907 -0.075147003 -19.395487 -30.412434 -108.72902
96913000 -29.902212 -103.39025 -0.077200778 -19.593969 -0.076340534 -19.594152 -30.34565 -109.08182
97912000 -29.823751 -103.86056 -0.078020617 -19.792404 -0.076071292 -19.792971 -30.26576 -109.39399
98911000 -29.730244 -104.05693 -0.078386441 -19.995497 -0.077713855 -19.991444 -30.227852 -109.59604
99910000 -29.650036 -104.24277 -0.079317488 -20.193176 -0.077822693 -20.192244 -30.115076 -109.88528
100909000 -29.56551 -104.50867 -0.078532197 -20.402094 -0.077397093 -20.398603 -30.026243 -110.09691
101908000 -29.481564 -104.72079 -0.079394467 -20.599791 -0.078796051 -20.599712 -29.919544 -109.83317
102907000 -29.349745 -104.77086 -0.080043055 -20.797928 -0.079179347 -20.799805 -29.843355 -109.79417
103906000 -29.251486 -104.84248 -0.080335744 -21.009399 -0.078171894 -21.002478 -29.689922 -109.76595
104905000 -29.106112 -104.7434 -0.080868438 -21.20454 -0.078293137 -21.204517 -29.55937 -109.481
105904000 -28.971132 -104.88891 -0.081882052 -21.409422 -0.078499779 -21.403027 -29.445667 -109.34512
106903000 -28.850153 -104.99034 -0.081214987 -21.608835 -0.079678148 -21.607157 -29.307653 -109.20961
107902000 -28.694511 -105.35071 -0.081829555 -21.814451 -0.079693966 -21.80155 -29.176125 -109.21116
108901000 -28.587725 -105.62968 -0.082130283 -22.012817 -0.081025094 -22.008774 -29.041739 -109.13846
109900000 -28.458239 -106.14244 -0.084058046 -22.21397 -0.082121842 -22.204416 -28.887753 -109.27177
110899000 -28.342606 -106.80523 -0.085135497 -22.412283 -0.0826004 -22.401857 -28.764591 -109.57533
111898000 -28.256231 -107.44825 -0.086480439 -22.611576 -0.084376343 -22.601913 -28.641397 -109.7338
112897000 -28.133938 -108.06824 -0.087536566 -22.812199 -0.084685422 -22.799122 -28.511473 -109.9297
113896000 -28.023268 -108.63526 -0.088860855 -23.009485 -0.086454563 -23.000942 -28.4028 -110.11922
114895000 -27.9312 -109.31707 -0.090181053 -23.208506 -0.087771647 -23.196321 -28.2911 -110.19517
115894000 -27.80868 -109.64227 -0.091262661 -23.411957 -0.089308448 -23.395096 -28.224991 -110.36713
116893000 -27.7297 -110.29026 -0.09160132 -23.601803 -0.090025119 -23.586557 -28.089045 -110.58344
117892000 -27.650341 -110.8195 -0.091520682 -23.801468 -0.09035892 -23.785618 -28.021643 -110.76722
118891000 -27.594515 -111.21598 -0.092338733 -24.003105 -0.090704903 -23.989609 -27.927578 -110.91747
119890000 -27.500183 -111.59683 -0.092656575 -24.202991 -0.091151632 -24.18992 -27.914082 -111.08658
120889000 -27.44664 -112.11736 -0.094450921 -24.403589 -0.091295972 -24.388918 -27.841185 -111.07177
121888000 -27.411459 -112.47356 -0.09408427 -24.595264 -0.092345871 -24.587948 -27.786053 -111.37766
122887000 -27.370781 -112.73091 -0.095888726 -24.800486 -0.092571959 -24.785295 -27.739136 -111.40585
123886000 -27.309677 -113.10265 -0.095590226 -25.004436 -0.092858084 -24.98616 -27.719551 -111.58839
124885000 -27.281944 -113.61512 -0.095855385 -25.200655 -0.093859687 -25.188915 -27.694941 -111.66167
125884000 -27.227314 -113.82352 -0.097140647 -25.400095 -0.093814194 -25.384228 -27.662306 -111.82277
126883000 -27.208731 -114.21772 -0.096791238 -25.603689 -0.094903857 -25.589226 -27.620831 -111.88708
127882000 -27.161963 -114.52595 -0.096822478 -25.801189 -0.095549479 -25.786207 -27.581255 -112.03661
128881000 -27.128439 -114.85817 -0.097638875 -26.007786 -0.094905443 -25.988441 -27.537962 -112.16418
129880000 -27.078131 -115.14474 -0.098105378 -26.205381 -0.094894595 -26.186281 -27.49963 -112.12923
130879000 -27.006699 -115.31268 -0.09753748 -26.405119 -0.096358754 -26.389774 -27.42403 -112.22161
131878000 -26.940495 -115.52744 -0.097693674 -26.607523 -0.096604899 -26.586166 -27.357279 -112.06187
132877000 -26.87887 -115.59769 -0.09799841 -26.810547 -0.096879117 -26.786066 -27.279276 -112.12022
133876000 -26.793011 -115.74608 -0.09848243 -27.011881 -0.096676104 -26.989517 -27.184467 -112.01315
134875000 -26.697601 -115.85355 -0.098183222 -27.208252 -0.097611867 -27.191648 -27.076311 -111.91473
135874000 -26.616697 -115.89883 -0.099183671 -27.406292 -0.097269036 -27.391327 -26.974609 -111.85513
136873000 -26.500662 -115.84053 -0.099294111 -27.61355 -0.096396074 -27.59256 -26.888632 -111.82518
137872000 -26.41918 -115.95953 -0.099047281 -27.810877 -0.09721636 -27.792233 -26.777693 -111.81741
138871000 -26.347696 -116.14568 -0.099966079 -28.008896 -0.097021267 -27.99328 -26.678926 -111.99406
139870000 -26.242849 -116.43518 -0.10060265 -28.212503 -0.098519243 -28.192606 -26.601107 -112.13635
140869000 -26.155527 -116.8995 -0.10217792 -28.406584 -0.10037349 -28.387377 -26.490191 -112.3027
141868000 -26.063534 -117.39564 -0.10289831 -28.601231 -0.10001852 -28.580894 -26.425104 -112.68371
142867000 -25.9851 -117.64859 -0.10063047 -28.799128 -0.09947262 -28.78285 -26.344116 -112.81694
143866000 -25.918861 -118.16161 -0.10273132 -28.996469 -0.10101569 -28.978796 -26.269297 -113.4022
144865000 -25.860132 -118.66439 -0.10402393 -29.193756 -0.102708 -29.179375 -26.2171 -113.6628
145864000 -25.806643 -119.01225 -0.10509892 -29.394075 -0.10380175 -29.379652 -26.182791 -113.95754
146863000 -25.7591 -119.40562 -0.1051196 -29.593739 -0.10366468 -29.580719 -26.12612 -114.27166
147862000 -25.716026 -119.76985 -0.10654981 -29.791012 -0.10388076 -29.778234 -26.09309 -114.65944
148861000 -25.688282 -120.30393 -0.10687188 -29.986601 -0.10451525 -29.971395 -26.072039 -114.89553
149860000 -25.672577 -120.49908 -0.10737652 -30.19014 -0.10541213 -30.175377 -26.042402 -115.0662
150859000 -25.649534 -120.90131 -0.10731682 -30.384752 -0.1057869 -30.366684 -26.03183 -115.34296
151858000 -25.638203 -121.23045 -0.10794333 -30.585772 -0.1059052 -30.567652 -26.02467 -115.64236
152857000 -25.614729 -121.52774 -0.10793112 -30.781424 -0.10636464 -30.769453 -26.007469 -115.77687
153856000 -25.60767 -121.72645 -0.1077183 -30.981106 -0.10598425 -30.963413 -26.019167 -116.06617
154855000 -25.602314 -121.90398 -0.10799932 -31.178577 -0.10584154 -31.169077 -26.00841 -116.27998
155854000 -25.617004 -122.1686 -0.10840802 -31.381548 -0.10659915 -31.365995 -25.998852 -116.56016
156853000 -25.602425 -122.889 -0.10603252 -31.565647 -0.1056686 -31.561457 -25.994543 -116.85843
157852000 -25.602022 -123.12131 -0.10784355 -31.767559 -0.10804947 -31.757191 -25.984404 -117.20741
158851000 -25.604836 -123.30936 -0.10839157 -31.965736 -0.10746409 -31.954905 -25.974308 -117.45531
159850000 -25.583342 -123.49318 -0.10907663 -32.165268 -0.10777614 -32.157215 -25.969227 -117.62794
160849000 -25.563265 -123.58136 -0.10909175 -32.360939 -0.10853887 -32.356529 -25.94153 -117.90349
161848000 -25.540468 -123.64256 -0.10919183 -32.565365 -0.10893753 -32.557487 -25.896162 -118.03243
162847000 -25.504107 -123.86065 -0.10945994 -32.759731 -0.10949817 -32.755741 -25.862392 -118.28609
163846000 -25.457811 -124.0948 -0.1095948 -32.961369 -0.10880031 -32.95113 -25.786879 -118.26818
164845000 -25.393776 -124.08119 -0.1101741 -33.159546 -0.10935216 -33.154606 -25.719547 -118.38199
165844000 -25.336924 -124.16309 -0.11011622 -33.359867 -0.1100748 -33.350849 -25.639542 -118.51984
166843000 -25.27475 -124.22101 -0.10953162 -33.552223 -0.11003923 -33.554577 -25.562584 -118.68401
167842000 -25.217472 -124.39201 -0.11033713 -33.760738 -0.11070091 -33.74976 -25.483713 -118.61835
168841000 -25.1371 -124.59056 -0.110292 -33.953568 -0.11020676 -33.95055 -25.407639 -118.69569
169840000 -25.072617 -124.87859 -0.11081988 -34.151394 -0.11104613 -34.142853 -25.31728 -118.89988
170839000 -25.014513 -125.16218 -0.11222805 -34.343372 -0.11165112 -34.34251 -25.230633 -119.07851
171838000 -24.953636 -125.5316 -0.1120607 -34.543774 -0.11259836 -34.541428 -25.167679 -119.32929
172837000 -24.889107 -125.92765 -0.11338159 -34.744217 -0.11292274 -34.736595 -25.096685 -119.54993
173836000 -24.81365 -126.35882 -0.11409428 -34.943516 -0.11385246 -34.93536 -25.056074 -119.78577
174835000 -24.766825 -126.82021 -0.11477146 -35.137962 -0.11490702 -35.136505 -25.005682 -120.14391
175834000 -24.719189 -127.18236 -0.11522227 -35.337189 -0.11577787 -35.331123 -24.952322 -120.42384
176833000 -24.658924 -127.56556 -0.11631174 -35.533375 -0.11649892 -35.528286 -24.897469 -120.58573
177832000 -24.619469 -128.04745 -0.1170616 -35.728142 -0.11674622 -35.730106 -24.872967 -120.78436
178831000 -24.585541 -128.45724 -0.11784936 -35.925472 -0.11724483 -35.922188 -24.835327 -121.0309
179830000 -24.546808 -128.88571 -0.11840849 -36.123535 -0.11728286 -36.122723 -24.81065 -121.14989
180829000 -24.504473 -129.11504 -0.11897061 -36.320072 -0.11829463 -36.322937 -24.779238 -121.3156
181828000 -24.483084 -129.44965 -0.11871494 -36.516438 -0.11813796 -36.513844 -24.765587 -121.44437
182827000 -24.460482 -129.81516 -0.11846754 -36.713238 -0.11957485 -36.71336 -24.753609 -121.52408
183826000 -24.416153 -130.14037 -0.11965548 -36.909443 -0.11864019 -36.906403 -24.743277 -121.66405
184825000 -24.423681 -130.45706 -0.11991572 -37.108368 -0.11905548 -37.108219 -24.727844 -121.77014
185824000 -24.394251 -130.83861 -0.11939897 -37.300388 -0.11921938 -37.299046 -24.727518 -121.79131
186823000 -24.383333 -131.18329 -0.11939764 -37.501633 -0.11981007 -37.495617 -24.720123 -121.80097
187822000 -24.361683 -131.47876 -0.11962168 -37.695141 -0.12055602 -37.695816 -24.686712 -121.83888
188821000 -24.339994 -131.72496 -0.1196584 -37.891876 -0.12029414 -37.894291 -24.673882 -121.94331
189820000 -24.329927 -132.02359 -0.12043519 -38.092682 -0.1201837 -38.09454 -24.660246 -122.09264
190819000 -24.301241 -132.25131 -0.12117326 -38.293373 -0.12176423 -38.287876 -24.628614 -122.08063
191818000 -24.26276 -132.45644 -0.1228074 -38.486 -0.12289794 -38.488899 -24.597282 -121.9543
192817000 -24.188564 -132.71643 -0.12315305 -38.67218 -0.12329899 -38.674946 -24.519922 -122.00162
193816000 -24.154692 -133.0762 -0.12247296 -38.863972 -0.12211671 -38.866161 -24.461323 -122.29846
194815000 -24.092474 -133.5239 -0.12236805 -39.05962 -0.12272219 -39.061626 -24.403315 -122.40324
195814000 -24.044836 -133.77008 -0.12248547 -39.256008 -0.1221689 -39.262405 -24.350149 -122.52205
196813000 -23.990215 -134.11465 -0.12270807 -39.452103 -0.1219639 -39.45388 -24.270515 -122.68032
197812000 -23.934603 -134.34677 -0.12289847 -39.652641 -0.12223866 -39.650166 -24.204662 -122.7753
198811000 -23.879969 -134.50233 -0.1228777 -39.850403 -0.1223361 -39.849968 -24.128275 -122.96548
199810000 -23.809835 -134.89008 -0.12272805 -40.046139 -0.12227619 -40.044411 -24.05257 -123.06828
200809000 -23.754522 -135.16586 -0.12326357 -40.239964 -0.12236912 -40.239372 -23.974962 -123.30568
201808000 -23.697252 -135.3828 -0.12386494 -40.439686 -0.12369502 -40.440971 -23.907234 -123.3335
202807000 -23.638847 -135.76895 -0.12408735 -40.642036 -0.1242834 -40.643772 -23.848627 -123.57942
203806000 -23.586245 -136.20503 -0.1259363 -40.839214 -0.1245639 -40.840191 -23.782743 -123.76163
