!Keysight Technologies,E5080B,MY59205177,A.15.75.32
!Date: Friday, February 23, 2024 02:53:56
!Correction: S11(Cdelta 2-Port  ) 
!S21(Cdelta 2-Port  ) 
!S12(Cdelta 2-Port  ) 
!S22(Cdelta 2-Port  ) 
!S2P File: Measurements: S11, S21, S12, S22:
# Hz S  dB   R 50
10000000 -43.552475 -4.1309085 -0.031653501 -2.0440047 -0.035036787 -2.1007924 -48.998016 -146.12625
10999000 -42.916275 -5.4289126 -0.033503417 -2.2620473 -0.034645371 -2.3159893 -48.697212 -138.67172
11998000 -42.178204 -7.7913504 -0.033142399 -2.483789 -0.034178589 -2.5271935 -48.681381 -133.04102
12997000 -41.596729 -11.830631 -0.032014921 -2.6657894 -0.034064312 -2.6944072 -47.929348 -126.52945
13996000 -41.392117 -15.19609 -0.031519998 -2.843761 -0.034037702 -2.8642302 -47.441696 -120.07487
14995000 -41.077171 -18.755686 -0.03377264 -3.0529904 -0.034110233 -3.0755246 -46.951382 -117.15882
15994000 -40.935524 -22.343729 -0.03500469 -3.2697277 -0.036467068 -3.2930682 -46.700714 -113.48158
16993000 -40.958431 -26.036339 -0.034346353 -3.4657595 -0.035448339 -3.4753122 -45.711182 -114.82786
17992000 -41.04718 -30.387707 -0.034395926 -3.6661561 -0.036440961 -3.6677799 -45.142323 -115.73783
18991000 -41.321003 -34.457306 -0.035994604 -3.8735037 -0.037656017 -3.8744953 -44.370514 -115.42088
19990000 -41.239098 -39.185768 -0.038095493 -4.0842481 -0.039348103 -4.0777154 -43.699642 -117.32938
20989000 -41.152687 -42.232296 -0.039969057 -4.2865424 -0.041655511 -4.2774367 -43.055183 -117.56734
21988000 -41.12851 -46.53965 -0.041099124 -4.4816122 -0.041731305 -4.4708161 -42.773376 -117.08715
22987000 -40.885387 -50.971458 -0.041781485 -4.6797104 -0.042626292 -4.6766629 -42.503464 -116.93333
23986000 -40.961376 -54.672226 -0.041506018 -4.8788261 -0.042049915 -4.874681 -42.393867 -117.04263
24985000 -40.684978 -57.104492 -0.042246997 -5.0889912 -0.042483822 -5.0820041 -42.072845 -114.66587
25984000 -40.432781 -59.622314 -0.042555708 -5.2923651 -0.042773992 -5.293438 -41.733967 -113.25126
26983000 -40.176044 -61.483608 -0.044164978 -5.48769 -0.043754697 -5.5118589 -41.602753 -112.48743
27982000 -40.096161 -62.44767 -0.045553271 -5.6918826 -0.045655817 -5.7229037 -41.297497 -110.90608
28981000 -40.079559 -63.710487 -0.043553621 -5.8876662 -0.044664484 -5.9086862 -41.060253 -110.43311
29980000 -39.720749 -65.424347 -0.04282314 -6.0786242 -0.044878162 -6.0874557 -40.678337 -109.94693
30979000 -39.332703 -64.821213 -0.041095987 -6.4347401 -0.040411644 -6.4241023 -40.156055 -110.94497
31978000 -39.168388 -66.003616 -0.040300339 -6.6262012 -0.040845387 -6.6172476 -39.893616 -110.1098
32977000 -39.017273 -67.485336 -0.040174667 -6.8372335 -0.04246866 -6.8325028 -39.654945 -110.41766
33976000 -38.877209 -68.846428 -0.040741913 -7.0405326 -0.042403311 -7.0336394 -39.316898 -110.04579
34975000 -38.599403 -69.682625 -0.040966373 -7.2405095 -0.043216862 -7.2375083 -39.051788 -109.87907
35974000 -38.41209 -70.559395 -0.040560052 -7.4351673 -0.042706806 -7.4378338 -38.762749 -109.07043
36973000 -38.181095 -71.254196 -0.040428888 -7.6401944 -0.04397539 -7.6378565 -38.457619 -108.513
37972000 -38.036232 -71.182648 -0.040599767 -7.8432198 -0.043296345 -7.8500242 -38.212147 -107.77429
38971000 -37.69836 -71.144516 -0.041728951 -8.0449104 -0.043332685 -8.0512123 -38.020702 -106.25794
39970000 -37.387215 -71.735199 -0.039883628 -8.2387085 -0.042369589 -8.2555084 -37.730587 -105.83406
40969000 -37.119896 -71.632339 -0.040215425 -8.4347639 -0.042603023 -8.4499292 -37.43095 -104.61124
41968000 -36.754562 -71.967102 -0.039891988 -8.6373024 -0.04210062 -8.6514187 -37.223595 -103.43563
42967000 -36.51495 -72.247673 -0.040545419 -8.8501825 -0.042977642 -8.864892 -36.98513 -101.74467
43966000 -36.238884 -73.077919 -0.040839639 -9.050458 -0.043785028 -9.0661087 -36.686333 -101.2419
44965000 -36.033134 -74.042381 -0.041304264 -9.2544498 -0.043991081 -9.2724867 -36.485199 -101.18983
45964000 -35.809414 -75.186974 -0.04247598 -9.4534254 -0.04548892 -9.472023 -36.217537 -100.93049
46963000 -35.647564 -77.125198 -0.042960912 -9.6441975 -0.046400119 -9.6662083 -36.036522 -101.31467
47962000 -35.519283 -78.711342 -0.044357449 -9.8455753 -0.047901146 -9.8647289 -35.829906 -101.57385
48961000 -35.333714 -80.139397 -0.046648685 -10.043924 -0.048967566 -10.067296 -35.617336 -101.98258
49960000 -35.130611 -81.643196 -0.047464076 -10.243404 -0.050151303 -10.267033 -35.485291 -102.2429
50959000 -34.924583 -83.029968 -0.048176233 -10.454391 -0.051602021 -10.469765 -35.278915 -102.57088
51958000 -34.74015 -84.223763 -0.049968526 -10.654753 -0.052526295 -10.66376 -35.115078 -103.13574
52957000 -34.55843 -85.312157 -0.051588401 -10.85457 -0.053466748 -10.861706 -34.954182 -102.95499
53956000 -34.388939 -86.122337 -0.052686121 -11.056701 -0.054522216 -11.057514 -34.821114 -103.07758
54955000 -34.209568 -86.740952 -0.053570263 -11.257653 -0.055382088 -11.250894 -34.659519 -103.20502
55954000 -34.082863 -87.653854 -0.05524287 -11.457327 -0.055854827 -11.456511 -34.542721 -102.90001
56953000 -33.962387 -87.802826 -0.053453907 -11.656138 -0.054893933 -11.645772 -34.489571 -103.10607
57952000 -33.810135 -88.456749 -0.055713236 -11.856525 -0.055787966 -11.846778 -34.373959 -103.3432
58951000 -33.698269 -88.774971 -0.056828525 -12.057236 -0.05727493 -12.036883 -34.217209 -103.4773
59950000 -33.563805 -89.264931 -0.056779742 -12.257046 -0.057504967 -12.239355 -34.14999 -103.74145
60949000 -33.467892 -89.811768 -0.05778224 -12.455904 -0.057131719 -12.435893 -34.057556 -104.00932
61948000 -33.40757 -90.131973 -0.058396913 -12.659496 -0.058067136 -12.640715 -33.965145 -104.20515
62947000 -33.324986 -90.418625 -0.058665846 -12.870772 -0.058533084 -12.847726 -33.835316 -104.49058
63946000 -33.253807 -91.144066 -0.058754269 -13.066489 -0.059408184 -13.045105 -33.732109 -104.64522
64945000 -33.151211 -91.353661 -0.059957735 -13.267004 -0.060176894 -13.251747 -33.616013 -105.19297
65944000 -33.048653 -91.68898 -0.060599495 -13.466268 -0.060713943 -13.449884 -33.527939 -105.70728
66943000 -32.905285 -92.060654 -0.058524162 -13.667176 -0.059072815 -13.650263 -33.433109 -105.9459
67942000 -32.855804 -92.017578 -0.060607892 -13.864712 -0.06031128 -13.852957 -33.310665 -106.29609
68941000 -32.733929 -92.178551 -0.060319155 -14.059949 -0.060065608 -14.04972 -33.193336 -106.27381
69940000 -32.640953 -92.17804 -0.060299732 -14.255041 -0.060472447 -14.251314 -33.058823 -106.55942
70939000 -32.5439 -92.092651 -0.060225714 -14.454994 -0.060885362 -14.449687 -32.921021 -106.49461
71938000 -32.383789 -91.694939 -0.060472973 -14.648101 -0.060762245 -14.640502 -32.792461 -106.38454
72937000 -32.227726 -91.655113 -0.060051695 -14.846521 -0.060021251 -14.844028 -32.649731 -106.09969
73936000 -32.079868 -91.252777 -0.059922829 -15.043875 -0.058957361 -15.038268 -32.534935 -105.97925
74935000 -31.966452 -91.588722 -0.058836658 -15.240324 -0.058472738 -15.240371 -32.37989 -105.58474
75934000 -31.846926 -91.891586 -0.058895171 -15.450897 -0.058239762 -15.447493 -32.280506 -105.64421
76933000 -31.710232 -92.321754 -0.061366051 -15.643501 -0.060219415 -15.635078 -32.106247 -105.97243
77932000 -31.625088 -93.062363 -0.06142066 -15.841606 -0.061948936 -15.830544 -32.023014 -105.95846
78931000 -31.559315 -93.853081 -0.06066433 -16.038771 -0.06121273 -16.037832 -31.920654 -105.92086
79930000 -31.44739 -94.705513 -0.063200571 -16.233128 -0.063982561 -16.231445 -31.829596 -106.17224
80929000 -31.328196 -95.642822 -0.064465173 -16.42721 -0.064657755 -16.422813 -31.7199 -106.6262
81928000 -31.251274 -96.561691 -0.064525336 -16.619352 -0.065381937 -16.614813 -31.597452 -106.67283
82927000 -31.161381 -97.231941 -0.066304147 -16.817862 -0.066556744 -16.816801 -31.507786 -107.08091
83926000 -31.057926 -97.987846 -0.067840472 -17.013897 -0.067558087 -17.015797 -31.379547 -107.26809
84925000 -30.94562 -98.47673 -0.068782404 -17.21702 -0.06781733 -17.211342 -31.274761 -107.39063
85924000 -30.860813 -99.004257 -0.06867484 -17.414778 -0.068970971 -17.409447 -31.200333 -107.42922
86923000 -30.763536 -99.540123 -0.070268035 -17.611139 -0.068759263 -17.605513 -31.096882 -107.35874
87922000 -30.650013 -99.929459 -0.069754794 -17.819757 -0.068953618 -17.808098 -31.009148 -107.42584
88921000 -30.589109 -100.24483 -0.070659257 -18.015404 -0.070494823 -18.011429 -30.917942 -107.46981
89920000 -30.487587 -100.81612 -0.071297601 -18.212198 -0.07072109 -18.209827 -30.869299 -107.63321
90919000 -30.388477 -101.17159 -0.072512448 -18.414896 -0.070806339 -18.407473 -30.780529 -107.88785
91918000 -30.296314 -101.56058 -0.07331349 -18.609089 -0.071729966 -18.60305 -30.715305 -107.89544
92917000 -30.206083 -101.91598 -0.073794246 -18.809895 -0.0727017 -18.806734 -30.63608 -108.01681
93916000 -30.125858 -102.32478 -0.073256887 -19.005346 -0.073098935 -19.000624 -30.563452 -108.67941
94915000 -30.048765 -102.98033 -0.074361682 -19.203014 -0.07381399 -19.200403 -30.494246 -108.55258
95914000 -29.989929 -103.18131 -0.075623214 -19.395267 -0.074615277 -19.39533 -30.401882 -108.80492
96913000 -29.898396 -103.46704 -0.077386029 -19.599302 -0.075817354 -19.597437 -30.337173 -109.19177
97912000 -29.825951 -103.92025 -0.077755488 -19.792788 -0.075737797 -19.7931 -30.260483 -109.42854
98911000 -29.720942 -104.14476 -0.078926802 -19.996716 -0.077310398 -19.994009 -30.224632 -109.63514
99910000 -29.655476 -104.24421 -0.079176441 -20.197132 -0.077910714 -20.191391 -30.102583 -109.97112
100909000 -29.564749 -104.56608 -0.078867756 -20.404728 -0.077369429 -20.394041 -30.026611 -110.12087
101908000 -29.484209 -104.81256 -0.079902783 -20.599804 -0.078335047 -20.602131 -29.907753 -109.91074
102907000 -29.345266 -104.82431 -0.080702819 -20.801144 -0.078534834 -20.798302 -29.841749 -109.87798
103906000 -29.256624 -104.90216 -0.080589429 -21.006092 -0.077710159 -21.001038 -29.693495 -109.81095
104905000 -29.109873 -104.81216 -0.08178287 -21.202795 -0.078599147 -21.201551 -29.54999 -109.5322
105904000 -28.966196 -104.93342 -0.08151751 -21.404703 -0.07880871 -21.400213 -29.436798 -109.38727
106903000 -28.851606 -105.03735 -0.08149457 -21.612827 -0.079246834 -21.605858 -29.314131 -109.26103
107902000 -28.69615 -105.37115 -0.082120255 -21.813631 -0.079778075 -21.801098 -29.17 -109.22313
108901000 -28.585531 -105.6514 -0.083326787 -22.016563 -0.081012964 -22.006025 -29.0411 -109.21484
109900000 -28.460712 -106.17821 -0.08350227 -22.215946 -0.081983611 -22.201954 -28.885902 -109.2738
110899000 -28.344393 -106.81743 -0.085173242 -22.408749 -0.082075678 -22.402565 -28.759876 -109.61782
111898000 -28.259743 -107.50957 -0.08678624 -22.610872 -0.083364785 -22.605206 -28.642145 -109.7551
112897000 -28.137356 -108.08885 -0.088404849 -22.811094 -0.084377922 -22.797905 -28.503965 -109.95465
113896000 -28.03986 -108.68549 -0.088440247 -23.010456 -0.08609888 -22.996923 -28.402361 -110.12285
114895000 -27.932898 -109.37244 -0.090338305 -23.207134 -0.087712742 -23.194521 -28.283993 -110.24925
115894000 -27.803123 -109.73289 -0.09129703 -23.406404 -0.089677602 -23.393318 -28.221413 -110.4329
116893000 -27.727333 -110.32758 -0.091722406 -23.604666 -0.090057626 -23.586102 -28.09107 -110.55254
117892000 -27.649082 -110.82711 -0.091914356 -23.79966 -0.090118676 -23.788607 -28.020815 -110.83356
118891000 -27.591118 -111.26852 -0.092094943 -24.003906 -0.090312138 -23.987146 -27.925327 -110.94817
119890000 -27.501593 -111.66064 -0.093731403 -24.201225 -0.091140799 -24.186808 -27.916435 -111.14105
120889000 -27.446428 -112.1546 -0.09368062 -24.400751 -0.091279052 -24.38624 -27.8416 -111.08069
121888000 -27.411491 -112.53483 -0.094141141 -24.598536 -0.092726387 -24.5874 -27.779438 -111.41689
122887000 -27.369968 -112.7496 -0.095581762 -24.803219 -0.092867605 -24.787626 -27.732582 -111.43386
123886000 -27.317451 -113.16118 -0.096507497 -25.004923 -0.092823975 -24.98769 -27.719467 -111.63212
124885000 -27.279739 -113.67615 -0.096681662 -25.204063 -0.092908598 -25.18849 -27.688391 -111.67918
125884000 -27.231461 -113.89441 -0.097326487 -25.397404 -0.094036125 -25.38567 -27.654949 -111.85933
126883000 -27.2073 -114.26449 -0.097349517 -25.60607 -0.094399601 -25.588633 -27.623652 -111.91141
127882000 -27.161795 -114.5451 -0.097570568 -25.800182 -0.094997786 -25.78476 -27.579041 -112.08389
128881000 -27.123842 -114.8792 -0.098001592 -26.005838 -0.09490253 -25.985008 -27.536514 -112.18776
129880000 -27.071957 -115.21488 -0.098927051 -26.207228 -0.095452629 -26.187004 -27.495632 -112.17972
130879000 -27.011677 -115.37122 -0.098274305 -26.405252 -0.096220069 -26.389784 -27.418097 -112.2372
131878000 -26.943365 -115.55187 -0.098467343 -26.607018 -0.096743599 -26.588366 -27.355074 -112.13627
132877000 -26.879004 -115.65649 -0.098467603 -26.808874 -0.096412748 -26.790047 -27.271307 -112.12904
133876000 -26.793772 -115.78563 -0.099050462 -27.009033 -0.095612988 -26.984665 -27.174408 -112.10327
134875000 -26.691513 -115.92849 -0.098842837 -27.210239 -0.097465202 -27.193489 -27.072895 -111.91854
135874000 -26.615334 -115.93677 -0.098745123 -27.404411 -0.097022057 -27.39076 -26.971306 -111.921
136873000 -26.497406 -115.85636 -0.099771917 -27.609268 -0.096348435 -27.594105 -26.881348 -111.89699
137872000 -26.423384 -115.96921 -0.099926345 -27.813643 -0.097431585 -27.799183 -26.777336 -111.82545
138871000 -26.345304 -116.17347 -0.10088586 -28.008343 -0.09755601 -27.993025 -26.674898 -112.01225
139870000 -26.24399 -116.44173 -0.10117095 -28.209215 -0.098949298 -28.193516 -26.59284 -112.201
140869000 -26.161465 -116.9219 -0.10256089 -28.405298 -0.10004555 -28.38937 -26.490273 -112.34792
141868000 -26.06727 -117.39171 -0.10300964 -28.596762 -0.10052688 -28.583113 -26.421753 -112.68784
142867000 -25.987314 -117.67128 -0.10114472 -28.795961 -0.099373564 -28.7792 -26.341497 -112.87251
143866000 -25.92473 -118.17865 -0.10356871 -28.99523 -0.10089938 -28.977608 -26.272249 -113.36992
144865000 -25.862068 -118.69928 -0.10493556 -29.191355 -0.10279865 -29.177011 -26.208073 -113.71025
145864000 -25.80452 -119.03789 -0.10492442 -29.393494 -0.10351066 -29.378819 -26.181332 -114.01641
146863000 -25.762486 -119.42943 -0.10553227 -29.594585 -0.10372274 -29.579016 -26.124418 -114.29615
147862000 -25.727112 -119.81735 -0.10634395 -29.788054 -0.10410453 -29.775837 -26.093431 -114.65656
148861000 -25.690525 -120.36598 -0.10671481 -29.988148 -0.10491673 -29.970383 -26.071636 -114.91511
149860000 -25.678982 -120.53442 -0.10730117 -30.186981 -0.10509706 -30.172064 -26.041464 -115.1031
150859000 -25.654766 -120.93235 -0.10775837 -30.381676 -0.10523258 -30.3696 -26.030199 -115.36893
151858000 -25.644497 -121.24406 -0.10807814 -30.583136 -0.10548454 -30.565557 -26.018326 -115.63669
152857000 -25.620922 -121.57908 -0.1083345 -30.780121 -0.10583995 -30.772261 -26.002525 -115.82323
153856000 -25.610598 -121.79349 -0.10805293 -30.978115 -0.1056511 -30.971359 -26.017187 -116.11446
154855000 -25.602104 -121.94124 -0.10813493 -31.178431 -0.10573385 -31.166771 -26.006285 -116.30903
155854000 -25.617332 -122.20069 -0.10900389 -31.376205 -0.10581714 -31.365305 -26.001486 -116.58275
156853000 -25.601257 -122.91605 -0.10663947 -31.567703 -0.10551557 -31.555916 -25.991522 -116.89014
157852000 -25.605812 -123.11487 -0.10798924 -31.764481 -0.10729401 -31.756832 -25.984304 -117.23992
158851000 -25.599054 -123.37333 -0.10855267 -31.963568 -0.10743702 -31.956144 -25.963573 -117.50151
159850000 -25.580181 -123.46905 -0.1092996 -32.16061 -0.10751185 -32.153015 -25.963667 -117.66426
160849000 -25.565538 -123.5937 -0.10930889 -32.363422 -0.10827028 -32.356541 -25.932661 -117.94326
161848000 -25.542933 -123.70535 -0.10957489 -32.559528 -0.10824374 -32.557079 -25.891829 -118.03609
162847000 -25.498421 -123.86003 -0.11003179 -32.755924 -0.10865936 -32.754719 -25.862595 -118.31038
163846000 -25.455753 -124.13464 -0.10947587 -32.960941 -0.10848207 -32.948746 -25.7805 -118.27444
164845000 -25.400885 -124.1106 -0.1105384 -33.157558 -0.10874908 -33.151764 -25.716618 -118.3823
165844000 -25.340733 -124.18816 -0.11094946 -33.360413 -0.1094979 -33.350208 -25.635878 -118.50713
166843000 -25.279913 -124.2502 -0.11021234 -33.555096 -0.10918652 -33.551239 -25.56469 -118.69939
167842000 -25.222248 -124.41071 -0.11027181 -33.755726 -0.10955817 -33.74836 -25.481255 -118.64336
168841000 -25.143244 -124.61197 -0.11026704 -33.954369 -0.11014118 -33.948296 -25.402493 -118.6871
169840000 -25.074663 -124.86885 -0.1112076 -34.148281 -0.11064302 -34.143894 -25.308699 -118.89663
170839000 -25.01827 -125.1361 -0.11250644 -34.345837 -0.11090034 -34.3428 -25.230577 -119.12271
171838000 -24.95331 -125.57114 -0.11236459 -34.545879 -0.11224823 -34.539047 -25.162443 -119.3704
172837000 -24.888176 -125.93943 -0.11347087 -34.73975 -0.1128797 -34.735199 -25.097054 -119.60168
173836000 -24.824026 -126.37399 -0.11467153 -34.939243 -0.11372809 -34.937817 -25.051981 -119.8359
174835000 -24.76409 -126.81081 -0.11488575 -35.135086 -0.11475552 -35.134785 -25.00761 -120.16226
175834000 -24.724375 -127.23135 -0.11609717 -35.336063 -0.11517549 -35.331512 -24.945572 -120.47961
176833000 -24.672766 -127.59612 -0.11697916 -35.534241 -0.11550139 -35.527664 -24.889162 -120.6291
177832000 -24.625921 -128.06824 -0.11731344 -35.726868 -0.11617188 -35.727921 -24.874462 -120.80129
178831000 -24.585234 -128.48007 -0.11725999 -35.923615 -0.11656752 -35.922016 -24.8326 -121.05267
179830000 -24.550581 -128.88408 -0.1182941 -36.123249 -0.11752222 -36.128277 -24.809454 -121.15703
180829000 -24.512762 -129.13313 -0.11868036 -36.316368 -0.11785574 -36.320152 -24.77836 -121.34382
181828000 -24.486067 -129.50945 -0.11829942 -36.513184 -0.1180829 -36.515656 -24.761269 -121.47488
182827000 -24.458363 -129.85423 -0.11857449 -36.710049 -0.11847472 -36.715206 -24.749516 -121.57727
183826000 -24.421001 -130.20757 -0.11945884 -36.907116 -0.11861811 -36.906021 -24.740215 -121.70319
184825000 -24.427811 -130.48944 -0.11969938 -37.107254 -0.1185931 -37.104546 -24.723505 -121.79687
185824000 -24.400442 -130.8698 -0.11958975 -37.301521 -0.11954132 -37.299515 -24.723627 -121.84637
186823000 -24.386364 -131.21835 -0.11959028 -37.50174 -0.11926354 -37.499733 -24.718607 -121.83033
187822000 -24.361609 -131.53322 -0.12067765 -37.696102 -0.11960252 -37.694672 -24.68479 -121.8944
188821000 -24.344137 -131.78691 -0.12071119 -37.892292 -0.11971774 -37.893425 -24.668455 -121.97606
189820000 -24.32906 -132.07802 -0.12091666 -38.090694 -0.12040672 -38.092869 -24.664576 -122.14239
190819000 -24.295996 -132.28859 -0.12161301 -38.290855 -0.12107104 -38.292587 -24.623497 -122.0908
191818000 -24.261604 -132.45349 -0.12307049 -38.48439 -0.12302735 -38.484692 -24.592243 -121.98534
192817000 -24.193796 -132.72316 -0.12334906 -38.67231 -0.12316211 -38.672745 -24.519138 -122.07286
193816000 -24.156225 -133.11211 -0.12232093 -38.864471 -0.12173574 -38.862125 -24.462225 -122.30656
194815000 -24.098492 -133.53535 -0.12300845 -39.059349 -0.12249879 -39.058556 -24.402842 -122.44025
195814000 -24.048035 -133.76765 -0.12342309 -39.257214 -0.12222694 -39.262409 -24.344404 -122.54588
196813000 -23.992697 -134.10808 -0.12250864 -39.450878 -0.12210713 -39.456741 -24.266174 -122.69808
197812000 -23.934931 -134.33929 -0.12313254 -39.651562 -0.12279462 -39.650543 -24.198772 -122.80843
198811000 -23.880779 -134.5262 -0.12316743 -39.846519 -0.12216171 -39.846577 -24.129944 -122.97121
199810000 -23.812977 -134.89726 -0.12320524 -40.040859 -0.12183158 -40.03841 -24.047792 -123.11158
200809000 -23.756247 -135.16064 -0.12383698 -40.244041 -0.12219393 -40.236912 -23.970255 -123.28171
201808000 -23.697275 -135.39851 -0.12410493 -40.439468 -0.12361858 -40.440842 -23.900414 -123.36372
202807000 -23.638874 -135.78424 -0.12501732 -40.64043 -0.12432282 -40.646629 -23.851563 -123.58798
203806000 -23.589308 -136.2032 -0.12648261 -40.837391 -0.12456577 -40.842075 -23.783651 -123.77003
