!Keysight Technologies,E5080B,MY59205177,A.15.75.32
!Date: Friday, February 23, 2024 03:32:09
!Correction: S11(Cdelta 2-Port  ) 
!S21(Cdelta 2-Port  ) 
!S12(Cdelta 2-Port  ) 
!S22(Cdelta 2-Port  ) 
!S2P File: Measurements: S11, S21, S12, S22:
# Hz S  dB   R 50
10000000 -46.042439 -1.9688146 -0.014787916 -2.0486009 -0.01839724 -2.101491 -45.989052 -157.89258
10999000 -45.31805 -4.1176848 -0.016198287 -2.2684708 -0.018548798 -2.3188884 -45.93251 -152.17105
11998000 -44.311687 -7.3087416 -0.01638069 -2.4930789 -0.0183923 -2.5346677 -46.043724 -147.90919
12997000 -43.575504 -12.817238 -0.015986014 -2.6717618 -0.018143008 -2.7031648 -45.741146 -141.50143
13996000 -43.246803 -16.523209 -0.014975714 -2.8504138 -0.017772606 -2.8696566 -45.528843 -136.57419
14995000 -42.889465 -21.049023 -0.017223686 -3.0628479 -0.018209035 -3.0878782 -45.239613 -132.90005
15994000 -42.760696 -25.624195 -0.018170042 -3.2818143 -0.020005383 -3.302218 -45.138535 -129.58971
16993000 -42.660442 -30.03672 -0.017413149 -3.4786935 -0.019705288 -3.4890091 -44.233215 -129.42299
17992000 -42.77269 -35.454742 -0.017848503 -3.6793065 -0.020672213 -3.6787055 -43.721138 -129.28046
18991000 -43.052372 -40.616817 -0.018510064 -3.8894362 -0.021309752 -3.8844452 -43.06974 -128.21339
19990000 -42.788162 -46.17905 -0.021374786 -4.1004486 -0.023096193 -4.093739 -42.384613 -129.09808
20989000 -42.606827 -49.704605 -0.023479544 -4.3010173 -0.025164291 -4.2924242 -41.861958 -128.49693
21988000 -42.420425 -54.898933 -0.023825187 -4.4997597 -0.02601837 -4.487237 -41.601822 -127.52204
22987000 -42.095375 -59.772686 -0.024978396 -4.6995502 -0.026605906 -4.6911354 -41.348251 -127.29665
23986000 -42.056664 -64.056366 -0.024790425 -4.8943596 -0.02593087 -4.8929019 -41.247459 -126.87229
24985000 -41.648174 -66.496941 -0.026021235 -5.1038518 -0.026492871 -5.096303 -41.030922 -124.45537
25984000 -41.26075 -68.77462 -0.026955184 -5.307117 -0.026849434 -5.310936 -40.69125 -122.73813
26983000 -41.000851 -70.504944 -0.027116939 -5.5087471 -0.027632983 -5.5241489 -40.60619 -122.25613
27982000 -40.788857 -71.672142 -0.028860951 -5.7106638 -0.029131968 -5.7425318 -40.332924 -120.52661
28981000 -40.828682 -72.96582 -0.026856206 -5.9060364 -0.028130328 -5.9296017 -40.087429 -119.92195
29980000 -40.32251 -74.277199 -0.026489746 -6.0986018 -0.029243506 -6.1070123 -39.852562 -118.9563
30979000 -39.994122 -73.323967 -0.025342384 -6.454443 -0.024253896 -6.4453783 -39.317616 -119.51006
31978000 -39.783955 -74.232269 -0.023778075 -6.6518135 -0.025254119 -6.6402302 -39.06517 -118.88786
32977000 -39.614464 -75.880852 -0.024055284 -6.8612623 -0.02582176 -6.8603077 -38.799019 -118.91446
33976000 -39.431713 -76.982643 -0.024194283 -7.0630507 -0.026038421 -7.056839 -38.541298 -118.20924
34975000 -39.147655 -77.759628 -0.025000786 -7.264204 -0.027083859 -7.2624993 -38.295471 -117.82603
35974000 -38.962185 -78.372643 -0.023909518 -7.4576435 -0.026383488 -7.4605732 -38.039074 -117.05212
36973000 -38.707485 -78.886238 -0.024742784 -7.6589661 -0.027539721 -7.6607008 -37.76236 -116.06008
37972000 -38.541336 -78.752007 -0.024208341 -7.8701735 -0.027124755 -7.8792424 -37.554764 -115.32537
38971000 -38.214985 -78.296013 -0.025008596 -8.0695591 -0.027568897 -8.0804081 -37.373528 -113.63309
39970000 -37.889954 -78.70549 -0.023988387 -8.264636 -0.026929136 -8.2815027 -37.115791 -113.12876
40969000 -37.605225 -78.277855 -0.024052421 -8.4614191 -0.02719743 -8.4767952 -36.870056 -111.60697
41968000 -37.250202 -78.228378 -0.024437938 -8.66784 -0.026288688 -8.6812735 -36.698284 -110.29465
42967000 -36.975262 -78.312447 -0.024490261 -8.8717804 -0.02748215 -8.8955555 -36.500576 -108.50832
43966000 -36.69519 -79.083229 -0.025166895 -9.0777369 -0.027847651 -9.09622 -36.234547 -107.74683
44965000 -36.444729 -79.797203 -0.025739994 -9.279108 -0.028896129 -9.3003054 -36.003349 -107.49559
45964000 -36.223442 -80.749016 -0.026935648 -9.4797192 -0.029364692 -9.499053 -35.780491 -107.19751
46963000 -36.007141 -82.716446 -0.027310221 -9.6724072 -0.029915407 -9.7021198 -35.589546 -107.3417
47962000 -35.847328 -84.236938 -0.028346064 -9.8729067 -0.031685837 -9.8965006 -35.38459 -107.47552
48961000 -35.638577 -85.606339 -0.030135401 -10.074791 -0.033124138 -10.097955 -35.169254 -107.5696
49960000 -35.403511 -86.828354 -0.03189262 -10.274751 -0.034154326 -10.296955 -35.020531 -107.62019
50959000 -35.16898 -88.197327 -0.032068379 -10.488329 -0.035098113 -10.498702 -34.838932 -107.96093
51958000 -34.970417 -89.202049 -0.034106839 -10.688713 -0.03635012 -10.70004 -34.675701 -108.44109
52957000 -34.750412 -90.235519 -0.035737254 -10.890019 -0.0377273 -10.897721 -34.500797 -108.12302
53956000 -34.59465 -90.932693 -0.037120767 -11.089675 -0.038808204 -11.095193 -34.375111 -108.09523
54955000 -34.422035 -91.394318 -0.037467495 -11.28606 -0.039670195 -11.288473 -34.22538 -108.15522
55954000 -34.24073 -92.212334 -0.038751267 -11.492383 -0.039754052 -11.490858 -34.130981 -107.71907
56953000 -34.133194 -92.243523 -0.038522217 -11.690819 -0.038617805 -11.680737 -34.05151 -107.88586
57952000 -33.969433 -92.841522 -0.03967176 -11.887208 -0.04042967 -11.878296 -33.935421 -108.02161
58951000 -33.838905 -93.174126 -0.040698275 -12.092144 -0.041194245 -12.075305 -33.790031 -108.12466
59950000 -33.712784 -93.456413 -0.04123266 -12.292656 -0.041411676 -12.275951 -33.713821 -108.31057
60949000 -33.597328 -94.078346 -0.042307902 -12.497343 -0.042327244 -12.47114 -33.632107 -108.60335
61948000 -33.546875 -94.404335 -0.042153683 -12.693307 -0.041860681 -12.680429 -33.546253 -108.74084
62947000 -33.445286 -94.629974 -0.042474151 -12.90838 -0.042583682 -12.887557 -33.398445 -108.96179
63946000 -33.378937 -95.336342 -0.043604869 -13.109749 -0.043723319 -13.088033 -33.292301 -109.14521
64945000 -33.28603 -95.524376 -0.043511003 -13.306629 -0.044149287 -13.291001 -33.178047 -109.53378
65944000 -33.173489 -95.797966 -0.044474088 -13.50872 -0.045047127 -13.49208 -33.08453 -110.05834
66943000 -33.027534 -96.250595 -0.04250944 -13.709085 -0.04302261 -13.691477 -32.980846 -110.24623
67942000 -32.96439 -96.180679 -0.044808328 -13.90667 -0.04508793 -13.893018 -32.864422 -110.57285
68941000 -32.862823 -96.2603 -0.044249706 -14.099714 -0.044344112 -14.091607 -32.750877 -110.52281
69940000 -32.764862 -96.205185 -0.044582885 -14.299588 -0.044939626 -14.293967 -32.622204 -110.84995
70939000 -32.663574 -96.199783 -0.044048086 -14.495811 -0.044347774 -14.492058 -32.47084 -110.7862
71938000 -32.507614 -95.807053 -0.044760991 -14.693504 -0.045158811 -14.685648 -32.340809 -110.63726
72937000 -32.353725 -95.625908 -0.043666575 -14.889003 -0.044543914 -14.888906 -32.212505 -110.30048
73936000 -32.213554 -95.243118 -0.043421581 -15.089793 -0.043773782 -15.087644 -32.095123 -110.12587
74935000 -32.095825 -95.500008 -0.042761706 -15.285482 -0.042675696 -15.284066 -31.940041 -109.75076
75934000 -31.966686 -95.662392 -0.043670762 -15.494378 -0.043829739 -15.487801 -31.845901 -109.66728
76933000 -31.840521 -96.070473 -0.04521871 -15.689064 -0.044557776 -15.686701 -31.684845 -110.00082
77932000 -31.732939 -96.817978 -0.045573413 -15.885268 -0.046382587 -15.88046 -31.581104 -109.94043
78931000 -31.659016 -97.589462 -0.044384126 -16.087282 -0.045837104 -16.083729 -31.472385 -109.79297
79930000 -31.534101 -98.428345 -0.046958495 -16.27949 -0.047664545 -16.278811 -31.377033 -110.1495
80929000 -31.425638 -99.210007 -0.048754733 -16.478182 -0.049037203 -16.477789 -31.272377 -110.3374
81928000 -31.320992 -99.945366 -0.048344277 -16.670967 -0.049688347 -16.667816 -31.153076 -110.34559
82927000 -31.224539 -100.65086 -0.050611425 -16.867599 -0.050646782 -16.867905 -31.039835 -110.61391
83926000 -31.105293 -101.33288 -0.051350031 -17.067934 -0.051772296 -17.068274 -30.91851 -110.81255
84925000 -30.993584 -101.80727 -0.051967464 -17.268656 -0.052271366 -17.262068 -30.826677 -110.81461
85924000 -30.904291 -102.19733 -0.053468842 -17.468597 -0.053310819 -17.463839 -30.735897 -110.85445
86923000 -30.796299 -102.67254 -0.053883191 -17.664749 -0.053131316 -17.660034 -30.640106 -110.7298
87922000 -30.693371 -102.99265 -0.052787002 -17.869713 -0.053253956 -17.864393 -30.546892 -110.68915
88921000 -30.607079 -103.32533 -0.05470676 -18.072483 -0.054222614 -18.066441 -30.453392 -110.69307
89920000 -30.513783 -103.72504 -0.054996699 -18.265615 -0.054705448 -18.261391 -30.395306 -110.85344
90919000 -30.411142 -104.0531 -0.055978332 -18.463634 -0.055049654 -18.46213 -30.311647 -111.01132
91918000 -30.312546 -104.34981 -0.056527186 -18.666401 -0.055669975 -18.662451 -30.247578 -111.00166
92917000 -30.215405 -104.76657 -0.058085762 -18.864923 -0.057388503 -18.86203 -30.176582 -111.075
93916000 -30.135347 -105.06654 -0.057207257 -19.060747 -0.05745985 -19.055527 -30.087204 -111.7298
94915000 -30.057268 -105.74563 -0.058737475 -19.260778 -0.058302201 -19.256687 -30.026297 -111.59579
95914000 -29.988815 -105.90641 -0.060044874 -19.454897 -0.059513941 -19.452919 -29.93816 -111.85902
96913000 -29.899679 -106.14656 -0.061520431 -19.654961 -0.060697932 -19.652132 -29.872961 -112.21987
97912000 -29.825928 -106.59339 -0.062864386 -19.849876 -0.059971385 -19.853598 -29.785707 -112.45361
98911000 -29.712725 -106.71002 -0.062895112 -20.055296 -0.061412785 -20.051125 -29.739639 -112.68765
99910000 -29.654909 -106.84885 -0.063771613 -20.254345 -0.062055282 -20.253716 -29.639206 -112.96369
100909000 -29.554815 -107.14694 -0.063285932 -20.459553 -0.060994044 -20.456392 -29.553171 -113.15547
101908000 -29.473261 -107.35454 -0.06419982 -20.66157 -0.062449966 -20.665831 -29.445206 -112.91863
102907000 -29.340036 -107.39679 -0.063712507 -20.864212 -0.06265559 -20.860678 -29.367741 -112.91237
103906000 -29.239201 -107.38216 -0.064413145 -21.06703 -0.062304482 -21.062872 -29.230629 -112.87059
104905000 -29.093042 -107.31204 -0.065949589 -21.264902 -0.06319689 -21.266806 -29.101316 -112.57315
105904000 -28.954437 -107.42804 -0.065617919 -21.470951 -0.063394673 -21.46179 -28.989191 -112.44363
106903000 -28.847996 -107.53074 -0.064992242 -21.678215 -0.063023277 -21.669329 -28.861937 -112.31604
107902000 -28.683548 -107.79489 -0.066224769 -21.876148 -0.064534269 -21.864229 -28.725014 -112.27501
108901000 -28.56284 -108.02218 -0.0667836 -22.079475 -0.065417148 -22.071411 -28.603399 -112.19001
109900000 -28.441288 -108.49518 -0.067976668 -22.277285 -0.06640508 -22.266493 -28.444374 -112.28247
110899000 -28.320406 -109.11902 -0.069327094 -22.476665 -0.066929229 -22.466526 -28.322908 -112.59493
111898000 -28.228569 -109.758 -0.070705831 -22.67836 -0.067811549 -22.669874 -28.202774 -112.6921
112897000 -28.099924 -110.31232 -0.072368465 -22.877848 -0.069364972 -22.864649 -28.072721 -112.87062
113896000 -27.999641 -110.89461 -0.073609412 -23.077974 -0.070435621 -23.067459 -27.960026 -112.98817
114895000 -27.898218 -111.50517 -0.074175514 -23.274858 -0.071598649 -23.264666 -27.855471 -113.02922
115894000 -27.774874 -111.87604 -0.074799888 -23.477879 -0.073052861 -23.467991 -27.786777 -113.28201
116893000 -27.699598 -112.34415 -0.076451711 -23.672888 -0.073882714 -23.657932 -27.659925 -113.30052
117892000 -27.621105 -112.81482 -0.075946167 -23.870855 -0.073955648 -23.859724 -27.58769 -113.50288
118891000 -27.557781 -113.25981 -0.076691724 -24.073626 -0.074141279 -24.058363 -27.487331 -113.62119
119890000 -27.474758 -113.62238 -0.0769004 -24.271879 -0.075413287 -24.261507 -27.478251 -113.75287
120889000 -27.421787 -114.09698 -0.078699052 -24.471916 -0.075573958 -24.459417 -27.405584 -113.67567
121888000 -27.385595 -114.44302 -0.079070732 -24.670261 -0.076269925 -24.657745 -27.346472 -113.96654
122887000 -27.347643 -114.62582 -0.080337331 -24.871622 -0.077079833 -24.863073 -27.306616 -114.00084
123886000 -27.29538 -115.0323 -0.080217876 -25.076242 -0.077379175 -25.054173 -27.286697 -114.10192
124885000 -27.26293 -115.55732 -0.080661416 -25.274775 -0.077579975 -25.262197 -27.258232 -114.14696
125884000 -27.205824 -115.75674 -0.081431001 -25.47296 -0.077810042 -25.461897 -27.227646 -114.33977
126883000 -27.192432 -116.14941 -0.082044549 -25.677309 -0.079194635 -25.661732 -27.192947 -114.36089
127882000 -27.140882 -116.43667 -0.08258985 -25.875835 -0.079200171 -25.860285 -27.155046 -114.44744
128881000 -27.111204 -116.73943 -0.082443692 -26.078953 -0.079287693 -26.066093 -27.113026 -114.55511
129880000 -27.056274 -117.0675 -0.083198018 -26.280617 -0.079374433 -26.263319 -27.071045 -114.53483
130879000 -26.994793 -117.24728 -0.082715169 -26.481028 -0.080550134 -26.464033 -26.999975 -114.55874
131878000 -26.927423 -117.45035 -0.083313592 -26.684992 -0.080364488 -26.663847 -26.941713 -114.40871
132877000 -26.86488 -117.51261 -0.082979545 -26.883383 -0.080758467 -26.868593 -26.860851 -114.38497
133876000 -26.783775 -117.7417 -0.083167143 -27.08847 -0.080534577 -27.070435 -26.775789 -114.27644
134875000 -26.681795 -117.81622 -0.084212177 -27.28816 -0.081970423 -27.268883 -26.677732 -114.1013
135874000 -26.605679 -117.87437 -0.083387479 -27.487717 -0.081163555 -27.47105 -26.578625 -114.10848
136873000 -26.492653 -117.81573 -0.084367365 -27.690815 -0.081286728 -27.672403 -26.500336 -114.04825
137872000 -26.407469 -117.9209 -0.084057517 -27.889683 -0.08197464 -27.875601 -26.390245 -113.97129
138871000 -26.340036 -118.11208 -0.084718153 -28.091946 -0.081575803 -28.077324 -26.293293 -114.12565
139870000 -26.235458 -118.40163 -0.085469976 -28.292658 -0.082485899 -28.273489 -26.2141 -114.27754
140869000 -26.154135 -118.97388 -0.086021252 -28.489426 -0.08324156 -28.472548 -26.117184 -114.50655
141868000 -26.079145 -119.36469 -0.087435931 -28.686058 -0.0846036 -28.672667 -26.065699 -114.75558
142867000 -25.99296 -119.54713 -0.085610166 -28.883644 -0.083971746 -28.866756 -25.982309 -114.8596
143866000 -25.924986 -120.01397 -0.088125356 -29.082525 -0.085535184 -29.067123 -25.912918 -115.34919
144865000 -25.862803 -120.56428 -0.089212269 -29.28274 -0.086681664 -29.26634 -25.858141 -115.65017
145864000 -25.807285 -120.83393 -0.089743935 -29.483765 -0.088548832 -29.470297 -25.821793 -115.89661
146863000 -25.762693 -121.22762 -0.090100177 -29.68359 -0.088564947 -29.672504 -25.768044 -116.16686
147862000 -25.720943 -121.56128 -0.091779776 -29.878588 -0.089033119 -29.868919 -25.738102 -116.48547
148861000 -25.6922 -121.96159 -0.092635155 -30.076206 -0.090626664 -30.065018 -25.719826 -116.64079
149860000 -25.655285 -122.14624 -0.093982957 -30.271166 -0.091309719 -30.263056 -25.663441 -116.74916
150859000 -25.638672 -122.6315 -0.093607351 -30.465099 -0.0909058 -30.45397 -25.643442 -117.11544
151858000 -25.623236 -122.9954 -0.092775576 -30.670464 -0.090470456 -30.656475 -25.632721 -117.43941
152857000 -25.608694 -123.26757 -0.092995606 -30.863945 -0.09037663 -30.852877 -25.623119 -117.61054
153856000 -25.608252 -123.50262 -0.092783511 -31.070589 -0.089806303 -31.056997 -25.632814 -117.91917
154855000 -25.60063 -123.66638 -0.09314847 -31.26807 -0.09043742 -31.257538 -25.627968 -118.1684
155854000 -25.623144 -123.92418 -0.093111441 -31.465469 -0.09080667 -31.455214 -25.617968 -118.43032
156853000 -25.604813 -124.58876 -0.091196045 -31.65638 -0.090299457 -31.647635 -25.611423 -118.72563
157852000 -25.611557 -124.83458 -0.092468828 -31.855705 -0.092274211 -31.84833 -25.600281 -119.13158
158851000 -25.607702 -125.05438 -0.093264304 -32.055031 -0.092301711 -32.043865 -25.581503 -119.36658
159850000 -25.604509 -125.14268 -0.093489118 -32.254173 -0.092490509 -32.246811 -25.583138 -119.55216
160849000 -25.585247 -125.23951 -0.094200134 -32.454735 -0.093007244 -32.449356 -25.560616 -119.82783
161848000 -25.56658 -125.33202 -0.093632214 -32.655724 -0.092420176 -32.64983 -25.521011 -119.95952
162847000 -25.529955 -125.5361 -0.094289809 -32.853165 -0.093105622 -32.852211 -25.489969 -120.2173
163846000 -25.489714 -125.68731 -0.094513357 -33.058796 -0.093216702 -33.04528 -25.412542 -120.23109
164845000 -25.432539 -125.69282 -0.094691403 -33.255611 -0.093776897 -33.248043 -25.349771 -120.31139
165844000 -25.381105 -125.7382 -0.094357803 -33.45406 -0.094002798 -33.450294 -25.272665 -120.42201
166843000 -25.317917 -125.79481 -0.094799347 -33.655746 -0.094269969 -33.653324 -25.206779 -120.60021
167842000 -25.258141 -125.90636 -0.095586523 -33.852081 -0.09433981 -33.847099 -25.13102 -120.51083
168841000 -25.181276 -126.07148 -0.09593001 -34.055256 -0.094913647 -34.047028 -25.054226 -120.58749
169840000 -25.114916 -126.3437 -0.096012846 -34.250263 -0.095380917 -34.247723 -24.968842 -120.7791
170839000 -25.056805 -126.54263 -0.097002998 -34.448601 -0.096231185 -34.444515 -24.88916 -120.9525
171838000 -24.999393 -126.93706 -0.096414335 -34.648262 -0.096559905 -34.642563 -24.829193 -121.17144
172837000 -24.927624 -127.29522 -0.097703472 -34.84697 -0.096971765 -34.839947 -24.757429 -121.36468
173836000 -24.85988 -127.67163 -0.0991842 -35.047226 -0.098761536 -35.042614 -24.716438 -121.58943
174835000 -24.806604 -128.08749 -0.099566117 -35.241615 -0.099443749 -35.241772 -24.67543 -121.90474
175834000 -24.752905 -128.481 -0.10030673 -35.44104 -0.10023892 -35.439018 -24.612282 -122.21218
176833000 -24.70454 -128.76465 -0.10159385 -35.64043 -0.10081698 -35.640179 -24.563416 -122.31277
177832000 -24.655275 -129.20944 -0.10247952 -35.843285 -0.10216387 -35.838554 -24.547306 -122.41381
178831000 -24.61314 -129.45169 -0.1039473 -36.036747 -0.10365355 -36.03162 -24.504471 -122.5007
179830000 -24.547924 -129.847 -0.10536041 -36.217449 -0.10402207 -36.220806 -24.439167 -122.55309
180829000 -24.496643 -130.17285 -0.10462874 -36.411915 -0.10390462 -36.413883 -24.396433 -122.91563
181828000 -24.470188 -130.62506 -0.10392689 -36.615856 -0.10343351 -36.612434 -24.37735 -123.10072
182827000 -24.447947 -130.99539 -0.10336883 -36.807926 -0.10349449 -36.809837 -24.36438 -123.22441
183826000 -24.408079 -131.33566 -0.1039709 -37.010208 -0.10347831 -37.007534 -24.356554 -123.38277
184825000 -24.41375 -131.64185 -0.10472579 -37.205315 -0.10400033 -37.206997 -24.33918 -123.52382
185824000 -24.384964 -131.9922 -0.10451552 -37.400906 -0.10369942 -37.399387 -24.331635 -123.56878
186823000 -24.362869 -132.37985 -0.10459612 -37.602802 -0.10420077 -37.603123 -24.328369 -123.57619
187822000 -24.342106 -132.69087 -0.10472341 -37.795948 -0.10495836 -37.800758 -24.286726 -123.65193
188821000 -24.31905 -132.96239 -0.10484724 -37.993446 -0.10522966 -37.99789 -24.266142 -123.78797
189820000 -24.299673 -133.24847 -0.10519359 -38.197193 -0.10493688 -38.193207 -24.251966 -123.98122
190819000 -24.265913 -133.56708 -0.10606807 -38.393028 -0.10570839 -38.393036 -24.209492 -124.02586
191818000 -24.238482 -133.86311 -0.10600175 -38.589989 -0.10547499 -38.589222 -24.186728 -124.0891
192817000 -24.191479 -134.1461 -0.10633334 -38.784645 -0.10635456 -38.786655 -24.134579 -124.1448
193816000 -24.158484 -134.40741 -0.10631556 -38.980175 -0.10631131 -38.984203 -24.08481 -124.29675
194815000 -24.094879 -134.77422 -0.10666176 -39.176907 -0.10699499 -39.181293 -24.01889 -124.35255
195814000 -24.041082 -135.00595 -0.1075957 -39.376312 -0.10656387 -39.378368 -23.964502 -124.46603
196813000 -23.984375 -135.30667 -0.10747364 -39.567177 -0.10713693 -39.57489 -23.884981 -124.59377
197812000 -23.928921 -135.5294 -0.10829364 -39.76923 -0.10755537 -39.766666 -23.813269 -124.6981
198811000 -23.875553 -135.69489 -0.10728286 -39.968529 -0.10713879 -39.968872 -23.744381 -124.86619
199810000 -23.802599 -136.04199 -0.10713189 -40.157982 -0.10763922 -40.158485 -23.665527 -124.98254
200809000 -23.746199 -136.30193 -0.10803435 -40.355526 -0.10767345 -40.357609 -23.586077 -125.14137
201808000 -23.685667 -136.50812 -0.10909998 -40.559956 -0.1084704 -40.557785 -23.52483 -125.22598
202807000 -23.628361 -136.85535 -0.10935242 -40.758858 -0.10924704 -40.761036 -23.468447 -125.41111
