!Keysight Technologies,E5080B,MY59205177,A.15.75.32
!Date: Friday, February 23, 2024 02:54:03
!Correction: S11(Cdelta 2-Port  ) 
!S21(Cdelta 2-Port  ) 
!S12(Cdelta 2-Port  ) 
!S22(Cdelta 2-Port  ) 
!S2P File: Measurements: S11, S21, S12, S22:
# Hz S  dB   R 50
10000000 -43.556103 -3.6021035 -0.031451423 -2.0456154 -0.034721043 -2.0981119 -48.948051 -146.93005
10999000 -42.948586 -5.4026151 -0.032588664 -2.2614367 -0.034596838 -2.3146465 -48.639538 -138.42435
11998000 -42.22179 -7.6831331 -0.032794185 -2.4845548 -0.033914559 -2.5298328 -48.749317 -132.78647
12997000 -41.592312 -11.974272 -0.032238409 -2.6647916 -0.034319479 -2.6959734 -47.886715 -126.21124
13996000 -41.379707 -15.062157 -0.030913807 -2.8438177 -0.034048658 -2.8611991 -47.401409 -120.12807
14995000 -41.079491 -18.745121 -0.032886256 -3.0536692 -0.033521418 -3.0769897 -46.915592 -116.70135
15994000 -40.990433 -22.24395 -0.034616146 -3.2710683 -0.036050983 -3.2923813 -46.645428 -113.46374
16993000 -40.973511 -26.043646 -0.033714201 -3.465703 -0.035562649 -3.4764013 -45.734917 -114.68223
17992000 -41.063755 -30.206106 -0.034246944 -3.6655505 -0.035850268 -3.6684029 -45.103497 -115.6793
18991000 -41.379372 -34.410873 -0.035534721 -3.8771634 -0.037136171 -3.8758922 -44.317886 -115.69886
19990000 -41.229626 -39.155979 -0.036915559 -4.0839691 -0.038816039 -4.0835543 -43.695774 -117.74488
20989000 -41.167526 -42.262131 -0.039740466 -4.2867537 -0.041132573 -4.2750187 -43.074837 -117.5123
21988000 -41.157551 -46.882145 -0.040921953 -4.4855423 -0.041196074 -4.4710598 -42.785385 -117.25651
22987000 -40.9548 -50.827675 -0.041812848 -4.6833878 -0.04258943 -4.6767178 -42.532734 -116.98437
23986000 -41.000736 -54.814121 -0.041288845 -4.8814816 -0.041325431 -4.8771992 -42.385582 -117.15276
24985000 -40.722118 -57.490433 -0.041936476 -5.0870743 -0.041847348 -5.0807614 -42.114758 -114.56767
25984000 -40.483536 -59.665363 -0.042826016 -5.2942848 -0.042175114 -5.2939076 -41.742283 -113.49692
26983000 -40.22868 -61.428345 -0.044047303 -5.4911313 -0.043023396 -5.5077524 -41.61274 -112.43486
27982000 -40.092106 -62.527111 -0.045138411 -5.6903214 -0.044442445 -5.7245493 -41.220478 -111.3004
28981000 -40.11412 -63.888695 -0.042914115 -5.8904886 -0.044830039 -5.9131465 -40.999393 -110.59385
29980000 -39.710617 -65.542595 -0.042887188 -6.074914 -0.045124285 -6.0872879 -40.678143 -110.12804
30979000 -39.337036 -64.987152 -0.040942594 -6.4332948 -0.039042491 -6.4250879 -40.151257 -110.98067
31978000 -39.183582 -65.997711 -0.040513542 -6.6296616 -0.040412948 -6.6213827 -39.874344 -110.36464
32977000 -39.015511 -67.744095 -0.04037663 -6.8398657 -0.041342944 -6.8348813 -39.603188 -110.58288
33976000 -38.878166 -68.883987 -0.041225605 -7.0388288 -0.042061415 -7.0363736 -39.305061 -110.20408
34975000 -38.588226 -69.962227 -0.041159227 -7.2373233 -0.042391546 -7.2397246 -39.056072 -110.08389
35974000 -38.431015 -70.586578 -0.040209677 -7.4366922 -0.042517282 -7.4339848 -38.742832 -109.30476
36973000 -38.182251 -71.514343 -0.040953308 -7.6337638 -0.042666547 -7.6334 -38.456833 -108.47139
37972000 -38.01165 -71.412445 -0.039580069 -7.8445969 -0.04239573 -7.8530641 -38.190891 -107.97715
38971000 -37.691353 -71.217499 -0.041313149 -8.04492 -0.043206405 -8.0565395 -37.984951 -106.51139
39970000 -37.382755 -71.819237 -0.040107522 -8.2382202 -0.042501077 -8.2545547 -37.710419 -106.00579
40969000 -37.105885 -71.759583 -0.039870564 -8.4334021 -0.041079786 -8.4494467 -37.424881 -104.76933
41968000 -36.761379 -71.882782 -0.040210463 -8.6403704 -0.042512316 -8.6529102 -37.231655 -103.59122
42967000 -36.520279 -72.303513 -0.03957589 -8.8522997 -0.042525124 -8.8720064 -36.989567 -101.76538
43966000 -36.247749 -73.144379 -0.040072776 -9.0479269 -0.044214401 -9.0686445 -36.675125 -101.28532
44965000 -36.039337 -74.086464 -0.041884463 -9.2482433 -0.043677036 -9.2662258 -36.462612 -101.06165
45964000 -35.805695 -75.185287 -0.043057643 -9.4553766 -0.044998214 -9.4722404 -36.237747 -101.01297
46963000 -35.653923 -77.297295 -0.042638578 -9.6481686 -0.045449421 -9.6675625 -36.040176 -101.3671
47962000 -35.517838 -78.801598 -0.043967806 -9.8460646 -0.046801753 -9.8620977 -35.833591 -101.64082
48961000 -35.332432 -80.229691 -0.045848355 -10.044152 -0.048679862 -10.064491 -35.610924 -101.93824
49960000 -35.121685 -81.718338 -0.047796715 -10.243623 -0.049470767 -10.265106 -35.474754 -102.21463
50959000 -34.934422 -83.085861 -0.048023637 -10.457357 -0.050681613 -10.467175 -35.295376 -102.71704
51958000 -34.733372 -84.271988 -0.049399287 -10.652394 -0.052457385 -10.662307 -35.111698 -103.20184
52957000 -34.553608 -85.468559 -0.051454809 -10.857355 -0.052819755 -10.859626 -34.954861 -103.05488
53956000 -34.391228 -86.160484 -0.053256314 -11.051317 -0.05384152 -11.055984 -34.802795 -103.26405
54955000 -34.235119 -86.774765 -0.053447355 -11.258645 -0.055082161 -11.249155 -34.661335 -103.20377
55954000 -34.073608 -87.721817 -0.054603741 -11.458876 -0.055354558 -11.456471 -34.545502 -102.96897
56953000 -33.973309 -87.857925 -0.054339517 -11.65095 -0.054486305 -11.640741 -34.479721 -103.32575
57952000 -33.810493 -88.389648 -0.055988293 -11.851142 -0.055364784 -11.843567 -34.373653 -103.36279
58951000 -33.677998 -88.893349 -0.056350958 -12.057237 -0.056825113 -12.041298 -34.204887 -103.61395
59950000 -33.571476 -89.189026 -0.057064049 -12.258521 -0.05703808 -12.236415 -34.1343 -103.88286
60949000 -33.454887 -89.871315 -0.057256829 -12.461303 -0.058066349 -12.437897 -34.047848 -104.18837
61948000 -33.404079 -90.203758 -0.057909206 -12.658019 -0.057693575 -12.638377 -33.977161 -104.25016
62947000 -33.318874 -90.48101 -0.057869855 -12.8673 -0.058313746 -12.847436 -33.827347 -104.53373
63946000 -33.256302 -91.159042 -0.05865404 -13.066497 -0.059065469 -13.04528 -33.72575 -104.75422
64945000 -33.159725 -91.347023 -0.059791341 -13.268792 -0.059976634 -13.247726 -33.617123 -105.33881
65944000 -33.044769 -91.555489 -0.060496859 -13.466887 -0.060283985 -13.450047 -33.527283 -105.80186
66943000 -32.916824 -92.13121 -0.058403734 -13.667562 -0.058537543 -13.652542 -33.421947 -105.9462
67942000 -32.848164 -92.066833 -0.060092378 -13.863418 -0.060187917 -13.85024 -33.306633 -106.34602
68941000 -32.746212 -92.180267 -0.060173217 -14.059601 -0.059253354 -14.051528 -33.187897 -106.30879
69940000 -32.647049 -92.225723 -0.060459323 -14.260396 -0.059847768 -14.247754 -33.045059 -106.63326
70939000 -32.537708 -92.188705 -0.059759583 -14.453523 -0.059908655 -14.447706 -32.909283 -106.46312
71938000 -32.39006 -91.717155 -0.059864827 -14.650743 -0.060079519 -14.642586 -32.786865 -106.43636
72937000 -32.2239 -91.678223 -0.059811022 -14.849563 -0.058513407 -14.842766 -32.64772 -106.24004
73936000 -32.092613 -91.302368 -0.059925452 -15.047916 -0.059520241 -15.037331 -32.52618 -105.97204
74935000 -31.974203 -91.638245 -0.058893073 -15.24043 -0.058189914 -15.237006 -32.372131 -105.68678
75934000 -31.843189 -91.909058 -0.058799922 -15.451904 -0.057655014 -15.444489 -32.279572 -105.6848
76933000 -31.723211 -92.290504 -0.060976457 -15.644408 -0.059514467 -15.63699 -32.110172 -106.02728
77932000 -31.628971 -93.128647 -0.061725225 -15.842489 -0.060731795 -15.828902 -32.014942 -106.0774
78931000 -31.56171 -93.88356 -0.060587682 -16.039391 -0.060550142 -16.032007 -31.907373 -105.92794
79930000 -31.455902 -94.677994 -0.06249461 -16.231054 -0.063130699 -16.228605 -31.817917 -106.27309
80929000 -31.319077 -95.636078 -0.064823814 -16.425995 -0.064285465 -16.423759 -31.711834 -106.62462
81928000 -31.262823 -96.534523 -0.06440264 -16.619537 -0.064375319 -16.617476 -31.590797 -106.75477
82927000 -31.156153 -97.273102 -0.066241592 -16.819719 -0.066191129 -16.814144 -31.491335 -107.11695
83926000 -31.053635 -97.999695 -0.06716872 -17.013443 -0.066765197 -17.013117 -31.370243 -107.3309
84925000 -30.953894 -98.505356 -0.068815805 -17.214111 -0.067056991 -17.212147 -31.275167 -107.41363
85924000 -30.862419 -99.017876 -0.06900622 -17.417152 -0.068865776 -17.411186 -31.200703 -107.48602
86923000 -30.767071 -99.577065 -0.069299474 -17.610397 -0.069638267 -17.604704 -31.102501 -107.40509
87922000 -30.654896 -99.971466 -0.069287904 -17.816017 -0.068375573 -17.807158 -31.003181 -107.46753
88921000 -30.58688 -100.3053 -0.070801862 -18.013876 -0.069502801 -18.010855 -30.909843 -107.4688
89920000 -30.489799 -100.90878 -0.07142207 -18.212873 -0.069961034 -18.20343 -30.871746 -107.6844
90919000 -30.388592 -101.22231 -0.071423121 -18.409678 -0.070625842 -18.407171 -30.77792 -107.90781
91918000 -30.293995 -101.64926 -0.072823055 -18.612482 -0.071260497 -18.601753 -30.70503 -107.89451
92917000 -30.208479 -101.99257 -0.073698401 -18.809595 -0.072615892 -18.805689 -30.641741 -108.01875
93916000 -30.126722 -102.36124 -0.072925977 -19.000479 -0.072364256 -18.998766 -30.552067 -108.71548
94915000 -30.042545 -103.04308 -0.075055875 -19.20463 -0.072897285 -19.198738 -30.497454 -108.55462
95914000 -29.981419 -103.25881 -0.075823672 -19.397993 -0.074539699 -19.394688 -30.404421 -108.8469
96913000 -29.897154 -103.44543 -0.076470412 -19.600323 -0.07498055 -19.595253 -30.339539 -109.22123
97912000 -29.827915 -104.00317 -0.077899911 -19.793488 -0.075473078 -19.793167 -30.255682 -109.47186
98911000 -29.72257 -104.1745 -0.077936545 -19.993946 -0.07701844 -19.992531 -30.215771 -109.73144
99910000 -29.658434 -104.29145 -0.078616284 -20.191601 -0.077028453 -20.190413 -30.106348 -109.97324
100909000 -29.569256 -104.61768 -0.078231201 -20.402996 -0.076186419 -20.396198 -30.014666 -110.19673
101908000 -29.481617 -104.79668 -0.07968764 -20.601015 -0.07790228 -20.597492 -29.902712 -109.89613
102907000 -29.344555 -104.87822 -0.079467759 -20.801504 -0.07809072 -20.799978 -29.833323 -109.92055
103906000 -29.251766 -104.91881 -0.080011681 -21.005743 -0.07721106 -21.002462 -29.674749 -109.86249
104905000 -29.107397 -104.83891 -0.080490537 -21.201265 -0.078122348 -21.205486 -29.543802 -109.5372
105904000 -28.966238 -104.95517 -0.081518829 -21.405336 -0.07797581 -21.402229 -29.434206 -109.40811
106903000 -28.855783 -105.08152 -0.080698602 -21.61199 -0.07752727 -21.604975 -29.306053 -109.32809
107902000 -28.697412 -105.43788 -0.081835359 -21.810446 -0.079149291 -21.803587 -29.163843 -109.2776
108901000 -28.588638 -105.68843 -0.082797222 -22.014149 -0.080124795 -22.003338 -29.031776 -109.22383
109900000 -28.462017 -106.20452 -0.083740823 -22.215073 -0.081375875 -22.200953 -28.88566 -109.33992
110899000 -28.343172 -106.85731 -0.084852509 -22.407772 -0.081868336 -22.40205 -28.750711 -109.62834
111898000 -28.256531 -107.54053 -0.086362399 -22.609589 -0.083236806 -22.606846 -28.643026 -109.81361
112897000 -28.132193 -108.11221 -0.087792777 -22.808008 -0.084355757 -22.800465 -28.507935 -109.99231
113896000 -28.032417 -108.75415 -0.088460065 -23.008238 -0.085860983 -22.999018 -28.390747 -110.1766
114895000 -27.93848 -109.42319 -0.089843825 -23.206976 -0.087166272 -23.192846 -28.288874 -110.28774
115894000 -27.810461 -109.75061 -0.091421284 -23.405291 -0.088654242 -23.395674 -28.219501 -110.45625
116893000 -27.725655 -110.35745 -0.091248386 -23.604984 -0.088588722 -23.586933 -28.086613 -110.60275
117892000 -27.648375 -110.89986 -0.091610834 -23.801764 -0.089904614 -23.789316 -28.015266 -110.84155
118891000 -27.589315 -111.29587 -0.092164211 -24.001019 -0.089369223 -23.987091 -27.917971 -111.04399
119890000 -27.506392 -111.6891 -0.092254117 -24.205132 -0.09093646 -24.18692 -27.909571 -111.14565
120889000 -27.450207 -112.20744 -0.094413616 -24.40205 -0.091024749 -24.388803 -27.833889 -111.1416
121888000 -27.413952 -112.56306 -0.093785889 -24.597429 -0.091679841 -24.582993 -27.77446 -111.46947
122887000 -27.373594 -112.74919 -0.095167384 -24.799191 -0.092228733 -24.786177 -27.733009 -111.49657
123886000 -27.315878 -113.2002 -0.095366098 -25.003601 -0.092786156 -24.982014 -27.71946 -111.63323
124885000 -27.276089 -113.71695 -0.095569588 -25.20274 -0.093008831 -25.186903 -27.687868 -111.66882
125884000 -27.231886 -113.88113 -0.096553288 -25.399223 -0.093364544 -25.384029 -27.660116 -111.91432
126883000 -27.207724 -114.28247 -0.096618928 -25.602304 -0.094424203 -25.586359 -27.614456 -111.96599
127882000 -27.156799 -114.6124 -0.097201534 -25.803795 -0.094878457 -25.783258 -27.577831 -112.11763
128881000 -27.126202 -114.92057 -0.097098827 -26.003111 -0.094884805 -25.98571 -27.532299 -112.24335
129880000 -27.072294 -115.25159 -0.098216057 -26.205713 -0.094666272 -26.188324 -27.489887 -112.23358
130879000 -27.014288 -115.36861 -0.097766481 -26.402138 -0.095478557 -26.384371 -27.413658 -112.29483
131878000 -26.947924 -115.61606 -0.098288871 -26.605658 -0.096186459 -26.586189 -27.345108 -112.1867
132877000 -26.877743 -115.64787 -0.097835846 -26.805065 -0.096312702 -26.788292 -27.26219 -112.19389
133876000 -26.783649 -115.82433 -0.098847076 -27.00786 -0.096012846 -26.990168 -27.16993 -112.06788
134875000 -26.695494 -115.95787 -0.098200172 -27.211828 -0.096359544 -27.188049 -27.064581 -111.93967
135874000 -26.605724 -115.95782 -0.098195404 -27.408327 -0.096474148 -27.389496 -26.965202 -111.94363
136873000 -26.500607 -115.89747 -0.099471562 -27.612385 -0.096387073 -27.5961 -26.884989 -111.8804
137872000 -26.42144 -116.00191 -0.099223927 -27.810307 -0.096434183 -27.793289 -26.769516 -111.86794
138871000 -26.347269 -116.23091 -0.099241674 -28.010822 -0.09648791 -27.996637 -26.677645 -112.05384
139870000 -26.2484 -116.47868 -0.10080108 -28.208267 -0.098283842 -28.194639 -26.589869 -112.19064
140869000 -26.165724 -116.98442 -0.10232104 -28.409126 -0.099480569 -28.388771 -26.483234 -112.32339
141868000 -26.069513 -117.41069 -0.10268652 -28.59446 -0.099960253 -28.581213 -26.412462 -112.70975
142867000 -25.993177 -117.68927 -0.10092296 -28.797392 -0.099458583 -28.779898 -26.339405 -112.92743
143866000 -25.928759 -118.1938 -0.10325855 -28.993191 -0.10034224 -28.975866 -26.259897 -113.39368
144865000 -25.866138 -118.76575 -0.10436543 -29.18926 -0.10166169 -29.174696 -26.209978 -113.73348
145864000 -25.811567 -119.06947 -0.10492522 -29.392029 -0.10270932 -29.379997 -26.179853 -113.98866
146863000 -25.765314 -119.46949 -0.10534052 -29.588041 -0.1033174 -29.576492 -26.125105 -114.33619
147862000 -25.721663 -119.80209 -0.10615136 -29.786821 -0.10352895 -29.7759 -26.085585 -114.6799
148861000 -25.691017 -120.34531 -0.10630999 -29.985395 -0.10447839 -29.968487 -26.065578 -114.94072
149860000 -25.679768 -120.57225 -0.10708174 -30.188818 -0.1045651 -30.168615 -26.035982 -115.10369
150859000 -25.655611 -120.96661 -0.10765514 -30.385685 -0.10513233 -30.364098 -26.026907 -115.37151
151858000 -25.63879 -121.24155 -0.10771935 -30.586271 -0.10528032 -30.566042 -26.015766 -115.69521
152857000 -25.61989 -121.58833 -0.10814077 -30.778202 -0.10547976 -30.768339 -25.997431 -115.86391
153856000 -25.613066 -121.8142 -0.10767955 -30.97879 -0.10489578 -30.964838 -26.022026 -116.12138
154855000 -25.60454 -122.00877 -0.10829629 -31.176502 -0.10513552 -31.168308 -26.004536 -116.3582
155854000 -25.618275 -122.23221 -0.10878783 -31.376165 -0.10574552 -31.364082 -25.990799 -116.62294
156853000 -25.601524 -122.93375 -0.10601024 -31.565109 -0.1052042 -31.555361 -25.992025 -116.93934
157852000 -25.600872 -123.18011 -0.10735424 -31.7659 -0.10703 -31.754045 -25.978512 -117.27292
158851000 -25.600319 -123.39327 -0.1080309 -31.963657 -0.10730913 -31.954464 -25.961342 -117.51454
159850000 -25.583296 -123.52477 -0.10832044 -32.16404 -0.10684508 -32.153057 -25.960815 -117.66927
160849000 -25.564131 -123.63702 -0.10844385 -32.361572 -0.10807973 -32.353733 -25.928999 -117.99004
161848000 -25.541216 -123.73096 -0.10900602 -32.562252 -0.10759172 -32.55508 -25.88957 -118.07477
162847000 -25.498474 -123.92948 -0.10901982 -32.759068 -0.10826895 -32.754902 -25.854456 -118.32277
163846000 -25.456701 -124.14142 -0.10912573 -32.956001 -0.1081344 -32.950062 -25.781523 -118.32858
164845000 -25.397156 -124.14264 -0.1102296 -33.156414 -0.10879712 -33.153477 -25.712399 -118.41647
165844000 -25.337465 -124.21557 -0.10970417 -33.356186 -0.10917006 -33.352238 -25.631796 -118.5565
166843000 -25.280022 -124.30114 -0.10962931 -33.555347 -0.10947613 -33.549442 -25.556927 -118.73742
167842000 -25.217012 -124.45467 -0.11020756 -33.75428 -0.10894709 -33.750793 -25.481091 -118.64754
168841000 -25.141722 -124.64472 -0.11112128 -33.951572 -0.10943206 -33.948742 -25.401085 -118.74654
169840000 -25.074509 -124.90125 -0.1107742 -34.150024 -0.1103605 -34.145538 -25.315701 -118.90612
170839000 -25.020008 -125.18182 -0.11187875 -34.34824 -0.1109569 -34.341747 -25.222456 -119.12337
171838000 -24.959721 -125.57773 -0.11163625 -34.548496 -0.11207823 -34.540112 -25.162735 -119.35017
172837000 -24.885813 -125.97571 -0.11341242 -34.739685 -0.11203414 -34.734467 -25.094183 -119.60402
173836000 -24.824667 -126.37876 -0.11469332 -34.940907 -0.11291504 -34.936916 -25.049467 -119.8541
174835000 -24.770565 -126.86121 -0.11415008 -35.136997 -0.1133885 -35.132339 -25.004402 -120.18793
175834000 -24.720516 -127.23024 -0.11528873 -35.335602 -0.11447698 -35.329651 -24.942369 -120.44939
176833000 -24.674828 -127.62363 -0.11645213 -35.53056 -0.11517389 -35.527191 -24.890993 -120.63385
177832000 -24.625767 -128.09122 -0.1167276 -35.72707 -0.11541633 -35.727692 -24.873936 -120.82484
178831000 -24.586065 -128.51001 -0.11753232 -35.924721 -0.11574597 -35.920704 -24.82996 -121.05945
179830000 -24.549749 -128.9351 -0.11767541 -36.12146 -0.1163136 -36.12331 -24.810457 -121.18696
180829000 -24.515635 -129.166 -0.1180289 -36.320908 -0.11630774 -36.318192 -24.777719 -121.35875
181828000 -24.489183 -129.50385 -0.11837124 -36.516468 -0.11607829 -36.516216 -24.758541 -121.48888
182827000 -24.461424 -129.85704 -0.11838401 -36.712883 -0.11736318 -36.709389 -24.74733 -121.59401
183826000 -24.423264 -130.20563 -0.1195501 -36.91161 -0.11642341 -36.90527 -24.734505 -121.69939
184825000 -24.429619 -130.54596 -0.11949901 -37.102558 -0.11823611 -37.104069 -24.725853 -121.81294
185824000 -24.398659 -130.89867 -0.11912705 -37.29945 -0.11810657 -37.299683 -24.721424 -121.85926
186823000 -24.384323 -131.23438 -0.11948811 -37.500462 -0.11776371 -37.499485 -24.717373 -121.83444
187822000 -24.366055 -131.56487 -0.11986383 -37.691471 -0.11938035 -37.694237 -24.68338 -121.91426
188821000 -24.343971 -131.81866 -0.11979198 -37.892159 -0.11990747 -37.894016 -24.665518 -122.03256
189820000 -24.330982 -132.04955 -0.11983882 -38.093109 -0.11939657 -38.093513 -24.656113 -122.16728
190819000 -24.300934 -132.31165 -0.12130768 -38.29427 -0.12028696 -38.289391 -24.623255 -122.09557
191818000 -24.264772 -132.48543 -0.12279755 -38.485603 -0.12209488 -38.485416 -24.589355 -122.03125
192817000 -24.188814 -132.76303 -0.12305931 -38.669109 -0.12274669 -38.671413 -24.516876 -122.06532
193816000 -24.158264 -133.13751 -0.12258586 -38.859734 -0.12103724 -38.864723 -24.460064 -122.33555
194815000 -24.098711 -133.54842 -0.12207998 -39.059822 -0.12151292 -39.060062 -24.399668 -122.45835
195814000 -24.049139 -133.79214 -0.12234755 -39.25967 -0.12178525 -39.258099 -24.342747 -122.58367
196813000 -23.995897 -134.10236 -0.12230682 -39.452229 -0.12208743 -39.455418 -24.265417 -122.75776
197812000 -23.936008 -134.36621 -0.12270621 -39.651264 -0.12184942 -39.645206 -24.194431 -122.84525
198811000 -23.885048 -134.53693 -0.12181321 -39.847538 -0.12117379 -39.851185 -24.125206 -123.02139
199810000 -23.81226 -134.90097 -0.12258559 -40.04084 -0.12137609 -40.042171 -24.045866 -123.12563
200809000 -23.758493 -135.17569 -0.12300739 -40.240238 -0.12167424 -40.241692 -23.96649 -123.32856
201808000 -23.70351 -135.4193 -0.12345718 -40.442352 -0.1223803 -40.441971 -23.898331 -123.4138
202807000 -23.641123 -135.79079 -0.12485214 -40.638775 -0.12283563 -40.640614 -23.841919 -123.62045
203806000 -23.591303 -136.21956 -0.12601465 -40.841034 -0.12371952 -40.841042 -23.777691 -123.76138
