!Keysight Technologies,E5080B,MY59205177,A.15.75.32
!Date: Friday, February 23, 2024 03:32:16
!Correction: S11(Cdelta 2-Port  ) 
!S21(Cdelta 2-Port  ) 
!S12(Cdelta 2-Port  ) 
!S22(Cdelta 2-Port  ) 
!S2P File: Measurements: S11, S21, S12, S22:
# Hz S  dB   R 50
10000000 -46.117908 -2.0620778 -0.014768954 -2.0466352 -0.017501516 -2.0996356 -45.944611 -157.71893
10999000 -45.240807 -4.1648059 -0.016091499 -2.2688179 -0.017715942 -2.3189554 -45.907505 -151.74014
11998000 -44.305431 -7.3189859 -0.016870253 -2.4916897 -0.018041372 -2.5345669 -46.10693 -147.39291
12997000 -43.630856 -13.119996 -0.015658401 -2.6695313 -0.017634589 -2.7037542 -45.711468 -141.3773
13996000 -43.290947 -16.667364 -0.015027924 -2.8535941 -0.017775204 -2.8753078 -45.549793 -136.63594
14995000 -42.877167 -21.165716 -0.017565193 -3.0616145 -0.017223686 -3.0841813 -45.205147 -132.68538
15994000 -42.748695 -25.54228 -0.017982885 -3.2818198 -0.020285729 -3.3039439 -45.095379 -129.67877
16993000 -42.69125 -29.969454 -0.0182826 -3.4777663 -0.019159505 -3.4889879 -44.266293 -129.42189
17992000 -42.721828 -35.649372 -0.018326793 -3.6797974 -0.020166358 -3.6817524 -43.722775 -129.35497
18991000 -42.960777 -40.410275 -0.019651461 -3.8884075 -0.020775473 -3.8878307 -43.058304 -128.32457
19990000 -42.782585 -46.310131 -0.021434618 -4.0992551 -0.022491697 -4.0916038 -42.405155 -128.81305
20989000 -42.632984 -49.788967 -0.024198448 -4.3012567 -0.024396285 -4.2887111 -41.847511 -128.63136
21988000 -42.456528 -54.924255 -0.024605587 -4.4994516 -0.024992716 -4.4874468 -41.589039 -127.82956
22987000 -42.086281 -59.731186 -0.025258806 -4.6991243 -0.025837384 -4.6932268 -41.342293 -126.98212
23986000 -42.031281 -63.996372 -0.024937522 -4.8911085 -0.025647815 -4.8904109 -41.230042 -127.0267
24985000 -41.591728 -66.420868 -0.026289731 -5.1031384 -0.026168631 -5.101665 -41.029797 -124.27543
25984000 -41.300182 -68.832024 -0.02733054 -5.3057208 -0.026602 -5.309792 -40.663109 -122.87689
26983000 -41.00264 -70.521919 -0.028021164 -5.5081758 -0.027209671 -5.5255375 -40.58186 -122.42444
27982000 -40.840733 -71.463898 -0.029272433 -5.704464 -0.029076198 -5.7384825 -40.301147 -120.74003
28981000 -40.779655 -73.215218 -0.027618395 -5.907712 -0.028473476 -5.9332404 -40.056404 -119.81145
29980000 -40.370041 -74.438972 -0.027460529 -6.0951471 -0.029240379 -6.1093583 -39.794468 -119.19623
30979000 -39.999229 -73.446106 -0.02567099 -6.4569588 -0.023691403 -6.4478369 -39.306339 -119.59073
31978000 -39.794968 -74.383255 -0.024906538 -6.6486454 -0.024918776 -6.6397843 -39.065445 -118.79806
32977000 -39.600536 -75.904419 -0.024154978 -6.8576884 -0.025762649 -6.8596287 -38.819405 -118.77862
33976000 -39.436207 -77.004143 -0.025524911 -7.0616674 -0.025832437 -7.0564723 -38.527431 -118.20996
34975000 -39.143883 -77.864784 -0.025621776 -7.2583475 -0.026352756 -7.2631602 -38.293991 -117.80213
35974000 -38.920029 -78.432159 -0.024338497 -7.4579897 -0.026618408 -7.457171 -38.026592 -117.00419
36973000 -38.699474 -79.145752 -0.025426747 -7.6595073 -0.02655538 -7.6640291 -37.784069 -116.03224
37972000 -38.546204 -78.766426 -0.024107343 -7.864841 -0.026609812 -7.8759871 -37.551533 -115.1799
38971000 -38.213795 -78.333572 -0.025735829 -8.0705414 -0.026612157 -8.0799885 -37.380318 -113.70509
39970000 -37.891354 -78.666733 -0.02388427 -8.2641973 -0.026739519 -8.2797966 -37.104786 -113.05342
40969000 -37.605675 -78.389084 -0.024211986 -8.4620476 -0.025930351 -8.4825335 -36.878593 -111.59565
41968000 -37.233257 -78.257515 -0.024267171 -8.6645432 -0.026584549 -8.6823101 -36.697983 -110.46455
42967000 -36.974636 -78.389999 -0.024631361 -8.8830233 -0.026165247 -8.8972425 -36.505539 -108.49354
43966000 -36.675323 -79.134155 -0.024969023 -9.0758305 -0.02804826 -9.0957603 -36.21954 -107.77747
44965000 -36.454971 -79.863365 -0.026073057 -9.2820606 -0.027861979 -9.3020639 -36.01363 -107.46606
45964000 -36.201488 -80.834549 -0.027004674 -9.4832563 -0.029335242 -9.49683 -35.769772 -107.18263
46963000 -36.00605 -82.814354 -0.027411815 -9.6755705 -0.029551296 -9.6977587 -35.583725 -107.43565
47962000 -35.850136 -84.213341 -0.028598027 -9.8796043 -0.030755039 -9.8947945 -35.393177 -107.44965
48961000 -35.640694 -85.527748 -0.030549092 -10.076463 -0.032505207 -10.097823 -35.157909 -107.67043
49960000 -35.399082 -86.986038 -0.031848811 -10.276194 -0.034127712 -10.298388 -35.028664 -107.6778
50959000 -35.166634 -88.212059 -0.032331511 -10.490697 -0.034774534 -10.49929 -34.860035 -107.9884
51958000 -34.971729 -89.197746 -0.034387838 -10.687864 -0.0362585 -10.697984 -34.656998 -108.43362
52957000 -34.745621 -90.213013 -0.036461584 -10.888387 -0.037030432 -10.895513 -34.507645 -108.13148
53956000 -34.589024 -91.027634 -0.037503529 -11.091956 -0.038261842 -11.08926 -34.376083 -108.06542
54955000 -34.422234 -91.366035 -0.038138058 -11.291224 -0.039209921 -11.291259 -34.227077 -108.08607
55954000 -34.249245 -92.281952 -0.039269477 -11.49084 -0.039005663 -11.489259 -34.122639 -107.78046
56953000 -34.129166 -92.374023 -0.039435089 -11.693528 -0.038810555 -11.681114 -34.034512 -107.96839
57952000 -33.96619 -92.836258 -0.039732367 -11.893704 -0.03964407 -11.879195 -33.942619 -107.98177
58951000 -33.849144 -93.207748 -0.041198689 -12.093557 -0.040884323 -12.073938 -33.791218 -108.15562
59950000 -33.719124 -93.52433 -0.041918702 -12.296424 -0.041267678 -12.270945 -33.716553 -108.39071
60949000 -33.601894 -94.159103 -0.04168269 -12.499301 -0.0418761 -12.47471 -33.615757 -108.56931
61948000 -33.543587 -94.468857 -0.042547606 -12.695142 -0.041686874 -12.676624 -33.530724 -108.69735
62947000 -33.448021 -94.705154 -0.042484347 -12.906821 -0.042884573 -12.88841 -33.392494 -109.00839
63946000 -33.380718 -95.448952 -0.043777969 -13.106235 -0.043876547 -13.085194 -33.291046 -109.15966
64945000 -33.263519 -95.57148 -0.044109017 -13.3103 -0.044445321 -13.289672 -33.180294 -109.63578
65944000 -33.15678 -95.84552 -0.045149919 -13.506304 -0.044485856 -13.491561 -33.095303 -110.06705
66943000 -33.028564 -96.254753 -0.042947579 -13.711215 -0.042828105 -13.692716 -32.978519 -110.33183
67942000 -32.979614 -96.185516 -0.044202112 -13.906063 -0.044662129 -13.893441 -32.862503 -110.58692
68941000 -32.858006 -96.30735 -0.044750791 -14.097404 -0.04381353 -14.090117 -32.745808 -110.58694
69940000 -32.757504 -96.29705 -0.044857763 -14.300644 -0.044553332 -14.291902 -32.611286 -110.81154
70939000 -32.64872 -96.276382 -0.044769883 -14.496034 -0.044278212 -14.490146 -32.478657 -110.73559
71938000 -32.511017 -95.833328 -0.044459183 -14.69487 -0.044412632 -14.687217 -32.34272 -110.6164
72937000 -32.350311 -95.639442 -0.04445238 -14.89502 -0.044632312 -14.884583 -32.200756 -110.30251
73936000 -32.216724 -95.273811 -0.044427536 -15.087892 -0.043356739 -15.084555 -32.08411 -110.12248
74935000 -32.093735 -95.49762 -0.043556497 -15.285159 -0.042157862 -15.285567 -31.938112 -109.76087
75934000 -31.954859 -95.68261 -0.043870531 -15.492652 -0.042342927 -15.491356 -31.852293 -109.73742
76933000 -31.833504 -96.051125 -0.044753667 -15.686805 -0.044440091 -15.682837 -31.681417 -109.99162
77932000 -31.730337 -96.793716 -0.046238951 -15.885791 -0.045447592 -15.881474 -31.569281 -109.97602
78931000 -31.657986 -97.539307 -0.045018092 -16.084698 -0.045409661 -16.082317 -31.479725 -109.86633
79930000 -31.538729 -98.423172 -0.046892028 -16.277187 -0.046746805 -16.276525 -31.35874 -110.16488
80929000 -31.425962 -99.197945 -0.049026471 -16.475319 -0.048518613 -16.474482 -31.275806 -110.35394
81928000 -31.328888 -99.910889 -0.04942416 -16.66843 -0.049605869 -16.665997 -31.147617 -110.39098
82927000 -31.22546 -100.73755 -0.050804708 -16.867123 -0.051076051 -16.864855 -31.039965 -110.67484
83926000 -31.10671 -101.38001 -0.052267436 -17.067739 -0.052128579 -17.066008 -30.916071 -110.87605
84925000 -30.997824 -101.80078 -0.052663587 -17.267824 -0.051856387 -17.258633 -30.818289 -110.85667
85924000 -30.908979 -102.19812 -0.053675096 -17.466423 -0.052866396 -17.466728 -30.733286 -110.879
86923000 -30.796688 -102.74639 -0.054287355 -17.663881 -0.053643383 -17.65984 -30.628267 -110.70972
87922000 -30.687595 -103.0329 -0.054281589 -17.869797 -0.053294048 -17.860947 -30.536774 -110.75273
88921000 -30.623949 -103.27585 -0.055264633 -18.070597 -0.0541563 -18.06428 -30.44553 -110.67514
89920000 -30.50947 -103.80728 -0.055911466 -18.269012 -0.054983065 -18.262129 -30.391359 -110.84193
90919000 -30.406523 -104.09118 -0.056664083 -18.465269 -0.054971792 -18.459816 -30.304142 -111.0117
91918000 -30.318506 -104.39815 -0.057610679 -18.667887 -0.055274595 -18.66161 -30.240618 -111.00318
92917000 -30.214577 -104.72008 -0.057923898 -18.864004 -0.057212241 -18.864649 -30.175211 -111.11121
93916000 -30.132408 -105.14902 -0.057851758 -19.05954 -0.056889895 -19.05409 -30.082581 -111.72218
94915000 -30.056801 -105.7415 -0.059465393 -19.262068 -0.058024112 -19.252653 -30.020365 -111.63428
95914000 -29.982468 -105.89576 -0.060231749 -19.455271 -0.059057858 -19.453493 -29.931074 -111.91125
96913000 -29.902836 -106.11901 -0.061509665 -19.654043 -0.059865613 -19.655554 -29.861021 -112.25995
97912000 -29.821737 -106.58356 -0.062544242 -19.849766 -0.060195267 -19.853704 -29.791227 -112.45408
98911000 -29.713535 -106.77128 -0.062929519 -20.054359 -0.061588433 -20.050941 -29.743145 -112.67088
99910000 -29.643229 -106.88753 -0.06374114 -20.250875 -0.061936595 -20.250782 -29.636305 -112.96028
100909000 -29.554953 -107.14546 -0.063115731 -20.460434 -0.061099578 -20.450846 -29.556831 -113.22562
101908000 -29.465126 -107.36755 -0.064413145 -20.660988 -0.062379587 -20.659594 -29.443445 -112.99441
102907000 -29.328497 -107.3976 -0.064498797 -20.859314 -0.06309393 -20.859146 -29.374304 -112.97279
103906000 -29.230566 -107.38759 -0.06556116 -21.067774 -0.062167935 -21.061636 -29.228609 -112.88339
104905000 -29.08515 -107.30646 -0.065326221 -21.268513 -0.062756971 -21.263182 -29.09951 -112.58261
105904000 -28.951502 -107.35866 -0.065466292 -21.466385 -0.063185073 -21.465107 -28.984978 -112.45237
106903000 -28.838263 -107.42877 -0.065649986 -21.677256 -0.06305033 -21.66987 -28.864937 -112.36865
107902000 -28.678459 -107.78963 -0.066608533 -21.876226 -0.064536631 -21.868397 -28.724648 -112.25719
108901000 -28.561663 -108.02131 -0.067604624 -22.078617 -0.065029025 -22.069187 -28.589266 -112.23619
109900000 -28.437355 -108.49393 -0.068365052 -22.275026 -0.066512585 -22.267776 -28.450966 -112.31236
110899000 -28.323736 -109.10478 -0.070746087 -22.4769 -0.067171089 -22.468935 -28.324547 -112.56216
111898000 -28.226374 -109.74627 -0.071231551 -22.677345 -0.068496019 -22.672894 -28.197571 -112.69252
112897000 -28.105124 -110.35114 -0.07266406 -22.877125 -0.069678776 -22.865509 -28.068708 -112.89378
113896000 -27.997887 -110.87205 -0.073672339 -23.076649 -0.070686623 -23.066454 -27.957184 -113.01492
114895000 -27.902599 -111.5171 -0.074824639 -23.277161 -0.071691811 -23.259657 -27.856579 -113.06483
115894000 -27.77306 -111.87572 -0.075887419 -23.477859 -0.072753295 -23.465891 -27.786711 -113.27941
116893000 -27.69799 -112.33321 -0.077159412 -23.675711 -0.073860593 -23.66028 -27.663095 -113.32837
117892000 -27.619719 -112.86597 -0.077216856 -23.87051 -0.073887452 -23.857273 -27.58717 -113.5107
118891000 -27.559715 -113.2417 -0.077296697 -24.071325 -0.074235551 -24.060476 -27.494967 -113.62191
119890000 -27.469444 -113.6713 -0.078507163 -24.273705 -0.075055085 -24.258787 -27.476931 -113.7883
120889000 -27.426132 -114.10894 -0.079295605 -24.47357 -0.075829998 -24.453375 -27.410498 -113.74982
121888000 -27.384724 -114.46085 -0.079462484 -24.672165 -0.075829208 -24.656607 -27.349329 -113.97587
122887000 -27.34429 -114.66989 -0.080495544 -24.873899 -0.076732829 -24.861559 -27.299908 -113.96301
123886000 -27.290276 -115.06561 -0.081504852 -25.075302 -0.077044792 -25.06036 -27.283175 -114.11237
124885000 -27.259958 -115.5419 -0.081674986 -25.275623 -0.077135697 -25.261814 -27.259724 -114.17502
125884000 -27.20719 -115.75562 -0.081916869 -25.473312 -0.077956311 -25.459904 -27.233414 -114.33855
126883000 -27.189171 -116.14053 -0.081892341 -25.676075 -0.078172952 -25.66292 -27.184566 -114.34036
127882000 -27.141146 -116.41154 -0.081970684 -25.876574 -0.078894116 -25.858437 -27.153835 -114.48553
128881000 -27.112402 -116.78553 -0.083245248 -26.077597 -0.079300873 -26.061413 -27.113895 -114.57076
129880000 -27.054968 -117.11916 -0.083807066 -26.280985 -0.079386555 -26.262821 -27.075335 -114.51402
130879000 -26.995895 -117.24712 -0.083274014 -26.478676 -0.080198891 -26.463793 -26.997097 -114.56949
131878000 -26.929186 -117.46932 -0.083102763 -26.684427 -0.080294348 -26.663755 -26.945019 -114.42467
132877000 -26.860069 -117.57096 -0.083591461 -26.883121 -0.081026152 -26.863712 -26.859119 -114.40224
133876000 -26.7785 -117.73499 -0.083755337 -27.085951 -0.080495544 -27.06636 -26.773026 -114.28082
134875000 -26.682268 -117.83196 -0.083889931 -27.284939 -0.081340268 -27.272123 -26.675598 -114.1423
135874000 -26.60597 -117.88833 -0.084414877 -27.487709 -0.080894016 -27.467581 -26.578075 -114.04721
136873000 -26.488789 -117.81628 -0.084494323 -27.689926 -0.081045665 -27.667185 -26.490211 -114.03712
137872000 -26.412439 -117.94231 -0.083283514 -27.893879 -0.081156433 -27.876432 -26.393867 -113.96493
138871000 -26.339266 -118.12452 -0.084848814 -28.090946 -0.081542574 -28.077559 -26.292603 -114.11331
139870000 -26.234474 -118.41051 -0.085449383 -28.289675 -0.082299642 -28.273546 -26.216366 -114.32177
140869000 -26.153667 -118.99686 -0.085318439 -28.491379 -0.08259882 -28.470707 -26.11405 -114.51063
141868000 -26.079039 -119.35705 -0.087162048 -28.685631 -0.084077574 -28.676662 -26.066643 -114.76073
142867000 -25.99386 -119.55506 -0.08553835 -28.882961 -0.084041156 -28.866863 -25.982147 -114.88564
143866000 -25.921791 -120.02433 -0.088003576 -29.079639 -0.085659795 -29.06772 -25.913424 -115.32349
144865000 -25.865465 -120.57703 -0.089059547 -29.28026 -0.086540118 -29.264669 -25.855183 -115.61338
145864000 -25.808395 -120.85201 -0.089777231 -29.481997 -0.08809682 -29.471992 -25.82089 -115.89342
146863000 -25.759851 -121.25011 -0.09023153 -29.679785 -0.08833167 -29.668245 -25.770353 -116.1656
147862000 -25.724377 -121.55691 -0.091505878 -29.879707 -0.088926904 -29.869534 -25.73831 -116.50239
148861000 -25.692419 -121.99752 -0.092824765 -30.074078 -0.090129249 -30.064163 -25.717142 -116.66415
149860000 -25.655279 -122.18668 -0.093777955 -30.267868 -0.090984568 -30.256895 -25.6661 -116.74706
150859000 -25.639799 -122.62763 -0.092899606 -30.466145 -0.091298349 -30.453827 -25.647394 -117.12896
151858000 -25.620274 -122.96236 -0.092392676 -30.670231 -0.090038598 -30.653978 -25.631248 -117.46472
152857000 -25.60845 -123.31732 -0.092803612 -30.87018 -0.090341739 -30.855543 -25.615734 -117.62989
153856000 -25.607504 -123.51511 -0.092454016 -31.068666 -0.089881882 -31.054497 -25.634817 -117.94074
154855000 -25.601423 -123.7059 -0.093193427 -31.264942 -0.090265624 -31.253033 -25.626299 -118.19716
155854000 -25.620825 -123.95184 -0.093363225 -31.469913 -0.091480501 -31.452745 -25.613411 -118.45034
156853000 -25.602705 -124.63815 -0.091393784 -31.653683 -0.08987131 -31.648983 -25.611267 -118.80195
157852000 -25.611662 -124.86254 -0.09247385 -31.858639 -0.091614008 -31.848585 -25.597492 -119.12629
158851000 -25.612497 -125.061 -0.093107738 -32.055496 -0.091856979 -32.047436 -25.583138 -119.39635
159850000 -25.601442 -125.15482 -0.093849108 -32.254047 -0.092249885 -32.246746 -25.584841 -119.53084
160849000 -25.583923 -125.26077 -0.09389355 -32.45253 -0.092726916 -32.448727 -25.554102 -119.84936
161848000 -25.564888 -125.37274 -0.093968935 -32.657543 -0.093106419 -32.649441 -25.512783 -119.9583
162847000 -25.526613 -125.51519 -0.094114423 -32.854424 -0.093373276 -32.849834 -25.48811 -120.22235
163846000 -25.489891 -125.74181 -0.09433981 -33.058517 -0.092589408 -33.04562 -25.410942 -120.20213
164845000 -25.428276 -125.7125 -0.094840355 -33.253117 -0.093727961 -33.244183 -25.346563 -120.30747
165844000 -25.378416 -125.72845 -0.094740875 -33.453365 -0.093881913 -33.445469 -25.273256 -120.4521
166843000 -25.315777 -125.79041 -0.094145112 -33.654495 -0.094363354 -33.646992 -25.203074 -120.58479
167842000 -25.257641 -125.92447 -0.094996989 -33.852982 -0.094731882 -33.844662 -25.128838 -120.53584
168841000 -25.178442 -126.0848 -0.095092505 -34.049763 -0.093897514 -34.048588 -25.056023 -120.61427
169840000 -25.119621 -126.32181 -0.095848769 -34.246899 -0.095266342 -34.243847 -24.968735 -120.76598
170839000 -25.059635 -126.56367 -0.096392363 -34.449169 -0.095440984 -34.444897 -24.886276 -120.95723
171838000 -25.000681 -126.97988 -0.096241772 -34.646473 -0.096837826 -34.642178 -24.823866 -121.17544
172837000 -24.92532 -127.2914 -0.098320909 -34.84322 -0.097534038 -34.838985 -24.757317 -121.39305
173836000 -24.863094 -127.67307 -0.099828869 -35.046135 -0.098790668 -35.041683 -24.718006 -121.59995
174835000 -24.806841 -128.06308 -0.099735633 -35.241646 -0.099372774 -35.240898 -24.668789 -121.90914
175834000 -24.75882 -128.44225 -0.1011593 -35.44083 -0.10048687 -35.436134 -24.607956 -122.17674
176833000 -24.709103 -128.76617 -0.10266744 -35.639721 -0.10084321 -35.637394 -24.559519 -122.31077
177832000 -24.663639 -129.21465 -0.10330812 -35.840919 -0.10173324 -35.840839 -24.542929 -122.45515
178831000 -24.619671 -129.45078 -0.1044471 -36.035061 -0.10368139 -36.036083 -24.502617 -122.5466
179830000 -24.548735 -129.8427 -0.10569195 -36.220612 -0.10440441 -36.221867 -24.436777 -122.56806
180829000 -24.497913 -130.19597 -0.10504853 -36.414021 -0.10364268 -36.412022 -24.39813 -122.92187
181828000 -24.474207 -130.60509 -0.10451446 -36.611023 -0.10295026 -36.609539 -24.38072 -123.11098
182827000 -24.449854 -130.97108 -0.10362492 -36.810719 -0.10266135 -36.809486 -24.36694 -123.23458
183826000 -24.409296 -131.31787 -0.10466056 -37.011951 -0.10304807 -37.003429 -24.355709 -123.34035
184825000 -24.414047 -131.68465 -0.10506205 -37.202457 -0.10334099 -37.205139 -24.338833 -123.52319
185824000 -24.379215 -132.04875 -0.10481755 -37.397552 -0.10400166 -37.404255 -24.331232 -123.58582
186823000 -24.368849 -132.37523 -0.10491858 -37.604004 -0.10334709 -37.59959 -24.324053 -123.60759
187822000 -24.345219 -132.73611 -0.10556781 -37.79641 -0.10509069 -37.798229 -24.283981 -123.68221
188821000 -24.320017 -133.00255 -0.105349 -37.993153 -0.10454945 -37.995289 -24.266617 -123.814
189820000 -24.298901 -133.27502 -0.10570468 -38.192589 -0.10504667 -38.194389 -24.250986 -123.99098
190819000 -24.264309 -133.58585 -0.1062649 -38.391983 -0.10540868 -38.390869 -24.209028 -124.02293
191818000 -24.233343 -133.8848 -0.10648879 -38.589191 -0.1058296 -38.590218 -24.182285 -124.08041
192817000 -24.187414 -134.16635 -0.10708626 -38.781925 -0.10599644 -38.78653 -24.13409 -124.15463
193816000 -24.152191 -134.42166 -0.10722263 -38.984283 -0.10579353 -38.981125 -24.084394 -124.32119
194815000 -24.094929 -134.80548 -0.10700586 -39.174362 -0.10747099 -39.178883 -24.014309 -124.35722
195814000 -24.039766 -134.97923 -0.10839767 -39.373547 -0.10697747 -39.377392 -23.96187 -124.45641
196813000 -23.982241 -135.33047 -0.10809831 -39.567348 -0.10737652 -39.569336 -23.882221 -124.64002
197812000 -23.924318 -135.52339 -0.10791148 -39.765915 -0.10734044 -39.765614 -23.812168 -124.70634
198811000 -23.867538 -135.70244 -0.10799906 -39.963627 -0.10701595 -39.964954 -23.741224 -124.86325
199810000 -23.801212 -136.02975 -0.10814396 -40.158375 -0.10727092 -40.154472 -23.664152 -124.96775
200809000 -23.743895 -136.2979 -0.1080991 -40.360088 -0.10756121 -40.354809 -23.58709 -125.15243
201808000 -23.683952 -136.50626 -0.10916369 -40.556881 -0.1086376 -40.556545 -23.515165 -125.22036
202807000 -23.625933 -136.82195 -0.10963038 -40.759197 -0.10910476 -40.762115 -23.464197 -125.42956
