!Keysight Technologies,E5080B,MY59205177,A.15.75.32
!Date: Friday, February 23, 2024 02:54:09
!Correction: S11(Cdelta 2-Port  ) 
!S21(Cdelta 2-Port  ) 
!S12(Cdelta 2-Port  ) 
!S22(Cdelta 2-Port  ) 
!S2P File: Measurements: S11, S21, S12, S22:
# Hz S  dB   R 50
10000000 -43.627754 -3.9601266 -0.031101784 -2.0437341 -0.03414467 -2.0958679 -48.864841 -147.10573
10999000 -43.020775 -5.3123293 -0.031848289 -2.25981 -0.034252685 -2.3161108 -48.484634 -138.67223
11998000 -42.275166 -7.75317 -0.032546673 -2.4836357 -0.03457753 -2.5285015 -48.639252 -132.91611
12997000 -41.646561 -12.133704 -0.031394061 -2.665132 -0.033900995 -2.6967137 -47.810959 -125.9039
13996000 -41.424339 -15.081306 -0.030709937 -2.8454325 -0.034331482 -2.8622911 -47.374107 -120.714
14995000 -41.110371 -18.732702 -0.033302296 -3.0525506 -0.033027887 -3.0771527 -46.899529 -117.50152
15994000 -41.004696 -22.522676 -0.034741137 -3.2718487 -0.035441551 -3.2932148 -46.602848 -113.70412
16993000 -41.002445 -26.069595 -0.033384204 -3.4635127 -0.034909707 -3.4735122 -45.690136 -114.52807
17992000 -41.087337 -30.596939 -0.033689421 -3.6634216 -0.03583565 -3.6680908 -45.038208 -116.06676
18991000 -41.345474 -34.614071 -0.034974944 -3.8759835 -0.036373354 -3.8739343 -44.322369 -115.83606
19990000 -41.286751 -39.499161 -0.037428591 -4.0852232 -0.038662989 -4.0784488 -43.643085 -117.9733
20989000 -41.173069 -42.477932 -0.038995475 -4.2845597 -0.040520336 -4.2783556 -43.044491 -117.74332
21988000 -41.139194 -46.818565 -0.039270259 -4.4822788 -0.041078739 -4.4721141 -42.777088 -117.63007
22987000 -40.970016 -51.185619 -0.041141719 -4.6843109 -0.042202037 -4.6732202 -42.500076 -117.40351
23986000 -40.98851 -54.795231 -0.040540718 -4.8771963 -0.040440384 -4.8767438 -42.390282 -117.42724
24985000 -40.71349 -57.635567 -0.041256178 -5.0793347 -0.041243114 -5.082623 -42.105976 -114.76881
25984000 -40.475315 -59.7173 -0.042535581 -5.2935319 -0.042325415 -5.2960796 -41.702938 -113.50986
26983000 -40.209965 -61.797508 -0.043466292 -5.494319 -0.042921957 -5.507534 -41.574688 -112.56099
27982000 -40.124954 -62.53616 -0.044715483 -5.6847811 -0.04475262 -5.7220168 -41.254486 -111.36768
28981000 -40.109375 -64.115318 -0.042527217 -5.8861341 -0.044384647 -5.9112387 -41.005791 -110.83101
29980000 -39.721603 -66.015457 -0.042680401 -6.076148 -0.045152798 -6.0849714 -40.646725 -110.09177
30979000 -39.36039 -65.102119 -0.040529221 -6.4347744 -0.039451022 -6.4251943 -40.140553 -111.07365
31978000 -39.169369 -66.23661 -0.039907139 -6.6296697 -0.040034372 -6.6199169 -39.870861 -110.4211
32977000 -39.013889 -67.771927 -0.039387286 -6.836884 -0.040619366 -6.8342056 -39.617901 -110.70512
33976000 -38.898479 -68.767044 -0.040144101 -7.0399308 -0.041651852 -7.0379176 -39.303692 -110.40578
34975000 -38.616413 -69.903496 -0.040688347 -7.2391195 -0.042456638 -7.2394509 -39.031994 -110.07286
35974000 -38.42728 -70.670197 -0.039711207 -7.4355388 -0.041571356 -7.4371343 -38.718224 -109.36854
36973000 -38.204529 -71.428101 -0.040192172 -7.6330209 -0.043029409 -7.6368079 -38.452682 -108.79597
37972000 -38.048218 -71.531868 -0.039243355 -7.8441768 -0.042797256 -7.8515067 -38.1917 -108.01048
38971000 -37.733425 -71.314751 -0.040669795 -8.0445242 -0.043039605 -8.0542908 -37.975426 -106.48495
39970000 -37.4175 -71.919502 -0.038586985 -8.2398024 -0.041766588 -8.2556648 -37.685459 -106.19771
40969000 -37.123207 -71.940018 -0.03852953 -8.4358597 -0.041235797 -8.4496517 -37.42448 -104.90659
41968000 -36.801071 -72.088394 -0.039872654 -8.6397181 -0.041369859 -8.6549149 -37.205788 -103.73499
42967000 -36.532734 -72.427658 -0.038975365 -8.849041 -0.041695498 -8.8677912 -36.978138 -101.95138
43966000 -36.256718 -73.227547 -0.040010072 -9.0471001 -0.043218955 -9.0636635 -36.677406 -101.35483
44965000 -36.036098 -74.169037 -0.041137278 -9.2488747 -0.043813005 -9.2678566 -36.455826 -101.34172
45964000 -35.831116 -75.33577 -0.041866429 -9.451437 -0.045170322 -9.4685411 -36.220417 -101.14204
46963000 -35.664051 -77.400627 -0.041968364 -9.6445179 -0.045480549 -9.6656723 -36.04813 -101.6048
47962000 -35.511265 -78.921379 -0.043745805 -9.8454742 -0.046675112 -9.8661051 -35.841728 -101.82296
48961000 -35.333508 -80.349945 -0.045634363 -10.043326 -0.048371762 -10.062664 -35.581318 -102.17279
49960000 -35.125313 -81.876915 -0.046977073 -10.24075 -0.049183551 -10.265533 -35.474873 -102.37611
50959000 -34.931721 -83.249092 -0.047973122 -10.456921 -0.050286166 -10.468557 -35.277103 -102.7518
51958000 -34.743092 -84.418686 -0.04980801 -10.654876 -0.051525269 -10.665189 -35.093315 -103.38568
52957000 -34.556049 -85.631599 -0.051092029 -10.855156 -0.052576337 -10.861603 -34.945988 -103.22574
53956000 -34.398991 -86.318031 -0.052289966 -11.058494 -0.053581797 -11.05416 -34.800911 -103.22006
54955000 -34.230331 -86.852287 -0.053120833 -11.258976 -0.054406881 -11.253218 -34.641991 -103.35831
55954000 -34.074867 -87.789391 -0.053882927 -11.45614 -0.054982278 -11.454956 -34.542393 -102.99878
56953000 -33.965504 -87.87291 -0.053704187 -11.656287 -0.053594898 -11.644093 -34.466938 -103.26463
57952000 -33.797409 -88.542023 -0.054827083 -11.854746 -0.055056207 -11.840862 -34.369144 -103.52292
58951000 -33.684372 -88.968025 -0.056100264 -12.059202 -0.056397375 -12.039415 -34.199188 -103.62857
59950000 -33.585766 -89.382111 -0.056800198 -12.258821 -0.057082407 -12.235792 -34.135418 -103.99471
60949000 -33.465343 -89.906906 -0.05705408 -12.461938 -0.056485228 -12.431908 -34.047188 -104.19791
61948000 -33.405331 -90.245155 -0.05759022 -12.652892 -0.057205684 -12.63755 -33.967579 -104.37882
62947000 -33.313877 -90.502487 -0.057626944 -12.866364 -0.057778303 -12.847707 -33.822021 -104.65723
63946000 -33.264458 -91.2696 -0.058581099 -13.065995 -0.059189588 -13.047245 -33.706535 -104.8367
64945000 -33.157784 -91.372841 -0.059139207 -13.266439 -0.059199296 -13.247665 -33.60405 -105.33529
65944000 -33.051815 -91.753288 -0.059958521 -13.466201 -0.059811812 -13.447842 -33.508621 -105.89116
66943000 -32.912762 -92.12104 -0.057573956 -13.669641 -0.057527002 -13.649745 -33.413486 -106.05603
67942000 -32.859612 -92.112808 -0.059950911 -13.865053 -0.059818372 -13.850685 -33.296665 -106.41441
68941000 -32.7495 -92.222359 -0.059644111 -14.058051 -0.058770273 -14.047647 -33.187691 -106.41447
69940000 -32.660992 -92.235062 -0.059751973 -14.258906 -0.060199466 -14.252197 -33.050808 -106.71017
70939000 -32.53664 -92.184578 -0.060666431 -14.450933 -0.059463553 -14.444582 -32.919861 -106.65932
71938000 -32.390331 -91.817986 -0.059927028 -14.649016 -0.059082001 -14.641378 -32.778294 -106.50668
72937000 -32.227997 -91.773201 -0.058964446 -14.851712 -0.059104044 -14.83803 -32.641811 -106.25361
73936000 -32.097668 -91.477097 -0.058113571 -15.044486 -0.058413967 -15.041223 -32.521999 -106.02757
74935000 -31.974125 -91.712173 -0.057728462 -15.241281 -0.057306141 -15.237788 -32.358086 -105.79243
75934000 -31.852781 -91.979431 -0.058752432 -15.448961 -0.058097828 -15.445045 -32.274506 -105.6885
76933000 -31.731016 -92.42157 -0.060110226 -15.642447 -0.059463553 -15.633757 -32.114491 -106.12924
77932000 -31.627993 -93.217728 -0.060883787 -15.837756 -0.060837585 -15.832216 -32.00877 -106.06173
78931000 -31.568401 -94.014847 -0.059358846 -16.038813 -0.060480323 -16.034279 -31.906065 -106.0222
79930000 -31.456676 -94.828835 -0.061937645 -16.22957 -0.062390093 -16.229982 -31.810783 -106.32379
80929000 -31.335169 -95.716026 -0.063972577 -16.425917 -0.064059272 -16.422224 -31.706863 -106.72927
81928000 -31.25886 -96.610634 -0.063670218 -16.617968 -0.063912421 -16.616302 -31.581383 -106.81189
82927000 -31.165361 -97.375252 -0.065979287 -16.818161 -0.06603606 -16.814737 -31.491007 -107.11469
83926000 -31.046484 -98.118484 -0.066774137 -17.014378 -0.066820398 -17.017515 -31.37093 -107.38412
84925000 -30.952208 -98.593819 -0.067957737 -17.209883 -0.066755734 -17.212563 -31.273746 -107.49751
85924000 -30.855227 -99.097382 -0.06900648 -17.418503 -0.068165205 -17.409025 -31.189396 -107.51268
86923000 -30.753014 -99.628632 -0.069068283 -17.611244 -0.068327188 -17.605957 -31.086658 -107.46391
87922000 -30.654514 -100.13448 -0.069114313 -17.818718 -0.068462089 -17.809072 -30.999146 -107.58757
88921000 -30.583143 -100.3653 -0.069874749 -18.015633 -0.068897337 -18.010492 -30.906086 -107.52859
89920000 -30.492044 -100.88512 -0.070418522 -18.213823 -0.069346294 -18.205215 -30.858025 -107.79617
90919000 -30.392874 -101.264 -0.071337596 -18.412958 -0.070862383 -18.404196 -30.765676 -107.99961
91918000 -30.296297 -101.62507 -0.072561406 -18.61305 -0.071338914 -18.600321 -30.69952 -107.96974
92917000 -30.206751 -101.97813 -0.07333824 -18.804474 -0.072209224 -18.804371 -30.634506 -108.09251
93916000 -30.130314 -102.37135 -0.072685905 -19.00069 -0.071460485 -19.001623 -30.54554 -108.72128
94915000 -30.056097 -103.05345 -0.073970653 -19.204502 -0.073221877 -19.196211 -30.475723 -108.66608
95914000 -29.98864 -103.27972 -0.074872568 -19.398026 -0.073801875 -19.393545 -30.400454 -108.86441
96913000 -29.90575 -103.49822 -0.076482534 -19.595699 -0.07513199 -19.594585 -30.329866 -109.26729
97912000 -29.83419 -103.96767 -0.07740289 -19.792776 -0.075342171 -19.794804 -30.244835 -109.47339
98911000 -29.731377 -104.16938 -0.077745475 -19.993204 -0.076534435 -19.990049 -30.21879 -109.69373
99910000 -29.663967 -104.29185 -0.078373261 -20.193455 -0.076274142 -20.193806 -30.108973 -110.04436
100909000 -29.574966 -104.63713 -0.077716753 -20.400572 -0.076027036 -20.390144 -30.012836 -110.18265
101908000 -29.487936 -104.86185 -0.078582019 -20.599451 -0.077520423 -20.595678 -29.90312 -110.01959
102907000 -29.357544 -104.87617 -0.079049647 -20.796253 -0.077100389 -20.797255 -29.825943 -109.96024
103906000 -29.263391 -104.9913 -0.079320386 -21.004431 -0.076844275 -21.000929 -29.678324 -109.94774
104905000 -29.109652 -104.90672 -0.080539584 -21.201899 -0.077651396 -21.200733 -29.544844 -109.60503
105904000 -28.975843 -104.97688 -0.080917493 -21.404919 -0.077605806 -21.394949 -29.431049 -109.49097
106903000 -28.866989 -105.09138 -0.080410637 -21.611883 -0.077779733 -21.604496 -29.299746 -109.4162
107902000 -28.704428 -105.48051 -0.081180438 -21.810953 -0.0776456 -21.804295 -29.164064 -109.35434
108901000 -28.591248 -105.76137 -0.08279933 -22.012102 -0.079352021 -22.005772 -29.026894 -109.26879
109900000 -28.471357 -106.29397 -0.082911201 -22.211628 -0.081025623 -22.199572 -28.878233 -109.40196
110899000 -28.356279 -106.92039 -0.084431767 -22.409607 -0.081514083 -22.401915 -28.748367 -109.68894
111898000 -28.261385 -107.58617 -0.08553756 -22.609486 -0.083015688 -22.60191 -28.637245 -109.8341
112897000 -28.139013 -108.11903 -0.087604448 -22.810196 -0.08388333 -22.797682 -28.499512 -110.04944
113896000 -28.028755 -108.79873 -0.088693872 -23.007729 -0.08589267 -22.997252 -28.394476 -110.19707
114895000 -27.933882 -109.4268 -0.089353636 -23.204649 -0.086778052 -23.193111 -28.277649 -110.3524
115894000 -27.804403 -109.81255 -0.090763055 -23.408051 -0.087877572 -23.395512 -28.210955 -110.51109
116893000 -27.729692 -110.36973 -0.091142647 -23.606295 -0.088561773 -23.586597 -28.083937 -110.64404
117892000 -27.645464 -110.87158 -0.091003604 -23.801838 -0.088950157 -23.784981 -28.012587 -110.91048
118891000 -27.594208 -111.33054 -0.091575406 -24.002558 -0.089879766 -23.987114 -27.915516 -111.02151
119890000 -27.500492 -111.72957 -0.092702061 -24.205873 -0.090627722 -24.18663 -27.898703 -111.18449
120889000 -27.450537 -112.24895 -0.093268007 -24.400871 -0.09047839 -24.388264 -27.830793 -111.16723
121888000 -27.410913 -112.53021 -0.093799114 -24.595949 -0.091176488 -24.582918 -27.771654 -111.49189
122887000 -27.366488 -112.80245 -0.094553038 -24.797802 -0.091423392 -24.788752 -27.720877 -111.53439
123886000 -27.313511 -113.22887 -0.09539865 -25.004253 -0.092216566 -24.98246 -27.710796 -111.69452
124885000 -27.276789 -113.75862 -0.095249146 -25.203737 -0.093127042 -25.182899 -27.677774 -111.79698
125884000 -27.231871 -113.91956 -0.096438415 -25.397062 -0.092841163 -25.38558 -27.657318 -111.9576
126883000 -27.209122 -114.28071 -0.096510939 -25.603388 -0.093635648 -25.586451 -27.607822 -111.97939
127882000 -27.155535 -114.60678 -0.096566521 -25.803019 -0.093936667 -25.782578 -27.56912 -112.14799
128881000 -27.124737 -114.91848 -0.09698315 -26.004839 -0.093931109 -25.986649 -27.519566 -112.25477
129880000 -27.072733 -115.25114 -0.097436085 -26.204247 -0.094173945 -26.184887 -27.483551 -112.26689
130879000 -27.013044 -115.39412 -0.097844318 -26.402044 -0.094958358 -26.386045 -27.400082 -112.28747
131878000 -26.951353 -115.64323 -0.097703204 -26.607996 -0.094894335 -26.585043 -27.340919 -112.21297
132877000 -26.88061 -115.69223 -0.097379163 -26.809004 -0.095333815 -26.786629 -27.255816 -112.18125
133876000 -26.79472 -115.86652 -0.097805135 -27.009016 -0.095627271 -26.990778 -27.16795 -112.11996
134875000 -26.690508 -115.97736 -0.098457277 -27.210587 -0.095652416 -27.18891 -27.062675 -112.01237
135874000 -26.611994 -116.01385 -0.098335735 -27.406511 -0.095890321 -27.386259 -26.959246 -112.00163
136873000 -26.499521 -115.95733 -0.099157982 -27.609921 -0.095463738 -27.591391 -26.875248 -111.94763
137872000 -26.423607 -116.06979 -0.098981872 -27.806337 -0.096211068 -27.794699 -26.761473 -111.89117
138871000 -26.345932 -116.27374 -0.099727951 -28.011122 -0.09559314 -27.994938 -26.665812 -112.08097
139870000 -26.250412 -116.53102 -0.10003097 -28.209169 -0.097237803 -28.195356 -26.588242 -112.24008
140869000 -26.159269 -116.98988 -0.10182121 -28.401506 -0.098810263 -28.382244 -26.474152 -112.38236
141868000 -26.064095 -117.47748 -0.10178252 -28.598259 -0.09977854 -28.579079 -26.408068 -112.76221
142867000 -25.985275 -117.72409 -0.1003719 -28.796658 -0.098543599 -28.779104 -26.332493 -112.93649
143866000 -25.917685 -118.24182 -0.10250311 -28.991943 -0.099895887 -28.97773 -26.259188 -113.47265
144865000 -25.861101 -118.789 -0.10371029 -29.192163 -0.10082334 -29.175932 -26.206383 -113.78119
145864000 -25.806013 -119.11085 -0.10361166 -29.390308 -0.10249542 -29.380451 -26.170635 -114.06521
146863000 -25.761629 -119.48636 -0.10550602 -29.587694 -0.10294602 -29.579138 -26.12212 -114.41215
147862000 -25.717867 -119.86887 -0.10579883 -29.783522 -0.10347725 -29.771978 -26.091188 -114.75915
148861000 -25.686781 -120.40318 -0.10585852 -29.986605 -0.1036159 -29.968401 -26.053873 -114.98805
149860000 -25.676533 -120.60075 -0.10585798 -30.181025 -0.10393484 -30.172785 -26.030449 -115.15915
150859000 -25.65415 -120.96409 -0.10713295 -30.382164 -0.10414006 -30.366589 -26.020361 -115.39054
151858000 -25.63678 -121.26585 -0.10698809 -30.581886 -0.10492282 -30.570507 -26.011898 -115.71027
152857000 -25.618202 -121.63145 -0.10735875 -30.778275 -0.1054405 -30.768982 -25.993221 -115.87788
153856000 -25.613411 -121.82853 -0.10723271 -30.97904 -0.10471598 -30.963829 -26.008892 -116.16977
154855000 -25.605371 -122.02752 -0.10773687 -31.17837 -0.10449165 -31.166424 -25.99798 -116.40247
155854000 -25.616383 -122.26051 -0.10810388 -31.379272 -0.10543812 -31.363064 -25.995169 -116.65821
156853000 -25.603268 -122.96637 -0.10552246 -31.563421 -0.10389613 -31.557999 -25.985888 -116.92989
157852000 -25.605061 -123.17681 -0.10639859 -31.763727 -0.10583942 -31.756327 -25.974945 -117.31511
158851000 -25.600285 -123.40439 -0.10745507 -31.964643 -0.10605481 -31.956211 -25.960005 -117.56416
159850000 -25.586435 -123.53925 -0.10850967 -32.16515 -0.1060304 -32.15501 -25.957722 -117.69587
160849000 -25.564632 -123.6565 -0.10851286 -32.361942 -0.10676735 -32.353058 -25.927864 -117.98499
161848000 -25.548159 -123.73993 -0.10887993 -32.559116 -0.10744392 -32.553444 -25.885176 -118.11685
162847000 -25.503325 -123.97102 -0.10896461 -32.759129 -0.10793855 -32.753952 -25.856651 -118.3315
163846000 -25.466949 -124.1688 -0.10918599 -32.96027 -0.10742535 -32.948948 -25.775284 -118.36308
164845000 -25.399332 -124.15311 -0.10918068 -33.158459 -0.10820606 -33.149784 -25.710127 -118.49374
165844000 -25.343658 -124.25195 -0.10961179 -33.357868 -0.10900522 -33.349174 -25.623779 -118.59584
166843000 -25.280111 -124.33849 -0.10993674 -33.55455 -0.10808398 -33.552502 -25.55509 -118.75928
167842000 -25.224127 -124.48769 -0.10993569 -33.752499 -0.1093434 -33.744865 -25.47089 -118.71204
168841000 -25.144995 -124.66232 -0.11089741 -33.950649 -0.10861849 -33.947094 -25.396194 -118.76421
169840000 -25.077398 -124.93894 -0.10995559 -34.146217 -0.10973763 -34.140709 -25.307247 -118.92238
170839000 -25.021917 -125.22547 -0.11136907 -34.342503 -0.10993993 -34.342598 -25.223963 -119.15328
171838000 -24.960253 -125.62812 -0.11127027 -34.543537 -0.11137411 -34.537849 -25.159668 -119.36556
172837000 -24.89163 -126.03665 -0.11257923 -34.740204 -0.11200014 -34.734081 -25.092905 -119.63293
173836000 -24.82515 -126.44373 -0.11413839 -34.939705 -0.11274979 -34.936119 -25.044674 -119.87163
174835000 -24.776512 -126.88602 -0.11474435 -35.134544 -0.1135567 -35.133286 -25.000248 -120.22499
175834000 -24.720669 -127.25196 -0.11479166 -35.333645 -0.11472468 -35.330112 -24.938492 -120.50034
176833000 -24.669973 -127.64128 -0.11618305 -35.530243 -0.11455352 -35.527084 -24.886417 -120.67156
177832000 -24.627378 -128.14574 -0.11656938 -35.726784 -0.11521482 -35.727997 -24.872438 -120.87494
178831000 -24.583315 -128.52455 -0.11680206 -35.924038 -0.11595121 -35.922146 -24.827572 -121.10899
179830000 -24.551435 -128.96754 -0.11812972 -36.119701 -0.11601821 -36.124836 -24.802856 -121.20948
180829000 -24.510212 -129.18727 -0.11786957 -36.318157 -0.11680365 -36.319031 -24.774574 -121.4088
181828000 -24.485147 -129.54897 -0.11807864 -36.520454 -0.11677068 -36.51358 -24.752892 -121.54473
182827000 -24.46541 -129.88548 -0.11784085 -36.707203 -0.11727009 -36.707901 -24.738901 -121.61095
183826000 -24.425344 -130.2366 -0.11979438 -36.908127 -0.11769562 -36.905628 -24.735565 -121.74385
184825000 -24.427942 -130.52943 -0.11856012 -37.105473 -0.11801215 -37.103447 -24.721117 -121.8281
185824000 -24.398262 -130.89128 -0.11886313 -37.299141 -0.11815471 -37.301151 -24.714165 -121.9028
186823000 -24.385319 -131.23169 -0.11893655 -37.50222 -0.11822388 -37.493629 -24.714054 -121.8886
187822000 -24.36734 -131.56621 -0.11944713 -37.694538 -0.11842711 -37.69529 -24.679831 -121.95041
188821000 -24.346184 -131.82472 -0.1192662 -37.891548 -0.11899429 -37.892464 -24.659527 -122.04592
189820000 -24.334856 -132.08136 -0.12028056 -38.089256 -0.11895359 -38.090862 -24.653162 -122.19258
190819000 -24.306381 -132.327 -0.12127308 -38.290379 -0.11999316 -38.289845 -24.618988 -122.17067
191818000 -24.268587 -132.49493 -0.12245965 -38.483158 -0.12162766 -38.48576 -24.585951 -122.03773
192817000 -24.199415 -132.76955 -0.12245698 -38.67017 -0.12168942 -38.670071 -24.511791 -122.09784
193816000 -24.158783 -133.12651 -0.12184729 -38.860313 -0.12056746 -38.862606 -24.457937 -122.38829
194815000 -24.10289 -133.57559 -0.12181693 -39.060207 -0.12147032 -39.057941 -24.3936 -122.48562
195814000 -24.048944 -133.80226 -0.1221247 -39.25547 -0.12076495 -39.254639 -24.341389 -122.62224
196813000 -23.998718 -134.13942 -0.12189042 -39.455204 -0.12059301 -39.45723 -24.260115 -122.76982
197812000 -23.939617 -134.38148 -0.12244634 -39.646919 -0.12170087 -39.649384 -24.194115 -122.87012
198811000 -23.885683 -134.56796 -0.12228392 -39.843948 -0.12141655 -39.849308 -24.118927 -123.05962
199810000 -23.81547 -134.95027 -0.12217689 -40.036255 -0.12098507 -40.039406 -24.041698 -123.15677
200809000 -23.758667 -135.22122 -0.12260742 -40.237858 -0.12095233 -40.237988 -23.961508 -123.34762
201808000 -23.69743 -135.46211 -0.12334266 -40.438759 -0.12245805 -40.437935 -23.893393 -123.4216
202807000 -23.642637 -135.823 -0.12428446 -40.642288 -0.12317249 -40.640202 -23.839466 -123.64758
203806000 -23.591801 -136.2784 -0.12568823 -40.839397 -0.1232103 -40.839123 -23.768789 -123.81456
