!Keysight Technologies,E5080B,MY59205177,A.15.75.32
!Date: Friday, February 23, 2024 03:32:22
!Correction: S11(Cdelta 2-Port  ) 
!S21(Cdelta 2-Port  ) 
!S12(Cdelta 2-Port  ) 
!S22(Cdelta 2-Port  ) 
!S2P File: Measurements: S11, S21, S12, S22:
# Hz S  dB   R 50
10000000 -46.055927 -2.2489889 -0.015135725 -2.0481112 -0.018518383 -2.1047876 -45.974949 -158.30629
10999000 -45.243729 -3.9556725 -0.01593535 -2.2664452 -0.017914264 -2.3216865 -45.923954 -151.87943
11998000 -44.353401 -6.7580571 -0.016034599 -2.4933872 -0.017924922 -2.5333931 -46.042236 -147.50696
12997000 -43.532681 -13.095733 -0.016014075 -2.6714466 -0.017189641 -2.7029767 -45.734329 -141.74611
13996000 -43.284172 -16.819324 -0.015467715 -2.8501232 -0.017482542 -2.8743935 -45.51157 -136.46046
14995000 -42.873356 -21.238739 -0.017833168 -3.0576069 -0.017294897 -3.0856373 -45.194302 -132.8896
15994000 -42.760151 -25.422777 -0.018787976 -3.2836516 -0.019819187 -3.3022954 -45.041275 -129.56097
16993000 -42.643982 -30.27726 -0.017748691 -3.4765308 -0.019180046 -3.4830706 -44.230953 -129.23283
17992000 -42.727482 -35.73415 -0.018120393 -3.6769235 -0.020330202 -3.6803641 -43.750572 -129.06979
18991000 -43.021931 -40.980816 -0.01945826 -3.8878565 -0.020164538 -3.8870492 -43.059692 -128.33173
19990000 -42.769142 -46.408352 -0.021304291 -4.0979323 -0.023118574 -4.0946527 -42.410789 -129.00987
20989000 -42.619602 -49.785656 -0.023831172 -4.3023071 -0.024645938 -4.2900748 -41.863731 -128.37068
21988000 -42.426601 -54.928799 -0.024353594 -4.499898 -0.025664741 -4.4871244 -41.627457 -127.59609
22987000 -42.109085 -59.704441 -0.025592873 -4.6989121 -0.026682219 -4.689312 -41.332527 -127.21252
23986000 -42.006958 -64.132263 -0.02557152 -4.8939209 -0.025907435 -4.8887496 -41.241985 -127.19617
24985000 -41.613083 -66.81913 -0.026253792 -5.1004128 -0.025843896 -5.1029611 -40.999706 -124.68961
25984000 -41.31842 -68.805595 -0.027684305 -5.3071489 -0.02697498 -5.3074937 -40.669479 -122.93105
26983000 -40.965118 -70.634926 -0.028932091 -5.5071168 -0.027212277 -5.5274582 -40.587711 -122.32703
27982000 -40.823704 -71.872818 -0.029896902 -5.7074256 -0.028524807 -5.7377796 -40.29987 -120.5839
28981000 -40.793892 -73.120728 -0.027265156 -5.9052677 -0.028275713 -5.9307728 -40.09478 -119.99808
29980000 -40.382553 -74.588799 -0.027305793 -6.0983949 -0.029646687 -6.1068873 -39.780178 -119.18803
30979000 -39.997379 -73.461304 -0.025465284 -6.4587264 -0.024056844 -6.4456553 -39.291264 -119.67721
31978000 -39.776764 -74.332054 -0.024450433 -6.6493154 -0.024680302 -6.6375999 -39.058506 -118.83347
32977000 -39.596928 -75.865234 -0.024650624 -6.8626323 -0.025588967 -6.8559804 -38.815639 -118.87511
33976000 -39.420078 -76.994202 -0.025007816 -7.0622621 -0.025209855 -7.0591187 -38.511951 -118.23969
34975000 -39.148365 -77.751183 -0.024977094 -7.2631931 -0.026690032 -7.2621193 -38.311821 -117.97041
35974000 -38.933014 -78.36618 -0.024687592 -7.4581962 -0.02619233 -7.4625411 -38.037289 -116.98247
36973000 -38.702324 -79.119736 -0.024665464 -7.660183 -0.026984878 -7.663579 -37.749332 -116.04739
37972000 -38.525696 -78.968391 -0.024533477 -7.8691616 -0.026886942 -7.8748164 -37.54076 -115.29011
38971000 -38.205399 -78.39325 -0.025149191 -8.0708265 -0.027373521 -8.0799417 -37.382725 -113.60854
39970000 -37.857246 -78.604874 -0.02418205 -8.2637844 -0.026599394 -8.2804241 -37.117504 -112.9959
40969000 -37.592178 -78.336746 -0.023545129 -8.4598618 -0.026292074 -8.4785404 -36.872807 -111.69645
41968000 -37.236763 -78.239838 -0.024299189 -8.667119 -0.026462922 -8.6812038 -36.68446 -110.42115
42967000 -36.97398 -78.337318 -0.024490261 -8.8719435 -0.026708785 -8.896925 -36.479046 -108.58416
43966000 -36.664654 -79.088486 -0.024811773 -9.0750313 -0.027909396 -9.0977478 -36.207336 -107.72982
44965000 -36.430595 -79.786942 -0.0259241 -9.2783022 -0.027971663 -9.3045769 -36.011276 -107.55265
45964000 -36.199352 -80.913963 -0.026687168 -9.4777441 -0.029472848 -9.5008984 -35.775497 -107.19065
46963000 -36.011021 -82.776634 -0.027392277 -9.671093 -0.030138267 -9.6951885 -35.579117 -107.38955
47962000 -35.837757 -84.262024 -0.029195033 -9.8754492 -0.031237099 -9.8973751 -35.386101 -107.54629
48961000 -35.630726 -85.577415 -0.030509206 -10.074943 -0.033293951 -10.096316 -35.171879 -107.59519
49960000 -35.389175 -86.893288 -0.032113496 -10.272096 -0.03375829 -10.299069 -35.014606 -107.70722
50959000 -35.174767 -88.172478 -0.032711245 -10.487435 -0.035286792 -10.499797 -34.852123 -108.01164
51958000 -34.974606 -89.240448 -0.034515429 -10.687435 -0.035910558 -10.696433 -34.669235 -108.36306
52957000 -34.747391 -90.360764 -0.036206033 -10.886252 -0.037554443 -10.895726 -34.51329 -108.1024
53956000 -34.575512 -90.972496 -0.036485862 -11.094265 -0.038438644 -11.091053 -34.37653 -108.13181
54955000 -34.42617 -91.475548 -0.038332094 -11.291107 -0.039608803 -11.286308 -34.240498 -108.06104
55954000 -34.249855 -92.302429 -0.038516473 -11.496751 -0.039731063 -11.489916 -34.121918 -107.74355
56953000 -34.126286 -92.284363 -0.038713135 -11.685407 -0.038737424 -11.678417 -34.033737 -108.01871
57952000 -33.957912 -92.856445 -0.039389115 -11.890882 -0.0395354 -11.874017 -33.934914 -108.03381
58951000 -33.82972 -93.318924 -0.040337961 -12.09405 -0.041141979 -12.070171 -33.791775 -108.1756
59950000 -33.714676 -93.593018 -0.041374564 -12.292586 -0.04171484 -12.269065 -33.706108 -108.44937
60949000 -33.600563 -94.118439 -0.041796383 -12.491282 -0.041911125 -12.473701 -33.619358 -108.645
61948000 -33.545189 -94.45829 -0.042236019 -12.693046 -0.042494278 -12.673771 -33.533592 -108.81385
62947000 -33.452194 -94.671432 -0.042575315 -12.907907 -0.042967446 -12.884874 -33.392071 -108.99638
63946000 -33.379551 -95.391884 -0.043388113 -13.108 -0.043715212 -13.085717 -33.279831 -109.18956
64945000 -33.261929 -95.55584 -0.043762539 -13.309617 -0.043542899 -13.289529 -33.171478 -109.6592
65944000 -33.162369 -95.840508 -0.045162212 -13.510165 -0.044729084 -13.488609 -33.078293 -110.06144
66943000 -33.017391 -96.29615 -0.042815298 -13.709358 -0.043496098 -13.692721 -32.972298 -110.33019
67942000 -32.962574 -96.294907 -0.045302678 -13.906435 -0.045031693 -13.8947 -32.861298 -110.64484
68941000 -32.853138 -96.26844 -0.044412371 -14.10088 -0.044222247 -14.08934 -32.746456 -110.62645
69940000 -32.746944 -96.346405 -0.044947997 -14.299243 -0.04494198 -14.290951 -32.603806 -110.83337
70939000 -32.650066 -96.237839 -0.044808328 -14.492403 -0.044951919 -14.489536 -32.473606 -110.71242
71938000 -32.509174 -95.776947 -0.044301748 -14.689256 -0.044717051 -14.683475 -32.340271 -110.56801
72937000 -32.363743 -95.636566 -0.044427797 -14.893977 -0.044186421 -14.88495 -32.20628 -110.28799
73936000 -32.205616 -95.28035 -0.043736391 -15.090663 -0.043177646 -15.085769 -32.090618 -110.08656
74935000 -32.086056 -95.441696 -0.043075945 -15.287958 -0.042434156 -15.283649 -31.93342 -109.81073
75934000 -31.96236 -95.766296 -0.043258432 -15.492183 -0.04253741 -15.486547 -31.844372 -109.68816
76933000 -31.829224 -96.028305 -0.044718098 -15.693341 -0.04374842 -15.678719 -31.672342 -110.02814
77932000 -31.726995 -96.885262 -0.045835011 -15.88772 -0.045712583 -15.878956 -31.563438 -109.98094
78931000 -31.650997 -97.598648 -0.044427536 -16.086374 -0.044881038 -16.081551 -31.47336 -109.81889
79930000 -31.533873 -98.419128 -0.04731543 -16.282137 -0.046825305 -16.278189 -31.369747 -110.15276
80929000 -31.417885 -99.158234 -0.048680127 -16.475727 -0.04848877 -16.47444 -31.270151 -110.44007
81928000 -31.32513 -99.91832 -0.049235128 -16.670221 -0.049327288 -16.665136 -31.139877 -110.3908
82927000 -31.223169 -100.70574 -0.050516099 -16.864912 -0.051350031 -16.868248 -31.033466 -110.67566
83926000 -31.106693 -101.36169 -0.052439306 -17.065939 -0.051312573 -17.064396 -30.913143 -110.85294
84925000 -30.997868 -101.81776 -0.052992959 -17.264303 -0.051766533 -17.26116 -30.818197 -110.86383
85924000 -30.9077 -102.21737 -0.054073211 -17.468081 -0.052954439 -17.460627 -30.721949 -110.80659
86923000 -30.795229 -102.68639 -0.054373067 -17.66398 -0.054124322 -17.65859 -30.634912 -110.72957
87922000 -30.680328 -103.02927 -0.053988554 -17.869514 -0.053441588 -17.864233 -30.542879 -110.76964
88921000 -30.613546 -103.31776 -0.055479094 -18.066223 -0.054227591 -18.065376 -30.448914 -110.70162
89920000 -30.501085 -103.81726 -0.055983312 -18.267294 -0.055020031 -18.260437 -30.389467 -110.84134
90919000 -30.408571 -104.13409 -0.057386145 -18.465288 -0.055856925 -18.45899 -30.312756 -111.06631
91918000 -30.307161 -104.47092 -0.057149816 -18.665512 -0.055616483 -18.658873 -30.23358 -111.06777
92917000 -30.214577 -104.7494 -0.058708616 -18.866083 -0.057814244 -18.860384 -30.164232 -111.17867
93916000 -30.131493 -105.14285 -0.057987645 -19.056107 -0.057092898 -19.054586 -30.086281 -111.73557
94915000 -30.050909 -105.72238 -0.060041461 -19.259125 -0.058173649 -19.254353 -30.01766 -111.66529
95914000 -29.980101 -105.87154 -0.060081355 -19.454096 -0.059024796 -19.452616 -29.930113 -111.88282
96913000 -29.903891 -106.11752 -0.061362114 -19.654823 -0.060316529 -19.653196 -29.862503 -112.23152
97912000 -29.820633 -106.61349 -0.062020097 -19.849548 -0.060452234 -19.856314 -29.787823 -112.48729
98911000 -29.711409 -106.77051 -0.062973112 -20.056021 -0.061430376 -20.052219 -29.732794 -112.73302
99910000 -29.644714 -106.90469 -0.063421726 -20.250246 -0.06180216 -20.250803 -29.635725 -112.98231
100909000 -29.546556 -107.17381 -0.063398615 -20.461637 -0.061268911 -20.456244 -29.550493 -113.19301
101908000 -29.465672 -107.36895 -0.064079762 -20.661575 -0.062833652 -20.658733 -29.440119 -112.93708
102907000 -29.327641 -107.37256 -0.064852975 -20.862511 -0.062515356 -20.858871 -29.368452 -112.97119
103906000 -29.234179 -107.45682 -0.065390341 -21.06543 -0.061968368 -21.059872 -29.218973 -112.92106
104905000 -29.082851 -107.2861 -0.065310195 -21.264696 -0.063026167 -21.264545 -29.095261 -112.59023
105904000 -28.945827 -107.40054 -0.065597162 -21.470545 -0.063033521 -21.462742 -28.986025 -112.45086
106903000 -28.832674 -107.50581 -0.064991452 -21.674387 -0.063730374 -21.664316 -28.854994 -112.35807
107902000 -28.668297 -107.81543 -0.066786751 -21.876974 -0.063646317 -21.865755 -28.717793 -112.26511
108901000 -28.564072 -108.05682 -0.068088688 -22.076973 -0.064913414 -22.067667 -28.59185 -112.21754
109900000 -28.433994 -108.48952 -0.06849996 -22.275599 -0.066522315 -22.26915 -28.450752 -112.33977
110899000 -28.31757 -109.1089 -0.069676667 -22.472876 -0.067073293 -22.466452 -28.320675 -112.57695
111898000 -28.226795 -109.77217 -0.071235232 -22.676762 -0.0681113 -22.670578 -28.206486 -112.71134
112897000 -28.104965 -110.31307 -0.072534025 -22.87541 -0.069529891 -22.863905 -28.070824 -112.88503
113896000 -27.998964 -110.87357 -0.074151024 -23.075014 -0.070678465 -23.062775 -27.958281 -113.03897
114895000 -27.893969 -111.48021 -0.074196048 -23.274345 -0.071989462 -23.259394 -27.855562 -113.10342
115894000 -27.774403 -111.87948 -0.075587131 -23.476 -0.072949409 -23.464117 -27.788424 -113.26966
116893000 -27.693672 -112.36644 -0.075927198 -23.677244 -0.074217118 -23.658693 -27.658247 -113.29605
117892000 -27.615652 -112.88709 -0.076550767 -23.871313 -0.074503094 -23.855627 -27.582151 -113.5312
118891000 -27.562645 -113.28333 -0.077589728 -24.072954 -0.074307702 -24.053183 -27.493704 -113.65327
119890000 -27.475872 -113.62866 -0.078338467 -24.268923 -0.075581335 -24.255325 -27.476475 -113.78221
120889000 -27.424627 -114.13013 -0.079643346 -24.47443 -0.075641125 -24.457756 -27.408672 -113.71435
121888000 -27.384295 -114.44669 -0.079930998 -24.668566 -0.075967766 -24.653864 -27.341358 -113.98788
122887000 -27.346676 -114.64878 -0.080349192 -24.87468 -0.076938339 -24.859337 -27.303278 -113.97624
123886000 -27.290527 -115.06492 -0.081012964 -25.075678 -0.077135168 -25.056021 -27.287512 -114.16264
124885000 -27.256907 -115.58821 -0.08118967 -25.274448 -0.077793702 -25.260595 -27.255278 -114.16909
125884000 -27.205004 -115.78703 -0.082063802 -25.474899 -0.078116551 -25.460592 -27.230953 -114.31423
126883000 -27.193674 -116.1604 -0.082235806 -25.673923 -0.079507828 -25.663464 -27.189341 -114.35178
127882000 -27.137079 -116.43969 -0.08265686 -25.875259 -0.079528391 -25.859312 -27.152592 -114.48574
128881000 -27.106794 -116.77669 -0.082820706 -26.077747 -0.079366259 -26.06144 -27.11198 -114.55794
129880000 -27.056787 -117.12514 -0.083118595 -26.279154 -0.079458266 -26.260963 -27.071865 -114.55815
130879000 -26.996193 -117.2614 -0.082796432 -26.480597 -0.079563193 -26.459663 -26.999039 -114.56126
131878000 -26.93351 -117.49365 -0.083153687 -26.684727 -0.080166459 -26.665138 -26.936573 -114.4272
132877000 -26.862703 -117.56184 -0.083143398 -26.884834 -0.080397449 -26.868795 -26.858429 -114.37603
133876000 -26.779892 -117.73331 -0.083289847 -27.084692 -0.080266133 -27.063335 -26.767546 -114.27055
134875000 -26.683264 -117.83665 -0.084113732 -27.286978 -0.081644915 -27.265869 -26.671459 -114.10781
135874000 -26.597427 -117.8665 -0.08341413 -27.48353 -0.081484012 -27.468048 -26.574055 -114.08383
136873000 -26.489204 -117.80671 -0.084478751 -27.688578 -0.081542835 -27.671009 -26.492907 -114.03416
137872000 -26.414328 -117.93427 -0.084524415 -27.890017 -0.081869915 -27.875542 -26.390924 -113.98377
138871000 -26.337204 -118.13508 -0.084518075 -28.088118 -0.080764793 -28.072458 -26.294865 -114.14144
139870000 -26.237595 -118.37865 -0.086037889 -28.28904 -0.082043231 -28.272675 -26.207384 -114.30288
140869000 -26.155293 -118.93027 -0.086261004 -28.488945 -0.083693586 -28.468102 -26.11503 -114.51609
141868000 -26.076593 -119.3713 -0.086942844 -28.687567 -0.084419891 -28.670782 -26.061607 -114.74781
142867000 -25.996367 -119.56142 -0.085617557 -28.881596 -0.083939016 -28.866333 -25.98181 -114.90939
143866000 -25.919132 -120.05198 -0.087553203 -29.078541 -0.085044682 -29.06889 -25.906212 -115.34639
144865000 -25.867765 -120.57076 -0.08925005 -29.279997 -0.086589232 -29.26548 -25.853319 -115.65585
145864000 -25.80686 -120.87591 -0.089944251 -29.481983 -0.087894216 -29.468315 -25.823177 -115.89238
146863000 -25.760719 -121.25289 -0.090489753 -29.681786 -0.088292308 -29.667269 -25.766737 -116.1854
147862000 -25.726913 -121.59906 -0.091522269 -29.876297 -0.088743016 -29.86517 -25.736534 -116.51226
148861000 -25.689383 -122.00782 -0.09258306 -30.076042 -0.08988294 -30.063091 -25.715755 -116.64058
149860000 -25.658781 -122.16803 -0.093772136 -30.269762 -0.09086033 -30.260416 -25.654507 -116.76482
150859000 -25.629986 -122.64467 -0.093470074 -30.468811 -0.090204306 -30.453798 -25.639214 -117.11864
151858000 -25.624422 -123.02129 -0.092795148 -30.667181 -0.090449579 -30.653811 -25.628557 -117.4521
152857000 -25.60499 -123.33222 -0.09214703 -30.867458 -0.090589665 -30.856226 -25.612024 -117.648
153856000 -25.601759 -123.49449 -0.09248469 -31.061802 -0.089393273 -31.05546 -25.632908 -117.9379
154855000 -25.600548 -123.69212 -0.092988729 -31.267427 -0.09049768 -31.256548 -25.620968 -118.18204
155854000 -25.620989 -123.95343 -0.093451828 -31.469311 -0.090377159 -31.453581 -25.617464 -118.44631
156853000 -25.601677 -124.64415 -0.090917163 -31.656637 -0.089719884 -31.645895 -25.606615 -118.74309
157852000 -25.608711 -124.85921 -0.092694655 -31.857355 -0.091566682 -31.847527 -25.595541 -119.09517
158851000 -25.611094 -125.07759 -0.093218289 -32.055763 -0.09173245 -32.045666 -25.580896 -119.39586
159850000 -25.596573 -125.17599 -0.093965232 -32.25346 -0.091687769 -32.247845 -25.582729 -119.55466
160849000 -25.582247 -125.26797 -0.093899101 -32.453648 -0.092585176 -32.449505 -25.553339 -119.87184
161848000 -25.561119 -125.36674 -0.094151989 -32.653751 -0.09262114 -32.646675 -25.51277 -119.95868
162847000 -25.523418 -125.51075 -0.094397485 -32.853058 -0.093124397 -32.851799 -25.488209 -120.17828
163846000 -25.482298 -125.73075 -0.094217062 -33.051769 -0.092493683 -33.044048 -25.410873 -120.2266
164845000 -25.425144 -125.73346 -0.094651192 -33.252026 -0.09310589 -33.244408 -25.345556 -120.34618
165844000 -25.373367 -125.7669 -0.095111556 -33.455437 -0.09380652 -33.447193 -25.266853 -120.47289
166843000 -25.314243 -125.81599 -0.095048316 -33.650154 -0.093930319 -33.651447 -25.202564 -120.61659
167842000 -25.252991 -125.90318 -0.094669178 -33.851212 -0.094104372 -33.847729 -25.126928 -120.52001
168841000 -25.176006 -126.08646 -0.095828921 -34.050827 -0.095050432 -34.043934 -25.045191 -120.60059
169840000 -25.111292 -126.31264 -0.095959656 -34.245724 -0.095138013 -34.244812 -24.965282 -120.79142
170839000 -25.053593 -126.57281 -0.096509881 -34.443859 -0.095287509 -34.440365 -24.879459 -120.95441
171838000 -24.996609 -126.94728 -0.096338637 -34.647583 -0.09591943 -34.642025 -24.818707 -121.18089
172837000 -24.923208 -127.27714 -0.098091081 -34.843075 -0.097916335 -34.840794 -24.75721 -121.38362
173836000 -24.856588 -127.68939 -0.099571943 -35.044579 -0.098688185 -35.041649 -24.71143 -121.63302
174835000 -24.807056 -128.09372 -0.099561878 -35.240112 -0.099464148 -35.239655 -24.670689 -121.9134
175834000 -24.749989 -128.46547 -0.10042065 -35.43964 -0.1000572 -35.436779 -24.609169 -122.18925
176833000 -24.705544 -128.80692 -0.10169428 -35.637863 -0.10093091 -35.636738 -24.558048 -122.35648
177832000 -24.657055 -129.24048 -0.10277638 -35.838108 -0.10150164 -35.838196 -24.543249 -122.45309
178831000 -24.612997 -129.47084 -0.10437259 -36.035236 -0.10353637 -36.033745 -24.502571 -122.52675
179830000 -24.546062 -129.8363 -0.10514612 -36.216419 -0.10355227 -36.224033 -24.43363 -122.57918
180829000 -24.495319 -130.18188 -0.10414059 -36.414108 -0.10350853 -36.411816 -24.397902 -122.91195
181828000 -24.466177 -130.59879 -0.10299533 -36.614056 -0.10256195 -36.610806 -24.379526 -123.09815
182827000 -24.444817 -131.011 -0.10382349 -36.811638 -0.10277161 -36.810703 -24.365887 -123.23431
183826000 -24.404833 -131.33298 -0.10464677 -37.009579 -0.10301017 -37.005154 -24.354328 -123.3821
184825000 -24.407957 -131.66045 -0.10463352 -37.201977 -0.10388394 -37.205936 -24.337294 -123.54051
185824000 -24.379156 -132.04218 -0.10424187 -37.401569 -0.10377073 -37.401012 -24.330404 -123.57542
186823000 -24.361382 -132.42966 -0.10417294 -37.605511 -0.10378107 -37.598164 -24.322063 -123.58718
187822000 -24.337555 -132.73729 -0.10485282 -37.798367 -0.1045171 -37.798122 -24.283777 -123.69811
188821000 -24.317724 -132.98779 -0.10444445 -37.991806 -0.10441051 -37.996471 -24.259384 -123.81225
189820000 -24.296282 -133.3026 -0.1051021 -38.192451 -0.10420369 -38.191998 -24.244511 -123.99524
190819000 -24.262449 -133.56938 -0.10528164 -38.390144 -0.10551212 -38.390907 -24.205612 -124.02875
191818000 -24.229811 -133.92177 -0.10618213 -38.588627 -0.10513975 -38.590744 -24.176975 -124.05756
192817000 -24.18564 -134.16501 -0.10579672 -38.785496 -0.10526679 -38.787579 -24.129856 -124.1583
193816000 -24.15275 -134.41795 -0.10587231 -38.980762 -0.10574578 -38.979073 -24.083422 -124.30268
194815000 -24.090998 -134.80893 -0.10699392 -39.178127 -0.10639276 -39.178753 -24.017107 -124.39344
195814000 -24.038429 -135.01819 -0.1082387 -39.37294 -0.1071165 -39.376934 -23.959105 -124.46052
196813000 -23.985735 -135.34032 -0.10735159 -39.569912 -0.10667184 -39.570072 -23.880514 -124.60029
197812000 -23.923349 -135.54016 -0.10708386 -39.765873 -0.10700454 -39.764149 -23.810467 -124.72227
198811000 -23.871565 -135.70901 -0.10752326 -39.964554 -0.10689364 -39.969551 -23.739815 -124.88601
199810000 -23.801699 -136.06255 -0.10775704 -40.162617 -0.10718814 -40.154079 -23.662275 -124.97568
200809000 -23.741354 -136.30644 -0.10905698 -40.358749 -0.10747019 -40.358513 -23.58567 -125.16416
201808000 -23.682789 -136.51808 -0.10959799 -40.553757 -0.10868803 -40.560867 -23.52107 -125.22327
202807000 -23.628641 -136.84222 -0.11031536 -40.759552 -0.10883401 -40.762463 -23.461832 -125.39902
