!Keysight Technologies,E5080B,MY59205177,A.15.75.32
!Date: Friday, February 23, 2024 02:46:33
!Correction: S11(Cdelta 2-Port  ) 
!S21(Cdelta 2-Port  ) 
!S12(Cdelta 2-Port  ) 
!S22(Cdelta 2-Port  ) 
!S2P File: Measurements: S11, S21, S12, S22:
# Hz S  dB   R 50
10000000 -39.302158 -3.377907 -0.069473602 -2.055732 -0.072415054 -2.1093879 -53.127312 -53.411682
10999000 -38.904884 -4.3726077 -0.070080198 -2.2725575 -0.072243184 -2.325309 -51.272171 -55.777039
11998000 -38.428856 -6.057704 -0.071252868 -2.4984286 -0.072004989 -2.5426116 -50.210255 -53.521999
12997000 -38.064442 -9.2137814 -0.069804773 -2.6759622 -0.071726017 -2.7096221 -48.868732 -56.51395
13996000 -37.931297 -11.438791 -0.069169812 -2.8578219 -0.071969196 -2.8771794 -47.765083 -57.207294
14995000 -37.733597 -13.879678 -0.071568385 -3.0648394 -0.071781285 -3.0931017 -47.105343 -58.606602
15994000 -37.684303 -16.570906 -0.072200544 -3.2850583 -0.07429006 -3.3067193 -46.556564 -57.549568
16993000 -37.721947 -19.217344 -0.07203947 -3.4817481 -0.073471718 -3.4892421 -46.143093 -63.356426
17992000 -37.846863 -22.111731 -0.072637737 -3.6804688 -0.074212641 -3.6837776 -45.904202 -67.342567
18991000 -38.090096 -24.674799 -0.074039638 -3.8945708 -0.074914709 -3.8927751 -45.319202 -70.767693
19990000 -38.097996 -28.218632 -0.076125823 -4.1024127 -0.077362314 -4.0975051 -45.041077 -75.746819
20989000 -38.106247 -30.171576 -0.077981606 -4.3053455 -0.07892812 -4.2979083 -44.471199 -78.867455
21988000 -38.170898 -33.523113 -0.078564882 -4.5036969 -0.079587184 -4.4946671 -44.231022 -79.960503
22987000 -38.124245 -36.643326 -0.079736941 -4.7050991 -0.081355564 -4.6980691 -43.933788 -80.825684
23986000 -38.233826 -39.280827 -0.079816833 -4.8993177 -0.079626471 -4.8992796 -43.824932 -81.421577
24985000 -38.112694 -41.644497 -0.080610789 -5.1113772 -0.079995863 -5.1037097 -43.266495 -79.947594
25984000 -38.022579 -43.654381 -0.081837997 -5.3178186 -0.080373719 -5.3167 -42.922657 -80.595337
26983000 -37.87788 -45.513878 -0.082721241 -5.5154266 -0.081796847 -5.5306277 -42.73365 -80.204979
27982000 -37.834976 -46.448318 -0.08404696 -5.7150869 -0.083134159 -5.7441502 -42.221333 -79.896111
28981000 -37.833599 -47.57114 -0.081860684 -5.9119511 -0.083430491 -5.9349551 -41.992523 -80.403885
29980000 -37.622597 -49.516949 -0.081995219 -6.1036463 -0.083524168 -6.111825 -41.585526 -80.973145
30979000 -37.296108 -49.563675 -0.080207065 -6.4603586 -0.07896819 -6.4505577 -41.166706 -83.836784
31978000 -37.172123 -50.766796 -0.079131894 -6.6574178 -0.079691328 -6.646174 -40.833473 -84.071938
32977000 -37.079933 -52.275227 -0.079462744 -6.8695493 -0.079747491 -6.8650932 -40.630726 -85.040466
33976000 -37.021564 -53.478645 -0.080256373 -7.069407 -0.080492385 -7.06604 -40.285656 -85.558342
34975000 -36.83226 -54.775848 -0.0807015 -7.2695608 -0.081706107 -7.267096 -40.011551 -86.24707
35974000 -36.695354 -55.724014 -0.079459317 -7.4643202 -0.081599548 -7.4689641 -39.658428 -86.303535
36973000 -36.544117 -56.712135 -0.080682255 -7.6637321 -0.082390659 -7.6680579 -39.333004 -86.394577
37972000 -36.372887 -56.994778 -0.08000166 -7.8749862 -0.082273528 -7.8852358 -39.023869 -86.212402
38971000 -36.102238 -57.370354 -0.081043288 -8.0783453 -0.081957757 -8.0930023 -38.756435 -85.290123
39970000 -35.868393 -58.279301 -0.079596944 -8.2738943 -0.081519358 -8.2880859 -38.414207 -85.652885
40969000 -35.610283 -58.626083 -0.079411864 -8.466877 -0.081162766 -8.4911108 -38.066601 -84.87101
41968000 -35.319233 -59.269623 -0.079590879 -8.6700821 -0.081168301 -8.6910534 -37.80011 -84.207329
42967000 -35.110207 -59.879128 -0.080055453 -8.8819332 -0.081918985 -8.9048214 -37.475929 -82.947029
43966000 -34.906395 -61.065254 -0.080520071 -9.0904837 -0.083353966 -9.1047802 -37.125305 -83.010345
44965000 -34.7393 -62.273945 -0.08108259 -9.2879324 -0.083595417 -9.307332 -36.926273 -83.403198
45964000 -34.574928 -63.394054 -0.082851574 -9.4899626 -0.085158989 -9.5099583 -36.673485 -83.736191
46963000 -34.484005 -65.314522 -0.082837589 -9.6839533 -0.085463636 -9.7053757 -36.518021 -84.430092
47962000 -34.383526 -66.814613 -0.083866179 -9.8811216 -0.086746626 -9.9033718 -36.335514 -85.058868
48961000 -34.252995 -68.3302 -0.086017288 -10.085282 -0.088093914 -10.106339 -36.142849 -85.869026
49960000 -34.111519 -69.922424 -0.087565094 -10.281808 -0.089335926 -10.305614 -36.001526 -86.131279
50959000 -33.96553 -71.435646 -0.088794008 -10.497145 -0.090655744 -10.509118 -35.853535 -86.910789
51958000 -33.827824 -72.66069 -0.090487905 -10.695388 -0.091850899 -10.706444 -35.686115 -87.923851
52957000 -33.675121 -73.966118 -0.091677457 -10.896442 -0.093480654 -10.903059 -35.51775 -87.966362
53956000 -33.563782 -74.880013 -0.093123607 -11.100616 -0.094200134 -11.094202 -35.389889 -88.274025
54955000 -33.425125 -75.539215 -0.094594836 -11.300395 -0.095262378 -11.292932 -35.237263 -88.541969
55954000 -33.302429 -76.661049 -0.09530101 -11.500508 -0.095985852 -11.498639 -35.109055 -88.470581
56953000 -33.206738 -76.793396 -0.0950462 -11.698457 -0.094288751 -11.687995 -35.057819 -88.889343
57952000 -33.073902 -77.641273 -0.096595369 -11.894307 -0.096379399 -11.887564 -34.957291 -89.087173
58951000 -32.95536 -78.087936 -0.097399816 -12.100629 -0.097056739 -12.081203 -34.813709 -89.542618
59950000 -32.851357 -78.625053 -0.097620338 -12.30158 -0.09760154 -12.279924 -34.758377 -89.926758
60949000 -32.76321 -79.300354 -0.098351628 -12.502166 -0.098593913 -12.484451 -34.676201 -90.373848
61948000 -32.708885 -79.754601 -0.09929014 -12.702693 -0.098112531 -12.681848 -34.600899 -90.634712
62947000 -32.630005 -80.031075 -0.098856874 -12.916278 -0.0992226 -12.897944 -34.470181 -91.149818
63946000 -32.59074 -80.806221 -0.10028157 -13.112339 -0.10053881 -13.090723 -34.377056 -91.562904
64945000 -32.49789 -81.115463 -0.10095766 -13.316042 -0.10091421 -13.293526 -34.278259 -92.180496
65944000 -32.411934 -81.537125 -0.10192721 -13.514981 -0.101309 -13.496385 -34.194729 -92.771957
66943000 -32.272518 -82.074104 -0.09991999 -13.715583 -0.10012713 -13.697818 -34.116413 -93.134811
67942000 -32.223213 -82.223457 -0.10231096 -13.91308 -0.1017433 -13.902631 -34.007 -93.665077
68941000 -32.108837 -82.40712 -0.10168077 -14.109132 -0.100906 -14.097937 -33.889027 -93.819298
69940000 -32.00544 -82.559067 -0.1020099 -14.310349 -0.10230381 -14.296871 -33.749504 -94.338173
70939000 -31.899014 -82.622643 -0.10215539 -14.503564 -0.10204355 -14.494295 -33.617359 -94.412956
71938000 -31.748226 -82.456581 -0.10185672 -14.700608 -0.10180902 -14.691949 -33.467319 -94.484459
72937000 -31.597733 -82.509628 -0.10145235 -14.901073 -0.10144307 -14.8975 -33.313488 -94.381508
73936000 -31.446417 -82.425827 -0.10146587 -15.095681 -0.10061113 -15.091643 -33.178532 -94.303307
74935000 -31.336895 -82.80262 -0.1007534 -15.292134 -0.099794172 -15.292734 -33.021713 -94.208229
75934000 -31.226734 -83.238777 -0.10086361 -15.500363 -0.099825688 -15.50061 -32.917606 -94.245079
76933000 -31.098606 -83.748405 -0.10208941 -15.695078 -0.10202474 -15.691204 -32.761196 -94.888542
77932000 -31.024645 -84.541321 -0.10357614 -15.892073 -0.10310083 -15.888571 -32.6563 -94.995079
78931000 -30.975269 -85.359444 -0.10302263 -16.092857 -0.10225796 -16.087864 -32.55022 -95.004982
79930000 -30.878199 -86.224701 -0.10527581 -16.282156 -0.10486554 -16.283785 -32.468128 -95.488182
80929000 -30.777246 -87.219749 -0.10670633 -16.479692 -0.10664611 -16.476664 -32.365833 -95.931343
81928000 -30.721935 -88.142838 -0.10663284 -16.673252 -0.10673551 -16.674379 -32.242844 -96.220459
82927000 -30.639654 -88.932701 -0.10886666 -16.874277 -0.10811264 -16.86981 -32.141876 -96.754997
83926000 -30.551031 -89.735573 -0.10989772 -17.069925 -0.10878517 -17.068693 -32.032352 -97.120483
84925000 -30.456717 -90.355553 -0.11130188 -17.272533 -0.10992905 -17.263538 -31.939558 -97.35041
85924000 -30.373425 -90.878662 -0.11136801 -17.47135 -0.11123495 -17.467997 -31.867327 -97.430901
86923000 -30.291397 -91.512451 -0.11234333 -17.668337 -0.11133401 -17.661583 -31.752478 -97.46077
87922000 -30.184917 -91.971848 -0.11194197 -17.877184 -0.11107322 -17.868828 -31.662083 -97.634796
88921000 -30.130293 -92.404083 -0.11327133 -18.074997 -0.11211303 -18.068979 -31.560879 -97.808334
89920000 -30.034399 -93.003746 -0.11386308 -18.2721 -0.1125176 -18.266335 -31.518766 -97.992073
90919000 -29.955208 -93.471909 -0.1147114 -18.466564 -0.11419394 -18.462744 -31.443844 -98.343315
91918000 -29.861383 -93.897148 -0.11578079 -18.669613 -0.11400605 -18.662813 -31.371914 -98.406448
92917000 -29.786024 -94.377823 -0.11752807 -18.869745 -0.11581907 -18.861715 -31.299244 -98.668198
93916000 -29.701385 -94.773788 -0.11697331 -19.060442 -0.11524673 -19.05563 -31.226177 -99.41861
94915000 -29.642271 -95.479843 -0.11806455 -19.26399 -0.11654625 -19.257378 -31.163893 -99.313911
95914000 -29.582483 -95.77623 -0.11906027 -19.456371 -0.11808237 -19.455271 -31.068104 -99.670738
96913000 -29.505106 -96.087822 -0.12023959 -19.65645 -0.11837098 -19.653824 -31.020947 -100.13531
97912000 -29.434566 -96.636261 -0.1213737 -19.853142 -0.11880806 -19.855324 -30.941816 -100.48345
98911000 -29.333641 -96.923866 -0.1217565 -20.053553 -0.12022495 -20.054371 -30.906332 -100.74407
99910000 -29.262218 -97.098343 -0.12283722 -20.255068 -0.12035961 -20.253338 -30.79636 -101.13425
100909000 -29.177319 -97.498062 -0.12236033 -20.460365 -0.12062841 -20.457726 -30.702267 -101.42756
101908000 -29.091433 -97.812973 -0.12326597 -20.661333 -0.12141655 -20.661272 -30.583021 -101.27618
102907000 -28.958424 -97.96109 -0.12387693 -20.861841 -0.1215973 -20.862364 -30.505791 -101.28017
103906000 -28.866163 -98.076706 -0.12429405 -21.068792 -0.12055815 -21.067942 -30.340145 -101.42361
104905000 -28.71409 -98.187721 -0.1245916 -21.265169 -0.12119295 -21.26898 -30.188747 -101.22164
105904000 -28.579214 -98.413963 -0.12476423 -21.467112 -0.12191571 -21.465448 -30.066626 -101.15072
106903000 -28.47069 -98.613472 -0.12492567 -21.674246 -0.12231907 -21.665977 -29.923025 -101.17258
107902000 -28.312624 -99.089859 -0.1258377 -21.874432 -0.12273896 -21.865126 -29.774799 -101.24046
108901000 -28.204781 -99.449295 -0.12653084 -22.076424 -0.1241305 -22.067923 -29.634676 -101.33421
109900000 -28.087742 -100.06655 -0.12757544 -22.274683 -0.12548119 -22.264921 -29.475359 -101.58647
110899000 -27.981102 -100.72037 -0.12885039 -22.475992 -0.12636082 -22.466618 -29.353722 -102.03292
111898000 -27.890131 -101.4519 -0.13051383 -22.676895 -0.12775192 -22.668335 -29.224508 -102.28812
112897000 -27.780062 -102.14436 -0.13161702 -22.877079 -0.12876479 -22.862225 -29.08547 -102.63013
113896000 -27.684671 -102.76196 -0.13324095 -23.075201 -0.13024628 -23.065615 -28.976221 -102.87226
114895000 -27.594328 -103.51913 -0.134159 -23.273895 -0.13147826 -23.261845 -28.858524 -103.1002
115894000 -27.468302 -103.93211 -0.13539316 -23.476641 -0.13279894 -23.462912 -28.791496 -103.36872
116893000 -27.404032 -104.56986 -0.13615942 -23.67297 -0.13362214 -23.651865 -28.659132 -103.62846
117892000 -27.322947 -105.11826 -0.13597217 -23.870041 -0.13394676 -23.850931 -28.584641 -103.95177
118891000 -27.266039 -105.59719 -0.13739415 -24.06867 -0.134795 -24.055004 -28.483103 -104.22714
119890000 -27.179714 -106.02934 -0.13812655 -24.271038 -0.13476135 -24.256426 -28.480728 -104.37986
120889000 -27.129751 -106.56844 -0.13870272 -24.468197 -0.13545458 -24.455032 -28.396994 -104.44863
121888000 -27.086893 -106.94965 -0.1391945 -24.6661 -0.13624221 -24.656029 -28.3402 -104.7614
122887000 -27.040022 -107.13877 -0.13953371 -24.867723 -0.13685581 -24.857723 -28.284367 -104.84728
123886000 -26.989111 -107.664 -0.14054722 -25.074711 -0.13718815 -25.055836 -28.277412 -105.0627
124885000 -26.960882 -108.18624 -0.14123148 -25.271591 -0.13723491 -25.254993 -28.244635 -105.16141
125884000 -26.900797 -108.43364 -0.14208034 -25.467997 -0.13790689 -25.454889 -28.21109 -105.36163
126883000 -26.876375 -108.80178 -0.14213838 -25.673019 -0.13854691 -25.65407 -28.169813 -105.39755
127882000 -26.829029 -109.11624 -0.14262654 -25.872595 -0.1391595 -25.85244 -28.122072 -105.64378
128881000 -26.796955 -109.44193 -0.14265008 -26.075085 -0.13882887 -26.055483 -28.085737 -105.80418
129880000 -26.745863 -109.85327 -0.14357789 -26.273884 -0.13905205 -26.25481 -28.032082 -105.79453
130879000 -26.680006 -110.06841 -0.14371221 -26.471157 -0.14053251 -26.457481 -27.956148 -105.94083
131878000 -26.613829 -110.32591 -0.14433435 -26.677279 -0.14117932 -26.65498 -27.879774 -105.83607
132877000 -26.537985 -110.41171 -0.14350404 -26.879509 -0.14103386 -26.862375 -27.789043 -105.92785
133876000 -26.457653 -110.64481 -0.14444834 -27.077589 -0.1410836 -27.057022 -27.686766 -105.89159
134875000 -26.359417 -110.8721 -0.14457305 -27.27586 -0.14154997 -27.259167 -27.573143 -105.83498
135874000 -26.272501 -110.95603 -0.14397041 -27.477999 -0.14154731 -27.463535 -27.472286 -105.89539
136873000 -26.156284 -110.96195 -0.14542016 -27.681 -0.14116757 -27.664415 -27.372194 -105.90445
137872000 -26.080215 -111.11848 -0.14535378 -27.884851 -0.14195168 -27.866783 -27.260998 -105.93704
138871000 -26.011368 -111.37799 -0.14580536 -28.083374 -0.14218305 -28.068834 -27.161522 -106.17169
139870000 -25.915672 -111.66195 -0.14648911 -28.282976 -0.14355193 -28.267479 -27.085342 -106.42406
140869000 -25.833071 -112.22971 -0.14875586 -28.4814 -0.14491831 -28.456696 -26.972601 -106.63134
141868000 -25.74481 -112.7793 -0.1487004 -28.670973 -0.1454919 -28.657196 -26.900158 -107.02869
142867000 -25.671516 -113.05474 -0.1474729 -28.867853 -0.14439723 -28.856215 -26.823992 -107.26659
143866000 -25.604347 -113.62113 -0.14865889 -29.064207 -0.1458059 -29.050529 -26.762947 -107.85385
144865000 -25.554571 -114.17265 -0.1504315 -29.262423 -0.14698955 -29.250353 -26.705362 -108.21497
145864000 -25.498409 -114.5389 -0.15099886 -29.464935 -0.148507 -29.451487 -26.680355 -108.50227
146863000 -25.456745 -114.92535 -0.1520389 -29.664976 -0.14917269 -29.651884 -26.633085 -108.86342
147862000 -25.412968 -115.35558 -0.15325643 -29.861822 -0.14923325 -29.847902 -26.604729 -109.24002
148861000 -25.393385 -115.84226 -0.15336047 -30.060217 -0.15024553 -30.046515 -26.584635 -109.50153
149860000 -25.376299 -116.07468 -0.15450756 -30.256779 -0.15127493 -30.24596 -26.55476 -109.68263
150859000 -25.363379 -116.46971 -0.15488927 -30.4534 -0.1513631 -30.444098 -26.553814 -109.94102
151858000 -25.346058 -116.75398 -0.15369837 -30.658855 -0.1517652 -30.643145 -26.551952 -110.24889
152857000 -25.32884 -117.12581 -0.15512964 -30.852245 -0.1518164 -30.84428 -26.539505 -110.395
153856000 -25.325018 -117.37132 -0.15447672 -31.052448 -0.15093963 -31.044371 -26.564455 -110.69433
154855000 -25.313158 -117.56601 -0.15487398 -31.253624 -0.15247294 -31.240646 -26.557459 -110.93681
155854000 -25.327988 -117.82016 -0.15578347 -31.456003 -0.15243514 -31.439741 -26.552099 -111.19569
156853000 -25.318136 -118.49287 -0.1534377 -31.640043 -0.15209921 -31.629852 -26.553089 -111.53364
157852000 -25.324083 -118.72141 -0.15450622 -31.840584 -0.15357341 -31.830799 -26.553106 -111.84094
158851000 -25.314636 -118.99116 -0.15551275 -32.039463 -0.15304834 -32.030117 -26.538773 -112.12771
159850000 -25.305984 -119.10332 -0.15631478 -32.23835 -0.15364903 -32.230469 -26.545935 -112.29774
160849000 -25.279591 -119.2424 -0.15623829 -32.437626 -0.15485118 -32.430073 -26.520668 -112.62855
161848000 -25.258692 -119.37014 -0.15725462 -32.637447 -0.15486915 -32.631268 -26.473885 -112.73678
162847000 -25.219889 -119.61201 -0.15689658 -32.834663 -0.15556695 -32.832455 -26.448824 -113.01199
163846000 -25.174349 -119.86956 -0.15731931 -33.037891 -0.15561095 -33.025898 -26.367874 -113.04069
164845000 -25.115326 -119.90702 -0.15811548 -33.236015 -0.15608507 -33.231167 -26.295069 -113.19408
165844000 -25.061098 -119.99669 -0.15763766 -33.43602 -0.15710673 -33.43042 -26.214333 -113.37893
166843000 -24.997889 -120.17207 -0.15828192 -33.634949 -0.15649295 -33.630085 -26.14323 -113.61087
167842000 -24.937948 -120.33915 -0.15790501 -33.831707 -0.15755282 -33.826553 -26.050146 -113.54787
168841000 -24.858568 -120.58289 -0.15941635 -34.030613 -0.15736172 -34.03088 -25.974251 -113.69514
169840000 -24.795431 -120.85994 -0.15881783 -34.227791 -0.15766557 -34.226429 -25.882877 -113.97338
170839000 -24.737331 -121.19012 -0.15988229 -34.421951 -0.1580234 -34.421425 -25.791 -114.25605
171838000 -24.685724 -121.63328 -0.16041435 -34.62569 -0.15895073 -34.617661 -25.729141 -114.53606
172837000 -24.616302 -122.04861 -0.16177261 -34.819527 -0.1599685 -34.81728 -25.661245 -114.81426
173836000 -24.551035 -122.51455 -0.16284102 -35.021458 -0.16105501 -35.018848 -25.619156 -115.07646
174835000 -24.500715 -122.97325 -0.16319713 -35.213722 -0.1617855 -35.215282 -25.576347 -115.47192
175834000 -24.452383 -123.40012 -0.1637917 -35.414711 -0.16273057 -35.407513 -25.512203 -115.79954
176833000 -24.405697 -123.79232 -0.16497704 -35.61055 -0.16343904 -35.609882 -25.456566 -116.03876
177832000 -24.364361 -124.29987 -0.16553877 -35.804398 -0.16419332 -35.808014 -25.439007 -116.23646
178831000 -24.319872 -124.70379 -0.16546482 -36.003975 -0.16489583 -36.000999 -25.403906 -116.51678
179830000 -24.288784 -125.13387 -0.1668155 -36.201881 -0.16495687 -36.20414 -25.373564 -116.69913
180829000 -24.245628 -125.38342 -0.16716817 -36.400013 -0.16548875 -36.398125 -25.348211 -116.88058
181828000 -24.221107 -125.77266 -0.16729462 -36.601566 -0.16580823 -36.594971 -25.325607 -117.01693
182827000 -24.20236 -126.13547 -0.16727793 -36.792877 -0.16666541 -36.793911 -25.310175 -117.12664
183826000 -24.16128 -126.48153 -0.16847526 -36.991531 -0.16644135 -36.989403 -25.304512 -117.28148
184825000 -24.160782 -126.82758 -0.16862918 -37.183903 -0.16693306 -37.187576 -25.289318 -117.40347
185824000 -24.137632 -127.13545 -0.16812491 -37.37962 -0.16734734 -37.385735 -25.279203 -117.43394
186823000 -24.115019 -127.52489 -0.16827022 -37.583271 -0.16740707 -37.581974 -25.275949 -117.4532
187822000 -24.095491 -127.84058 -0.16874625 -37.780445 -0.16814105 -37.776825 -25.234428 -117.5294
188821000 -24.078154 -128.1058 -0.16893168 -37.969799 -0.16845804 -37.978615 -25.224594 -117.61434
189820000 -24.060595 -128.38144 -0.16932946 -38.175713 -0.16810311 -38.17366 -25.210428 -117.80903
190819000 -24.026783 -128.6353 -0.17054351 -38.372829 -0.16920243 -38.370819 -25.175562 -117.76467
191818000 -23.991625 -128.86366 -0.17169864 -38.568417 -0.17068405 -38.569923 -25.138939 -117.69152
192817000 -23.923134 -129.11966 -0.17276575 -38.752907 -0.17139651 -38.755444 -25.063118 -117.77429
193816000 -23.879869 -129.50383 -0.17175736 -38.944595 -0.17009607 -38.946396 -24.998188 -118.09613
194815000 -23.829454 -130.01782 -0.17129956 -39.142296 -0.17123009 -39.146961 -24.931013 -118.25454
195814000 -23.768932 -130.25743 -0.17256749 -39.343056 -0.17055158 -39.340782 -24.879545 -118.39207
196813000 -23.720188 -130.61005 -0.1716771 -39.537895 -0.17063531 -39.539883 -24.792854 -118.60889
197812000 -23.665197 -130.86192 -0.17184946 -39.736324 -0.17112346 -39.734837 -24.719067 -118.76028
198811000 -23.606668 -131.06654 -0.17207541 -39.933533 -0.17120317 -39.935135 -24.648096 -118.9849
199810000 -23.540518 -131.50517 -0.17232616 -40.127094 -0.17111996 -40.12513 -24.561438 -119.12429
200809000 -23.479015 -131.80644 -0.17251848 -40.32423 -0.17175682 -40.326496 -24.484169 -119.39294
201808000 -23.422905 -132.05887 -0.17370188 -40.525143 -0.17310622 -40.531998 -24.409199 -119.47976
202807000 -23.362249 -132.45139 -0.17476381 -40.726208 -0.17352273 -40.728374 -24.34837 -119.74004
203806000 -23.316656 -132.92915 -0.17530444 -40.924541 -0.17365716 -40.92717 -24.284828 -119.9482
204805000 -23.263454 -133.33115 -0.17650129 -41.124184 -0.1751934 -41.125893 -24.222544 -120.20939
