!Keysight Technologies,E5080B,MY59205177,A.15.75.32
!Date: Friday, February 23, 2024 03:25:57
!Correction: S11(Cdelta 2-Port  ) 
!S21(Cdelta 2-Port  ) 
!S12(Cdelta 2-Port  ) 
!S22(Cdelta 2-Port  ) 
!S2P File: Measurements: S11, S21, S12, S22:
# Hz S  dB   R 50
10000000 -45.917458 -0.16452874 -0.016935999 -2.0613997 -0.02038794 -2.1162124 -46.255165 -159.27797
10999000 -45.101997 -2.5680354 -0.017596902 -2.2813828 -0.019836349 -2.331856 -46.198563 -153.52704
11998000 -44.195251 -5.4897828 -0.018307555 -2.5047708 -0.019026905 -2.5493047 -46.413967 -148.94084
12997000 -43.429943 -10.972496 -0.017524388 -2.6844645 -0.019028986 -2.7208486 -46.090378 -142.64505
13996000 -43.164417 -14.758353 -0.017518409 -2.8659785 -0.019095285 -2.8848333 -45.908009 -137.57932
14995000 -42.816662 -18.789846 -0.018968146 -3.0774629 -0.018968927 -3.1012402 -45.683914 -133.79733
15994000 -42.658199 -23.254084 -0.020745821 -3.297035 -0.021727286 -3.3216956 -45.563869 -130.24289
16993000 -42.666187 -27.461853 -0.01945124 -3.4939573 -0.020727353 -3.5028241 -44.705917 -129.80473
17992000 -42.729492 -32.771549 -0.020340085 -3.6947687 -0.021922668 -3.697263 -44.107132 -129.76889
18991000 -43.048969 -38.199203 -0.020649064 -3.9085774 -0.022874214 -3.9055717 -43.484447 -128.56894
19990000 -42.842747 -43.70882 -0.023932684 -4.1156354 -0.024478028 -4.111671 -42.806484 -129.57153
20989000 -42.718388 -46.728683 -0.0261866 -4.3257055 -0.02631864 -4.3161473 -42.267166 -128.86328
21988000 -42.62307 -51.972141 -0.025779575 -4.521565 -0.02745714 -4.5089188 -42.044392 -128.33949
22987000 -42.29657 -56.991734 -0.028226471 -4.7180934 -0.028325479 -4.7086678 -41.786259 -127.51066
23986000 -42.258755 -61.124996 -0.027504293 -4.9180231 -0.027575411 -4.9136553 -41.633633 -127.25264
24985000 -41.856628 -64.012711 -0.028983688 -5.1265306 -0.02845628 -5.1251774 -41.457367 -124.77216
25984000 -41.554203 -65.97934 -0.030641375 -5.3333187 -0.029246112 -5.3342385 -41.100185 -122.76462
26983000 -41.215641 -68.218979 -0.030405715 -5.5362697 -0.029679528 -5.5522695 -41.042416 -122.24487
27982000 -41.133259 -69.142654 -0.031413615 -5.7345963 -0.030918501 -5.7679482 -40.718784 -120.70564
28981000 -41.06488 -70.780907 -0.029563025 -5.9319992 -0.030715674 -5.9565969 -40.501514 -119.86024
29980000 -40.665134 -72.481445 -0.030201089 -6.1287537 -0.031486884 -6.1376534 -40.287819 -118.80381
30979000 -40.271843 -71.233955 -0.02756473 -6.4812393 -0.026370205 -6.4756327 -39.727558 -119.36779
31978000 -40.054588 -72.223061 -0.027156012 -6.6822143 -0.027098445 -6.6675329 -39.46859 -118.56295
32977000 -39.862408 -73.643997 -0.026359787 -6.8897419 -0.02823611 -6.8891325 -39.243416 -118.7527
33976000 -39.721634 -74.846352 -0.027020302 -7.091691 -0.027906269 -7.0883508 -38.946777 -118.0494
34975000 -39.401505 -75.723083 -0.027462091 -7.2926989 -0.02930918 -7.2908435 -38.713005 -117.7978
35974000 -39.187363 -76.357422 -0.027065886 -7.4881039 -0.028980039 -7.4910545 -38.424076 -116.60428
36973000 -38.972763 -77.043701 -0.0280196 -7.6890841 -0.029507771 -7.6958971 -38.136757 -115.67577
37972000 -38.794289 -76.743141 -0.027102875 -7.8970399 -0.029874226 -7.9090977 -37.935722 -114.79402
38971000 -38.453217 -76.315491 -0.028496146 -8.1010027 -0.030209951 -8.1112089 -37.750721 -113.21547
39970000 -38.119209 -76.627205 -0.026993994 -8.2963371 -0.028657177 -8.3139706 -37.480946 -112.544
40969000 -37.823746 -76.321724 -0.027780958 -8.4968805 -0.029667277 -8.512476 -37.248138 -111.18551
41968000 -37.468483 -76.393433 -0.028332515 -8.7011328 -0.029686043 -8.7174711 -37.04401 -109.83526
42967000 -37.186451 -76.467667 -0.027780697 -8.9091425 -0.028847661 -8.9309092 -36.838013 -107.9231
43966000 -36.895546 -77.230911 -0.028022727 -9.1136227 -0.031262651 -9.1324558 -36.563148 -107.15523
44965000 -36.649971 -78.080254 -0.029733999 -9.3158588 -0.030925019 -9.3365154 -36.332684 -106.91337
45964000 -36.416748 -79.062004 -0.030680479 -9.5157824 -0.033273343 -9.5365324 -36.087475 -106.54757
46963000 -36.231201 -80.997086 -0.030763382 -9.7136011 -0.033006761 -9.734539 -35.912037 -106.72392
47962000 -36.050011 -82.473083 -0.032299437 -9.9130735 -0.035108551 -9.9330444 -35.711533 -106.71935
48961000 -35.866688 -83.898071 -0.034469768 -10.11228 -0.036009222 -10.136865 -35.487354 -107.00848
49960000 -35.608166 -85.3591 -0.035509929 -10.313549 -0.037561495 -10.334903 -35.338223 -106.94526
50959000 -35.392799 -86.687546 -0.036277816 -10.525544 -0.038665079 -10.537621 -35.14846 -107.26291
51958000 -35.185871 -87.790291 -0.038623553 -10.72644 -0.039711729 -10.737554 -34.963181 -107.68071
52957000 -34.969349 -88.803398 -0.039943978 -10.927304 -0.041033793 -10.935945 -34.8139 -107.44375
53956000 -34.8013 -89.469818 -0.04158939 -11.12829 -0.041778348 -11.133243 -34.668919 -107.39328
54955000 -34.635654 -89.990402 -0.041924976 -11.33275 -0.04287307 -11.328602 -34.512897 -107.17791
55954000 -34.467728 -90.831985 -0.042951502 -11.532794 -0.043074112 -11.529845 -34.405865 -106.95828
56953000 -34.347645 -90.851036 -0.042303458 -11.734992 -0.041851271 -11.721584 -34.356216 -107.07866
57952000 -34.186779 -91.474411 -0.043692462 -11.933091 -0.043832093 -11.926874 -34.245796 -107.23851
58951000 -34.06065 -91.768425 -0.045440529 -12.140097 -0.044632576 -12.116939 -34.07354 -107.33136
59950000 -33.922981 -92.160751 -0.046412155 -12.339601 -0.045190461 -12.316396 -34.012672 -107.52866
60949000 -33.821075 -92.81411 -0.046138749 -12.53939 -0.046289969 -12.519642 -33.927727 -107.72938
61948000 -33.752785 -93.099617 -0.047700141 -12.741239 -0.046029389 -12.724366 -33.828449 -107.86588
62947000 -33.66116 -93.286194 -0.047410689 -12.953024 -0.046927094 -12.934924 -33.698303 -108.13712
63946000 -33.593552 -94.013802 -0.048478037 -13.153804 -0.047741756 -13.133231 -33.59206 -108.31063
64945000 -33.482098 -94.18399 -0.049002647 -13.355474 -0.048354749 -13.335307 -33.479725 -108.70854
65944000 -33.384239 -94.453606 -0.049917463 -13.555614 -0.048364956 -13.539652 -33.386036 -109.22126
66943000 -33.246887 -94.873627 -0.047689147 -13.759224 -0.047022603 -13.741454 -33.275085 -109.52255
67942000 -33.173191 -94.822456 -0.050331995 -13.953156 -0.049115743 -13.944947 -33.147396 -109.77361
68941000 -33.065983 -94.832558 -0.049429137 -14.147279 -0.048061851 -14.13625 -33.047314 -109.77155
69940000 -32.963646 -94.879387 -0.049498782 -14.347063 -0.049593303 -14.338068 -32.892757 -110.04175
70939000 -32.856285 -94.771156 -0.049913272 -14.541848 -0.049221255 -14.540949 -32.751781 -109.96596
71938000 -32.71069 -94.361153 -0.050070912 -14.743394 -0.048913114 -14.734605 -32.619442 -109.79617
72937000 -32.543991 -94.161888 -0.048895311 -14.938987 -0.049009979 -14.934813 -32.474899 -109.48647
73936000 -32.398331 -93.800591 -0.049463697 -15.142345 -0.048122052 -15.13261 -32.35128 -109.29134
74935000 -32.274578 -94.049149 -0.049097158 -15.338749 -0.047433197 -15.335623 -32.20665 -108.96223
75934000 -32.131447 -94.332283 -0.049347449 -15.542012 -0.047846969 -15.539063 -32.110233 -108.83376
76933000 -32.00724 -94.692291 -0.050332256 -15.741368 -0.049122028 -15.737791 -31.934175 -109.18774
77932000 -31.899601 -95.419785 -0.051564302 -15.938979 -0.050986476 -15.933147 -31.821033 -109.17156
78931000 -31.826563 -96.204445 -0.050122496 -16.139446 -0.050501693 -16.133608 -31.726292 -108.97079
79930000 -31.718731 -97.023552 -0.053014182 -16.331587 -0.052201938 -16.331888 -31.615795 -109.34196
80929000 -31.595501 -97.851753 -0.05511336 -16.528296 -0.054228902 -16.527496 -31.517105 -109.57046
81928000 -31.498066 -98.530769 -0.055109952 -16.72286 -0.054348953 -16.723038 -31.38726 -109.50937
82927000 -31.404985 -99.370438 -0.056804657 -16.923815 -0.056107607 -16.920053 -31.274307 -109.85059
83926000 -31.282881 -100.04168 -0.0582841 -17.117722 -0.056890681 -17.118542 -31.148226 -109.93706
84925000 -31.185001 -100.49972 -0.058959458 -17.318069 -0.057237945 -17.316204 -31.056717 -110.05168
85924000 -31.079346 -100.91192 -0.06032493 -17.52088 -0.058391929 -17.518358 -30.968586 -110.00265
86923000 -30.966787 -101.36616 -0.060322043 -17.717318 -0.059146553 -17.718393 -30.861816 -109.8931
87922000 -30.855495 -101.79048 -0.059686098 -17.926798 -0.058943454 -17.917074 -30.771137 -109.84522
88921000 -30.789877 -102.0363 -0.061472122 -18.12509 -0.059988443 -18.120129 -30.675751 -109.78155
89920000 -30.684408 -102.54643 -0.062652968 -18.325537 -0.059710771 -18.317501 -30.617165 -109.93874
90919000 -30.575615 -102.86059 -0.063379176 -18.525358 -0.061233733 -18.516905 -30.538248 -110.14194
91918000 -30.473351 -103.19108 -0.063849635 -18.722368 -0.062206797 -18.717487 -30.46253 -110.13389
92917000 -30.393923 -103.55846 -0.065416358 -18.92226 -0.062406898 -18.919704 -30.404377 -110.25634
93916000 -30.299149 -103.84592 -0.064392127 -19.113695 -0.062962346 -19.114092 -30.303045 -110.8276
94915000 -30.213535 -104.48324 -0.065880992 -19.319273 -0.064616241 -19.311783 -30.245367 -110.73528
95914000 -30.149445 -104.70123 -0.067340657 -19.513561 -0.065278657 -19.506407 -30.164719 -110.93726
96913000 -30.062614 -104.94492 -0.068125241 -19.716276 -0.066227928 -19.71137 -30.088869 -111.3297
97912000 -29.983036 -105.40875 -0.069254503 -19.910242 -0.066500232 -19.912327 -30.013958 -111.58765
98911000 -29.874355 -105.54886 -0.069905788 -20.117378 -0.06821911 -20.111452 -29.966984 -111.81705
99910000 -29.805851 -105.71829 -0.071196817 -20.313541 -0.068452097 -20.310638 -29.862032 -112.08403
100909000 -29.708601 -105.97144 -0.070146494 -20.52293 -0.066957362 -20.514177 -29.7735 -112.3289
101908000 -29.625546 -106.15215 -0.071263388 -20.722321 -0.069147453 -20.718899 -29.658136 -112.08189
102907000 -29.487108 -106.22438 -0.072079472 -20.917114 -0.0689978 -20.924646 -29.585741 -112.02105
103906000 -29.392612 -106.26926 -0.072435848 -21.128664 -0.068822376 -21.125475 -29.443497 -111.9799
104905000 -29.241911 -106.15565 -0.072131582 -21.328953 -0.069716126 -21.323994 -29.310062 -111.67673
105904000 -29.105156 -106.20509 -0.073344029 -21.529484 -0.069312103 -21.525904 -29.199932 -111.56147
106903000 -28.992771 -106.35891 -0.073329285 -21.735826 -0.069788203 -21.730612 -29.063084 -111.45982
107902000 -28.823792 -106.70243 -0.074289002 -21.93582 -0.071357861 -21.927017 -28.929018 -111.38988
108901000 -28.715591 -106.8992 -0.075381681 -22.138361 -0.072602995 -22.131226 -28.796293 -111.31647
109900000 -28.592243 -107.37535 -0.075703554 -22.340895 -0.073400892 -22.332336 -28.652494 -111.44341
110899000 -28.46689 -108.00418 -0.076964423 -22.538582 -0.074456215 -22.529989 -28.522198 -111.70165
111898000 -28.382683 -108.65282 -0.07841491 -22.742189 -0.075506791 -22.736195 -28.402346 -111.80471
112897000 -28.258179 -109.23428 -0.080498181 -22.940165 -0.076771818 -22.926931 -28.269608 -111.99313
113896000 -28.153439 -109.79344 -0.081382729 -23.142668 -0.078199044 -23.131203 -28.160259 -112.11106
114895000 -28.050098 -110.48034 -0.082012892 -23.341011 -0.079321705 -23.324692 -28.048161 -112.23231
115894000 -27.926006 -110.84943 -0.083604656 -23.541546 -0.080240287 -23.5268 -27.973673 -112.45393
116893000 -27.860252 -111.2526 -0.084578522 -23.742298 -0.081297278 -23.724533 -27.855377 -112.43172
117892000 -27.767138 -111.82375 -0.084884189 -23.932556 -0.081565782 -23.920042 -27.781557 -112.68329
118891000 -27.712776 -112.25957 -0.08547473 -24.135996 -0.081792101 -24.119619 -27.687162 -112.78907
119890000 -27.62151 -112.59807 -0.085915372 -24.339094 -0.083376132 -24.318359 -27.6716 -112.88622
120889000 -27.575886 -113.11852 -0.087640896 -24.539541 -0.083120175 -24.524878 -27.595263 -112.84311
121888000 -27.535418 -113.44421 -0.087183699 -24.73675 -0.084200829 -24.722219 -27.534626 -113.08602
122887000 -27.495684 -113.64732 -0.088168673 -24.940603 -0.084229596 -24.92643 -27.490891 -113.15335
123886000 -27.441854 -114.03131 -0.08894857 -25.142788 -0.085117809 -25.121859 -27.475983 -113.2432
124885000 -27.408331 -114.5471 -0.089010134 -25.342426 -0.085368596 -25.328741 -27.44692 -113.29882
125884000 -27.355536 -114.72703 -0.090436101 -25.54122 -0.085876293 -25.526693 -27.417501 -113.44312
126883000 -27.343178 -115.12901 -0.091234639 -25.742071 -0.087141708 -25.730389 -27.375965 -113.46698
127882000 -27.290033 -115.4527 -0.091452479 -25.942974 -0.087409519 -25.92786 -27.335831 -113.59243
128881000 -27.255018 -115.73939 -0.091685921 -26.146313 -0.087446235 -26.128504 -27.292059 -113.71166
129880000 -27.198416 -116.06784 -0.0924564 -26.349459 -0.087557964 -26.33041 -27.258478 -113.66213
130879000 -27.131594 -116.19254 -0.092333972 -26.547327 -0.088692814 -26.530811 -27.178394 -113.64616
131878000 -27.073874 -116.50626 -0.092574865 -26.751707 -0.089059018 -26.731441 -27.115831 -113.55719
132877000 -27.003063 -116.5543 -0.092410654 -26.953411 -0.089463294 -26.933298 -27.032621 -113.52677
133876000 -26.910006 -116.71741 -0.092590734 -27.1541 -0.089116089 -27.132505 -26.946186 -113.45248
134875000 -26.813177 -116.8812 -0.093232304 -27.352768 -0.08981476 -27.338938 -26.83956 -113.24362
135874000 -26.733913 -116.87916 -0.093452886 -27.55588 -0.089771152 -27.539289 -26.741684 -113.22873
136873000 -26.61418 -116.82533 -0.093792237 -27.759144 -0.089662015 -27.739594 -26.647224 -113.21033
137872000 -26.535963 -116.93966 -0.093569264 -27.959375 -0.089949273 -27.943127 -26.545082 -113.12437
138871000 -26.458546 -117.16977 -0.094791941 -28.161085 -0.09039513 -28.144928 -26.445091 -113.2867
139870000 -26.357433 -117.47688 -0.094498537 -28.362738 -0.091422603 -28.34285 -26.365973 -113.46651
140869000 -26.274305 -118.02123 -0.096001729 -28.558222 -0.092232436 -28.542774 -26.263891 -113.69446
141868000 -26.188913 -118.44428 -0.096824065 -28.757118 -0.09404406 -28.740227 -26.207256 -113.92058
142867000 -26.111485 -118.65325 -0.095845856 -28.957294 -0.092808373 -28.938963 -26.129364 -114.05827
143866000 -26.037096 -119.10061 -0.097714059 -29.150183 -0.094474465 -29.136282 -26.052103 -114.53423
144865000 -25.983023 -119.65018 -0.09921439 -29.352591 -0.096134849 -29.335161 -25.997585 -114.8112
145864000 -25.923649 -119.94535 -0.099704377 -29.550097 -0.097006708 -29.541313 -25.959536 -115.05446
146863000 -25.879869 -120.32272 -0.1003319 -29.754002 -0.097436085 -29.740318 -25.913685 -115.3577
147862000 -25.837399 -120.65826 -0.10147806 -29.949526 -0.097836375 -29.939888 -25.877794 -115.67349
148861000 -25.814173 -121.12202 -0.1033333 -30.148497 -0.099730067 -30.134624 -25.854525 -115.84882
149860000 -25.782455 -121.27779 -0.10374872 -30.342785 -0.099456467 -30.330252 -25.804678 -115.91113
150859000 -25.751591 -121.7086 -0.1035483 -30.541338 -0.10016475 -30.528173 -25.779655 -116.25567
151858000 -25.741812 -122.10541 -0.10328479 -30.741636 -0.09965352 -30.727095 -25.771698 -116.56994
152857000 -25.72674 -122.4542 -0.10368086 -30.940498 -0.099988855 -30.928432 -25.758156 -116.77368
153856000 -25.720055 -122.64539 -0.10366654 -31.141821 -0.0999825 -31.128666 -25.77989 -117.08511
154855000 -25.725035 -122.79947 -0.10348733 -31.337454 -0.10024581 -31.327171 -25.765919 -117.32093
155854000 -25.734381 -123.05779 -0.10414722 -31.542473 -0.10074703 -31.528255 -25.761688 -117.56108
156853000 -25.726343 -123.7654 -0.1018016 -31.728025 -0.10026382 -31.718952 -25.758879 -117.90318
157852000 -25.739195 -123.93082 -0.1032779 -31.929581 -0.10163996 -31.921026 -25.748304 -118.24477
158851000 -25.733339 -124.15033 -0.10357746 -32.129501 -0.10199029 -32.119862 -25.73538 -118.53042
159850000 -25.721642 -124.27444 -0.10438346 -32.328815 -0.10205018 -32.320427 -25.737991 -118.67754
160849000 -25.705265 -124.39062 -0.10494139 -32.527027 -0.10263749 -32.522213 -25.707123 -118.97429
161848000 -25.691156 -124.464 -0.10483107 -32.730854 -0.10328268 -32.723179 -25.667612 -119.07492
162847000 -25.64949 -124.62756 -0.10518961 -32.926922 -0.10287286 -32.923317 -25.641302 -119.32789
163846000 -25.607691 -124.82655 -0.10539489 -33.131565 -0.10349926 -33.119614 -25.563683 -119.34151
164845000 -25.551668 -124.81184 -0.10627365 -33.33036 -0.103736 -33.321228 -25.504526 -119.45582
165844000 -25.496218 -124.86968 -0.10568664 -33.5289 -0.10392106 -33.521355 -25.422745 -119.62424
166843000 -25.436028 -124.9186 -0.10648136 -33.728725 -0.10351304 -33.724995 -25.35734 -119.75462
167842000 -25.376139 -125.01508 -0.10647075 -33.928013 -0.10463803 -33.921776 -25.281223 -119.68513
168841000 -25.297693 -125.20688 -0.10726216 -34.126377 -0.10515063 -34.121296 -25.198059 -119.75739
169840000 -25.229559 -125.44218 -0.10726508 -34.321381 -0.10587814 -34.323566 -25.119305 -119.94974
170839000 -25.171373 -125.6863 -0.10816652 -34.522301 -0.10560097 -34.519646 -25.03227 -120.14336
171838000 -25.111044 -126.0853 -0.10793483 -34.725021 -0.10631291 -34.718155 -24.9676 -120.34264
172837000 -25.046106 -126.46198 -0.10916369 -34.92197 -0.10819066 -34.913559 -24.896957 -120.55925
173836000 -24.974606 -126.81976 -0.11112607 -35.119949 -0.10869706 -35.120049 -24.855249 -120.80684
174835000 -24.924339 -127.24417 -0.11129258 -35.318272 -0.10981143 -35.317394 -24.809805 -121.11465
175834000 -24.869404 -127.62714 -0.11224292 -35.51664 -0.11049113 -35.514286 -24.746948 -121.37957
176833000 -24.820635 -127.99136 -0.11311483 -35.715897 -0.11120653 -35.715649 -24.692268 -121.54252
177832000 -24.770849 -128.41611 -0.11334652 -35.915356 -0.11248865 -35.917549 -24.675982 -121.68807
178831000 -24.730049 -128.70422 -0.11540383 -36.116482 -0.1135846 -36.112617 -24.643007 -121.82281
179830000 -24.674479 -129.01941 -0.11775893 -36.304657 -0.11507714 -36.306118 -24.595737 -121.76953
180829000 -24.610008 -129.32864 -0.11734083 -36.49379 -0.11525497 -36.495556 -24.529263 -122.06281
181828000 -24.579708 -129.82872 -0.11631759 -36.692383 -0.11461465 -36.688099 -24.508921 -122.29701
182827000 -24.559347 -130.1864 -0.11603097 -36.889217 -0.11461572 -36.888588 -24.49165 -122.39691
183826000 -24.518034 -130.52608 -0.11669569 -37.091629 -0.11478528 -37.085239 -24.484289 -122.60074
184825000 -24.522709 -130.86333 -0.11630216 -37.282555 -0.11520738 -37.288105 -24.465759 -122.71995
185824000 -24.491385 -131.20845 -0.11639735 -37.480896 -0.11481506 -37.481976 -24.458765 -122.77563
186823000 -24.469336 -131.59294 -0.11623755 -37.684032 -0.11510266 -37.680305 -24.451385 -122.78458
187822000 -24.446344 -131.92787 -0.1168946 -37.872849 -0.11604799 -37.874989 -24.412649 -122.85937
188821000 -24.421396 -132.20879 -0.11759509 -38.073593 -0.11623463 -38.075165 -24.391439 -123.00999
189820000 -24.403347 -132.4808 -0.1174927 -38.269405 -0.1159217 -38.27367 -24.371738 -123.19977
190819000 -24.366035 -132.78436 -0.11810683 -38.470715 -0.11720467 -38.469112 -24.330326 -123.25835
191818000 -24.332834 -133.07858 -0.11823665 -38.666718 -0.11715521 -38.670475 -24.300463 -123.30343
192817000 -24.286285 -133.33778 -0.11897141 -38.863438 -0.11773153 -38.866772 -24.255058 -123.39204
193816000 -24.254896 -133.61101 -0.11890197 -39.061501 -0.11775121 -39.060738 -24.203896 -123.54101
194815000 -24.196596 -134.03409 -0.11976777 -39.257622 -0.11872745 -39.261913 -24.13862 -123.60483
195814000 -24.136074 -134.20543 -0.12028696 -39.455921 -0.11864205 -39.457104 -24.080133 -123.71869
196813000 -24.081779 -134.54005 -0.12013313 -39.648724 -0.1187325 -39.654804 -23.999031 -123.85618
197812000 -24.019146 -134.76222 -0.12100077 -39.847775 -0.11911587 -39.845894 -23.928263 -123.96001
198811000 -23.965883 -134.9375 -0.12078784 -40.046558 -0.11911721 -40.048679 -23.856531 -124.16089
199810000 -23.891836 -135.28778 -0.12054989 -40.242489 -0.11897833 -40.238144 -23.777954 -124.26658
200809000 -23.8381 -135.55502 -0.1210942 -40.437092 -0.11924066 -40.436691 -23.698179 -124.45338
201808000 -23.779095 -135.76244 -0.12183344 -40.64106 -0.12042268 -40.637722 -23.626856 -124.49786
202807000 -23.719507 -136.10896 -0.12275947 -40.837929 -0.12099092 -40.842297 -23.575953 -124.7323
203806000 -23.664412 -136.5235 -0.12492354 -41.038849 -0.12221416 -41.039009 -23.509748 -124.86221
