!Keysight Technologies,E5080B,MY59205177,A.15.75.32
!Date: Friday, February 23, 2024 02:54:16
!Correction: S11(Cdelta 2-Port  ) 
!S21(Cdelta 2-Port  ) 
!S12(Cdelta 2-Port  ) 
!S22(Cdelta 2-Port  ) 
!S2P File: Measurements: S11, S21, S12, S22:
# Hz S  dB   R 50
10000000 -43.62252 -3.6477497 -0.03135208 -2.0436747 -0.034928232 -2.0964208 -48.874279 -147.47789
10999000 -42.994789 -5.3067789 -0.032275442 -2.2636912 -0.034623977 -2.3142507 -48.544617 -138.77504
11998000 -42.247955 -7.6915307 -0.032641869 -2.4850662 -0.034059618 -2.5262101 -48.67741 -133.0052
12997000 -41.663139 -12.298926 -0.032716461 -2.6615539 -0.033482548 -2.6957135 -47.844578 -126.36732
13996000 -41.41391 -15.531549 -0.030875484 -2.8415046 -0.034149107 -2.8635597 -47.376141 -120.77191
14995000 -41.134102 -18.857784 -0.03308136 -3.0529995 -0.033612721 -3.0785789 -46.848808 -117.76711
15994000 -41.038944 -22.429169 -0.034367487 -3.2711422 -0.036464196 -3.29105 -46.645653 -113.71119
16993000 -41.016186 -26.150135 -0.033561591 -3.4659662 -0.035662606 -3.4767098 -45.660709 -115.05068
17992000 -41.082481 -30.848906 -0.033596549 -3.664341 -0.036651365 -3.6651936 -45.075638 -116.20104
18991000 -41.38929 -34.806145 -0.034511775 -3.8751941 -0.037066985 -3.8754127 -44.395317 -115.9348
19990000 -41.233723 -39.498798 -0.037178464 -4.0808764 -0.038840853 -4.0804033 -43.651711 -118.06146
20989000 -41.219547 -42.256893 -0.0395738 -4.287354 -0.041026477 -4.2797146 -43.079319 -118.22148
21988000 -41.158772 -46.88063 -0.040277608 -4.4841146 -0.041611604 -4.4674621 -42.71426 -117.50214
22987000 -40.939423 -51.194069 -0.04143624 -4.6821685 -0.043197777 -4.6741443 -42.466873 -117.39111
23986000 -40.98756 -54.893963 -0.040502306 -4.8761349 -0.041766066 -4.8744941 -42.313744 -117.13103
24985000 -40.705395 -57.626888 -0.041649502 -5.0854096 -0.041674592 -5.0841331 -42.042145 -114.81287
25984000 -40.464497 -59.887535 -0.042608254 -5.2924266 -0.042832289 -5.2981424 -41.672417 -113.69121
26983000 -40.223423 -61.563072 -0.044022199 -5.4918303 -0.043082479 -5.5066314 -41.554409 -112.72984
27982000 -40.073166 -62.684956 -0.044759683 -5.6895361 -0.044586547 -5.7191386 -41.250797 -111.03053
28981000 -40.082832 -64.15876 -0.043195948 -5.8863568 -0.045063343 -5.9091773 -40.997368 -110.76581
29980000 -39.76981 -65.949142 -0.043676775 -6.0779271 -0.045261346 -6.0868993 -40.65197 -110.32186
30979000 -39.344158 -65.115639 -0.041244682 -6.4327083 -0.039837386 -6.4241867 -40.137123 -111.28625
31978000 -39.191563 -66.259239 -0.039474532 -6.6314745 -0.040570766 -6.6178918 -39.854801 -110.67657
32977000 -39.039619 -67.752411 -0.039628658 -6.837502 -0.041756656 -6.8349595 -39.617973 -110.84609
33976000 -38.884518 -69.045601 -0.040690698 -7.0391207 -0.042279147 -7.0339174 -39.283848 -110.39941
34975000 -38.610161 -70.019264 -0.040195569 -7.2379746 -0.042898431 -7.2381845 -39.022789 -110.38101
35974000 -38.435246 -70.72773 -0.040042993 -7.4333539 -0.041906156 -7.4356751 -38.74136 -109.5456
36973000 -38.206764 -71.590141 -0.039974805 -7.6330805 -0.042726934 -7.6379213 -38.426636 -108.65917
37972000 -38.026012 -71.60408 -0.039523643 -7.8456173 -0.043034375 -7.8500671 -38.191761 -108.14771
38971000 -37.726784 -71.456673 -0.041600626 -8.0401087 -0.043587875 -8.0577822 -37.969894 -106.5452
39970000 -37.416462 -71.96508 -0.039645117 -8.2370329 -0.04255205 -8.2553701 -37.694252 -106.07931
40969000 -37.112003 -71.939049 -0.039037269 -8.4338055 -0.041781485 -8.4521351 -37.433952 -104.71451
41968000 -36.804237 -72.098526 -0.040207587 -8.6383524 -0.04221537 -8.6502495 -37.201954 -103.76563
42967000 -36.531513 -72.477837 -0.039154809 -8.8521395 -0.04241037 -8.8632298 -36.965179 -101.88293
43966000 -36.259853 -73.361534 -0.040808804 -9.0488119 -0.042954374 -9.0626183 -36.666119 -101.35278
44965000 -36.043617 -74.25573 -0.0410074 -9.2515373 -0.04336746 -9.2677517 -36.446983 -101.2812
45964000 -35.81168 -75.41478 -0.041960001 -9.4516087 -0.04559068 -9.4689569 -36.212254 -101.1608
46963000 -35.665997 -77.445908 -0.042298753 -9.6446629 -0.045396581 -9.6674404 -36.019661 -101.60892
47962000 -35.533401 -78.868828 -0.04469822 -9.847331 -0.046486199 -9.8647747 -35.828762 -101.72954
48961000 -35.330273 -80.400673 -0.046729013 -10.042658 -0.047951922 -10.066672 -35.591389 -102.14257
49960000 -35.116173 -81.823692 -0.047312289 -10.242459 -0.049646717 -10.265947 -35.46151 -102.31461
50959000 -34.926418 -83.172501 -0.047634188 -10.455014 -0.050479695 -10.465032 -35.290691 -102.74673
51958000 -34.73521 -84.473358 -0.050097097 -10.655119 -0.051952269 -10.663185 -35.096333 -103.30659
52957000 -34.538864 -85.547028 -0.05161617 -10.854393 -0.052866396 -10.863605 -34.935562 -103.19128
53956000 -34.396816 -86.395386 -0.052314069 -11.056178 -0.0540892 -11.056726 -34.79451 -103.28336
54955000 -34.22892 -86.897758 -0.053296931 -11.25273 -0.05484255 -11.253823 -34.647854 -103.4033
55954000 -34.088646 -87.787422 -0.054718293 -11.455896 -0.055018459 -11.454887 -34.524895 -103.09787
56953000 -33.97208 -87.932487 -0.054142408 -11.652551 -0.054136377 -11.641387 -34.460457 -103.31059
57952000 -33.801476 -88.548149 -0.055507936 -11.852304 -0.055321787 -11.840433 -34.365479 -103.54546
58951000 -33.701302 -88.949028 -0.055550411 -12.055894 -0.056307688 -12.035762 -34.20826 -103.64383
59950000 -33.568829 -89.36879 -0.05639239 -12.255746 -0.057398211 -12.228456 -34.141602 -103.93099
60949000 -33.466534 -89.999474 -0.057367783 -12.461477 -0.057331584 -12.433449 -34.046463 -104.18585
61948000 -33.417076 -90.286179 -0.057882711 -12.653385 -0.056893829 -12.639181 -33.957893 -104.25991
62947000 -33.336357 -90.54744 -0.057649504 -12.863976 -0.058135085 -12.846231 -33.827316 -104.712
63946000 -33.260071 -91.256363 -0.058871031 -13.063333 -0.059304263 -13.044072 -33.719784 -104.89928
64945000 -33.161419 -91.379524 -0.059693974 -13.267629 -0.059843566 -13.248427 -33.609703 -105.40269
65944000 -33.059807 -91.747025 -0.06015642 -13.46622 -0.059629936 -13.446762 -33.51376 -105.78522
66943000 -32.918232 -92.16169 -0.058023587 -13.66734 -0.058416855 -13.649994 -33.402554 -106.06831
67942000 -32.853695 -92.146637 -0.059983719 -13.861052 -0.059946712 -13.851141 -33.297462 -106.40234
68941000 -32.746647 -92.284386 -0.059619702 -14.056746 -0.058769487 -14.047653 -33.181786 -106.3801
69940000 -32.649189 -92.231308 -0.060474809 -14.25258 -0.059967447 -14.245855 -33.043324 -106.75117
70939000 -32.543663 -92.284477 -0.060059309 -14.451697 -0.060002618 -14.447432 -32.896053 -106.60212
71938000 -32.405182 -91.893814 -0.059993166 -14.643882 -0.059806038 -14.642565 -32.768211 -106.53153
72937000 -32.241642 -91.788841 -0.059778482 -14.848594 -0.0594276 -14.841523 -32.635803 -106.28465
73936000 -32.101898 -91.414627 -0.05864669 -15.045995 -0.059254929 -15.039864 -32.522278 -106.05534
74935000 -31.972864 -91.79908 -0.058559321 -15.241188 -0.05778224 -15.238058 -32.366165 -105.7772
75934000 -31.847202 -92.014107 -0.058664795 -15.449061 -0.057698295 -15.447715 -32.271469 -105.72112
76933000 -31.723162 -92.444214 -0.060023088 -15.641563 -0.059096694 -15.633951 -32.102947 -106.16293
77932000 -31.630405 -93.232758 -0.060676668 -15.837009 -0.061025809 -15.833912 -32.01244 -106.12183
78931000 -31.565079 -94.026253 -0.059501607 -16.039358 -0.060382675 -16.03211 -31.908592 -106.03162
79930000 -31.455896 -94.780518 -0.062416352 -16.232487 -0.06332349 -16.225256 -31.808762 -106.36937
80929000 -31.342402 -95.728554 -0.063644998 -16.42395 -0.063909531 -16.424166 -31.708052 -106.74851
81928000 -31.26325 -96.65934 -0.063622408 -16.619053 -0.064340636 -16.61298 -31.586561 -106.8604
82927000 -31.164677 -97.4048 -0.065723307 -16.81892 -0.065823436 -16.812714 -31.487921 -107.19402
83926000 -31.057652 -98.146049 -0.067150056 -17.01296 -0.066983387 -17.012403 -31.378002 -107.39123
84925000 -30.951096 -98.628937 -0.067801289 -17.211309 -0.067769475 -17.208088 -31.272852 -107.54039
85924000 -30.867514 -99.134987 -0.06823384 -17.409401 -0.0689786 -17.411596 -31.192589 -107.50941
86923000 -30.765739 -99.699425 -0.069285803 -17.609898 -0.069261342 -17.601856 -31.085751 -107.52813
87922000 -30.661911 -100.08698 -0.068183348 -17.816725 -0.068436846 -17.807655 -31.000854 -107.5554
88921000 -30.58555 -100.40769 -0.069833182 -18.015205 -0.069461763 -18.008934 -30.90107 -107.56805
89920000 -30.48941 -100.95411 -0.07032828 -18.217958 -0.070080727 -18.207445 -30.849117 -107.73035
90919000 -30.394392 -101.29579 -0.071526803 -18.41231 -0.070589274 -18.405321 -30.76749 -107.97104
91918000 -30.303448 -101.67709 -0.072494283 -18.610147 -0.071459964 -18.606318 -30.698128 -107.9789
92917000 -30.213333 -101.96806 -0.073096037 -18.805046 -0.072068416 -18.800623 -30.632915 -108.10306
93916000 -30.132835 -102.37096 -0.073034436 -19.000727 -0.071987882 -18.996384 -30.543339 -108.79136
94915000 -30.0604 -103.07087 -0.074422777 -19.201052 -0.072907023 -19.19416 -30.49082 -108.63241
95914000 -29.987617 -103.29236 -0.075559735 -19.393948 -0.073947743 -19.394789 -30.391098 -108.9236
96913000 -29.908369 -103.51831 -0.076174036 -19.598745 -0.074893907 -19.591682 -30.324213 -109.3298
97912000 -29.830858 -103.96553 -0.07743267 -19.791029 -0.075006887 -19.794777 -30.246763 -109.59145
98911000 -29.731388 -104.20089 -0.07778237 -19.992172 -0.076385058 -19.992668 -30.21417 -109.7254
99910000 -29.664881 -104.38501 -0.078676119 -20.194195 -0.077103287 -20.190161 -30.101168 -110.04978
100909000 -29.573956 -104.68388 -0.077639535 -20.399738 -0.076622166 -20.391399 -30.009642 -110.24696
101908000 -29.48484 -104.92398 -0.079025127 -20.597649 -0.077438727 -20.598133 -29.901775 -110.01527
102907000 -29.35672 -104.92204 -0.079306938 -20.800573 -0.077792384 -20.795469 -29.82176 -109.99476
103906000 -29.254862 -104.99677 -0.079768315 -21.005028 -0.077010535 -20.998173 -29.673805 -109.93945
104905000 -29.107439 -104.89024 -0.080121107 -21.203402 -0.078300782 -21.204786 -29.541103 -109.65479
105904000 -28.972752 -105.01623 -0.080757938 -21.401543 -0.077621087 -21.395887 -29.425425 -109.48833
106903000 -28.863968 -105.16123 -0.080784045 -21.6094 -0.078499779 -21.608215 -29.297295 -109.41991
107902000 -28.701071 -105.53027 -0.081678413 -21.811804 -0.079037778 -21.801649 -29.160938 -109.34227
108901000 -28.589895 -105.75496 -0.082347132 -22.012087 -0.080795653 -22.00787 -29.032049 -109.30843
109900000 -28.462339 -106.25027 -0.082717277 -22.208651 -0.081631728 -22.20171 -28.872356 -109.42779
110899000 -28.345531 -106.94376 -0.084655069 -22.406507 -0.081984669 -22.400948 -28.747442 -109.7291
111898000 -28.253994 -107.59135 -0.085769892 -22.610975 -0.083361618 -22.601633 -28.629093 -109.85747
112897000 -28.13802 -108.22965 -0.087754481 -22.812258 -0.084470302 -22.796692 -28.496899 -110.05057
113896000 -28.034348 -108.78208 -0.08823815 -23.009882 -0.08527752 -22.996473 -28.390366 -110.25513
114895000 -27.933821 -109.46845 -0.089823216 -23.209974 -0.086988002 -23.192135 -28.278494 -110.32748
115894000 -27.807039 -109.85902 -0.091205038 -23.408403 -0.088054821 -23.393522 -28.208546 -110.48615
116893000 -27.717943 -110.46049 -0.091083169 -23.602619 -0.088912375 -23.585814 -28.085411 -110.70432
117892000 -27.64938 -110.90729 -0.09129227 -23.800781 -0.089233406 -23.78647 -28.010574 -110.90725
118891000 -27.589836 -111.3287 -0.091633834 -24.001852 -0.089511916 -23.988977 -27.908131 -111.07236
119890000 -27.498543 -111.75535 -0.092417791 -24.201021 -0.090658918 -24.185757 -27.901125 -111.24409
120889000 -27.444624 -112.27805 -0.093305834 -24.399635 -0.090402 -24.392435 -27.826267 -111.19744
121888000 -27.406607 -112.65012 -0.093263514 -24.591295 -0.091623791 -24.583982 -27.762787 -111.49071
122887000 -27.36982 -112.83776 -0.094086386 -24.799496 -0.092046551 -24.785416 -27.720953 -111.54893
123886000 -27.315111 -113.26804 -0.095023714 -25.001581 -0.092590734 -24.980562 -27.710178 -111.75124
124885000 -27.277866 -113.76659 -0.094891153 -25.198805 -0.092641771 -25.1854 -27.673782 -111.79861
125884000 -27.2257 -113.97604 -0.09628544 -25.400618 -0.093367718 -25.382391 -27.648779 -111.93974
126883000 -27.200424 -114.33945 -0.096918292 -25.602337 -0.093611844 -25.58569 -27.608475 -111.98161
127882000 -27.15671 -114.60618 -0.097002208 -25.798563 -0.094406478 -25.786219 -27.560356 -112.15984
128881000 -27.128372 -114.92517 -0.096820354 -26.002747 -0.094428696 -25.984146 -27.524702 -112.32121
129880000 -27.071781 -115.29672 -0.097826317 -26.200409 -0.094375789 -26.182957 -27.481791 -112.25612
130879000 -27.005379 -115.44544 -0.097355343 -26.402357 -0.095498405 -26.385427 -27.404436 -112.34306
131878000 -26.940065 -115.66047 -0.097622991 -26.603165 -0.095601872 -26.585787 -27.336727 -112.24828
132877000 -26.87792 -115.70303 -0.097446144 -26.80673 -0.095711693 -26.785429 -27.254353 -112.24039
133876000 -26.794569 -115.88477 -0.097520798 -27.006708 -0.095920488 -26.990557 -27.159966 -112.13511
134875000 -26.692318 -115.98563 -0.09815304 -27.205757 -0.096087739 -27.187624 -27.055845 -112.00358
135874000 -26.612181 -116.01082 -0.098239355 -27.407242 -0.096628189 -27.387983 -26.953569 -112.00124
136873000 -26.500723 -115.9282 -0.098686859 -27.60961 -0.095824949 -27.590136 -26.868546 -111.98485
137872000 -26.418985 -116.08817 -0.098891035 -27.806198 -0.096924916 -27.797318 -26.762373 -111.93302
138871000 -26.347044 -116.26096 -0.099327482 -28.008106 -0.096039049 -27.995062 -26.666702 -112.0929
139870000 -26.246136 -116.54445 -0.10034594 -28.206985 -0.097812288 -28.192959 -26.583652 -112.2325
140869000 -26.163248 -117.00161 -0.1022402 -28.404917 -0.09934523 -28.388052 -26.474823 -112.40838
141868000 -26.06249 -117.49428 -0.10212439 -28.594664 -0.099845819 -28.581154 -26.411489 -112.74841
142867000 -25.988573 -117.77544 -0.10089434 -28.793398 -0.098639727 -28.779112 -26.32885 -112.95609
143866000 -25.920664 -118.27481 -0.10215116 -28.993567 -0.10011972 -28.975828 -26.25786 -113.44488
144865000 -25.86541 -118.80344 -0.10375959 -29.191412 -0.10157689 -29.173077 -26.198132 -113.8307
145864000 -25.806595 -119.13571 -0.10433017 -29.389822 -0.10228764 -29.377352 -26.166067 -114.05576
146863000 -25.755724 -119.52285 -0.10463165 -29.589783 -0.10274935 -29.577145 -26.117153 -114.38996
147862000 -25.719122 -119.85224 -0.10546809 -29.783733 -0.10317637 -29.775253 -26.081684 -114.7567
148861000 -25.685808 -120.41714 -0.10610096 -29.988226 -0.10408305 -29.971611 -26.05831 -114.98881
149860000 -25.671194 -120.61475 -0.10674029 -30.180885 -0.10440945 -30.170189 -26.028572 -115.15507
150859000 -25.649523 -121.02611 -0.10661905 -30.381905 -0.10460832 -30.366604 -26.020014 -115.4193
151858000 -25.63266 -121.31009 -0.1066355 -30.583261 -0.10479394 -30.569342 -26.014395 -115.71599
152857000 -25.6157 -121.63911 -0.10750469 -30.776651 -0.10557391 -30.763428 -25.999073 -115.90138
153856000 -25.61517 -121.81383 -0.10706768 -30.976828 -0.10493874 -30.965025 -26.00618 -116.17839
154855000 -25.603985 -122.02278 -0.10727888 -31.177259 -0.10544077 -31.16584 -25.997063 -116.35632
155854000 -25.619499 -122.27584 -0.10767265 -31.37887 -0.10570786 -31.362036 -25.991116 -116.65866
156853000 -25.599995 -122.94741 -0.10525645 -31.565105 -0.10509043 -31.556505 -25.982353 -116.96527
157852000 -25.611818 -123.17805 -0.1071027 -31.763645 -0.10695121 -31.755533 -25.974524 -117.31006
158851000 -25.603146 -123.42609 -0.10790352 -31.962301 -0.10673949 -31.953588 -25.953894 -117.5631
159850000 -25.586727 -123.58674 -0.10810813 -32.158302 -0.10699631 -32.150349 -25.957867 -117.74728
160849000 -25.566664 -123.66197 -0.10845553 -32.358349 -0.10819756 -32.35305 -25.924734 -118.03461
161848000 -25.547953 -123.75792 -0.10857921 -32.560642 -0.10765196 -32.553925 -25.88489 -118.12283
162847000 -25.506899 -123.9772 -0.10850755 -32.758938 -0.10806859 -32.751804 -25.851406 -118.37289
163846000 -25.463974 -124.20596 -0.10835149 -32.956341 -0.10775332 -32.94701 -25.769825 -118.35476
164845000 -25.401838 -124.20381 -0.10965745 -33.156963 -0.10885949 -33.149624 -25.703522 -118.48773
165844000 -25.347498 -124.24961 -0.10951012 -33.356041 -0.10925367 -33.344025 -25.623219 -118.60725
166843000 -25.285866 -124.37753 -0.1099917 -33.554157 -0.10917377 -33.551895 -25.55448 -118.78463
167842000 -25.221794 -124.53132 -0.11020888 -33.753811 -0.10901929 -33.747307 -25.473026 -118.69041
168841000 -25.145731 -124.70136 -0.10980267 -33.950333 -0.10957569 -33.947346 -25.395645 -118.76199
169840000 -25.0791 -124.93996 -0.11046777 -34.148689 -0.1096848 -34.140659 -25.30958 -118.95026
170839000 -25.019054 -125.24451 -0.11161288 -34.342091 -0.11046777 -34.340122 -25.224653 -119.1823
171838000 -24.964893 -125.67355 -0.11117414 -34.544861 -0.1107742 -34.538288 -25.160185 -119.40314
172837000 -24.891722 -126.04462 -0.11247802 -34.739586 -0.11184502 -34.729282 -25.090267 -119.63533
173836000 -24.820902 -126.42422 -0.1139258 -34.938107 -0.11310793 -34.93766 -25.048567 -119.89258
174835000 -24.77177 -126.90829 -0.11440362 -35.131897 -0.11375705 -35.133839 -25.004522 -120.23591
175834000 -24.718563 -127.29347 -0.11484216 -35.333042 -0.11463485 -35.327522 -24.938501 -120.50724
176833000 -24.671818 -127.64671 -0.11607829 -35.528034 -0.11552239 -35.527225 -24.88908 -120.69171
177832000 -24.625895 -128.15799 -0.11625111 -35.724983 -0.11526294 -35.724731 -24.869158 -120.87775
178831000 -24.592394 -128.54057 -0.11639682 -35.92075 -0.11560028 -35.92115 -24.831404 -121.10436
179830000 -24.55328 -128.96809 -0.11768924 -36.119633 -0.11663772 -36.120247 -24.804134 -121.23692
180829000 -24.514128 -129.19247 -0.11777967 -36.317783 -0.11711478 -36.318378 -24.775808 -121.40276
181828000 -24.481522 -129.55127 -0.11790255 -36.512768 -0.11748977 -36.513931 -24.757616 -121.56592
182827000 -24.464893 -129.90187 -0.11820579 -36.707661 -0.11800256 -36.707897 -24.742796 -121.6579
183826000 -24.42584 -130.24429 -0.11952483 -36.9081 -0.11850213 -36.903866 -24.733215 -121.78206
184825000 -24.427727 -130.53674 -0.11889239 -37.10561 -0.11789032 -37.101467 -24.714748 -121.86182
185824000 -24.401625 -130.90071 -0.11835954 -37.299191 -0.11793394 -37.296665 -24.716578 -121.88858
186823000 -24.386557 -131.25058 -0.11879715 -37.499039 -0.11850026 -37.49638 -24.707586 -121.91338
187822000 -24.364847 -131.55403 -0.11969618 -37.693462 -0.11886127 -37.691032 -24.674234 -121.95121
188821000 -24.344088 -131.84972 -0.11962381 -37.891319 -0.11909965 -37.894535 -24.661875 -122.07763
189820000 -24.331524 -132.09862 -0.12012941 -38.091137 -0.11943436 -38.090092 -24.651146 -122.22834
190819000 -24.300444 -132.328 -0.12158506 -38.288113 -0.1202481 -38.283749 -24.621965 -122.1753
191818000 -24.266708 -132.51653 -0.12203898 -38.483952 -0.12167371 -38.484158 -24.584045 -122.05711
192817000 -24.194393 -132.75879 -0.12250172 -38.667656 -0.12283164 -38.67239 -24.509975 -122.12711
193816000 -24.16111 -133.12471 -0.12173174 -38.860184 -0.12064757 -38.86063 -24.452812 -122.37986
194815000 -24.10108 -133.58534 -0.12154966 -39.059822 -0.12180948 -39.061028 -24.388229 -122.52132
195814000 -24.048412 -133.80423 -0.12267053 -39.257374 -0.12115835 -39.256016 -24.337666 -122.61123
196813000 -23.995493 -134.15417 -0.12215878 -39.447807 -0.1210186 -39.452991 -24.258001 -122.77744
197812000 -23.94083 -134.3994 -0.12262633 -39.646679 -0.12129437 -39.648651 -24.188639 -122.89147
198811000 -23.882044 -134.56787 -0.12271953 -39.845978 -0.12112109 -39.848034 -24.11949 -123.05837
199810000 -23.817678 -134.96481 -0.12224638 -40.036671 -0.12081339 -40.037701 -24.037792 -123.1676
200809000 -23.756952 -135.25958 -0.12344014 -40.23687 -0.12192795 -40.239628 -23.960726 -123.37021
201808000 -23.6999 -135.48036 -0.12349527 -40.437645 -0.12268598 -40.439545 -23.896141 -123.44521
202807000 -23.642641 -135.8347 -0.12417738 -40.638332 -0.12345985 -40.642586 -23.838152 -123.65085
203806000 -23.590952 -136.30479 -0.12529413 -40.838516 -0.1242248 -40.838634 -23.775562 -123.83868
