!Keysight Technologies,E5080B,MY59205177,A.15.75.32
!Date: Friday, February 23, 2024 03:32:28
!Correction: S11(Cdelta 2-Port  ) 
!S21(Cdelta 2-Port  ) 
!S12(Cdelta 2-Port  ) 
!S22(Cdelta 2-Port  ) 
!S2P File: Measurements: S11, S21, S12, S22:
# Hz S  dB   R 50
10000000 -46.059055 -1.932858 -0.014512598 -2.0458059 -0.018908609 -2.1029418 -45.974819 -158.09604
10999000 -45.262085 -4.0145082 -0.016352888 -2.2668624 -0.018407378 -2.3208303 -45.895287 -151.63954
11998000 -44.325523 -7.4596825 -0.016324045 -2.4921966 -0.01804449 -2.5317667 -46.117687 -147.49686
12997000 -43.572407 -12.877402 -0.01539134 -2.6717517 -0.017863058 -2.7052617 -45.742451 -141.60593
13996000 -43.26878 -16.883667 -0.014899867 -2.8507006 -0.018414918 -2.8715997 -45.534721 -136.69107
14995000 -42.87072 -21.124016 -0.017289437 -3.0639813 -0.017816011 -3.0872209 -45.233978 -133.16232
15994000 -42.763088 -25.481981 -0.018083481 -3.2809906 -0.020158816 -3.3047125 -45.061317 -129.86502
16993000 -42.67485 -30.135315 -0.01663222 -3.4772217 -0.019726351 -3.4868989 -44.260048 -129.61292
17992000 -42.743519 -35.463707 -0.017967289 -3.6762242 -0.020398863 -3.6795082 -43.68647 -129.56375
18991000 -42.956146 -41.047161 -0.018242827 -3.8852725 -0.021443984 -3.8852482 -43.059311 -128.18768
19990000 -42.760868 -46.452576 -0.021434357 -4.0971165 -0.023467831 -4.093781 -42.375286 -129.1086
20989000 -42.590706 -49.725182 -0.022963732 -4.3007736 -0.025022656 -4.2914653 -41.857536 -128.6342
21988000 -42.404484 -55.034153 -0.023702594 -4.4987855 -0.025889466 -4.4894691 -41.597763 -127.45866
22987000 -42.114468 -59.86729 -0.02549731 -4.6971922 -0.026636379 -4.6920404 -41.302452 -127.09798
23986000 -42.027519 -63.917976 -0.024547534 -4.894671 -0.02608764 -4.8902125 -41.23954 -127.08801
24985000 -41.622684 -66.511948 -0.026011599 -5.1021276 -0.026742384 -5.0997939 -40.998898 -124.58185
25984000 -41.299313 -68.767281 -0.026523083 -5.3097968 -0.026698887 -5.3081241 -40.6628 -122.93445
26983000 -40.994785 -70.437309 -0.027882561 -5.5025187 -0.027704103 -5.5259809 -40.594364 -122.20579
27982000 -40.808723 -71.587875 -0.028960234 -5.7059083 -0.028957628 -5.7377343 -40.296455 -120.74749
28981000 -40.75473 -73.015419 -0.026773117 -5.8999505 -0.029181743 -5.9279976 -40.054077 -120.02364
29980000 -40.381706 -74.301743 -0.027039317 -6.1000466 -0.029516112 -6.1076002 -39.819534 -119.2723
30979000 -39.97718 -73.322113 -0.025203867 -6.456286 -0.024178665 -6.4474626 -39.283638 -119.52462
31978000 -39.808372 -74.347786 -0.023394698 -6.6502666 -0.02517705 -6.6402569 -39.057198 -118.72291
32977000 -39.581417 -75.900352 -0.023674484 -6.8615155 -0.026249886 -6.8572912 -38.807587 -118.84883
33976000 -39.42836 -77.05394 -0.024778711 -7.057446 -0.0267851 -7.0576997 -38.517704 -118.14883
34975000 -39.135815 -77.946106 -0.024930492 -7.2626452 -0.027473552 -7.2626386 -38.317642 -117.79313
35974000 -38.933743 -78.527458 -0.024207819 -7.4574952 -0.027122671 -7.4586086 -38.018078 -116.95255
36973000 -38.724323 -79.086929 -0.024879463 -7.6566978 -0.02829734 -7.6614504 -37.759632 -116.11865
37972000 -38.548458 -78.844353 -0.023913944 -7.864326 -0.0279021 -7.8777804 -37.544235 -115.21201
38971000 -38.202896 -78.475685 -0.025013544 -8.0683289 -0.0285949 -8.0803185 -37.363491 -113.62647
39970000 -37.869373 -78.717651 -0.023056896 -8.2655735 -0.026872355 -8.2822304 -37.112667 -113.18066
40969000 -37.586105 -78.362373 -0.023296323 -8.4580832 -0.026800467 -8.4792509 -36.868725 -111.63837
41968000 -37.239647 -78.310287 -0.024075067 -8.6701069 -0.027121628 -8.6791286 -36.674023 -110.3223
42967000 -36.978718 -78.319069 -0.023847571 -8.8752193 -0.02749778 -8.8935175 -36.476559 -108.51765
43966000 -36.665073 -79.104195 -0.024876859 -9.0737743 -0.028191296 -9.0925074 -36.203808 -107.75421
44965000 -36.441139 -79.863914 -0.024761267 -9.281641 -0.028791634 -9.299757 -36.004208 -107.52184
45964000 -36.212151 -80.854004 -0.026434794 -9.481473 -0.030293625 -9.4988718 -35.762703 -107.22135
46963000 -36.006496 -82.739853 -0.027344085 -9.6764574 -0.031198772 -9.6960993 -35.578949 -107.36441
47962000 -35.846142 -84.192932 -0.02809646 -9.874999 -0.032341424 -9.8917313 -35.385746 -107.50126
48961000 -35.62072 -85.606148 -0.030455245 -10.073539 -0.033835512 -10.097018 -35.14452 -107.54305
49960000 -35.389984 -86.948784 -0.03123058 -10.274883 -0.034529258 -10.298196 -35.013714 -107.67151
50959000 -35.163319 -88.265335 -0.032039173 -10.488142 -0.036247797 -10.498748 -34.843479 -107.95981
51958000 -34.964909 -89.299599 -0.034218505 -10.688868 -0.037471414 -10.698245 -34.675034 -108.42
52957000 -34.751659 -90.324387 -0.036242053 -10.886722 -0.03822476 -10.892811 -34.505455 -108.17212
53956000 -34.582741 -91.026382 -0.037238255 -11.087934 -0.038936708 -11.089396 -34.373184 -108.09873
54955000 -34.413425 -91.490273 -0.037398566 -11.291709 -0.040013731 -11.286512 -34.224819 -108.01334
55954000 -34.24091 -92.297417 -0.038677614 -11.491726 -0.040347889 -11.485367 -34.110512 -107.71532
56953000 -34.127247 -92.294632 -0.038834583 -11.687998 -0.038694069 -11.674716 -34.044411 -107.96399
57952000 -33.960247 -92.901352 -0.039506923 -11.883484 -0.040710296 -11.880778 -33.934284 -108.03985
58951000 -33.840397 -93.177628 -0.039634928 -12.09224 -0.04134059 -12.07225 -33.77853 -108.12434
59950000 -33.711178 -93.643402 -0.040739037 -12.290003 -0.042609297 -12.271226 -33.704155 -108.42764
60949000 -33.595303 -94.086441 -0.041332752 -12.494807 -0.042317312 -12.472842 -33.615898 -108.68717
61948000 -33.541683 -94.469376 -0.041814942 -12.695371 -0.042366192 -12.676968 -33.528339 -108.73283
62947000 -33.445217 -94.7043 -0.042227391 -12.906402 -0.043432038 -12.884397 -33.395668 -109.03442
63946000 -33.37262 -95.402824 -0.043170847 -13.102683 -0.043816667 -13.08923 -33.280048 -109.1455
64945000 -33.266968 -95.610481 -0.043571141 -13.306181 -0.044674158 -13.28577 -33.176434 -109.69788
65944000 -33.163818 -95.865746 -0.044803359 -13.505411 -0.045053143 -13.487782 -33.071957 -110.0613
66943000 -33.025288 -96.27858 -0.042912547 -13.706557 -0.04350917 -13.691194 -32.966488 -110.30312
67942000 -32.964878 -96.213768 -0.044491611 -13.903005 -0.045680668 -13.893389 -32.844582 -110.57955
68941000 -32.850304 -96.300674 -0.044180669 -14.097452 -0.044053838 -14.088532 -32.741184 -110.56629
69940000 -32.746841 -96.344467 -0.044005986 -14.297778 -0.044617407 -14.28857 -32.599922 -110.8315
70939000 -32.653099 -96.212761 -0.043775614 -14.492314 -0.045416724 -14.486893 -32.470688 -110.74007
71938000 -32.495876 -95.870338 -0.044148505 -14.692089 -0.04464199 -14.686022 -32.343342 -110.61541
72937000 -32.359333 -95.594284 -0.043602776 -14.892632 -0.044590205 -14.885164 -32.194416 -110.36195
73936000 -32.20409 -95.275833 -0.043081697 -15.090227 -0.044170469 -15.078005 -32.079819 -110.13885
74935000 -32.091774 -95.529762 -0.043293469 -15.285442 -0.043276735 -15.283511 -31.93663 -109.74425
75934000 -31.956522 -95.729355 -0.043159083 -15.494095 -0.043803331 -15.491974 -31.838379 -109.67686
76933000 -31.828312 -96.125511 -0.043743715 -15.690193 -0.044762559 -15.682029 -31.668869 -110.00989
77932000 -31.729139 -96.87841 -0.045914277 -15.889158 -0.046069156 -15.877753 -31.562172 -109.98887
78931000 -31.642393 -97.599304 -0.044285271 -16.085295 -0.045370426 -16.079075 -31.464027 -109.80214
79930000 -31.52879 -98.396179 -0.046727967 -16.280519 -0.048182514 -16.274837 -31.371696 -110.10122
80929000 -31.421204 -99.203674 -0.048846096 -16.47929 -0.049643572 -16.470079 -31.262806 -110.36777
81928000 -31.330128 -99.974976 -0.048817299 -16.669428 -0.049858283 -16.66333 -31.144976 -110.35886
82927000 -31.213942 -100.75155 -0.050272811 -16.869272 -0.051121887 -16.862198 -31.03014 -110.68958
83926000 -31.103615 -101.42352 -0.051868699 -17.065317 -0.052273724 -17.065882 -30.903362 -110.85229
84925000 -30.991165 -101.81534 -0.053129744 -17.263241 -0.052730143 -17.262289 -30.811306 -110.90313
85924000 -30.911228 -102.24609 -0.053703923 -17.46413 -0.053695537 -17.459581 -30.733747 -110.86864
86923000 -30.793102 -102.70741 -0.053450238 -17.664398 -0.053274658 -17.658173 -30.633308 -110.69197
87922000 -30.679211 -103.04844 -0.05262481 -17.87076 -0.053699732 -17.860823 -30.541655 -110.7648
88921000 -30.606504 -103.31723 -0.054719865 -18.068188 -0.054202955 -18.065142 -30.439743 -110.76032
89920000 -30.504688 -103.80965 -0.054604527 -18.262821 -0.055633005 -18.262066 -30.395985 -110.8325
90919000 -30.403341 -104.11319 -0.056269925 -18.46365 -0.056428842 -18.458946 -30.305536 -111.05304
91918000 -30.301586 -104.45093 -0.056226395 -18.665493 -0.056511451 -18.660288 -30.236265 -111.10085
92917000 -30.213947 -104.73917 -0.056715224 -18.86599 -0.057846509 -18.864206 -30.176992 -111.16776
93916000 -30.133211 -105.0744 -0.05664625 -19.057934 -0.05777647 -19.054996 -30.080423 -111.74915
94915000 -30.047903 -105.75528 -0.058651939 -19.262289 -0.058484808 -19.255375 -30.014627 -111.636
95914000 -29.988853 -105.94338 -0.059287731 -19.453913 -0.059500821 -19.451294 -29.929798 -111.93348
96913000 -29.897366 -106.15809 -0.060658816 -19.654238 -0.060698718 -19.65172 -29.864901 -112.272
97912000 -29.81584 -106.63809 -0.061744392 -19.849329 -0.060546994 -19.849556 -29.781605 -112.46391
98911000 -29.708046 -106.7323 -0.061693192 -20.053911 -0.061769601 -20.047031 -29.741488 -112.69984
99910000 -29.640842 -106.90648 -0.062820524 -20.256315 -0.062434737 -20.25053 -29.627769 -112.96627
100909000 -29.548719 -107.18069 -0.062161893 -20.459972 -0.061202753 -20.451609 -29.545519 -113.17901
101908000 -29.458332 -107.3513 -0.063138053 -20.663483 -0.063483194 -20.657913 -29.43259 -113.00452
102907000 -29.328659 -107.41664 -0.063468218 -20.859015 -0.062903777 -20.861189 -29.363108 -112.93123
103906000 -29.233868 -107.42991 -0.065332003 -21.065771 -0.062312361 -21.059448 -29.21286 -112.89587
104905000 -29.083824 -107.32951 -0.065351188 -21.266193 -0.063625038 -21.261215 -29.095137 -112.58678
105904000 -28.943233 -107.41615 -0.065599263 -21.469666 -0.063694648 -21.462877 -28.989683 -112.43474
106903000 -28.834185 -107.50396 -0.065236881 -21.675196 -0.063242592 -21.666676 -28.858456 -112.37511
107902000 -28.671671 -107.80802 -0.066020817 -21.873493 -0.063660502 -21.864525 -28.722151 -112.32567
108901000 -28.562637 -108.05959 -0.066368543 -22.077562 -0.065557741 -22.069481 -28.595688 -112.27851
109900000 -28.437447 -108.50442 -0.06743452 -22.275156 -0.067005202 -22.267136 -28.451864 -112.34176
110899000 -28.316963 -109.13426 -0.069396272 -22.471394 -0.067431889 -22.469467 -28.317928 -112.60023
111898000 -28.226274 -109.7921 -0.070614271 -22.676634 -0.068273805 -22.67058 -28.205637 -112.70728
112897000 -28.098728 -110.33456 -0.072190538 -22.875811 -0.069485441 -22.865768 -28.069357 -112.90546
113896000 -27.997608 -110.92825 -0.07311894 -23.07729 -0.070983678 -23.064587 -27.956812 -112.97894
114895000 -27.898201 -111.53068 -0.074073344 -23.272348 -0.072415844 -23.261349 -27.857719 -113.08681
115894000 -27.767902 -111.90541 -0.075124614 -23.475513 -0.07334166 -23.463095 -27.782913 -113.32066
116893000 -27.696075 -112.36312 -0.076099217 -23.673265 -0.074382745 -23.659382 -27.65386 -113.31445
117892000 -27.616049 -112.88863 -0.075916395 -23.867058 -0.074679002 -23.85759 -27.584072 -113.50406
118891000 -27.558306 -113.30073 -0.07641878 -24.070429 -0.075292915 -24.055271 -27.488363 -113.65191
119890000 -27.466507 -113.63194 -0.077800028 -24.270672 -0.076564468 -24.26053 -27.474117 -113.80492
120889000 -27.425333 -114.15123 -0.078555129 -24.472181 -0.075693548 -24.455002 -27.401669 -113.7411
121888000 -27.383326 -114.48823 -0.078837439 -24.669527 -0.076494649 -24.653915 -27.340431 -114.0149
122887000 -27.33654 -114.66824 -0.079325654 -24.868185 -0.077714905 -24.859287 -27.300276 -114.01435
123886000 -27.286444 -115.0808 -0.079805754 -25.076691 -0.077559158 -25.055904 -27.285475 -114.16557
124885000 -27.259623 -115.58627 -0.081096567 -25.271521 -0.078161351 -25.255816 -27.254673 -114.19985
125884000 -27.203047 -115.77175 -0.081261143 -25.471409 -0.078070424 -25.457474 -27.226534 -114.3849
126883000 -27.184233 -116.13909 -0.081959344 -25.676462 -0.079823159 -25.659836 -27.18955 -114.3883
127882000 -27.137484 -116.47826 -0.081677094 -25.874361 -0.079883538 -25.857948 -27.146051 -114.51704
128881000 -27.10063 -116.78483 -0.082315736 -26.078423 -0.07998874 -26.059853 -27.105127 -114.61565
129880000 -27.050333 -117.12298 -0.082742341 -26.280443 -0.079685792 -26.258696 -27.068756 -114.55084
130879000 -26.992735 -117.26722 -0.082688525 -26.478699 -0.080751345 -26.461647 -26.992088 -114.55688
131878000 -26.925768 -117.49304 -0.082982972 -26.683176 -0.081154324 -26.662884 -26.93177 -114.4471
132877000 -26.859911 -117.53053 -0.082505949 -26.88398 -0.080996081 -26.866539 -26.850187 -114.41905
133876000 -26.77309 -117.72971 -0.083292745 -27.084126 -0.080680139 -27.067463 -26.771133 -114.28706
134875000 -26.681051 -117.83047 -0.083726838 -27.284452 -0.08151646 -27.268364 -26.667608 -114.13215
135874000 -26.595436 -117.86814 -0.083601221 -27.485315 -0.082641296 -27.471689 -26.574169 -114.09005
136873000 -26.483099 -117.791 -0.084312469 -27.688997 -0.080848128 -27.670359 -26.485826 -114.03517
137872000 -26.407003 -117.95811 -0.083457403 -27.892403 -0.081455268 -27.873667 -26.385193 -113.99991
138871000 -26.334913 -118.11472 -0.084552921 -28.087704 -0.082818329 -28.07476 -26.292315 -114.10092
139870000 -26.225954 -118.41021 -0.084722646 -28.287485 -0.082948409 -28.2714 -26.209644 -114.29484
140869000 -26.151604 -118.99551 -0.086361609 -28.487335 -0.083368741 -28.467588 -26.114389 -114.48991
141868000 -26.069519 -119.35907 -0.086669512 -28.68507 -0.08482717 -28.671246 -26.060238 -114.74598
142867000 -25.987864 -119.55264 -0.085027263 -28.882187 -0.08454711 -28.864328 -25.979612 -114.86648
143866000 -25.920725 -120.03426 -0.087404236 -29.080105 -0.085779138 -29.063879 -25.90592 -115.32107
144865000 -25.862249 -120.58079 -0.089203283 -29.281813 -0.08706855 -29.263687 -25.853144 -115.61633
145864000 -25.803358 -120.86312 -0.088974729 -29.479948 -0.087921418 -29.468113 -25.819849 -115.90376
146863000 -25.761423 -121.27662 -0.090150923 -29.683477 -0.08837156 -29.667814 -25.768698 -116.17227
147862000 -25.720846 -121.5717 -0.091454588 -29.879162 -0.08939565 -29.864353 -25.736263 -116.52817
148861000 -25.686901 -122.05078 -0.092156015 -30.078558 -0.090482086 -30.06179 -25.712803 -116.65358
149860000 -25.656134 -122.20019 -0.09304136 -30.269463 -0.090627462 -30.25835 -25.660892 -116.75241
150859000 -25.635971 -122.65211 -0.092548154 -30.464491 -0.091084488 -30.449135 -25.638462 -117.11372
151858000 -25.621965 -122.99112 -0.092340313 -30.664644 -0.090441383 -30.652468 -25.631424 -117.45394
152857000 -25.606285 -123.35759 -0.092374161 -30.866356 -0.09134303 -30.854307 -25.613068 -117.64591
153856000 -25.601734 -123.55537 -0.091785595 -31.069571 -0.090426847 -31.051853 -25.629372 -117.953
154855000 -25.599321 -123.74869 -0.092966512 -31.265293 -0.090454862 -31.255745 -25.62439 -118.21039
155854000 -25.617954 -123.9784 -0.092855968 -31.46619 -0.090898395 -31.451509 -25.614954 -118.47688
156853000 -25.603298 -124.66364 -0.090702266 -31.653135 -0.090041503 -31.646381 -25.605961 -118.77386
157852000 -25.609978 -124.88724 -0.091876015 -31.854914 -0.092010856 -31.846325 -25.59457 -119.12237
158851000 -25.606289 -125.08635 -0.092721634 -32.053337 -0.092243008 -32.043964 -25.584341 -119.38746
159850000 -25.598263 -125.17754 -0.094042212 -32.25325 -0.092465654 -32.245323 -25.581402 -119.57281
160849000 -25.58684 -125.28179 -0.093389146 -32.453766 -0.093927406 -32.446312 -25.553661 -119.86309
161848000 -25.56707 -125.37437 -0.094417855 -32.654018 -0.093242094 -32.649178 -25.514523 -119.99632
162847000 -25.528957 -125.53571 -0.094325528 -32.854156 -0.093367986 -32.846836 -25.485634 -120.23342
163846000 -25.483763 -125.72936 -0.09428373 -33.05249 -0.093563706 -33.046116 -25.41058 -120.22909
164845000 -25.425062 -125.71853 -0.094762571 -33.255165 -0.09356609 -33.241718 -25.342896 -120.33253
165844000 -25.371407 -125.76337 -0.094473675 -33.45155 -0.095020272 -33.445492 -25.266542 -120.45383
166843000 -25.314215 -125.8016 -0.094676323 -33.651535 -0.094585843 -33.646107 -25.199593 -120.60964
167842000 -25.257982 -125.9341 -0.095497608 -33.852924 -0.094810724 -33.846012 -25.123743 -120.5246
168841000 -25.180862 -126.06595 -0.095589697 -34.049515 -0.095344134 -34.046631 -25.04797 -120.59183
169840000 -25.110725 -126.31364 -0.095884494 -34.244904 -0.095354192 -34.242119 -24.965288 -120.78736
170839000 -25.052883 -126.56522 -0.097017825 -34.44318 -0.096097797 -34.440525 -24.88353 -120.96385
171838000 -24.999281 -126.92921 -0.096966736 -34.64962 -0.096655719 -34.642879 -24.822464 -121.21387
172837000 -24.926317 -127.27316 -0.098257892 -34.844608 -0.097340778 -34.83736 -24.754513 -121.38615
173836000 -24.861975 -127.67047 -0.099633396 -35.042702 -0.098418087 -35.038723 -24.712042 -121.62215
174835000 -24.805212 -128.08174 -0.099682659 -35.238628 -0.099227108 -35.239742 -24.670141 -121.93829
175834000 -24.753567 -128.46013 -0.10075048 -35.440987 -0.1000874 -35.437778 -24.61207 -122.18925
176833000 -24.70368 -128.81201 -0.10182281 -35.63995 -0.10106232 -35.635414 -24.557703 -122.32516
177832000 -24.660131 -129.22774 -0.10247608 -35.836185 -0.10146083 -35.838791 -24.54125 -122.42923
178831000 -24.614824 -129.44649 -0.10443649 -36.034351 -0.10333171 -36.029926 -24.500046 -122.52322
179830000 -24.544243 -129.84793 -0.10491275 -36.218842 -0.10438956 -36.221672 -24.435862 -122.58619
180829000 -24.494022 -130.19713 -0.10445983 -36.408993 -0.10345498 -36.412144 -24.395739 -122.91828
181828000 -24.476538 -130.63533 -0.10378557 -36.612877 -0.10344093 -36.607983 -24.373087 -123.13174
182827000 -24.44944 -131.00594 -0.1036045 -36.80727 -0.10309076 -36.811672 -24.367035 -123.25906
183826000 -24.405884 -131.32376 -0.10379168 -37.006088 -0.10373149 -37.005913 -24.355883 -123.4089
184825000 -24.409454 -131.68158 -0.10400484 -37.205555 -0.10362147 -37.205997 -24.333229 -123.52329
185824000 -24.382946 -132.05978 -0.10411461 -37.402016 -0.10423657 -37.404942 -24.325813 -123.59987
186823000 -24.365288 -132.39621 -0.10421907 -37.600948 -0.10435138 -37.599258 -24.322517 -123.61224
187822000 -24.340818 -132.7487 -0.1051371 -37.797649 -0.10527872 -37.797207 -24.284096 -123.7
188821000 -24.318104 -133.0313 -0.104808 -37.990894 -0.10534344 -37.995399 -24.265171 -123.8276
189820000 -24.294504 -133.32607 -0.10520712 -38.191605 -0.10528827 -38.192299 -24.246029 -124.0293
190819000 -24.259066 -133.58765 -0.10578451 -38.390717 -0.10564023 -38.388008 -24.209124 -124.06265
191818000 -24.230066 -133.87247 -0.10556623 -38.588047 -0.10559275 -38.590855 -24.17684 -124.09716
192817000 -24.183815 -134.1675 -0.10615401 -38.787415 -0.10639276 -38.787273 -24.130796 -124.16262
193816000 -24.151423 -134.4306 -0.10640549 -38.980709 -0.1059105 -38.981228 -24.080023 -124.32563
194815000 -24.090748 -134.83304 -0.10679176 -39.176117 -0.10684535 -39.180706 -24.015329 -124.38436
195814000 -24.035761 -135.01682 -0.10689045 -39.375076 -0.1071632 -39.374741 -23.954065 -124.47388
196813000 -23.983402 -135.34453 -0.1069459 -39.567429 -0.10699764 -39.569466 -23.877119 -124.63412
197812000 -23.923943 -135.55107 -0.10787964 -39.763798 -0.10713295 -39.762146 -23.810385 -124.71671
198811000 -23.868938 -135.69943 -0.10719716 -39.9604 -0.10751026 -39.966393 -23.738609 -124.90475
199810000 -23.802252 -136.05843 -0.10790644 -40.157619 -0.10686471 -40.158688 -23.656801 -124.9664
200809000 -23.741693 -136.28632 -0.10876474 -40.353344 -0.10757314 -40.35358 -23.58535 -125.16309
201808000 -23.680271 -136.50026 -0.10939729 -40.555923 -0.1086384 -40.560055 -23.518084 -125.23401
202807000 -23.624277 -136.86728 -0.10951144 -40.752842 -0.10933809 -40.764359 -23.46343 -125.41016
