!Keysight Technologies,E5080B,MY59205177,A.15.75.32
!Date: Friday, February 23, 2024 02:54:22
!Correction: S11(Cdelta 2-Port  ) 
!S21(Cdelta 2-Port  ) 
!S12(Cdelta 2-Port  ) 
!S22(Cdelta 2-Port  ) 
!S2P File: Measurements: S11, S21, S12, S22:
# Hz S  dB   R 50
10000000 -43.65802 -3.6668947 -0.031025914 -2.045553 -0.034340873 -2.0971451 -48.7612 -147.76689
10999000 -42.994656 -5.2413955 -0.032113235 -2.2614295 -0.034396712 -2.3160224 -48.456608 -139.30775
11998000 -42.283466 -7.6616206 -0.032502599 -2.4837894 -0.033188306 -2.5271447 -48.629822 -133.41078
12997000 -41.643913 -12.101664 -0.031760413 -2.6590629 -0.033559766 -2.6936405 -47.809589 -127.17729
13996000 -41.432896 -15.301796 -0.030458374 -2.8423631 -0.033533677 -2.8637118 -47.410168 -121.30076
14995000 -41.161793 -19.003304 -0.032631699 -3.0502994 -0.033218041 -3.0767343 -46.81879 -117.79988
15994000 -41.030556 -22.531233 -0.033939347 -3.2686627 -0.035824951 -3.2934015 -46.572159 -114.23975
16993000 -41.050373 -26.139818 -0.033228476 -3.4664004 -0.034986947 -3.4753137 -45.6236 -115.47366
17992000 -41.13443 -30.581244 -0.034096144 -3.6658869 -0.036272332 -3.6661365 -45.034355 -116.2274
18991000 -41.404243 -34.924362 -0.035096809 -3.8758349 -0.03622587 -3.8790708 -44.314888 -116.21275
19990000 -41.278255 -39.641426 -0.037645832 -4.0831556 -0.038603179 -4.0797157 -43.671822 -118.12169
20989000 -41.239456 -42.685028 -0.039104655 -4.2892203 -0.040634781 -4.2762485 -43.001221 -118.23705
21988000 -41.156536 -47.283588 -0.04020001 -4.4830642 -0.041137539 -4.4746828 -42.749416 -117.84769
22987000 -40.954109 -51.165485 -0.04130505 -4.6794963 -0.042007308 -4.6759558 -42.414845 -117.53777
23986000 -40.995644 -55.211308 -0.040246256 -4.878582 -0.041702032 -4.8744783 -42.337799 -117.27263
24985000 -40.732048 -57.610851 -0.041753259 -5.0860014 -0.041150864 -5.0815635 -42.074104 -114.98009
25984000 -40.513512 -59.886021 -0.042743929 -5.2917132 -0.042144272 -5.293334 -41.666954 -113.83158
26983000 -40.226173 -61.787888 -0.043099996 -5.4891787 -0.043139473 -5.5083776 -41.577499 -112.9128
27982000 -40.089737 -62.597538 -0.044448458 -5.6859803 -0.044104047 -5.723989 -41.25404 -111.54224
28981000 -40.11956 -64.324554 -0.042940781 -5.8857164 -0.044598054 -5.9124122 -40.943432 -110.98654
29980000 -39.759636 -65.759796 -0.043170586 -6.0776095 -0.045351591 -6.0869598 -40.622055 -110.39453
30979000 -39.36298 -65.187119 -0.040889025 -6.4332876 -0.039015848 -6.4208894 -40.125557 -111.42295
31978000 -39.212051 -66.282822 -0.040004328 -6.6255479 -0.040467817 -6.6175046 -39.865479 -110.62386
32977000 -39.041508 -67.939545 -0.038900141 -6.8376126 -0.041306354 -6.8341994 -39.590637 -110.94975
33976000 -38.916615 -69.187683 -0.040051613 -7.0375924 -0.041515429 -7.031918 -39.283321 -110.45264
34975000 -38.63604 -70.210968 -0.040362522 -7.2382121 -0.04256878 -7.2397318 -39.030079 -110.2971
35974000 -38.444511 -70.886803 -0.039357245 -7.4321704 -0.04198692 -7.4352775 -38.731449 -109.47643
36973000 -38.221497 -71.643639 -0.040454753 -7.6353602 -0.042504735 -7.6384506 -38.418362 -108.7422
37972000 -38.0541 -71.662392 -0.039564393 -7.843667 -0.042924311 -7.8490777 -38.167091 -108.18088
38971000 -37.739208 -71.424576 -0.040848002 -8.0411787 -0.042770855 -8.0541296 -37.981899 -106.64343
39970000 -37.390842 -72.096596 -0.03920548 -8.2391996 -0.041758485 -8.2493515 -37.666622 -106.16428
40969000 -37.12833 -71.946335 -0.039671239 -8.433527 -0.042375341 -8.4481316 -37.421627 -104.85492
41968000 -36.801502 -72.355209 -0.039258767 -8.6396523 -0.042423438 -8.654912 -37.187134 -103.91574
42967000 -36.538048 -72.400558 -0.039155591 -8.8466835 -0.04252068 -8.8721437 -36.945648 -102.07254
43966000 -36.250538 -73.389633 -0.040806454 -9.0495901 -0.043724626 -9.0681305 -36.661209 -101.40866
44965000 -36.047485 -74.32412 -0.041014977 -9.2490902 -0.044653758 -9.2686453 -36.442619 -101.35674
45964000 -35.839199 -75.509377 -0.041663874 -9.452569 -0.045304246 -9.4671431 -36.193455 -101.31902
46963000 -35.665348 -77.490265 -0.04221537 -9.6427212 -0.045819316 -9.6676064 -36.025417 -101.64288
47962000 -35.524937 -78.899902 -0.043757834 -9.8455381 -0.046263807 -9.8651972 -35.822384 -101.8985
48961000 -35.340202 -80.488762 -0.045952212 -10.042045 -0.048246644 -10.062085 -35.570328 -102.29348
49960000 -35.125023 -81.898483 -0.046985708 -10.241675 -0.049825031 -10.262998 -35.458023 -102.39915
50959000 -34.937897 -83.230042 -0.048121266 -10.457188 -0.050766472 -10.46638 -35.256001 -102.87894
51958000 -34.748692 -84.516457 -0.050087668 -10.654471 -0.051943362 -10.664353 -35.110786 -103.4622
52957000 -34.549442 -85.673386 -0.051497243 -10.853822 -0.053297717 -10.857435 -34.941956 -103.3167
53956000 -34.397057 -86.422272 -0.052135393 -11.055708 -0.053683743 -11.056275 -34.803753 -103.3903
54955000 -34.236893 -87.07003 -0.052991122 -11.254607 -0.054201379 -11.251964 -34.63871 -103.49966
55954000 -34.081543 -87.915161 -0.05452038 -11.455112 -0.055292424 -11.456324 -34.527241 -103.24993
56953000 -33.969894 -88.015358 -0.053815834 -11.656724 -0.054170452 -11.641098 -34.455059 -103.44456
57952000 -33.806847 -88.664909 -0.055250213 -11.848784 -0.055517375 -11.842223 -34.350807 -103.58544
58951000 -33.689026 -89.082558 -0.055913564 -12.059916 -0.05615297 -12.037307 -34.200897 -103.71188
59950000 -33.571625 -89.413338 -0.057347324 -12.257239 -0.057115719 -12.231914 -34.140411 -104.11282
60949000 -33.473293 -90.082489 -0.057123587 -12.455446 -0.057013426 -12.435784 -34.041168 -104.39196
61948000 -33.412052 -90.34185 -0.057811096 -12.655977 -0.057051983 -12.637894 -33.953186 -104.48901
62947000 -33.333199 -90.639526 -0.058100976 -12.864188 -0.058278326 -12.84625 -33.824318 -104.82296
63946000 -33.263199 -91.346329 -0.058774997 -13.064645 -0.059461191 -13.046852 -33.713493 -105.03056
64945000 -33.153801 -91.555717 -0.059035029 -13.264792 -0.059699222 -13.246768 -33.608894 -105.40885
65944000 -33.058624 -91.792221 -0.059756961 -13.466419 -0.060071118 -13.448113 -33.508869 -105.92852
66943000 -32.908939 -92.244987 -0.057851493 -13.665879 -0.058717798 -13.648635 -33.404724 -106.1862
67942000 -32.860596 -92.202087 -0.059643846 -13.862622 -0.059854589 -13.851913 -33.281483 -106.47157
68941000 -32.746227 -92.338493 -0.059000392 -14.057975 -0.059330244 -14.046011 -33.17635 -106.47831
69940000 -32.656364 -92.300957 -0.059448596 -14.254028 -0.060698718 -14.244764 -33.044636 -106.76785
70939000 -32.547253 -92.356224 -0.059502132 -14.449745 -0.059935428 -14.445019 -32.899513 -106.69355
71938000 -32.403378 -91.904907 -0.058858175 -14.647165 -0.059946451 -14.637644 -32.775829 -106.58784
72937000 -32.238956 -91.843147 -0.057826571 -14.85028 -0.058957621 -14.840606 -32.628605 -106.26808
73936000 -32.104698 -91.536392 -0.058449913 -15.04536 -0.058542266 -15.032241 -32.514957 -106.11632
74935000 -31.977486 -91.749092 -0.057795878 -15.239361 -0.057880875 -15.2373 -32.358913 -105.79282
75934000 -31.847237 -92.129684 -0.057881661 -15.445469 -0.05787484 -15.440907 -32.269341 -105.79487
76933000 -31.733179 -92.503258 -0.059639387 -15.640738 -0.059314236 -15.636394 -32.095119 -106.16396
77932000 -31.624626 -93.267921 -0.061005071 -15.839158 -0.061442453 -15.832495 -32.000488 -106.19589
78931000 -31.555799 -94.001778 -0.059588999 -16.036314 -0.06057062 -16.02981 -31.905121 -106.06116
79930000 -31.461374 -94.897171 -0.061847847 -16.226702 -0.063356586 -16.227549 -31.821783 -106.40188
80929000 -31.336992 -95.842888 -0.063897707 -16.425766 -0.064013556 -16.421324 -31.693111 -106.77127
81928000 -31.255314 -96.667778 -0.063630819 -16.618118 -0.06498383 -16.612291 -31.584208 -106.90205
82927000 -31.160021 -97.462029 -0.065497823 -16.815599 -0.065628432 -16.816801 -31.487343 -107.18583
83926000 -31.061172 -98.158424 -0.066615365 -17.011694 -0.06645187 -17.0121 -31.367748 -107.5285
84925000 -30.949789 -98.682594 -0.067921981 -17.21447 -0.066960774 -17.212433 -31.272188 -107.58298
85924000 -30.86315 -99.127007 -0.068538353 -17.415869 -0.068538621 -17.412395 -31.186628 -107.63457
86923000 -30.766777 -99.699181 -0.069031201 -17.61248 -0.068909429 -17.604019 -31.08329 -107.52792
87922000 -30.664074 -100.08818 -0.068061866 -17.815512 -0.06821464 -17.808504 -30.997704 -107.60625
88921000 -30.590023 -100.42188 -0.069767155 -18.011839 -0.069807403 -18.010731 -30.897699 -107.6307
89920000 -30.49015 -100.9789 -0.070466936 -18.214663 -0.06955225 -18.203608 -30.846085 -107.84743
90919000 -30.391773 -101.32471 -0.070935264 -18.409367 -0.070927374 -18.40304 -30.764395 -107.98856
91918000 -30.29495 -101.70679 -0.071513124 -18.6141 -0.071496278 -18.603575 -30.6896 -108.05759
92917000 -30.210375 -102.06178 -0.072337411 -18.807035 -0.072711706 -18.804623 -30.633894 -108.25059
93916000 -30.132776 -102.49149 -0.072634846 -19.000113 -0.071919188 -18.996662 -30.550722 -108.84458
94915000 -30.06126 -103.09831 -0.073987246 -19.199884 -0.072832532 -19.193573 -30.480312 -108.68935
95914000 -29.990509 -103.35311 -0.075065881 -19.394613 -0.074364051 -19.392197 -30.392122 -108.97075
96913000 -29.907852 -103.58213 -0.07603547 -19.597174 -0.074860461 -19.591394 -30.323565 -109.34227
97912000 -29.83777 -104.04071 -0.077188395 -19.791439 -0.075140417 -19.792067 -30.246212 -109.6061
98911000 -29.735289 -104.25838 -0.077807672 -19.994246 -0.076562628 -19.992691 -30.208042 -109.80785
99910000 -29.662031 -104.40364 -0.078170054 -20.190132 -0.076454081 -20.190395 -30.093712 -110.07634
100909000 -29.576355 -104.68103 -0.077535443 -20.398016 -0.076260969 -20.39348 -30.013218 -110.32626
101908000 -29.489973 -104.92846 -0.07949122 -20.597425 -0.077925473 -20.598122 -29.897888 -110.08204
102907000 -29.353283 -104.91801 -0.079029612 -20.793474 -0.077498548 -20.792492 -29.822033 -110.03197
103906000 -29.261097 -105.03931 -0.079535775 -21.004938 -0.076806076 -20.99951 -29.665577 -109.99274
104905000 -29.115313 -104.95861 -0.079779126 -21.199333 -0.077382863 -21.205408 -29.541332 -109.64202
105904000 -28.973324 -105.06768 -0.080018796 -21.405472 -0.077519104 -21.403664 -29.424389 -109.5252
106903000 -28.860527 -105.16101 -0.080389015 -21.61134 -0.077426083 -21.605659 -29.296274 -109.47242
107902000 -28.698092 -105.53229 -0.081328399 -21.809111 -0.078069106 -21.801867 -29.153948 -109.39375
108901000 -28.594597 -105.83396 -0.08164122 -22.00913 -0.080209441 -22.002098 -29.022934 -109.34193
109900000 -28.463829 -106.33275 -0.082833633 -22.21114 -0.08138141 -22.200628 -28.868719 -109.43405
110899000 -28.353197 -106.94962 -0.084270239 -22.40712 -0.081610888 -22.39736 -28.747705 -109.78365
111898000 -28.261829 -107.64498 -0.085454926 -22.607079 -0.082989037 -22.605499 -28.632694 -109.93692
112897000 -28.137253 -108.18959 -0.087571435 -22.80994 -0.083748214 -22.796185 -28.493439 -110.12999
113896000 -28.033072 -108.82045 -0.088019684 -23.00835 -0.085860983 -22.998667 -28.384018 -110.29848
114895000 -27.932943 -109.50213 -0.089063771 -23.204538 -0.086367153 -23.190258 -28.275063 -110.32974
115894000 -27.805346 -109.86996 -0.090490282 -23.40934 -0.088288873 -23.395117 -28.208088 -110.53198
116893000 -27.727253 -110.39749 -0.091004923 -23.598532 -0.088713951 -23.584532 -28.070026 -110.76515
117892000 -27.649109 -110.93717 -0.090756185 -23.796423 -0.088748567 -23.789064 -28.005144 -110.93054
118891000 -27.592184 -111.41813 -0.091667943 -23.995987 -0.089727812 -23.984156 -27.909729 -111.12176
119890000 -27.504227 -111.78372 -0.091739856 -24.200624 -0.089982308 -24.186407 -27.893948 -111.29122
120889000 -27.448679 -112.3205 -0.094031096 -24.397438 -0.090302624 -24.387962 -27.82472 -111.21463
121888000 -27.406813 -112.62058 -0.093637235 -24.599621 -0.090756975 -24.583384 -27.75835 -111.53399
122887000 -27.365191 -112.85852 -0.094394304 -24.79738 -0.091654725 -24.784361 -27.718161 -111.62654
123886000 -27.316542 -113.30479 -0.094507009 -24.998943 -0.092062153 -24.980873 -27.701395 -111.79607
124885000 -27.275969 -113.79815 -0.095611662 -25.200811 -0.093648344 -25.182102 -27.672718 -111.87198
125884000 -27.224688 -113.97875 -0.095713541 -25.397472 -0.092372574 -25.383106 -27.648577 -112.01089
126883000 -27.199236 -114.35707 -0.096464887 -25.59897 -0.093211412 -25.58391 -27.598324 -112.05984
127882000 -27.155804 -114.68942 -0.097264007 -25.79808 -0.0941303 -25.78224 -27.557575 -112.18722
128881000 -27.121328 -114.98759 -0.096902147 -26.000284 -0.093844347 -25.984392 -27.518064 -112.34347
129880000 -27.071018 -115.30917 -0.097692885 -26.202242 -0.0942377 -26.183292 -27.4765 -112.29523
130879000 -27.00972 -115.44428 -0.097117089 -26.402153 -0.094609655 -26.384924 -27.401676 -112.3892
131878000 -26.944511 -115.66308 -0.097512059 -26.606287 -0.095586255 -26.581198 -27.330622 -112.27061
132877000 -26.876211 -115.76413 -0.09782102 -26.804916 -0.095593669 -26.786283 -27.249931 -112.26398
133876000 -26.785908 -115.90986 -0.097474203 -27.003981 -0.095410287 -26.98971 -27.157213 -112.1902
134875000 -26.69006 -116.07054 -0.098065928 -27.206736 -0.095782347 -27.187605 -27.057238 -112.04459
135874000 -26.613289 -116.0546 -0.098388433 -27.405106 -0.095917307 -27.387602 -26.949261 -112.036
136873000 -26.494183 -115.94151 -0.098885469 -27.605898 -0.095725983 -27.591562 -26.860586 -112.0063
137872000 -26.42334 -116.11723 -0.099108197 -27.807432 -0.096350811 -27.795765 -26.756981 -111.92585
138871000 -26.348389 -116.27715 -0.099261008 -28.007673 -0.096371457 -27.98999 -26.661373 -112.13693
139870000 -26.247059 -116.55862 -0.10049377 -28.207891 -0.098388694 -28.191605 -26.577152 -112.28637
140869000 -26.158901 -117.02184 -0.10215672 -28.401001 -0.098735057 -28.385401 -26.468805 -112.46551
141868000 -26.064857 -117.54031 -0.10194842 -28.594887 -0.0991752 -28.581245 -26.405914 -112.78584
142867000 -25.988808 -117.7847 -0.099837877 -28.792681 -0.099206716 -28.77487 -26.325239 -112.95922
143866000 -25.91992 -118.30112 -0.10172687 -28.986759 -0.099935353 -28.977972 -26.253691 -113.49145
144865000 -25.862381 -118.82458 -0.10365514 -29.185307 -0.10159756 -29.175404 -26.193581 -113.82912
145864000 -25.810005 -119.15427 -0.10370922 -29.389643 -0.10259058 -29.378096 -26.159685 -114.10208
146863000 -25.761848 -119.5566 -0.10438453 -29.587294 -0.10263909 -29.575584 -26.113991 -114.42705
147862000 -25.723942 -119.91375 -0.1056564 -29.783007 -0.10292614 -29.771275 -26.079897 -114.77828
148861000 -25.693054 -120.44247 -0.10566675 -29.98591 -0.10434794 -29.968599 -26.056555 -115.01173
149860000 -25.677185 -120.65618 -0.10626065 -30.182264 -0.10403029 -30.169441 -26.024189 -115.17423
150859000 -25.654823 -121.01352 -0.10722741 -30.381805 -0.10406715 -30.368603 -26.021778 -115.43773
151858000 -25.637459 -121.36523 -0.10662674 -30.577394 -0.10504959 -30.56637 -26.010057 -115.76224
152857000 -25.619106 -121.66518 -0.10688806 -30.782043 -0.10535776 -30.768339 -25.985296 -115.8959
153856000 -25.613056 -121.89221 -0.10633545 -30.97917 -0.10478228 -30.962164 -26.01067 -116.20927
154855000 -25.607264 -122.03281 -0.10704486 -31.175726 -0.10518378 -31.165836 -25.996138 -116.46682
155854000 -25.617149 -122.32309 -0.10751291 -31.377295 -0.1057434 -31.363335 -25.984888 -116.71079
156853000 -25.605679 -123.01628 -0.10589035 -31.560915 -0.10501406 -31.552025 -25.981987 -117.00158
157852000 -25.609198 -123.2383 -0.10662887 -31.762402 -0.10653601 -31.755096 -25.975296 -117.34654
158851000 -25.604902 -123.48029 -0.10754475 -31.960894 -0.10662462 -31.952763 -25.954437 -117.5926
159850000 -25.585054 -123.60149 -0.10818164 -32.158997 -0.10708891 -32.153149 -25.954046 -117.74844
160849000 -25.568378 -123.69156 -0.1084059 -32.358173 -0.10788415 -32.354977 -25.919645 -118.02615
161848000 -25.550381 -123.8061 -0.10852879 -32.556038 -0.10705283 -32.55349 -25.885082 -118.1418
162847000 -25.504059 -123.99677 -0.10852879 -32.759682 -0.1082655 -32.754368 -25.853764 -118.39969
163846000 -25.46763 -124.20762 -0.10919634 -32.960083 -0.10762489 -32.950512 -25.773865 -118.3931
164845000 -25.405067 -124.20013 -0.11025323 -33.155109 -0.10814396 -33.148594 -25.702597 -118.46677
165844000 -25.35434 -124.29688 -0.10949896 -33.354549 -0.10920085 -33.348709 -25.625509 -118.63535
166843000 -25.280361 -124.36672 -0.10922368 -33.551086 -0.10826498 -33.548424 -25.554358 -118.81327
167842000 -25.224266 -124.53137 -0.10940101 -33.751938 -0.10886136 -33.748547 -25.473701 -118.70965
168841000 -25.141956 -124.72909 -0.11016057 -33.947918 -0.10893753 -33.943531 -25.393555 -118.80405
169840000 -25.080168 -124.98956 -0.11064647 -34.145451 -0.10984064 -34.141575 -25.304789 -118.98231
170839000 -25.017136 -125.25514 -0.11074818 -34.340538 -0.11049592 -34.338421 -25.217178 -119.19303
171838000 -24.966816 -125.67343 -0.11127664 -34.543388 -0.11145458 -34.535072 -25.154881 -119.40466
172837000 -24.889919 -126.0202 -0.11200359 -34.735153 -0.1125718 -34.733501 -25.088629 -119.65216
173836000 -24.828129 -126.47576 -0.11354315 -34.939415 -0.11298358 -34.934513 -25.046288 -119.88884
174835000 -24.774632 -126.9075 -0.11394254 -35.133087 -0.11388966 -35.13311 -24.995136 -120.24877
175834000 -24.724886 -127.29652 -0.11484031 -35.332027 -0.11459073 -35.325142 -24.932529 -120.52462
176833000 -24.673023 -127.67363 -0.11580525 -35.527515 -0.11509734 -35.525826 -24.883366 -120.70991
177832000 -24.624575 -128.20036 -0.11589804 -35.726227 -0.1155386 -35.725876 -24.865416 -120.88
178831000 -24.588564 -128.55716 -0.11575421 -35.920357 -0.11635002 -35.916138 -24.830559 -121.1273
179830000 -24.553164 -128.99976 -0.11680445 -36.11898 -0.1163689 -36.1194 -24.800903 -121.24209
180829000 -24.512569 -129.20992 -0.11706452 -36.315926 -0.11778819 -36.316055 -24.772352 -121.42522
181828000 -24.489603 -129.58557 -0.11707729 -36.511658 -0.11706319 -36.5107 -24.751204 -121.5711
182827000 -24.465748 -129.94676 -0.11769775 -36.706802 -0.11774563 -36.709148 -24.741968 -121.6675
183826000 -24.424767 -130.28352 -0.1185564 -36.908569 -0.11703288 -36.900715 -24.732924 -121.79195
184825000 -24.432508 -130.57893 -0.11788979 -37.099682 -0.11788553 -37.101536 -24.713379 -121.87614
185824000 -24.402637 -130.96173 -0.11787915 -37.298855 -0.11925982 -37.296822 -24.712137 -121.92598
186823000 -24.390989 -131.29317 -0.11861385 -37.499146 -0.11790096 -37.493107 -24.706509 -121.93254
187822000 -24.364779 -131.61568 -0.11919224 -37.691677 -0.11880327 -37.69017 -24.672476 -121.98798
188821000 -24.347334 -131.87984 -0.11932101 -37.887356 -0.11912998 -37.892559 -24.655666 -122.11466
189820000 -24.333763 -132.13091 -0.11908395 -38.090073 -0.1192992 -38.090065 -24.644571 -122.25002
190819000 -24.302946 -132.35704 -0.12071066 -38.28598 -0.12041762 -38.287575 -24.619007 -122.20161
191818000 -24.269283 -132.5484 -0.12143199 -38.482872 -0.12167424 -38.482018 -24.582027 -122.06861
192817000 -24.200319 -132.81119 -0.122269 -38.667225 -0.12184835 -38.668568 -24.507963 -122.13507
193816000 -24.160095 -133.17938 -0.1214863 -38.857628 -0.12087061 -38.862976 -24.448059 -122.43703
194815000 -24.102968 -133.59508 -0.1212052 -39.057865 -0.12189574 -39.059139 -24.386143 -122.52811
195814000 -24.045641 -133.83647 -0.12155817 -39.253963 -0.12138993 -39.257179 -24.332584 -122.64438
196813000 -23.994585 -134.16982 -0.12180256 -39.447811 -0.12114983 -39.45116 -24.253012 -122.77884
197812000 -23.939383 -134.4063 -0.12101408 -39.64666 -0.12143785 -39.646423 -24.18684 -122.91517
198811000 -23.885712 -134.58109 -0.12185634 -39.844814 -0.12095978 -39.8433 -24.114542 -123.07574
199810000 -23.815348 -134.98868 -0.12176982 -40.0383 -0.1212233 -40.034683 -24.032789 -123.21271
200809000 -23.760361 -135.23056 -0.12232013 -40.237717 -0.12163138 -40.238098 -23.95616 -123.3584
201808000 -23.699854 -135.45033 -0.12345132 -40.435852 -0.12293416 -40.439907 -23.888515 -123.45255
202807000 -23.64234 -135.82028 -0.1233653 -40.637619 -0.12304813 -40.637642 -23.832535 -123.65501
203806000 -23.590435 -136.29854 -0.12541537 -40.838295 -0.12403061 -40.839069 -23.767431 -123.85371
