!Keysight Technologies,E5080B,MY59205177,A.15.75.32
!Date: Friday, February 23, 2024 03:32:35
!Correction: S11(Cdelta 2-Port  ) 
!S21(Cdelta 2-Port  ) 
!S12(Cdelta 2-Port  ) 
!S22(Cdelta 2-Port  ) 
!S2P File: Measurements: S11, S21, S12, S22:
# Hz S  dB   R 50
10000000 -46.033504 -2.4154208 -0.015132348 -2.0503476 -0.01886883 -2.1009817 -45.972775 -158.244
10999000 -45.236996 -4.5973067 -0.015958734 -2.26671 -0.018642908 -2.3159728 -45.88842 -151.76787
11998000 -44.308029 -7.170084 -0.015925998 -2.4884651 -0.018085301 -2.5336301 -46.095676 -147.41986
12997000 -43.615089 -12.889874 -0.014955712 -2.6731946 -0.017429262 -2.7060153 -45.692352 -141.7326
13996000 -43.29425 -16.669411 -0.014851553 -2.8532863 -0.018038513 -2.8661947 -45.509144 -135.94278
14995000 -42.848537 -21.22522 -0.017102059 -3.0594072 -0.018244127 -3.0874245 -45.225426 -132.85312
15994000 -42.730808 -25.456402 -0.018273503 -3.2816281 -0.02060459 -3.3054018 -45.069508 -129.72777
16993000 -42.692368 -30.228115 -0.017155336 -3.4787993 -0.020147374 -3.4853852 -44.285419 -129.41246
17992000 -42.731548 -35.570034 -0.017695928 -3.6763682 -0.020019684 -3.6807489 -43.713104 -129.26544
18991000 -42.985634 -40.776886 -0.01804735 -3.8866804 -0.021141971 -3.8853993 -43.038334 -128.16353
19990000 -42.804188 -46.739124 -0.020596007 -4.098958 -0.023192482 -4.0936718 -42.381611 -129.12088
20989000 -42.597378 -49.560135 -0.023072772 -4.3018365 -0.025581155 -4.2926822 -41.843224 -128.20862
21988000 -42.449741 -54.906586 -0.023679169 -4.4988303 -0.025526734 -4.4873986 -41.582531 -127.52315
22987000 -42.131886 -59.953693 -0.025236413 -4.6996589 -0.026840057 -4.6876493 -41.310825 -126.99033
23986000 -42.049252 -63.786228 -0.024735494 -4.8918757 -0.025280677 -4.8868074 -41.165726 -126.80529
24985000 -41.657528 -66.877541 -0.025967069 -5.1019788 -0.026217332 -5.0977912 -40.985764 -124.37943
25984000 -41.318802 -68.747696 -0.026206914 -5.3069177 -0.027054165 -5.3076091 -40.662689 -122.79671
26983000 -41.023266 -70.598625 -0.027518881 -5.5056953 -0.027076565 -5.5213914 -40.575073 -122.16314
27982000 -40.826633 -71.585724 -0.028546173 -5.7060499 -0.029018607 -5.7406311 -40.29266 -120.57693
28981000 -40.761688 -73.201698 -0.026647838 -5.9026532 -0.028780689 -5.9294443 -40.107372 -119.85789
29980000 -40.372795 -74.496643 -0.026841881 -6.1009755 -0.029071769 -6.1078625 -39.802433 -119.03144
30979000 -39.975971 -73.381897 -0.023849653 -6.4539328 -0.023985263 -6.4436808 -39.283573 -119.44762
31978000 -39.797977 -74.390381 -0.024198448 -6.6476665 -0.025326241 -6.6393199 -39.047554 -118.77747
32977000 -39.595993 -76.050789 -0.02376402 -6.8621802 -0.026092589 -6.8557262 -38.815056 -118.84023
33976000 -39.407417 -77.088745 -0.024990894 -7.0620151 -0.026107693 -7.0565276 -38.500156 -118.22133
34975000 -39.121552 -77.88224 -0.024957567 -7.2597766 -0.027145853 -7.2595572 -38.289375 -117.92871
35974000 -38.911026 -78.346481 -0.023906656 -7.4579 -0.026912987 -7.4602494 -38.015694 -117.04875
36973000 -38.68211 -79.196114 -0.024687853 -7.6566405 -0.027332883 -7.6611066 -37.746265 -115.94387
37972000 -38.506538 -79.01416 -0.024329124 -7.865675 -0.02761058 -7.8808541 -37.512608 -115.31841
38971000 -38.202526 -78.458176 -0.025729578 -8.067277 -0.027315952 -8.0797701 -37.371559 -113.67452
39970000 -37.865517 -78.719261 -0.023914464 -8.2652998 -0.02671738 -8.2843218 -37.112106 -113.12312
40969000 -37.590885 -78.454597 -0.023439983 -8.4581022 -0.02633765 -8.4772844 -36.870224 -111.75142
41968000 -37.235161 -78.310951 -0.024487138 -8.6655025 -0.027498823 -8.6810732 -36.676292 -110.37151
42967000 -36.959557 -78.327576 -0.02375517 -8.876441 -0.027098706 -8.8984623 -36.48698 -108.66508
43966000 -36.674747 -79.117546 -0.024329646 -9.0752649 -0.028593859 -9.0938711 -36.208015 -107.7711
44965000 -36.444458 -79.783348 -0.024965638 -9.2800674 -0.028427878 -9.2985134 -35.988708 -107.44728
45964000 -36.203747 -80.932693 -0.026456932 -9.4771929 -0.030149737 -9.5030127 -35.759373 -107.27913
46963000 -36.007519 -82.804314 -0.026889024 -9.6728039 -0.030338721 -9.6966181 -35.57856 -107.41279
47962000 -35.842113 -84.251152 -0.028785901 -9.8756189 -0.031366162 -9.889924 -35.368961 -107.44833
48961000 -35.625317 -85.628372 -0.030165117 -10.070202 -0.033240736 -10.096825 -35.154091 -107.61251
49960000 -35.395096 -86.940109 -0.031394321 -10.273225 -0.034190591 -10.29812 -35.020477 -107.73518
50959000 -35.161957 -88.272141 -0.032236323 -10.48622 -0.035717417 -10.495605 -34.833794 -107.91168
51958000 -34.971104 -89.228333 -0.034238596 -10.683262 -0.036572788 -10.695977 -34.650681 -108.42711
52957000 -34.752865 -90.312294 -0.035672788 -10.887837 -0.038070161 -10.893725 -34.491287 -108.15029
53956000 -34.583572 -90.929031 -0.036218561 -11.087861 -0.038992863 -11.091335 -34.35952 -108.13544
54955000 -34.420959 -91.4496 -0.037897814 -11.288171 -0.039523382 -11.286819 -34.212704 -108.08353
55954000 -34.248531 -92.347786 -0.038706083 -11.494222 -0.04040537 -11.490771 -34.102066 -107.7879
56953000 -34.129948 -92.321548 -0.038351942 -11.689321 -0.038389549 -11.677295 -34.030758 -107.93183
57952000 -33.964592 -92.859871 -0.039184846 -11.886826 -0.039842092 -11.877138 -33.925472 -107.99271
58951000 -33.841614 -93.29937 -0.041146945 -12.091842 -0.041093111 -12.072252 -33.786285 -108.13245
59950000 -33.728638 -93.669197 -0.0418416 -12.290788 -0.04205488 -12.26991 -33.719246 -108.39468
60949000 -33.594612 -94.187141 -0.041867997 -12.494119 -0.041978296 -12.475399 -33.612282 -108.65594
61948000 -33.538105 -94.466812 -0.042000514 -12.695313 -0.041827224 -12.675996 -33.532028 -108.71343
62947000 -33.441124 -94.729538 -0.042354692 -12.903805 -0.043056596 -12.886673 -33.385376 -108.9737
63946000 -33.371952 -95.421944 -0.043045357 -13.101805 -0.043778751 -13.084702 -33.28334 -109.14865
64945000 -33.264862 -95.600777 -0.043560158 -13.304403 -0.044197142 -13.288177 -33.171448 -109.65175
65944000 -33.152836 -95.884865 -0.04438125 -13.506364 -0.044827159 -13.492226 -33.084595 -110.07785
66943000 -33.012959 -96.283371 -0.04296248 -13.707875 -0.042756215 -13.692444 -32.979942 -110.29688
67942000 -32.951134 -96.234871 -0.044799961 -13.902997 -0.044497624 -13.89307 -32.84869 -110.62495
68941000 -32.842499 -96.325706 -0.044508088 -14.098426 -0.043638337 -14.090969 -32.747147 -110.57646
69940000 -32.740784 -96.335762 -0.0443938 -14.297208 -0.04477616 -14.290437 -32.60128 -110.92046
70939000 -32.635284 -96.255272 -0.044384386 -14.49478 -0.044261213 -14.486215 -32.465981 -110.72732
71938000 -32.502117 -95.829109 -0.04483239 -14.687186 -0.044013306 -14.685262 -32.334698 -110.64176
72937000 -32.335098 -95.620888 -0.043791302 -14.891325 -0.044422831 -14.883542 -32.193401 -110.28726
73936000 -32.207214 -95.318756 -0.044001017 -15.084157 -0.043544993 -15.080566 -32.07592 -110.11047
74935000 -32.079514 -95.485863 -0.043101825 -15.287748 -0.042783663 -15.281645 -31.920511 -109.76516
75934000 -31.956043 -95.718582 -0.043092676 -15.490732 -0.04249062 -15.489773 -31.839785 -109.70081
76933000 -31.817976 -96.138748 -0.044002846 -15.687206 -0.043981928 -15.680356 -31.665668 -110.07995
77932000 -31.716246 -96.889442 -0.045392137 -15.881732 -0.045807544 -15.878259 -31.56357 -109.97719
78931000 -31.645948 -97.660393 -0.044162102 -16.084702 -0.044893071 -16.079391 -31.469805 -109.86552
79930000 -31.532667 -98.463554 -0.046847809 -16.280584 -0.047619272 -16.278814 -31.3685 -110.16238
80929000 -31.419077 -99.223701 -0.048415739 -16.476229 -0.049076214 -16.474592 -31.271719 -110.41191
81928000 -31.321182 -99.976318 -0.048962068 -16.666529 -0.049526274 -16.663397 -31.138014 -110.33923
82927000 -31.217518 -100.76729 -0.050601475 -16.863974 -0.050599117 -16.863945 -31.025917 -110.66312
83926000 -31.097979 -101.40461 -0.051787753 -17.062984 -0.051389582 -17.065695 -30.908546 -110.83906
84925000 -30.994818 -101.81848 -0.053411715 -17.266575 -0.052580792 -17.258381 -30.805964 -110.89397
85924000 -30.91025 -102.17618 -0.053935084 -17.462303 -0.053213336 -17.460787 -30.724756 -110.88513
86923000 -30.789967 -102.7283 -0.05421501 -17.66135 -0.053660419 -17.658344 -30.621054 -110.73843
87922000 -30.680201 -103.08495 -0.053807709 -17.871658 -0.053583629 -17.859818 -30.536034 -110.77586
88921000 -30.604412 -103.32844 -0.055071153 -18.069239 -0.05394426 -18.063274 -30.443645 -110.71957
89920000 -30.496958 -103.85694 -0.055029467 -18.267014 -0.055520259 -18.261442 -30.377296 -110.87829
90919000 -30.396671 -104.13058 -0.055682559 -18.461 -0.05520276 -18.462538 -30.295767 -110.97833
91918000 -30.306479 -104.49288 -0.057118602 -18.665703 -0.055848796 -18.659491 -30.23103 -111.03779
92917000 -30.217752 -104.78628 -0.057552446 -18.86191 -0.057143781 -18.857962 -30.163788 -111.11671
93916000 -30.124086 -105.12598 -0.057376701 -19.057959 -0.057422865 -19.052338 -30.080116 -111.77126
94915000 -30.055956 -105.79996 -0.058820389 -19.260159 -0.058482971 -19.254311 -30.019501 -111.65347
95914000 -29.981516 -105.92644 -0.059597656 -19.452929 -0.059108242 -19.453119 -29.929234 -111.91596
96913000 -29.8951 -106.1954 -0.061139222 -19.654043 -0.060619444 -19.650259 -29.863281 -112.25513
97912000 -29.819534 -106.63877 -0.061619412 -19.849794 -0.060567994 -19.848854 -29.782066 -112.49809
98911000 -29.707672 -106.75803 -0.06209546 -20.054234 -0.06151833 -20.047464 -29.737438 -112.68686
99910000 -29.640472 -106.93333 -0.063794732 -20.249382 -0.0621485 -20.250713 -29.632923 -113.04241
100909000 -29.552223 -107.18886 -0.06289196 -20.460207 -0.061099578 -20.457596 -29.545851 -113.17377
101908000 -29.469843 -107.43282 -0.063856199 -20.659634 -0.063191108 -20.657618 -29.43359 -112.9744
102907000 -29.324131 -107.36903 -0.064739995 -20.859009 -0.063109167 -20.861645 -29.368498 -112.94106
103906000 -29.232325 -107.47175 -0.064921297 -21.068367 -0.062206797 -21.062088 -29.214556 -112.89207
104905000 -29.088539 -107.29076 -0.065144122 -21.262892 -0.062646925 -21.262987 -29.094456 -112.606
105904000 -28.942457 -107.44357 -0.065904118 -21.468342 -0.063423567 -21.462576 -28.978748 -112.47792
106903000 -28.837112 -107.46388 -0.065945908 -21.67444 -0.063832559 -21.666531 -28.859936 -112.37054
107902000 -28.668631 -107.83378 -0.065943807 -21.872053 -0.064082652 -21.868277 -28.722231 -112.32327
108901000 -28.558807 -108.02296 -0.067214727 -22.076218 -0.065867849 -22.067684 -28.590799 -112.29488
109900000 -28.433151 -108.51345 -0.068099208 -22.274878 -0.066425323 -22.264223 -28.440496 -112.35443
110899000 -28.31679 -109.14674 -0.06960354 -22.475822 -0.06678465 -22.465273 -28.313017 -112.58472
111898000 -28.227243 -109.79269 -0.070664786 -22.671829 -0.067848623 -22.6677 -28.194355 -112.72638
112897000 -28.102312 -110.33389 -0.072099477 -22.873499 -0.069502272 -22.863148 -28.075119 -112.87775
113896000 -28.001955 -110.92416 -0.073275842 -23.077806 -0.07032565 -23.062845 -27.951504 -113.01248
114895000 -27.897184 -111.5365 -0.074272148 -23.271564 -0.071964718 -23.261261 -27.850756 -113.11137
115894000 -27.775394 -111.91165 -0.075393006 -23.475176 -0.072706707 -23.46133 -27.777697 -113.30025
116893000 -27.701302 -112.36874 -0.075680904 -23.674755 -0.073968284 -23.657736 -27.661583 -113.348
117892000 -27.617798 -112.87015 -0.076399811 -23.868177 -0.073653907 -23.857147 -27.57703 -113.55331
118891000 -27.560469 -113.31649 -0.076643243 -24.070414 -0.073941693 -24.05534 -27.488224 -113.6739
119890000 -27.471468 -113.63846 -0.07779897 -24.275986 -0.075152799 -24.256702 -27.471918 -113.76926
120889000 -27.416147 -114.13251 -0.07939025 -24.475832 -0.075355604 -24.459141 -27.398563 -113.73029
121888000 -27.380898 -114.49112 -0.078216173 -24.665688 -0.076567635 -24.65527 -27.34178 -113.97112
122887000 -27.344627 -114.63586 -0.079777807 -24.87295 -0.077241361 -24.85421 -27.297285 -114.01751
123886000 -27.287966 -115.1022 -0.080503456 -25.074438 -0.07752727 -25.05641 -27.278383 -114.10352
124885000 -27.25395 -115.59792 -0.080439113 -25.273075 -0.078054614 -25.255943 -27.250626 -114.18557
125884000 -27.197445 -115.77276 -0.081015602 -25.471565 -0.078080177 -25.459332 -27.223936 -114.32308
126883000 -27.182322 -116.1617 -0.081461862 -25.673851 -0.078836121 -25.659683 -27.183004 -114.35862
127882000 -27.129129 -116.4752 -0.082066439 -25.87616 -0.079240508 -25.856333 -27.140875 -114.52013
128881000 -27.104891 -116.8032 -0.082267195 -26.076403 -0.079077847 -26.060787 -27.105499 -114.59906
129880000 -27.04538 -117.14328 -0.083324149 -26.277544 -0.079606168 -26.259354 -27.066486 -114.5555
130879000 -26.983459 -117.277 -0.082581408 -26.479624 -0.08031676 -26.460321 -26.997383 -114.56636
131878000 -26.9224 -117.49725 -0.082848936 -26.682123 -0.080903515 -26.664072 -26.937765 -114.42272
132877000 -26.853685 -117.57391 -0.082157716 -26.883354 -0.080992393 -26.863605 -26.858822 -114.42142
133876000 -26.771225 -117.71378 -0.082975321 -27.08849 -0.079928361 -27.06435 -26.769579 -114.33317
134875000 -26.673096 -117.85128 -0.083186142 -27.282446 -0.081401989 -27.267199 -26.667166 -114.16337
135874000 -26.602383 -117.8904 -0.083340243 -27.483479 -0.081178591 -27.469893 -26.573009 -114.12187
136873000 -26.482252 -117.79791 -0.08373291 -27.688831 -0.080861583 -27.669966 -26.485895 -114.06591
137872000 -26.40019 -117.90546 -0.084070712 -27.888882 -0.081096828 -27.87167 -26.382307 -113.9993
138871000 -26.328924 -118.14592 -0.084764346 -28.085905 -0.081446297 -28.074686 -26.288713 -114.16569
139870000 -26.227087 -118.43529 -0.084788106 -28.287649 -0.083109096 -28.273237 -26.208685 -114.30384
140869000 -26.15452 -118.98872 -0.086262323 -28.487688 -0.083266363 -28.466118 -26.110939 -114.52365
141868000 -26.067909 -119.37253 -0.086908773 -28.684265 -0.085084543 -28.669235 -26.059572 -114.77804
142867000 -25.987606 -119.58261 -0.085976891 -28.883818 -0.084043793 -28.865408 -25.978212 -114.91692
143866000 -25.916592 -120.05268 -0.087562449 -29.078499 -0.085624419 -29.064297 -25.906042 -115.37803
144865000 -25.861023 -120.59631 -0.08945325 -29.279198 -0.086727343 -29.263002 -25.848503 -115.67278
145864000 -25.809641 -120.88818 -0.089133523 -29.480118 -0.088008858 -29.469187 -25.806707 -115.91617
146863000 -25.762053 -121.25784 -0.09014035 -29.684635 -0.088281475 -29.665735 -25.760183 -116.21383
147862000 -25.719423 -121.60029 -0.091127843 -29.879818 -0.088846587 -29.861748 -25.734982 -116.52019
148861000 -25.684996 -122.06161 -0.091993406 -30.078375 -0.0903465 -30.060923 -25.709538 -116.68887
149860000 -25.65023 -122.18697 -0.093123868 -30.270756 -0.09086588 -30.260914 -25.655514 -116.76276
150859000 -25.628475 -122.67714 -0.092749134 -30.466175 -0.09034729 -30.453754 -25.634525 -117.12714
151858000 -25.617483 -123.00349 -0.091850102 -30.667768 -0.090495043 -30.653257 -25.626097 -117.45874
152857000 -25.606884 -123.34625 -0.092707351 -30.861629 -0.090711251 -30.853621 -25.610415 -117.61318
153856000 -25.606907 -123.58009 -0.09258306 -31.066326 -0.090195321 -31.050297 -25.626406 -117.98298
154855000 -25.596409 -123.70279 -0.092804141 -31.267302 -0.090243421 -31.256845 -25.61393 -118.18407
155854000 -25.616697 -123.96539 -0.092824765 -31.466946 -0.090464376 -31.452345 -25.609589 -118.4465
156853000 -25.602898 -124.6673 -0.090992764 -31.650431 -0.090387203 -31.647751 -25.601137 -118.7702
157852000 -25.608107 -124.85789 -0.092382886 -31.855425 -0.091168821 -31.845963 -25.594042 -119.10851
158851000 -25.605656 -125.06122 -0.092817888 -32.053452 -0.09164653 -32.044518 -25.579916 -119.39786
159850000 -25.596745 -125.19115 -0.093470603 -32.25248 -0.091837414 -32.243973 -25.578259 -119.57862
160849000 -25.57822 -125.30806 -0.093370892 -32.452538 -0.092767909 -32.446548 -25.546303 -119.84907
161848000 -25.562717 -125.38337 -0.094168916 -32.651287 -0.092682496 -32.645901 -25.512817 -119.98852
162847000 -25.518755 -125.5419 -0.094356745 -32.850204 -0.093357407 -32.842686 -25.481529 -120.24537
163846000 -25.485126 -125.78368 -0.094095379 -33.052044 -0.093474306 -33.044498 -25.407434 -120.24545
164845000 -25.421221 -125.7313 -0.094693787 -33.254124 -0.09440013 -33.246403 -25.343397 -120.34881
165844000 -25.374107 -125.77449 -0.094868399 -33.452374 -0.093643583 -33.449718 -25.267046 -120.46684
166843000 -25.313261 -125.81259 -0.094440073 -33.655434 -0.093542285 -33.646183 -25.197838 -120.63583
167842000 -25.252541 -125.92133 -0.095210776 -33.84948 -0.094429754 -33.849064 -25.122972 -120.56039
168841000 -25.178869 -126.09814 -0.09586703 -34.052071 -0.094442986 -34.043564 -25.045723 -120.62475
169840000 -25.116669 -126.34727 -0.094892211 -34.247944 -0.094908088 -34.244026 -24.963915 -120.81935
170839000 -25.050488 -126.56831 -0.095842153 -34.440331 -0.095658764 -34.440086 -24.882751 -121.00218
171838000 -24.996918 -126.96848 -0.096921474 -34.644989 -0.096231453 -34.639885 -24.819698 -121.20811
172837000 -24.920238 -127.28162 -0.097664818 -34.840729 -0.096837036 -34.837502 -24.754185 -121.41441
173836000 -24.857033 -127.70956 -0.09929093 -35.042236 -0.098072544 -35.038929 -24.705324 -121.64129
174835000 -24.806349 -128.10884 -0.099457525 -35.238918 -0.09937118 -35.238201 -24.666689 -121.94564
175834000 -24.754583 -128.47055 -0.10018011 -35.439335 -0.099886879 -35.434479 -24.602171 -122.2473
176833000 -24.707245 -128.81383 -0.10150429 -35.638248 -0.10032581 -35.633678 -24.553061 -122.37179
177832000 -24.663353 -129.22527 -0.10290918 -35.835979 -0.10129549 -35.836803 -24.535999 -122.4669
178831000 -24.617271 -129.43257 -0.1041496 -36.031784 -0.10350005 -36.029533 -24.493717 -122.53817
179830000 -24.541895 -129.8638 -0.1045773 -36.22028 -0.10432301 -36.218285 -24.436508 -122.61963
180829000 -24.495426 -130.22601 -0.10422066 -36.411133 -0.10355148 -36.408566 -24.390078 -122.91973
181828000 -24.468287 -130.63069 -0.10326226 -36.612965 -0.10326491 -36.608402 -24.372143 -123.12001
182827000 -24.448427 -131.02327 -0.10353133 -36.807987 -0.10286703 -36.810806 -24.357977 -123.24425
183826000 -24.407789 -131.34589 -0.10460726 -37.008686 -0.10304754 -37.003723 -24.35273 -123.39939
184825000 -24.413177 -131.698 -0.10474038 -37.200253 -0.10415225 -37.203419 -24.330706 -123.53598
185824000 -24.37948 -132.06158 -0.10421509 -37.398232 -0.10394651 -37.400974 -24.32222 -123.59437
186823000 -24.363476 -132.41129 -0.10430498 -37.598213 -0.10398283 -37.597603 -24.316757 -123.63443
187822000 -24.34358 -132.75664 -0.10462397 -37.794567 -0.10465764 -37.796032 -24.278023 -123.67888
188821000 -24.309256 -133.01151 -0.10429385 -37.989372 -0.10466772 -37.994717 -24.262945 -123.79887
189820000 -24.291857 -133.31535 -0.10505755 -38.190712 -0.10486528 -38.19051 -24.242443 -124.0177
190819000 -24.257545 -133.60655 -0.10559593 -38.38953 -0.10481357 -38.387154 -24.205521 -124.03294
191818000 -24.228012 -133.89371 -0.10557631 -38.587261 -0.10523311 -38.590382 -24.172729 -124.0713
192817000 -24.185915 -134.16562 -0.10644608 -38.783657 -0.10559328 -38.786114 -24.128239 -124.19889
193816000 -24.149036 -134.43515 -0.10619354 -38.980751 -0.10480031 -38.978981 -24.083345 -124.32034
194815000 -24.088003 -134.84412 -0.1064681 -39.172905 -0.10609353 -39.176971 -24.014231 -124.36902
195814000 -24.035393 -135.03569 -0.10756704 -39.375336 -0.10632352 -39.375603 -23.9603 -124.48909
196813000 -23.982914 -135.33086 -0.10723484 -39.564224 -0.10631954 -39.57066 -23.877752 -124.63461
197812000 -23.922285 -135.56444 -0.10770927 -39.766846 -0.1065315 -39.764069 -23.807989 -124.7112
198811000 -23.870964 -135.69618 -0.10710854 -39.961952 -0.10672013 -39.962421 -23.737453 -124.90184
199810000 -23.797962 -136.07242 -0.10793165 -40.156925 -0.10720034 -40.155815 -23.660583 -124.97929
200809000 -23.738413 -136.31609 -0.10845659 -40.35236 -0.10679521 -40.353931 -23.580763 -125.14919
201808000 -23.682045 -136.50668 -0.10856594 -40.554749 -0.10778013 -40.559063 -23.518948 -125.24934
202807000 -23.625143 -136.85226 -0.10951887 -40.754677 -0.10925739 -40.759045 -23.459501 -125.41805
