!Keysight Technologies,E5080B,MY59205177,A.15.75.32
!Date: Friday, February 23, 2024 02:54:28
!Correction: S11(Cdelta 2-Port  ) 
!S21(Cdelta 2-Port  ) 
!S12(Cdelta 2-Port  ) 
!S22(Cdelta 2-Port  ) 
!S2P File: Measurements: S11, S21, S12, S22:
# Hz S  dB   R 50
10000000 -43.642071 -3.8169637 -0.031404488 -2.0412076 -0.033524811 -2.0973527 -48.92485 -147.71288
10999000 -43.036194 -5.3789244 -0.032290049 -2.259028 -0.03438836 -2.313462 -48.487797 -139.16327
11998000 -42.240833 -7.5917835 -0.032138269 -2.4848568 -0.034045268 -2.5274045 -48.606571 -133.29167
12997000 -41.709213 -12.30556 -0.032046735 -2.6593375 -0.033504985 -2.695415 -47.838505 -127.06741
13996000 -41.439442 -15.367142 -0.030670052 -2.8419385 -0.033288732 -2.8603272 -47.305916 -121.13455
14995000 -41.146152 -18.815931 -0.033413421 -3.0546598 -0.032845307 -3.0789864 -46.877533 -117.88174
15994000 -41.054955 -22.539015 -0.034348179 -3.2724638 -0.035432938 -3.2922163 -46.593075 -114.22763
16993000 -41.070168 -26.26671 -0.032685164 -3.465585 -0.034849949 -3.4758749 -45.669315 -115.2033
17992000 -41.138798 -30.716072 -0.033811249 -3.6634562 -0.035722375 -3.668591 -45.045307 -116.57917
18991000 -41.383595 -34.940502 -0.034454111 -3.8693051 -0.036188282 -3.876483 -44.32872 -115.96274
19990000 -41.317078 -39.824043 -0.03741188 -4.0864811 -0.037843499 -4.0767398 -43.639511 -117.88478
20989000 -41.24955 -42.277885 -0.039341051 -4.2872777 -0.040123459 -4.2765141 -43.01585 -118.08135
21988000 -41.176617 -47.209339 -0.039939273 -4.4793758 -0.040819779 -4.4739799 -42.748371 -117.91684
22987000 -41.00309 -51.569565 -0.041443821 -4.6806631 -0.042143747 -4.6767921 -42.444572 -117.26712
23986000 -41.042561 -55.038662 -0.040215686 -4.8775024 -0.040944424 -4.8701611 -42.344646 -117.40092
24985000 -40.723564 -57.583107 -0.041937783 -5.0861111 -0.042032663 -5.0821075 -42.057117 -115.2074
25984000 -40.489197 -60.146713 -0.042836472 -5.291153 -0.041762669 -5.2901149 -41.716652 -113.91266
26983000 -40.209499 -61.72337 -0.043210063 -5.486495 -0.042655308 -5.5039549 -41.572769 -113.23479
27982000 -40.14732 -62.819355 -0.045187846 -5.6888375 -0.044166807 -5.722249 -41.233982 -111.74797
28981000 -40.114029 -64.395187 -0.043377135 -5.8878174 -0.044275597 -5.9152136 -40.992199 -110.98401
29980000 -39.724659 -65.963348 -0.042980779 -6.079843 -0.044547837 -6.0852242 -40.647778 -110.4799
30979000 -39.371262 -65.295296 -0.040125549 -6.4333777 -0.039370827 -6.4269423 -40.143917 -111.27038
31978000 -39.191353 -66.4459 -0.03955473 -6.6276326 -0.04011954 -6.6195517 -39.864021 -110.6722
32977000 -39.034115 -67.968559 -0.039312053 -6.8383918 -0.040784504 -6.8353534 -39.597813 -110.89467
33976000 -38.887417 -69.248871 -0.040349457 -7.0385666 -0.041095205 -7.0364394 -39.268009 -110.5594
34975000 -38.61084 -70.062431 -0.040227182 -7.2377834 -0.042219028 -7.2389264 -39.010483 -110.35668
35974000 -38.44685 -70.903999 -0.039408185 -7.4318266 -0.041975945 -7.4340811 -38.698524 -109.69972
36973000 -38.214878 -71.834457 -0.039865863 -7.6300797 -0.04230947 -7.6359425 -38.417549 -108.85566
37972000 -38.040825 -71.786133 -0.039725836 -7.8441796 -0.042105325 -7.8482571 -38.1703 -108.34075
38971000 -37.724552 -71.532784 -0.040646799 -8.0418482 -0.041911907 -8.0571337 -37.957897 -106.59095
39970000 -37.41 -72.154716 -0.039327465 -8.2415876 -0.041160796 -8.2510014 -37.659336 -106.3099
40969000 -37.117878 -72.055939 -0.039519724 -8.432291 -0.041054178 -8.4512129 -37.394741 -104.88681
41968000 -36.779919 -72.218422 -0.039831117 -8.6365967 -0.041787758 -8.6540422 -37.178844 -103.84983
42967000 -36.549213 -72.548973 -0.039254852 -8.8512268 -0.042087551 -8.8626814 -36.943615 -102.1074
43966000 -36.266006 -73.394882 -0.040708989 -9.0447435 -0.043470997 -9.0647535 -36.644852 -101.47002
44965000 -36.05014 -74.394806 -0.040194787 -9.250164 -0.043491129 -9.2721281 -36.443626 -101.32817
45964000 -35.828537 -75.546761 -0.041664135 -9.4516888 -0.044441398 -9.4723091 -36.20668 -101.31265
46963000 -35.66161 -77.538071 -0.042310514 -9.6421814 -0.045249578 -9.6679611 -36.017532 -101.78549
47962000 -35.529068 -79.107086 -0.043717042 -9.8439159 -0.04631247 -9.8683109 -35.81675 -101.85006
48961000 -35.348305 -80.490273 -0.04621619 -10.042087 -0.048406314 -10.064837 -35.58461 -102.15265
49960000 -35.128662 -81.936386 -0.047064736 -10.23916 -0.048739027 -10.26532 -35.460785 -102.53835
50959000 -34.927887 -83.351166 -0.047404669 -10.453912 -0.050253171 -10.465857 -35.263592 -102.85516
51958000 -34.734348 -84.582733 -0.04935661 -10.651196 -0.051838573 -10.66648 -35.089451 -103.55963
52957000 -34.548599 -85.698318 -0.051496979 -10.853802 -0.052614592 -10.859987 -34.932159 -103.37104
53956000 -34.403637 -86.525528 -0.052536774 -11.055417 -0.053231679 -11.054768 -34.797581 -103.38793
54955000 -34.242237 -87.076828 -0.053344365 -11.254597 -0.054419201 -11.252218 -34.641209 -103.42319
55954000 -34.089256 -88.012871 -0.055584498 -11.448243 -0.054854348 -11.451338 -34.523407 -103.28929
56953000 -33.961632 -88.020294 -0.053984884 -11.649266 -0.053666446 -11.643332 -34.452091 -103.53587
57952000 -33.80777 -88.682053 -0.056249995 -11.854682 -0.055344597 -11.840029 -34.347046 -103.64925
58951000 -33.703629 -89.059196 -0.055728968 -12.055969 -0.055347219 -12.036416 -34.201073 -103.71088
59950000 -33.593018 -89.478821 -0.057437032 -12.256866 -0.05682354 -12.235881 -34.121975 -104.08725
60949000 -33.467991 -90.066246 -0.057472706 -12.459157 -0.057245288 -12.436291 -34.038967 -104.3878
61948000 -33.412251 -90.400475 -0.058350213 -12.656549 -0.056912452 -12.635964 -33.95166 -104.50998
62947000 -33.324585 -90.582108 -0.058153711 -12.863557 -0.05764557 -12.846691 -33.811722 -104.84626
63946000 -33.269958 -91.387108 -0.058902781 -13.063324 -0.058792841 -13.044893 -33.694233 -104.97038
64945000 -33.154095 -91.563072 -0.059894744 -13.267477 -0.059275396 -13.246728 -33.594364 -105.4753
65944000 -33.056469 -91.891243 -0.059954587 -13.465566 -0.059847243 -13.449271 -33.4986 -105.96622
66943000 -32.918938 -92.341217 -0.05841082 -13.667703 -0.057897665 -13.647679 -33.411919 -106.22924
67942000 -32.867001 -92.289963 -0.060055897 -13.862864 -0.059647519 -13.851682 -33.28669 -106.56448
68941000 -32.741901 -92.376411 -0.059550945 -14.056745 -0.058721732 -14.044691 -33.169445 -106.51195
69940000 -32.649082 -92.41748 -0.059823882 -14.253701 -0.05949977 -14.248624 -33.035927 -106.81965
70939000 -32.541702 -92.277458 -0.060120989 -14.452151 -0.059769031 -14.443589 -32.902077 -106.75219
71938000 -32.402599 -91.99057 -0.060333855 -14.651072 -0.060088966 -14.640467 -32.771915 -106.55689
72937000 -32.24078 -91.809372 -0.059206907 -14.847515 -0.05914944 -14.838108 -32.619579 -106.33266
73936000 -32.099209 -91.547859 -0.059169646 -15.045465 -0.058299839 -15.036084 -32.511387 -106.12051
74935000 -31.977268 -91.796295 -0.058638558 -15.238656 -0.057801127 -15.235611 -32.346352 -105.85928
75934000 -31.855772 -92.085129 -0.058660861 -15.449726 -0.058093894 -15.446352 -32.266655 -105.74858
76933000 -31.726578 -92.52523 -0.060158782 -15.642172 -0.059640434 -15.631549 -32.100891 -106.15217
77932000 -31.643553 -93.325523 -0.060666692 -15.836733 -0.060863573 -15.831598 -31.995861 -106.14797
78931000 -31.572428 -94.15271 -0.059466705 -16.038397 -0.060186081 -16.030514 -31.903234 -106.04652
79930000 -31.459824 -94.919273 -0.062327329 -16.229223 -0.062757492 -16.23085 -31.813377 -106.37063
80929000 -31.332895 -95.857155 -0.063239962 -16.425058 -0.063945778 -16.420725 -31.709597 -106.78255
81928000 -31.254147 -96.767197 -0.063342929 -16.618587 -0.064821973 -16.614559 -31.581646 -106.876
82927000 -31.172342 -97.511711 -0.065816864 -16.816561 -0.06498462 -16.815514 -31.481977 -107.23682
83926000 -31.058327 -98.219109 -0.066515476 -17.013775 -0.066749953 -17.011707 -31.36277 -107.48068
84925000 -30.955248 -98.698799 -0.067769215 -17.209526 -0.066715516 -17.21063 -31.270702 -107.63741
85924000 -30.867489 -99.172813 -0.068428695 -17.411722 -0.068161786 -17.412846 -31.184122 -107.58858
86923000 -30.764605 -99.764153 -0.069078021 -17.608521 -0.068427116 -17.605053 -31.080862 -107.59126
87922000 -30.655985 -100.12826 -0.068363212 -17.814547 -0.067932233 -17.806356 -30.995741 -107.64647
88921000 -30.582785 -100.44612 -0.069365494 -18.013193 -0.069491751 -18.01226 -30.901482 -107.67236
89920000 -30.488237 -101.01726 -0.070285924 -18.210356 -0.069070652 -18.204121 -30.853132 -107.81991
90919000 -30.391609 -101.35725 -0.071384966 -18.409067 -0.070114926 -18.403561 -30.755842 -108.0712
91918000 -30.299818 -101.7523 -0.071977884 -18.606682 -0.0705285 -18.604925 -30.691124 -108.13263
92917000 -30.206882 -102.09361 -0.072835691 -18.808981 -0.071818657 -18.808325 -30.631413 -108.22704
93916000 -30.121216 -102.4609 -0.072323725 -19.001881 -0.071269445 -18.995535 -30.538565 -108.84929
94915000 -30.051712 -103.10323 -0.07367181 -19.20188 -0.072463751 -19.197567 -30.468855 -108.71584
95914000 -29.99012 -103.38466 -0.075277641 -19.396446 -0.074068867 -19.394308 -30.381002 -109.02946
96913000 -29.905523 -103.52203 -0.076192476 -19.593414 -0.07439407 -19.594332 -30.326878 -109.34611
97912000 -29.84099 -104.09787 -0.077389456 -19.789248 -0.075204685 -19.793526 -30.238379 -109.64305
98911000 -29.73176 -104.24316 -0.078282595 -19.993956 -0.076419301 -19.988878 -30.197584 -109.84037
99910000 -29.664837 -104.42928 -0.079217307 -20.18832 -0.076427475 -20.188259 -30.096565 -110.11833
100909000 -29.572432 -104.6925 -0.078157663 -20.400772 -0.075892955 -20.393803 -29.999825 -110.36795
101908000 -29.490969 -104.94332 -0.079074427 -20.596432 -0.076904878 -20.592505 -29.892479 -110.0609
102907000 -29.358564 -104.96874 -0.080168568 -20.797562 -0.077920467 -20.794769 -29.813946 -110.08008
103906000 -29.26088 -105.03183 -0.079500183 -21.001822 -0.076673016 -21.0002 -29.666359 -109.95947
104905000 -29.119678 -104.97496 -0.080194935 -21.202328 -0.076730981 -21.20397 -29.538332 -109.68233
105904000 -28.971247 -105.08014 -0.080279842 -21.401285 -0.077762343 -21.396875 -29.416998 -109.55112
106903000 -28.862808 -105.20834 -0.080282219 -21.606955 -0.077800557 -21.605244 -29.289541 -109.4173
107902000 -28.700315 -105.55296 -0.081248216 -21.808001 -0.077819526 -21.803024 -29.150665 -109.41933
108901000 -28.597 -105.77139 -0.08208438 -22.015209 -0.079671822 -22.002785 -29.02191 -109.36195
109900000 -28.471298 -106.32463 -0.082406491 -22.209206 -0.080698341 -22.199945 -28.871853 -109.4701
110899000 -28.353136 -106.95438 -0.084548958 -22.409819 -0.0814339 -22.398647 -28.748224 -109.75656
111898000 -28.26219 -107.65488 -0.085458621 -22.607979 -0.082109444 -22.599993 -28.628489 -109.95184
112897000 -28.140577 -108.24703 -0.087450728 -22.808641 -0.0835495 -22.798765 -28.490234 -110.11597
113896000 -28.02692 -108.85164 -0.088040553 -23.007391 -0.085503504 -22.996628 -28.386171 -110.28416
114895000 -27.9326 -109.5229 -0.08862333 -23.206106 -0.086635709 -23.193592 -28.270609 -110.3987
115894000 -27.809692 -109.86579 -0.09098959 -23.407179 -0.088063009 -23.389931 -28.208372 -110.60316
116893000 -27.730452 -110.47723 -0.091015764 -23.600565 -0.088543281 -23.583944 -28.07485 -110.7687
117892000 -27.644308 -111.00609 -0.091516986 -23.798025 -0.088717125 -23.782614 -28.005375 -110.9781
118891000 -27.582212 -111.44949 -0.09130919 -23.997107 -0.089822158 -23.982832 -27.907156 -111.11081
119890000 -27.508175 -111.83006 -0.092297219 -24.19422 -0.089822687 -24.18228 -27.892736 -111.31075
120889000 -27.453035 -112.30383 -0.094159923 -24.398951 -0.090699621 -24.387274 -27.827663 -111.24374
121888000 -27.409391 -112.66191 -0.093219347 -24.596891 -0.090817511 -24.583033 -27.762817 -111.57146
122887000 -27.369404 -112.87637 -0.09462209 -24.800571 -0.091732189 -24.786201 -27.7146 -111.59543
123886000 -27.30982 -113.29123 -0.095300481 -25.000591 -0.091561131 -24.981653 -27.703657 -111.7645
124885000 -27.278772 -113.83148 -0.095160767 -25.198416 -0.092089124 -25.182129 -27.669397 -111.87046
125884000 -27.225578 -114.00141 -0.096068688 -25.394894 -0.091942117 -25.38269 -27.640652 -112.05698
126883000 -27.208178 -114.41042 -0.096230388 -25.596878 -0.093079969 -25.587133 -27.596905 -112.08109
127882000 -27.15625 -114.69897 -0.096844971 -25.796728 -0.093483038 -25.781248 -27.558805 -112.23445
128881000 -27.125338 -115.00993 -0.097068653 -26.000725 -0.093552068 -25.984592 -27.518906 -112.35155
129880000 -27.069958 -115.33574 -0.098026216 -26.202318 -0.093896195 -26.182734 -27.472752 -112.32968
130879000 -27.004755 -115.49345 -0.097477384 -26.400082 -0.094816282 -26.386276 -27.394823 -112.35965
131878000 -26.945374 -115.68404 -0.098347127 -26.603468 -0.094637699 -26.581051 -27.330015 -112.30465
132877000 -26.872637 -115.77351 -0.09779799 -26.802359 -0.095324554 -26.78603 -27.244877 -112.28434
133876000 -26.788589 -115.93884 -0.097705856 -27.006506 -0.094657272 -26.984421 -27.149876 -112.16971
134875000 -26.690321 -116.04108 -0.098640785 -27.20442 -0.095270574 -27.183943 -27.050774 -112.07348
135874000 -26.60989 -116.07848 -0.098560281 -27.408278 -0.095632829 -27.386801 -26.949707 -112.02398
136873000 -26.501303 -115.97899 -0.098945856 -27.60861 -0.095522746 -27.589302 -26.861786 -111.99923
137872000 -26.418749 -116.10845 -0.098687127 -27.806446 -0.095312387 -27.790407 -26.755348 -112.00762
138871000 -26.340767 -116.27171 -0.099170163 -28.005047 -0.095488615 -27.994642 -26.662605 -112.12602
139870000 -26.242348 -116.58518 -0.099735901 -28.209129 -0.097431317 -28.188992 -26.578255 -112.31989
140869000 -26.162491 -117.03053 -0.10209788 -28.402748 -0.098530099 -28.382824 -26.470091 -112.47988
141868000 -26.059376 -117.51492 -0.10178836 -28.594929 -0.10003124 -28.580622 -26.39846 -112.81665
142867000 -25.988697 -117.79788 -0.10030091 -28.792215 -0.098295756 -28.776169 -26.324066 -113.02145
143866000 -25.919817 -118.30004 -0.10228128 -28.988024 -0.099493012 -28.971771 -26.253878 -113.50751
144865000 -25.864008 -118.86563 -0.10352921 -29.189739 -0.10087368 -29.171028 -26.194538 -113.84354
145864000 -25.810339 -119.18831 -0.10472341 -29.391933 -0.10201467 -29.377371 -26.158911 -114.10787
146863000 -25.762932 -119.5946 -0.10531426 -29.592707 -0.10265233 -29.575747 -26.111462 -114.42221
147862000 -25.720661 -119.94651 -0.1058922 -29.783655 -0.10304251 -29.772955 -26.080677 -114.79813
148861000 -25.688978 -120.43274 -0.10578159 -29.982092 -0.103016 -29.969334 -26.052723 -115.05298
149860000 -25.676155 -120.66422 -0.10678804 -30.180626 -0.10389958 -30.165873 -26.025888 -115.1758
150859000 -25.656202 -121.0463 -0.10691167 -30.382523 -0.10366733 -30.366615 -26.017534 -115.4819
151858000 -25.640223 -121.33099 -0.10631371 -30.583214 -0.10368033 -30.561337 -26.004782 -115.75546
152857000 -25.621069 -121.68291 -0.10682147 -30.776405 -0.10418699 -30.765081 -25.984661 -115.90601
153856000 -25.6147 -121.90266 -0.10659888 -30.976875 -0.10416922 -30.965534 -26.004013 -116.2167
154855000 -25.607323 -122.05924 -0.10683633 -31.173328 -0.1042143 -31.162369 -25.992764 -116.43795
155854000 -25.620476 -122.33727 -0.10793643 -31.3764 -0.10475841 -31.362036 -25.983372 -116.71195
156853000 -25.604795 -123.02451 -0.10552856 -31.561235 -0.10400908 -31.55332 -25.980183 -117.0089
157852000 -25.60532 -123.26952 -0.10691274 -31.76244 -0.10550602 -31.751143 -25.973385 -117.33195
158851000 -25.60483 -123.49347 -0.10745347 -31.959307 -0.10593385 -31.949768 -25.953478 -117.60352
159850000 -25.590338 -123.6256 -0.10776526 -32.158211 -0.10614393 -32.149952 -25.954338 -117.75632
160849000 -25.565407 -123.71612 -0.10785629 -32.360561 -0.10739695 -32.354153 -25.921045 -118.05946
161848000 -25.549761 -123.84113 -0.10849269 -32.557899 -0.10699339 -32.554729 -25.88065 -118.14924
162847000 -25.501799 -124.03391 -0.10879367 -32.757084 -0.10765301 -32.753307 -25.852531 -118.41328
163846000 -25.460739 -124.24818 -0.10959161 -32.955917 -0.10710032 -32.950172 -25.772663 -118.36488
164845000 -25.401499 -124.27752 -0.10963568 -33.154903 -0.1077167 -33.144852 -25.702778 -118.47704
165844000 -25.347446 -124.32114 -0.10972435 -33.351368 -0.10777747 -33.346123 -25.625072 -118.67379
166843000 -25.28109 -124.38701 -0.10932402 -33.549194 -0.10893169 -33.548431 -25.553192 -118.78761
167842000 -25.22262 -124.55966 -0.11011676 -33.752205 -0.10879022 -33.745628 -25.467354 -118.70751
168841000 -25.148968 -124.74895 -0.1102827 -33.948742 -0.10888869 -33.943378 -25.393999 -118.79535
169840000 -25.079205 -125.00784 -0.10977878 -34.147739 -0.10859885 -34.142548 -25.305805 -119.04024
170839000 -25.020687 -125.26688 -0.11147504 -34.340981 -0.10938163 -34.34024 -25.214478 -119.19524
171838000 -24.963634 -125.67628 -0.11046617 -34.545616 -0.11048344 -34.534958 -25.152481 -119.47274
172837000 -24.897482 -126.06689 -0.11323758 -34.738628 -0.11125487 -34.734589 -25.084101 -119.65717
173836000 -24.830145 -126.48843 -0.11388461 -34.937992 -0.11217093 -34.934399 -25.044966 -119.91399
174835000 -24.770153 -126.91692 -0.11381365 -35.13184 -0.11319693 -35.132988 -24.997746 -120.26241
175834000 -24.725634 -127.30884 -0.11483552 -35.329422 -0.11388168 -35.328369 -24.934795 -120.53311
176833000 -24.673042 -127.71509 -0.11539665 -35.526997 -0.11419101 -35.526562 -24.883535 -120.74776
177832000 -24.631189 -128.19376 -0.11637449 -35.723709 -0.11474701 -35.725174 -24.861244 -120.91579
178831000 -24.591719 -128.57921 -0.1165202 -35.921974 -0.11546204 -35.916721 -24.82188 -121.12921
179830000 -24.551214 -129.01521 -0.11688422 -36.121147 -0.11531106 -36.120754 -24.799339 -121.25665
180829000 -24.51519 -129.24553 -0.11714191 -36.317486 -0.11652657 -36.31443 -24.772762 -121.44574
181828000 -24.492342 -129.58818 -0.11752222 -36.514294 -0.11599082 -36.508381 -24.753202 -121.56748
182827000 -24.466978 -129.95331 -0.11700469 -36.709293 -0.11701905 -36.702744 -24.744379 -121.66302
183826000 -24.427448 -130.29015 -0.11842392 -36.906116 -0.11623835 -36.903622 -24.731743 -121.77596
184825000 -24.428596 -130.61848 -0.11912173 -37.103699 -0.11768871 -37.102657 -24.7104 -121.91799
185824000 -24.400827 -130.96933 -0.11820472 -37.294601 -0.11789883 -37.297562 -24.71314 -121.93864
186823000 -24.387932 -131.29413 -0.11837471 -37.496418 -0.1179781 -37.498226 -24.704622 -121.93057
187822000 -24.363449 -131.60667 -0.11928482 -37.695492 -0.11811987 -37.690697 -24.67194 -122.00421
188821000 -24.349356 -131.84431 -0.11890224 -37.884319 -0.11838401 -37.888676 -24.655781 -122.08653
189820000 -24.336447 -132.1469 -0.12000114 -38.086456 -0.11872373 -38.088009 -24.643488 -122.24372
190819000 -24.301552 -132.36478 -0.12101249 -38.286011 -0.1201169 -38.2868 -24.611828 -122.20646
191818000 -24.268206 -132.53374 -0.12214334 -38.479748 -0.12132978 -38.482738 -24.576551 -122.11582
192817000 -24.195364 -132.81693 -0.12219206 -38.665314 -0.12163697 -38.666798 -24.502346 -122.17192
193816000 -24.159554 -133.17804 -0.12185847 -38.860966 -0.12009721 -38.858932 -24.444754 -122.46233
194815000 -24.099768 -133.62164 -0.1214123 -39.054962 -0.12078677 -39.05653 -24.385592 -122.55804
195814000 -24.049004 -133.84579 -0.12215159 -39.252495 -0.12090655 -39.256134 -24.327713 -122.65609
196813000 -23.998032 -134.166 -0.1223803 -39.450092 -0.1204642 -39.450695 -24.252615 -122.81467
197812000 -23.936325 -134.44301 -0.12230415 -39.647343 -0.12113918 -39.644005 -24.184029 -122.90748
198811000 -23.883709 -134.58818 -0.12165321 -39.84256 -0.12074738 -39.846901 -24.111032 -123.12276
199810000 -23.81605 -134.96265 -0.121695 -40.034863 -0.12042961 -40.035667 -24.033791 -123.20882
200809000 -23.754072 -135.24194 -0.12264284 -40.233337 -0.12114397 -40.23489 -23.954462 -123.38994
201808000 -23.70052 -135.47717 -0.12406231 -40.436012 -0.12235714 -40.439434 -23.885324 -123.47246
202807000 -23.644098 -135.84943 -0.12433028 -40.634888 -0.1221444 -40.640266 -23.83238 -123.69484
203806000 -23.593033 -136.3148 -0.12528081 -40.837612 -0.12313335 -40.836941 -23.767912 -123.87551
