!Keysight Technologies,E5080B,MY59205177,A.15.75.32
!Date: Friday, February 23, 2024 03:32:42
!Correction: S11(Cdelta 2-Port  ) 
!S21(Cdelta 2-Port  ) 
!S12(Cdelta 2-Port  ) 
!S22(Cdelta 2-Port  ) 
!S2P File: Measurements: S11, S21, S12, S22:
# Hz S  dB   R 50
10000000 -46.08741 -2.6058936 -0.015656583 -2.0469999 -0.018511884 -2.1042755 -45.972393 -157.8017
10999000 -45.30299 -4.0334868 -0.01697498 -2.2641296 -0.018613791 -2.322067 -45.893452 -151.66159
11998000 -44.309631 -7.2801323 -0.016709397 -2.4847147 -0.018894309 -2.5372777 -46.052628 -147.18413
12997000 -43.578823 -12.542159 -0.016309235 -2.6720932 -0.018270383 -2.7052627 -45.74493 -141.73262
13996000 -43.286839 -16.603632 -0.015820516 -2.8497407 -0.018468209 -2.8712966 -45.547531 -135.9579
14995000 -42.904819 -21.093143 -0.017990423 -3.0609474 -0.018694382 -3.0850708 -45.17791 -132.7123
15994000 -42.725143 -25.444841 -0.019102044 -3.2809465 -0.020732036 -3.3026276 -45.099075 -129.83797
16993000 -42.654854 -30.34049 -0.018209293 -3.4770739 -0.019871976 -3.4878395 -44.291981 -129.26552
17992000 -42.73756 -35.378227 -0.018574795 -3.6772139 -0.020386899 -3.6820192 -43.679573 -129.26459
18991000 -42.990715 -41.038338 -0.019468402 -3.8857543 -0.021375827 -3.8841915 -43.019867 -128.22981
19990000 -42.760147 -46.43589 -0.021651061 -4.1003838 -0.022795886 -4.0919752 -42.372967 -129.01747
20989000 -42.58123 -49.778053 -0.023762718 -4.2991004 -0.025412947 -4.2901573 -41.860275 -128.01939
21988000 -42.434074 -54.919064 -0.024397587 -4.4975438 -0.025792595 -4.4856997 -41.570286 -127.74412
22987000 -42.126743 -59.788876 -0.026141288 -4.6956801 -0.02729355 -4.6912427 -41.325912 -127.06718
23986000 -42.039967 -63.972748 -0.025199441 -4.8910208 -0.025427788 -4.8918715 -41.181034 -126.99605
24985000 -41.634235 -66.94207 -0.026627002 -5.1027699 -0.02654939 -5.0993667 -40.991138 -124.50742
25984000 -41.247547 -68.890816 -0.027200555 -5.3087721 -0.027177893 -5.3094225 -40.634434 -122.89353
26983000 -40.944954 -70.489349 -0.027635589 -5.5086174 -0.02735164 -5.5233827 -40.549416 -122.21259
27982000 -40.856236 -71.673264 -0.02981949 -5.7089863 -0.029315174 -5.7420712 -40.25658 -120.58717
28981000 -40.774651 -73.294838 -0.027290683 -5.9038315 -0.028852612 -5.9349246 -40.051292 -120.16679
29980000 -40.364357 -74.523064 -0.027633505 -6.0982466 -0.030013412 -6.1065955 -39.778862 -119.24223
30979000 -40.005363 -73.430092 -0.025782179 -6.4528222 -0.024210945 -6.4480333 -39.285069 -119.47314
31978000 -39.782372 -74.368896 -0.024380928 -6.6482739 -0.025228603 -6.6365657 -39.031136 -118.75806
32977000 -39.586109 -76.046745 -0.024620946 -6.8598938 -0.025592873 -6.8572025 -38.799061 -118.81463
33976000 -39.415424 -76.989037 -0.025395501 -7.0598454 -0.026226968 -7.0556784 -38.509296 -118.17021
34975000 -39.121262 -77.943855 -0.025149191 -7.2627006 -0.027481889 -7.2573376 -38.307518 -117.95155
35974000 -38.93882 -78.37233 -0.024556385 -7.4567347 -0.027284693 -7.460443 -38.017189 -116.78265
36973000 -38.675377 -79.108299 -0.024827395 -7.6540127 -0.027464695 -7.6626272 -37.767578 -115.98969
37972000 -38.53273 -78.948097 -0.024479328 -7.871491 -0.027290424 -7.8749113 -37.521961 -115.29456
38971000 -38.205643 -78.450302 -0.025084101 -8.0683975 -0.027520964 -8.0779982 -37.37077 -113.71594
39970000 -37.865433 -78.744324 -0.023800459 -8.2640734 -0.026923928 -8.276885 -37.097267 -112.97242
40969000 -37.57235 -78.432686 -0.024084436 -8.4603186 -0.026981492 -8.4777632 -36.846237 -111.63278
41968000 -37.223755 -78.27774 -0.024676917 -8.6636076 -0.026577517 -8.6849012 -36.655022 -110.43365
42967000 -36.976284 -78.433723 -0.024772722 -8.874547 -0.027320379 -8.8961611 -36.475945 -108.59507
43966000 -36.676163 -79.159286 -0.024885971 -9.0746975 -0.028402865 -9.0938501 -36.196735 -107.77689
44965000 -36.447666 -79.779457 -0.026445212 -9.2765551 -0.028775219 -9.3003263 -35.996922 -107.43623
45964000 -36.202866 -80.868004 -0.026752021 -9.4779272 -0.029546605 -9.4998989 -35.765621 -107.24355
46963000 -35.987232 -82.775742 -0.027642883 -9.6727839 -0.030535014 -9.6923933 -35.575027 -107.36714
47962000 -35.81802 -84.320686 -0.028954761 -9.8755589 -0.032195903 -9.8960781 -35.387405 -107.4654
48961000 -35.624115 -85.652397 -0.030933622 -10.072268 -0.033519331 -10.095634 -35.152466 -107.62275
49960000 -35.382256 -86.924149 -0.03162482 -10.275332 -0.034489077 -10.295815 -35.017834 -107.72948
50959000 -35.151482 -88.198502 -0.032610312 -10.486419 -0.035883676 -10.501314 -34.843945 -107.93446
51958000 -34.959961 -89.299667 -0.034748442 -10.685227 -0.036963336 -10.696733 -34.667496 -108.40359
52957000 -34.752926 -90.412865 -0.036282774 -10.888558 -0.037544783 -10.892941 -34.491749 -108.13702
53956000 -34.582863 -91.12175 -0.038093403 -11.086635 -0.03908794 -11.090327 -34.360901 -108.17274
54955000 -34.412788 -91.480782 -0.03807408 -11.288928 -0.039943978 -11.290337 -34.214634 -108.07988
55954000 -34.224453 -92.327408 -0.039267909 -11.489519 -0.039388854 -11.487308 -34.114052 -107.70429
56953000 -34.12043 -92.360016 -0.038975105 -11.688278 -0.038818911 -11.680744 -34.03957 -108.00497
57952000 -33.957447 -92.89962 -0.040408246 -11.886795 -0.040411644 -11.881192 -33.922421 -108.11819
58951000 -33.842308 -93.2248 -0.04149818 -12.091888 -0.040826835 -12.069756 -33.770802 -108.13589
59950000 -33.698257 -93.655838 -0.041853622 -12.293863 -0.041756134 -12.27041 -33.707813 -108.38331
60949000 -33.588181 -94.225189 -0.042004172 -12.495404 -0.042581588 -12.471231 -33.6106 -108.66299
61948000 -33.532124 -94.560394 -0.042799611 -12.693584 -0.041798476 -12.67751 -33.517761 -108.76643
62947000 -33.443302 -94.684013 -0.042511795 -12.90551 -0.042214323 -12.886898 -33.387558 -109.00024
63946000 -33.375477 -95.484489 -0.04334968 -13.105261 -0.044097248 -13.083115 -33.277779 -109.15756
64945000 -33.263695 -95.592033 -0.043925967 -13.307509 -0.044782959 -13.287881 -33.16423 -109.60291
65944000 -33.167885 -95.857445 -0.045178168 -13.506367 -0.044947471 -13.489246 -33.066509 -110.09628
66943000 -33.020157 -96.341408 -0.04308274 -13.7081 -0.043399617 -13.688734 -32.96743 -110.33141
67942000 -32.96418 -96.231857 -0.044482719 -13.901466 -0.044969182 -13.892427 -32.850346 -110.64071
68941000 -32.841881 -96.294342 -0.045118269 -14.098576 -0.044296779 -14.089713 -32.730881 -110.62406
69940000 -32.75444 -96.30835 -0.044545222 -14.301328 -0.045431372 -14.286267 -32.595657 -110.85948
70939000 -32.64666 -96.268768 -0.044448197 -14.493312 -0.04478322 -14.485472 -32.458755 -110.70072
71938000 -32.498337 -95.81987 -0.044894118 -14.689197 -0.044738758 -14.681855 -32.335339 -110.56438
72937000 -32.346123 -95.607376 -0.044492919 -14.887422 -0.044143796 -14.880505 -32.188431 -110.24956
73936000 -32.206573 -95.312897 -0.043616634 -15.090427 -0.044096727 -15.078394 -32.074673 -110.06091
74935000 -32.078087 -95.477562 -0.04374842 -15.286257 -0.042943656 -15.281787 -31.920174 -109.75098
75934000 -31.957165 -95.730637 -0.043623958 -15.499525 -0.042459249 -15.486867 -31.824343 -109.7006
76933000 -31.823141 -96.070335 -0.045175031 -15.690347 -0.045080081 -15.680868 -31.666002 -110.00905
77932000 -31.716965 -96.882355 -0.045813035 -15.889331 -0.046023373 -15.878288 -31.563103 -109.98167
78931000 -31.639372 -97.670601 -0.044385694 -16.087738 -0.045413584 -16.080732 -31.467201 -109.79289
79930000 -31.526419 -98.582802 -0.047096658 -16.278505 -0.047747251 -16.274387 -31.36097 -110.1508
80929000 -31.415451 -99.266106 -0.048534054 -16.474768 -0.049272306 -16.474825 -31.26692 -110.39321
81928000 -31.313154 -100.01834 -0.048899502 -16.668694 -0.050190844 -16.665752 -31.139526 -110.34853
82927000 -31.210352 -100.7301 -0.050674804 -16.867798 -0.050964996 -16.866179 -31.023508 -110.6612
83926000 -31.09391 -101.45976 -0.05234132 -17.060799 -0.052315641 -17.066128 -30.908993 -110.84014
84925000 -30.983431 -101.88065 -0.052823946 -17.264757 -0.052491445 -17.259911 -30.812391 -110.88843
85924000 -30.897638 -102.24066 -0.053331785 -17.464922 -0.053557687 -17.461008 -30.723841 -110.84978
86923000 -30.791998 -102.77413 -0.053318158 -17.663305 -0.053986982 -17.656815 -30.627047 -110.71785
87922000 -30.675547 -103.06747 -0.053891052 -17.868124 -0.053584415 -17.86068 -30.537514 -110.75824
88921000 -30.602631 -103.31656 -0.054347642 -18.066427 -0.054116197 -18.064207 -30.438982 -110.7457
89920000 -30.497938 -103.84721 -0.055321261 -18.266027 -0.055467036 -18.258158 -30.387697 -110.86944
90919000 -30.398802 -104.1809 -0.056519058 -18.464716 -0.056506995 -18.459061 -30.30324 -111.07573
91918000 -30.300375 -104.51412 -0.057288043 -18.66696 -0.055842504 -18.659399 -30.232414 -111.02892
92917000 -30.209904 -104.7571 -0.058161054 -18.863087 -0.057660259 -18.863306 -30.164036 -111.18274
93916000 -30.123421 -105.14942 -0.057384834 -19.056116 -0.057233486 -19.050982 -30.074213 -111.77222
94915000 -30.043409 -105.69836 -0.058988322 -19.25894 -0.05837645 -19.253229 -30.013361 -111.67173
95914000 -29.980747 -105.9659 -0.060001828 -19.454515 -0.059595294 -19.449478 -29.927313 -111.96238
96913000 -29.890385 -106.15035 -0.060948104 -19.655113 -0.060643855 -19.648163 -29.860292 -112.26059
97912000 -29.816376 -106.60135 -0.061739929 -19.852438 -0.0608893 -19.85025 -29.778303 -112.54199
98911000 -29.7013 -106.77989 -0.063158281 -20.053293 -0.061864126 -20.048414 -29.728638 -112.68449
99910000 -29.643507 -106.89384 -0.063578807 -20.251245 -0.062163994 -20.251883 -29.629103 -112.95426
100909000 -29.552826 -107.16013 -0.062800303 -20.459667 -0.06118989 -20.452888 -29.54608 -113.20713
101908000 -29.459322 -107.38356 -0.064805157 -20.661543 -0.06303221 -20.656324 -29.435741 -112.98017
102907000 -29.328997 -107.38869 -0.065178283 -20.858896 -0.062385101 -20.857853 -29.358044 -112.99337
103906000 -29.228477 -107.43935 -0.064709514 -21.065435 -0.062884346 -21.058048 -29.221064 -112.88251
104905000 -29.083241 -107.31673 -0.065510437 -21.2673 -0.063784488 -21.26573 -29.093807 -112.60085
105904000 -28.947378 -107.42075 -0.066325173 -21.464352 -0.062928729 -21.461044 -28.980368 -112.48727
106903000 -28.834858 -107.5254 -0.06583526 -21.672922 -0.063538618 -21.668434 -28.848562 -112.38691
107902000 -28.66589 -107.80431 -0.066576459 -21.872272 -0.064354822 -21.864079 -28.716219 -112.32059
108901000 -28.563971 -108.07216 -0.067866497 -22.079477 -0.065737501 -22.067141 -28.591829 -112.25166
109900000 -28.430546 -108.50619 -0.068453938 -22.276384 -0.06683591 -22.264772 -28.439619 -112.34157
110899000 -28.313953 -109.15501 -0.069625109 -22.474094 -0.067764215 -22.464821 -28.317266 -112.57029
111898000 -28.224745 -109.76974 -0.071391806 -22.672113 -0.068362162 -22.667368 -28.195765 -112.72147
112897000 -28.096283 -110.34901 -0.072659582 -22.872169 -0.069931306 -22.863447 -28.067198 -112.90691
113896000 -27.99334 -110.94609 -0.073440388 -23.074741 -0.070723981 -23.062906 -27.954172 -113.04648
114895000 -27.89609 -111.52679 -0.074878626 -23.274729 -0.072290294 -23.259264 -27.840794 -113.09532
115894000 -27.771721 -111.91283 -0.07543014 -23.472446 -0.073182911 -23.463171 -27.77652 -113.30995
116893000 -27.689676 -112.38684 -0.076852709 -23.672209 -0.074927613 -23.6576 -27.652897 -113.35914
117892000 -27.608282 -112.88746 -0.076576591 -23.867893 -0.074690856 -23.854593 -27.576454 -113.61337
118891000 -27.555264 -113.31447 -0.07704822 -24.069019 -0.074742734 -24.056471 -27.484247 -113.65144
119890000 -27.465096 -113.6881 -0.077538602 -24.273869 -0.075961709 -24.254864 -27.470789 -113.79476
120889000 -27.415241 -114.15882 -0.07930325 -24.470505 -0.075987257 -24.455713 -27.399057 -113.73006
121888000 -27.375607 -114.46882 -0.079703197 -24.668024 -0.076773927 -24.652802 -27.343351 -113.99094
122887000 -27.339186 -114.69507 -0.080120578 -24.870937 -0.076747052 -24.859381 -27.296932 -114.04892
123886000 -27.2852 -115.09737 -0.080683574 -25.071589 -0.077410795 -25.054537 -27.276628 -114.16373
124885000 -27.248705 -115.59758 -0.080794334 -25.275349 -0.077537552 -25.258068 -27.246475 -114.23647
125884000 -27.200712 -115.79073 -0.081457637 -25.47086 -0.077788435 -25.454382 -27.221626 -114.36115
126883000 -27.18214 -116.19083 -0.08247456 -25.671535 -0.078547485 -25.659658 -27.185858 -114.37904
127882000 -27.12958 -116.45189 -0.082241081 -25.874086 -0.079067305 -25.858198 -27.144218 -114.51424
128881000 -27.105827 -116.7942 -0.08273311 -26.073517 -0.079303779 -26.061798 -27.107079 -114.56446
129880000 -27.047121 -117.12388 -0.083050519 -26.278664 -0.079584286 -26.26004 -27.063396 -114.56769
130879000 -26.983362 -117.29233 -0.08264631 -26.476572 -0.080727614 -26.461044 -26.991377 -114.57291
131878000 -26.92432 -117.50283 -0.082577445 -26.679522 -0.080348931 -26.660851 -26.926752 -114.45099
132877000 -26.853893 -117.58298 -0.08313337 -26.884315 -0.080920391 -26.863489 -26.849489 -114.41937
133876000 -26.773819 -117.74689 -0.083447903 -27.086241 -0.080647439 -27.064627 -26.763502 -114.30614
134875000 -26.673403 -117.86255 -0.083537631 -27.285177 -0.081253231 -27.265078 -26.668358 -114.14474
135874000 -26.590115 -117.83118 -0.083666936 -27.487942 -0.081614584 -27.466928 -26.566254 -114.15955
136873000 -26.485262 -117.79988 -0.084247544 -27.686491 -0.080834679 -27.667822 -26.479828 -114.09274
137872000 -26.401697 -117.97096 -0.084221415 -27.885784 -0.081755169 -27.87277 -26.382679 -113.98667
138871000 -26.329815 -118.17752 -0.084776752 -28.086723 -0.081525691 -28.073826 -26.284155 -114.15767
139870000 -26.224495 -118.43835 -0.085604355 -28.285196 -0.082579821 -28.26825 -26.200001 -114.32446
140869000 -26.1474 -118.98949 -0.086619869 -28.483536 -0.083416507 -28.464201 -26.104069 -114.52117
141868000 -26.065426 -119.37206 -0.087035015 -28.684486 -0.084714726 -28.671103 -26.050713 -114.7726
142867000 -25.986753 -119.59116 -0.08609809 -28.881285 -0.084021099 -28.863594 -25.977369 -114.87149
143866000 -25.914757 -120.03899 -0.087754212 -29.079945 -0.085594058 -29.064199 -25.9011 -115.36674
144865000 -25.85803 -120.58272 -0.089294441 -29.280216 -0.086746626 -29.264063 -25.849123 -115.68271
145864000 -25.799597 -120.88953 -0.090178408 -29.478626 -0.088353865 -29.467943 -25.80994 -115.91895
146863000 -25.757999 -121.27355 -0.090613984 -29.677366 -0.088459268 -29.66399 -25.767635 -116.19901
147862000 -25.721291 -121.58764 -0.091454856 -29.878359 -0.089228652 -29.863388 -25.733999 -116.53973
148861000 -25.691696 -122.04174 -0.092794351 -30.074034 -0.090302624 -30.060183 -25.703537 -116.6666
149860000 -25.652777 -122.19475 -0.093254782 -30.26712 -0.090688519 -30.256969 -25.655952 -116.78001
150859000 -25.628027 -122.66338 -0.092610568 -30.462503 -0.091409385 -30.45174 -25.638676 -117.11546
151858000 -25.622713 -123.00297 -0.092051573 -30.667221 -0.090676621 -30.648798 -25.627958 -117.50043
152857000 -25.602869 -123.36475 -0.09240748 -30.86511 -0.090949938 -30.851494 -25.611305 -117.65184
153856000 -25.600349 -123.559 -0.092615321 -31.064774 -0.090324827 -31.049234 -25.625168 -117.96764
154855000 -25.601034 -123.72523 -0.093115143 -31.26511 -0.090484999 -31.253956 -25.618418 -118.20519
155854000 -25.610878 -123.96188 -0.093640409 -31.468952 -0.091680631 -31.450205 -25.61067 -118.45243
156853000 -25.600956 -124.65186 -0.091540515 -31.65453 -0.09028095 -31.644428 -25.606731 -118.77972
157852000 -25.609917 -124.87359 -0.092680641 -31.851217 -0.091328755 -31.848042 -25.597672 -119.12909
158851000 -25.60939 -125.10079 -0.093104035 -32.050533 -0.09190774 -32.04372 -25.576803 -119.40033
159850000 -25.59556 -125.21837 -0.093836151 -32.252415 -0.091665037 -32.243687 -25.579071 -119.60425
160849000 -25.578472 -125.3008 -0.09421283 -32.449612 -0.092592582 -32.447128 -25.55081 -119.88251
161848000 -25.561228 -125.39632 -0.094474204 -32.649967 -0.092901461 -32.647503 -25.506418 -120.00742
162847000 -25.527603 -125.5484 -0.094630554 -32.854897 -0.093633801 -32.845726 -25.485397 -120.23548
163846000 -25.482555 -125.77891 -0.094849087 -33.048622 -0.092626959 -33.045494 -25.405706 -120.24846
164845000 -25.418207 -125.70604 -0.094943807 -33.249783 -0.093690142 -33.246185 -25.346828 -120.32102
165844000 -25.37048 -125.78617 -0.095145158 -33.452927 -0.094284259 -33.448448 -25.267141 -120.48508
166843000 -25.311893 -125.82984 -0.094920263 -33.651489 -0.093737751 -33.64777 -25.202824 -120.62733
167842000 -25.252277 -125.91569 -0.095710628 -33.849113 -0.093592539 -33.845997 -25.120064 -120.54028
168841000 -25.179251 -126.08214 -0.095656909 -34.052334 -0.095200986 -34.045094 -25.049469 -120.62188
169840000 -25.114563 -126.33463 -0.096093565 -34.245068 -0.095247291 -34.24398 -24.96279 -120.81726
170839000 -25.049355 -126.58376 -0.09700644 -34.441647 -0.095213421 -34.439869 -24.882832 -120.99174
171838000 -24.993692 -126.95491 -0.096848942 -34.647434 -0.096485265 -34.641167 -24.822487 -121.20441
172837000 -24.929052 -127.30018 -0.0981398 -34.843922 -0.097772308 -34.837536 -24.755285 -121.41517
173836000 -24.858877 -127.71746 -0.099465735 -35.042824 -0.098687917 -35.038891 -24.707905 -121.61472
174835000 -24.803894 -128.12512 -0.099903032 -35.238873 -0.099378601 -35.23909 -24.661375 -121.95855
175834000 -24.75009 -128.46729 -0.10054675 -35.437824 -0.10034965 -35.432804 -24.605482 -122.20329
176833000 -24.701788 -128.81783 -0.10188428 -35.636539 -0.10068345 -35.63327 -24.55382 -122.345
177832000 -24.654371 -129.22891 -0.10278434 -35.837749 -0.10222562 -35.836342 -24.538788 -122.46367
178831000 -24.612675 -129.45297 -0.10443438 -36.031944 -0.10341999 -36.031006 -24.495441 -122.56535
179830000 -24.541927 -129.88014 -0.10557842 -36.216282 -0.10409605 -36.218498 -24.433308 -122.58699
180829000 -24.493208 -130.22318 -0.10431293 -36.408249 -0.10337228 -36.410427 -24.390394 -122.95467
181828000 -24.474619 -130.66098 -0.10383569 -36.608887 -0.10304198 -36.607296 -24.372082 -123.15107
182827000 -24.446583 -131.01959 -0.10364268 -36.808975 -0.10382296 -36.805229 -24.35928 -123.26422
183826000 -24.402048 -131.38066 -0.10567231 -37.005939 -0.10272575 -37.001694 -24.34778 -123.41125
184825000 -24.406712 -131.70494 -0.10453407 -37.206757 -0.10349051 -37.200027 -24.334375 -123.50817
185824000 -24.381588 -132.07228 -0.10458711 -37.397148 -0.10372698 -37.396999 -24.321821 -123.6031
186823000 -24.360029 -132.41763 -0.10450491 -37.60178 -0.10405839 -37.597412 -24.316189 -123.5937
187822000 -24.338869 -132.76105 -0.10507081 -37.795643 -0.10484274 -37.791245 -24.279459 -123.70067
188821000 -24.315966 -133.03964 -0.1045529 -37.989491 -0.1042196 -37.994278 -24.262403 -123.80338
189820000 -24.29476 -133.31387 -0.10497799 -38.187893 -0.10468946 -38.187824 -24.246714 -124.03128
190819000 -24.259916 -133.63622 -0.10602669 -38.3885 -0.10522223 -38.383915 -24.205988 -124.05257
191818000 -24.231016 -133.9314 -0.1059869 -38.586941 -0.10553997 -38.586411 -24.175463 -124.09044
192817000 -24.179348 -134.18207 -0.10642485 -38.783104 -0.10592005 -38.783936 -24.127621 -124.19775
193816000 -24.152111 -134.43509 -0.10609459 -38.975773 -0.105449 -38.974865 -24.077435 -124.35437
194815000 -24.08503 -134.82726 -0.10663443 -39.174488 -0.10622298 -39.177658 -24.010736 -124.39426
195814000 -24.03462 -135.02432 -0.10744923 -39.369781 -0.10715842 -39.375286 -23.95591 -124.48218
196813000 -23.977921 -135.36256 -0.10703107 -39.563938 -0.10654344 -39.571804 -23.878675 -124.65025
197812000 -23.920937 -135.55273 -0.10777456 -39.76506 -0.10677849 -39.758595 -23.804016 -124.7684
198811000 -23.863644 -135.72902 -0.10736724 -39.959427 -0.1067838 -39.964111 -23.737593 -124.89014
199810000 -23.797367 -136.06624 -0.10754157 -40.153465 -0.10638905 -40.155506 -23.659958 -125.00238
200809000 -23.737989 -136.34108 -0.10780215 -40.350475 -0.10686737 -40.352787 -23.585569 -125.17268
201808000 -23.682978 -136.50504 -0.10929854 -40.553921 -0.10772546 -40.556515 -23.514946 -125.2451
202807000 -23.621778 -136.87479 -0.10963223 -40.751671 -0.10845818 -40.755501 -23.460279 -125.45055
