!Keysight Technologies,E5080B,MY59205177,A.15.75.32
!Date: Friday, February 23, 2024 03:32:49
!Correction: S11(Cdelta 2-Port  ) 
!S21(Cdelta 2-Port  ) 
!S12(Cdelta 2-Port  ) 
!S22(Cdelta 2-Port  ) 
!S2P File: Measurements: S11, S21, S12, S22:
# Hz S  dB   R 50
10000000 -46.055481 -2.1748922 -0.014763241 -2.0491207 -0.018644208 -2.1048589 -45.929798 -157.97896
10999000 -45.297085 -4.1231818 -0.016381729 -2.2673271 -0.018917188 -2.3188684 -45.901543 -151.65817
11998000 -44.300907 -7.3822784 -0.016764747 -2.4890127 -0.017861499 -2.5310609 -46.0658 -147.30499
12997000 -43.596867 -13.050627 -0.015655544 -2.6709578 -0.018127931 -2.7042708 -45.722763 -141.79578
13996000 -43.26984 -16.583685 -0.014912074 -2.8510025 -0.0177908 -2.8710589 -45.499035 -136.62375
14995000 -42.877502 -21.09831 -0.017008504 -3.0631864 -0.017467208 -3.0856078 -45.198166 -133.24725
15994000 -42.760033 -25.257607 -0.018259205 -3.2796893 -0.020264404 -3.3002639 -45.054256 -129.6107
16993000 -42.68082 -29.904263 -0.017536862 -3.4769545 -0.019252328 -3.4828372 -44.266674 -129.2072
17992000 -42.754032 -35.597633 -0.018236849 -3.6761119 -0.020848041 -3.6763306 -43.666939 -129.17938
18991000 -42.972687 -40.866142 -0.018959828 -3.8892143 -0.020511737 -3.8836384 -43.028637 -128.14479
19990000 -42.744465 -46.302711 -0.02116226 -4.0947294 -0.02302775 -4.0930014 -42.405819 -128.97852
20989000 -42.585972 -49.847336 -0.024159664 -4.3046036 -0.025428049 -4.2905388 -41.855801 -128.45718
21988000 -42.433548 -55.010197 -0.023726279 -4.4977093 -0.026386352 -4.4868002 -41.594418 -127.88651
22987000 -42.093796 -59.978596 -0.025399927 -4.6980968 -0.027237022 -4.6903806 -41.364204 -126.98275
23986000 -42.037281 -64.071106 -0.024633182 -4.8923841 -0.026036078 -4.8924742 -41.211147 -127.03072
24985000 -41.621193 -66.540268 -0.025484551 -5.1015182 -0.026668414 -5.0985503 -41.035561 -124.51188
25984000 -41.242828 -68.869583 -0.02684084 -5.3073063 -0.026540533 -5.3083301 -40.636349 -122.93271
26983000 -40.995243 -70.998093 -0.027917732 -5.5082564 -0.027939096 -5.5234098 -40.555412 -122.20325
27982000 -40.803429 -71.706985 -0.029373553 -5.7018137 -0.029470243 -5.7405796 -40.299603 -120.84888
28981000 -40.810558 -73.11113 -0.026406666 -5.9069762 -0.029157506 -5.929831 -40.04211 -119.95329
29980000 -40.352547 -74.431541 -0.026922105 -6.0989523 -0.029062387 -6.1073513 -39.799454 -119.10001
30979000 -39.984531 -73.464859 -0.025916548 -6.4494667 -0.024380667 -6.4441772 -39.290043 -119.53439
31978000 -39.789139 -74.653229 -0.024033679 -6.6500998 -0.025019532 -6.6418052 -39.043827 -118.66534
32977000 -39.593189 -76.148918 -0.02366928 -6.8577147 -0.025837125 -6.8561807 -38.802589 -118.72465
33976000 -39.422199 -77.087555 -0.024697484 -7.0602069 -0.026759053 -7.0571451 -38.507462 -118.27255
34975000 -39.123817 -77.906891 -0.024629017 -7.2635341 -0.027491787 -7.2595315 -38.286518 -117.93243
35974000 -38.905285 -78.516022 -0.023699211 -7.4536061 -0.027109386 -7.4593744 -38.02869 -116.93541
36973000 -38.686939 -79.176117 -0.024800319 -7.6572528 -0.027836187 -7.6591959 -37.739941 -116.01877
37972000 -38.519833 -78.828888 -0.024176583 -7.8650517 -0.027106261 -7.8740311 -37.512169 -115.30821
38971000 -38.188725 -78.519608 -0.024563413 -8.0709124 -0.027984168 -8.0786543 -37.366055 -113.69721
39970000 -37.872143 -78.707825 -0.02356413 -8.2650623 -0.027237022 -8.2806597 -37.110237 -113.10143
40969000 -37.574158 -78.359917 -0.023705978 -8.4603643 -0.026965603 -8.4743128 -36.864098 -111.60867
41968000 -37.225273 -78.355339 -0.023742417 -8.6649408 -0.027174506 -8.6830883 -36.67823 -110.31894
42967000 -36.965191 -78.338326 -0.024135716 -8.876483 -0.027202899 -8.8952665 -36.484062 -108.53056
43966000 -36.657482 -79.092087 -0.024552479 -9.0779638 -0.028317142 -9.0901384 -36.193707 -107.71738
44965000 -36.429871 -79.965828 -0.02549028 -9.2788525 -0.028443772 -9.2989483 -35.99263 -107.5565
45964000 -36.191895 -80.990387 -0.026668675 -9.4771852 -0.029661022 -9.4958649 -35.763874 -107.31409
46963000 -35.99987 -82.81945 -0.026725454 -9.6730556 -0.030727666 -9.7001543 -35.578331 -107.45889
47962000 -35.831257 -84.307037 -0.027531385 -9.8731203 -0.031744506 -9.8933268 -35.387833 -107.54714
48961000 -35.623215 -85.703957 -0.029933915 -10.072167 -0.032935552 -10.095194 -35.149017 -107.67443
49960000 -35.390446 -86.971695 -0.031890273 -10.271647 -0.034066401 -10.29363 -35.015312 -107.67792
50959000 -35.174644 -88.240768 -0.03258162 -10.485896 -0.035063408 -10.496322 -34.839523 -107.98348
51958000 -34.955593 -89.302483 -0.033891343 -10.682294 -0.03626607 -10.695403 -34.656475 -108.42654
52957000 -34.740761 -90.426933 -0.035068102 -10.883187 -0.037686307 -10.892429 -34.491482 -108.23421
53956000 -34.576225 -91.008888 -0.036949761 -11.086698 -0.038311463 -11.089279 -34.366142 -108.22626
54955000 -34.400742 -91.495811 -0.037476111 -11.292778 -0.039275486 -11.286772 -34.203403 -108.0388
55954000 -34.236084 -92.288773 -0.038076431 -11.489299 -0.039992046 -11.487337 -34.104977 -107.79686
56953000 -34.121689 -92.379662 -0.038541023 -11.689898 -0.039195295 -11.679223 -34.035 -107.96771
57952000 -33.949619 -92.941689 -0.040086884 -11.887567 -0.040087927 -11.876865 -33.931053 -108.06418
58951000 -33.834251 -93.231857 -0.040224046 -12.089667 -0.040459719 -12.070279 -33.781219 -108.19639
59950000 -33.708771 -93.659035 -0.040761508 -12.28966 -0.041298255 -12.271123 -33.710079 -108.40244
60949000 -33.582123 -94.244446 -0.041325431 -12.493565 -0.041523792 -12.473115 -33.619461 -108.59212
61948000 -33.535061 -94.428627 -0.042150546 -12.693678 -0.042378478 -12.673951 -33.52739 -108.79089
62947000 -33.429749 -94.754944 -0.04177051 -12.901237 -0.043046139 -12.889515 -33.38562 -108.89795
63946000 -33.368713 -95.465324 -0.043348111 -13.104441 -0.044099864 -13.086203 -33.27256 -109.17738
64945000 -33.259712 -95.589211 -0.04339648 -13.302056 -0.044807807 -13.287327 -33.158966 -109.68195
65944000 -33.167133 -95.91423 -0.044518284 -13.507476 -0.044622637 -13.488417 -33.073635 -110.11054
66943000 -33.01252 -96.312363 -0.042725105 -13.704225 -0.043070715 -13.688898 -32.9585 -110.30428
67942000 -32.954353 -96.219414 -0.04441943 -13.903613 -0.045124549 -13.891505 -32.836941 -110.63361
68941000 -32.843063 -96.435013 -0.044094633 -14.0946 -0.044111107 -14.085888 -32.72855 -110.55255
69940000 -32.74139 -96.312309 -0.044456828 -14.295979 -0.044372357 -14.288619 -32.589718 -110.79367
70939000 -32.633854 -96.251762 -0.04497546 -14.493861 -0.044270366 -14.49116 -32.466763 -110.77584
71938000 -32.493378 -95.848145 -0.044792898 -14.69031 -0.044314824 -14.682631 -32.329674 -110.6393
72937000 -32.341148 -95.669373 -0.043640167 -14.893759 -0.044200543 -14.88373 -32.192146 -110.32475
73936000 -32.204853 -95.308334 -0.042920914 -15.090289 -0.043175291 -15.083399 -32.072895 -110.20665
74935000 -32.076065 -95.478767 -0.043571923 -15.281506 -0.042705499 -15.278563 -31.916962 -109.73708
75934000 -31.950163 -95.738747 -0.04357297 -15.491073 -0.042678051 -15.489585 -31.83206 -109.702
76933000 -31.824701 -96.109215 -0.044223815 -15.687346 -0.044778515 -15.681425 -31.666233 -110.05324
77932000 -31.712978 -96.928215 -0.046134301 -15.886308 -0.045246437 -15.880527 -31.568922 -109.99749
78931000 -31.641008 -97.612991 -0.044883654 -16.08288 -0.044913996 -16.078697 -31.460062 -109.84041
79930000 -31.526913 -98.550453 -0.046237379 -16.277393 -0.047638901 -16.276285 -31.364063 -110.14738
80929000 -31.410585 -99.290504 -0.04848903 -16.474684 -0.048671223 -16.471907 -31.265728 -110.42591
81928000 -31.312038 -99.980362 -0.048591122 -16.666752 -0.049544603 -16.663321 -31.123165 -110.41249
82927000 -31.213701 -100.77489 -0.049507946 -16.866173 -0.050488599 -16.865263 -31.03229 -110.68582
83926000 -31.106867 -101.4357 -0.051329598 -17.063728 -0.051605165 -17.062382 -30.914255 -110.86294
84925000 -30.991901 -101.84502 -0.052790932 -17.264359 -0.051911663 -17.259056 -30.817043 -110.91195
85924000 -30.901699 -102.26908 -0.052860893 -17.463804 -0.052820802 -17.457954 -30.724798 -110.89854
86923000 -30.786587 -102.73509 -0.053078644 -17.661699 -0.053847548 -17.654442 -30.628769 -110.75778
87922000 -30.678537 -103.09341 -0.053700779 -17.868856 -0.052847266 -17.857939 -30.535732 -110.7654
88921000 -30.603888 -103.3163 -0.054643322 -18.065401 -0.054468744 -18.066895 -30.441235 -110.75448
89920000 -30.501959 -103.87201 -0.055562474 -18.263269 -0.054651972 -18.260902 -30.389418 -110.88313
90919000 -30.396072 -104.07657 -0.056017403 -18.460941 -0.055151373 -18.460056 -30.299675 -111.04604
91918000 -30.308641 -104.46237 -0.056692407 -18.663048 -0.055163957 -18.659117 -30.227196 -111.07684
92917000 -30.209978 -104.7887 -0.057351783 -18.861818 -0.057828408 -18.859301 -30.171589 -111.13209
93916000 -30.117188 -105.11539 -0.056800723 -19.056299 -0.057252634 -19.05143 -30.080229 -111.78275
94915000 -30.043982 -105.78083 -0.058636986 -19.256889 -0.057990793 -19.252958 -30.011673 -111.60883
95914000 -29.977671 -105.99232 -0.059790816 -19.453075 -0.058953688 -19.450468 -29.922731 -111.91925
96913000 -29.896429 -106.19788 -0.060970943 -19.653574 -0.059564065 -19.651144 -29.851692 -112.27135
97912000 -29.81743 -106.67474 -0.061790079 -19.847595 -0.060481634 -19.850283 -29.772814 -112.53762
98911000 -29.702971 -106.8311 -0.062192094 -20.052782 -0.0612613 -20.049728 -29.733116 -112.74055
99910000 -29.635876 -106.92213 -0.063336097 -20.248589 -0.062233318 -20.250334 -29.626345 -113.05124
100909000 -29.546721 -107.19542 -0.062743314 -20.458204 -0.061006382 -20.452564 -29.539469 -113.22088
101908000 -29.46188 -107.36787 -0.064014345 -20.657064 -0.062421605 -20.657473 -29.430494 -112.97034
102907000 -29.328909 -107.45019 -0.064458072 -20.86009 -0.063159853 -20.857077 -29.358418 -112.94599
103906000 -29.228201 -107.40897 -0.064817242 -21.063692 -0.062641412 -21.06284 -29.212593 -112.90666
104905000 -29.081278 -107.35758 -0.065178543 -21.260534 -0.062552385 -21.262419 -29.091141 -112.59661
105904000 -28.945812 -107.42836 -0.065448157 -21.468119 -0.063078173 -21.460764 -28.980249 -112.50367
106903000 -28.829546 -107.51992 -0.065119945 -21.672049 -0.063595615 -21.668489 -28.85573 -112.39984
107902000 -28.673536 -107.83961 -0.065998212 -21.867462 -0.063670747 -21.865709 -28.714678 -112.32015
108901000 -28.558104 -108.053 -0.067348547 -22.074497 -0.065242395 -22.068653 -28.588074 -112.29084
109900000 -28.429256 -108.5708 -0.067451343 -22.274595 -0.066277601 -22.264896 -28.43907 -112.3793
110899000 -28.317417 -109.156 -0.069354713 -22.47176 -0.066747062 -22.463667 -28.314667 -112.6196
111898000 -28.217211 -109.76501 -0.070621632 -22.671732 -0.067907251 -22.668236 -28.202955 -112.81284
112897000 -28.095369 -110.37176 -0.072176062 -22.873434 -0.069353394 -22.86133 -28.059952 -112.90099
113896000 -27.995392 -110.90962 -0.073154479 -23.072788 -0.070181221 -23.062008 -27.951433 -113.0725
114895000 -27.886971 -111.57375 -0.074024633 -23.273111 -0.071789704 -23.257317 -27.839031 -113.1132
115894000 -27.770237 -111.95811 -0.075209953 -23.474461 -0.072989158 -23.462959 -27.778904 -113.29417
116893000 -27.686947 -112.39732 -0.075915873 -23.670298 -0.07397829 -23.654305 -27.652136 -113.3501
117892000 -27.608393 -112.88068 -0.075576067 -23.868828 -0.073732629 -23.855837 -27.574987 -113.54853
118891000 -27.55592 -113.27926 -0.076810554 -24.066862 -0.074935779 -24.055065 -27.480326 -113.68039
119890000 -27.46031 -113.66063 -0.077818215 -24.266758 -0.075149633 -24.256638 -27.472553 -113.80583
120889000 -27.414358 -114.15234 -0.078388549 -24.472652 -0.075454116 -24.453178 -27.39901 -113.75774
121888000 -27.377377 -114.47855 -0.078576744 -24.667646 -0.076395333 -24.653885 -27.335732 -114.03173
122887000 -27.340801 -114.70456 -0.079518907 -24.871571 -0.076477788 -24.853844 -27.294659 -114.02385
123886000 -27.284143 -115.11422 -0.080808833 -25.076488 -0.077340968 -25.051733 -27.281898 -114.17329
124885000 -27.25078 -115.62411 -0.080229476 -25.273588 -0.077473782 -25.255424 -27.248714 -114.24172
125884000 -27.199451 -115.81974 -0.081108436 -25.471312 -0.077620037 -25.458794 -27.218929 -114.36471
126883000 -27.18116 -116.15862 -0.081123732 -25.674538 -0.07859467 -25.659649 -27.183638 -114.35921
127882000 -27.131172 -116.45029 -0.081789993 -25.873743 -0.07900852 -25.855225 -27.140083 -114.55768
128881000 -27.099174 -116.7813 -0.08166074 -26.077417 -0.078998767 -26.056143 -27.102274 -114.60844
129880000 -27.045256 -117.11466 -0.082743399 -26.276825 -0.078856684 -26.258165 -27.059902 -114.59888
130879000 -26.985415 -117.30771 -0.082288302 -26.475586 -0.080252156 -26.458933 -26.992163 -114.58064
131878000 -26.924324 -117.52106 -0.082586154 -26.682243 -0.08048711 -26.660622 -26.93222 -114.44328
132877000 -26.855339 -117.59589 -0.082197815 -26.876968 -0.080877401 -26.868326 -26.846243 -114.38731
133876000 -26.769175 -117.76376 -0.082946561 -27.083506 -0.080856837 -27.062922 -26.764425 -114.30261
134875000 -26.673965 -117.89671 -0.082708575 -27.279438 -0.082049295 -27.265224 -26.658909 -114.14056
135874000 -26.590597 -117.85819 -0.083818413 -27.483225 -0.080717854 -27.464228 -26.560579 -114.14683
136873000 -26.483431 -117.82929 -0.084195815 -27.684193 -0.081273012 -27.672489 -26.484547 -114.07181
137872000 -26.3976 -117.95988 -0.08425203 -27.887211 -0.080725238 -27.874697 -26.374287 -114.01916
138871000 -26.32637 -118.17237 -0.084511481 -28.085623 -0.081305981 -28.072878 -26.284039 -114.1616
139870000 -26.226015 -118.48164 -0.084486671 -28.286192 -0.082507268 -28.270988 -26.20611 -114.33569
140869000 -26.147022 -118.9995 -0.086198688 -28.482725 -0.081961453 -28.465637 -26.10309 -114.5676
141868000 -26.067818 -119.4237 -0.086708069 -28.685238 -0.084845118 -28.667755 -26.050476 -114.76501
142867000 -25.982908 -119.59982 -0.084750623 -28.880085 -0.083719447 -28.864906 -25.97068 -114.93645
143866000 -25.91242 -120.06345 -0.086891875 -29.076389 -0.08505366 -29.064125 -25.897707 -115.37402
144865000 -25.85755 -120.61246 -0.088421494 -29.275803 -0.086286619 -29.263294 -25.843006 -115.67602
145864000 -25.804871 -120.90954 -0.089277796 -29.478973 -0.087856174 -29.465084 -25.810125 -115.91501
146863000 -25.761684 -121.2725 -0.090551339 -29.677158 -0.088472478 -29.667166 -25.753784 -116.22686
147862000 -25.712276 -121.61304 -0.091354132 -29.875923 -0.088678814 -29.863316 -25.729511 -116.50095
148861000 -25.686544 -122.03915 -0.092725068 -30.073143 -0.090329587 -30.060978 -25.705168 -116.71325
149860000 -25.65309 -122.2292 -0.092846453 -30.268715 -0.091152161 -30.254982 -25.65612 -116.75684
150859000 -25.633562 -122.69318 -0.092483103 -30.467911 -0.090536274 -30.448181 -25.634939 -117.16447
151858000 -25.619219 -123.03233 -0.092029102 -30.664774 -0.091093741 -30.646898 -25.627359 -117.5022
152857000 -25.60104 -123.36706 -0.091978863 -30.860939 -0.090512216 -30.850586 -25.605537 -117.64008
153856000 -25.603872 -123.55942 -0.091613479 -31.064079 -0.090024062 -31.050987 -25.624296 -117.97198
154855000 -25.594734 -123.70675 -0.093002483 -31.263306 -0.090556361 -31.255096 -25.614408 -118.20889
155854000 -25.612608 -123.95492 -0.092909127 -31.464575 -0.0910118 -31.448261 -25.601139 -118.50446
156853000 -25.599476 -124.6814 -0.090415217 -31.652443 -0.090312138 -31.644444 -25.600506 -118.81603
157852000 -25.611019 -124.89209 -0.092132486 -31.851843 -0.091214024 -31.847126 -25.593008 -119.15843
158851000 -25.60721 -125.14494 -0.09287554 -32.052612 -0.091820754 -32.042988 -25.582573 -119.40671
159850000 -25.593643 -125.23935 -0.093641467 -32.251804 -0.091924138 -32.241135 -25.580114 -119.60925
160849000 -25.578815 -125.31675 -0.093284935 -32.450947 -0.092332385 -32.443813 -25.550858 -119.88425
161848000 -25.565792 -125.37202 -0.093966559 -32.654541 -0.092810482 -32.645493 -25.512552 -119.99628
162847000 -25.51778 -125.5452 -0.093823977 -32.849182 -0.093511865 -32.846416 -25.483521 -120.21529
163846000 -25.486168 -125.76261 -0.094218917 -33.051498 -0.093437806 -33.041237 -25.405369 -120.25462
164845000 -25.424885 -125.74735 -0.094074219 -33.249638 -0.093168564 -33.243881 -25.341759 -120.36858
165844000 -25.370615 -125.76697 -0.094214417 -33.450615 -0.094099879 -33.444672 -25.267832 -120.4663
166843000 -25.311525 -125.83398 -0.094695106 -33.653717 -0.093157455 -33.644714 -25.203718 -120.65841
167842000 -25.252991 -125.95015 -0.09534996 -33.847691 -0.094233997 -33.8437 -25.117289 -120.55038
168841000 -25.178568 -126.12135 -0.09575218 -34.04776 -0.094349861 -34.042671 -25.046806 -120.62437
169840000 -25.110571 -126.33442 -0.095377743 -34.245819 -0.094950952 -34.237396 -24.963066 -120.7887
170839000 -25.055548 -126.59492 -0.095758528 -34.443344 -0.095300481 -34.440643 -24.883896 -120.97546
171838000 -24.992899 -126.98383 -0.096166611 -34.643929 -0.095701896 -34.635571 -24.817381 -121.23519
172837000 -24.922642 -127.29847 -0.097285718 -34.840076 -0.09705621 -34.834301 -24.751957 -121.43254
173836000 -24.855057 -127.70909 -0.098882295 -35.040817 -0.098275371 -35.037491 -24.708389 -121.66296
174835000 -24.804548 -128.11075 -0.099197976 -35.238453 -0.099272661 -35.234848 -24.658684 -121.95843
175834000 -24.754198 -128.46046 -0.10007786 -35.439976 -0.099490367 -35.431168 -24.603441 -122.23667
176833000 -24.703678 -128.84085 -0.10136014 -35.637421 -0.10049906 -35.634377 -24.553942 -122.33759
177832000 -24.661694 -129.24023 -0.10214638 -35.835861 -0.1015382 -35.835003 -24.537254 -122.46786
178831000 -24.614077 -129.4554 -0.10360106 -36.032902 -0.10367873 -36.027889 -24.494215 -122.55395
179830000 -24.538795 -129.86604 -0.10431399 -36.214489 -0.10402048 -36.217533 -24.430553 -122.61751
180829000 -24.493174 -130.24959 -0.10446301 -36.408634 -0.10355493 -36.410988 -24.391922 -122.98782
181828000 -24.467272 -130.65578 -0.10276737 -36.608311 -0.10318857 -36.60894 -24.373558 -123.13596
182827000 -24.443645 -131.01328 -0.10284106 -36.807625 -0.10253306 -36.805412 -24.358711 -123.26683
183826000 -24.40204 -131.37268 -0.10400987 -37.006001 -0.10321137 -36.999741 -24.348495 -123.40089
184825000 -24.407829 -131.73338 -0.1044654 -37.201534 -0.10325246 -37.204769 -24.328594 -123.51933
185824000 -24.378008 -132.06104 -0.10315967 -37.395561 -0.10323814 -37.400478 -24.321743 -123.57906
186823000 -24.360907 -132.42123 -0.10359681 -37.598274 -0.10331051 -37.597649 -24.316799 -123.60322
187822000 -24.33313 -132.77199 -0.10445214 -37.794605 -0.10417187 -37.7938 -24.282734 -123.69947
188821000 -24.310402 -133.02069 -0.10437975 -37.988789 -0.10456881 -37.994301 -24.257774 -123.83337
189820000 -24.291582 -133.31567 -0.10446089 -38.18782 -0.10390939 -38.189213 -24.241009 -124.00652
190819000 -24.263477 -133.60742 -0.10487562 -38.386032 -0.1051074 -38.385151 -24.19895 -124.03866
191818000 -24.225506 -133.89629 -0.1054161 -38.585323 -0.10548665 -38.585762 -24.172075 -124.13367
192817000 -24.182236 -134.19313 -0.10552008 -38.778854 -0.10564261 -38.782391 -24.123575 -124.19224
193816000 -24.145922 -134.42897 -0.10613226 -38.978832 -0.10526255 -38.979073 -24.078827 -124.34056
194815000 -24.090723 -134.8481 -0.10618478 -39.172623 -0.10589406 -39.174957 -24.005981 -124.37856
195814000 -24.030151 -135.03928 -0.10693449 -39.3685 -0.10649993 -39.372643 -23.953333 -124.48651
196813000 -23.975485 -135.35371 -0.10649436 -39.565643 -0.10634925 -39.566666 -23.87351 -124.63119
197812000 -23.917332 -135.57973 -0.1069199 -39.761799 -0.10687931 -39.762608 -23.80636 -124.72421
198811000 -23.864452 -135.7408 -0.10677425 -39.954948 -0.10613597 -39.964149 -23.737022 -124.89526
199810000 -23.793972 -136.09737 -0.10716638 -40.153137 -0.10656679 -40.15369 -23.659286 -125.01308
200809000 -23.735682 -136.34782 -0.10745215 -40.352688 -0.10703903 -40.352386 -23.578053 -125.19655
201808000 -23.676762 -136.53818 -0.10836184 -40.553303 -0.10772467 -40.55344 -23.514601 -125.27142
202807000 -23.621645 -136.88228 -0.10926668 -40.754826 -0.1083284 -40.761864 -23.456413 -125.45369
