!Keysight Technologies,E5080B,MY59205177,A.15.75.32
!Date: Friday, February 23, 2024 02:54:35
!Correction: S11(Cdelta 2-Port  ) 
!S21(Cdelta 2-Port  ) 
!S12(Cdelta 2-Port  ) 
!S22(Cdelta 2-Port  ) 
!S2P File: Measurements: S11, S21, S12, S22:
# Hz S  dB   R 50
10000000 -43.650986 -3.7245641 -0.030787105 -2.0414209 -0.034032483 -2.0939796 -48.782272 -147.43967
10999000 -43.035828 -5.1623616 -0.032043345 -2.260365 -0.033723854 -2.3145993 -48.460754 -139.04971
11998000 -42.290081 -7.6422219 -0.032667428 -2.4823577 -0.033071969 -2.5280983 -48.536339 -133.54126
12997000 -41.707977 -12.107277 -0.031622995 -2.6659932 -0.033096749 -2.6932204 -47.831017 -126.86283
13996000 -41.504929 -15.437759 -0.030596016 -2.8417132 -0.033218302 -2.8627753 -47.373363 -121.42293
14995000 -41.151051 -18.754293 -0.032615788 -3.0540545 -0.032469995 -3.0775161 -46.895679 -117.86595
15994000 -41.075222 -22.517967 -0.033533938 -3.2694714 -0.035037834 -3.2913029 -46.546101 -114.08875
16993000 -41.066196 -26.366692 -0.032704204 -3.4660397 -0.034539174 -3.4758503 -45.637928 -115.45284
17992000 -41.142643 -30.736382 -0.033403248 -3.6652107 -0.035574131 -3.6701846 -45.005196 -116.57999
18991000 -41.419048 -34.854115 -0.034181718 -3.8793418 -0.035955977 -3.8731015 -44.295078 -115.97414
19990000 -41.332912 -39.699818 -0.037070639 -4.0878968 -0.037778743 -4.0790248 -43.610115 -118.35719
20989000 -41.250603 -42.680771 -0.039047714 -4.2898641 -0.040085837 -4.2787104 -43.00148 -118.08519
21988000 -41.196461 -47.035622 -0.039581113 -4.4839277 -0.041376133 -4.4698272 -42.7299 -117.75526
22987000 -41.008595 -51.240585 -0.041355226 -4.6799798 -0.041806839 -4.6756463 -42.407986 -117.73512
23986000 -41.038368 -55.312969 -0.040416867 -4.878993 -0.041659694 -4.8755307 -42.332443 -117.707
24985000 -40.761478 -57.81855 -0.041704908 -5.0814476 -0.041876361 -5.0802784 -42.083027 -115.01035
25984000 -40.497692 -60.119659 -0.042038936 -5.2923665 -0.042114995 -5.2928681 -41.669403 -114.11732
26983000 -40.236572 -61.754364 -0.042598844 -5.489635 -0.042498723 -5.5057673 -41.512638 -113.10726
27982000 -40.112255 -62.958534 -0.044422045 -5.6835723 -0.04379287 -5.7234297 -41.213306 -111.55531
28981000 -40.100281 -64.2994 -0.042734779 -5.8845038 -0.043914724 -5.9144235 -40.951141 -110.92278
29980000 -39.767952 -65.983879 -0.042218246 -6.0776935 -0.044397987 -6.086482 -40.605034 -110.36037
30979000 -39.367718 -65.400276 -0.04014384 -6.4357457 -0.038845029 -6.4257936 -40.096004 -111.27898
31978000 -39.206551 -66.374611 -0.039451022 -6.6281095 -0.040395703 -6.6222401 -39.824154 -110.71552
32977000 -39.051918 -68.184937 -0.039670978 -6.8380518 -0.041730519 -6.8328261 -39.571823 -111.03421
33976000 -38.899498 -69.197266 -0.040149324 -7.0385542 -0.041011319 -7.0315294 -39.276863 -110.57383
34975000 -38.638485 -70.01783 -0.040573638 -7.238234 -0.042092256 -7.2397008 -39.014927 -110.3854
35974000 -38.435623 -70.850121 -0.039288286 -7.4332743 -0.041615002 -7.4347668 -38.709644 -109.61605
36973000 -38.230965 -71.765846 -0.039506402 -7.6310077 -0.042275749 -7.6314983 -38.414429 -108.84803
37972000 -38.067841 -71.777313 -0.039140701 -7.8405252 -0.041874271 -7.8539901 -38.165661 -108.27962
38971000 -37.734104 -71.584557 -0.040623285 -8.0391932 -0.042664196 -8.05655 -37.958332 -106.83445
39970000 -37.440231 -72.128426 -0.039318848 -8.2388725 -0.041640613 -8.251895 -37.679726 -106.31586
40969000 -37.139896 -72.128197 -0.039201565 -8.4301472 -0.041214105 -8.4538536 -37.396931 -104.91373
41968000 -36.791405 -72.253929 -0.039254587 -8.6382084 -0.041658126 -8.6522312 -37.184761 -104.00134
42967000 -36.510372 -72.590645 -0.039062865 -8.8438625 -0.041865647 -8.8624315 -36.948265 -102.11958
43966000 -36.276138 -73.546829 -0.040164478 -9.0470047 -0.04214767 -9.0646009 -36.649605 -101.604
44965000 -36.050972 -74.396164 -0.041251738 -9.2457151 -0.043166403 -9.2684364 -36.422665 -101.50035
45964000 -35.841484 -75.555702 -0.041484851 -9.4497423 -0.044022981 -9.4715776 -36.191601 -101.35689
46963000 -35.665649 -77.622643 -0.04208912 -9.6449184 -0.044835005 -9.6638546 -36.002373 -101.74677
47962000 -35.537052 -79.151993 -0.04319464 -9.8443394 -0.045717031 -9.8633108 -35.814167 -102.03172
48961000 -35.344158 -80.557579 -0.045425881 -10.043958 -0.046875022 -10.067221 -35.581905 -102.31911
49960000 -35.145428 -82.080826 -0.04636506 -10.240545 -0.049067572 -10.266459 -35.439373 -102.45374
50959000 -34.932896 -83.388367 -0.047745679 -10.453121 -0.04998083 -10.4651 -35.271366 -102.9772
51958000 -34.734993 -84.61731 -0.048998721 -10.654016 -0.051674321 -10.660341 -35.093098 -103.40789
52957000 -34.545906 -85.715385 -0.051388536 -10.854351 -0.052748222 -10.861263 -34.927258 -103.38728
53956000 -34.393124 -86.551567 -0.052231018 -11.054163 -0.05369449 -11.055313 -34.791409 -103.5162
54955000 -34.23632 -87.033951 -0.053092532 -11.255473 -0.054282635 -11.252758 -34.636879 -103.50211
55954000 -34.073124 -87.978394 -0.054258782 -11.455981 -0.054889478 -11.45127 -34.524979 -103.16786
56953000 -33.963257 -88.067886 -0.054397706 -11.654022 -0.053271774 -11.640543 -34.439411 -103.50122
57952000 -33.81086 -88.689339 -0.054872174 -11.851933 -0.055017408 -11.840691 -34.345936 -103.61996
58951000 -33.701099 -89.052979 -0.056018189 -12.055774 -0.055102609 -12.03347 -34.192196 -103.74669
59950000 -33.578835 -89.500076 -0.056725714 -12.25341 -0.056305852 -12.234863 -34.134266 -104.04221
60949000 -33.463188 -90.127243 -0.057515986 -12.455462 -0.056923468 -12.436625 -34.039616 -104.37872
61948000 -33.406162 -90.463455 -0.057292502 -12.654756 -0.056069322 -12.639115 -33.945507 -104.45574
62947000 -33.328236 -90.661186 -0.058063988 -12.86532 -0.057386667 -12.849203 -33.817295 -104.85121
63946000 -33.250938 -91.347404 -0.058793101 -13.061172 -0.058182832 -13.048671 -33.693954 -104.90982
64945000 -33.16264 -91.585686 -0.059385877 -13.265531 -0.058687884 -13.248097 -33.594372 -105.51097
65944000 -33.059456 -91.864204 -0.060255636 -13.465941 -0.058544103 -13.449132 -33.497791 -105.95454
66943000 -32.918983 -92.314659 -0.057459064 -13.66703 -0.057808474 -13.649611 -33.393684 -106.24036
67942000 -32.862148 -92.30468 -0.060146447 -13.861604 -0.059726253 -13.850851 -33.27652 -106.53645
68941000 -32.753254 -92.408714 -0.059327617 -14.056904 -0.058459356 -14.045094 -33.165833 -106.54231
69940000 -32.647011 -92.349396 -0.059369605 -14.254321 -0.059347302 -14.244437 -33.033459 -106.8891
70939000 -32.539703 -92.344482 -0.059321057 -14.448647 -0.058905143 -14.442772 -32.887074 -106.7392
71938000 -32.407288 -91.968437 -0.058922198 -14.647142 -0.059114803 -14.637054 -32.768238 -106.68365
72937000 -32.235119 -91.802704 -0.058524951 -14.844284 -0.058318205 -14.841559 -32.626637 -106.39534
73936000 -32.100597 -91.528107 -0.058806747 -15.038808 -0.058141641 -15.040335 -32.504478 -106.16738
74935000 -31.975042 -91.83886 -0.058229268 -15.240862 -0.056856062 -15.234129 -32.342041 -105.88012
75934000 -31.848671 -92.168678 -0.058394816 -15.448809 -0.057505492 -15.441525 -32.267593 -105.81026
76933000 -31.723824 -92.540085 -0.059554357 -15.639688 -0.0579984 -15.63262 -32.084503 -106.29744
77932000 -31.633261 -93.342232 -0.060181618 -15.839045 -0.060498171 -15.830799 -31.994436 -106.27425
78931000 -31.562321 -94.166748 -0.058732491 -16.037382 -0.059355173 -16.031239 -31.888882 -106.11508
79930000 -31.456854 -95.001511 -0.062213361 -16.232811 -0.061909813 -16.227402 -31.806536 -106.45266
80929000 -31.33758 -95.898987 -0.0634958 -16.423615 -0.06349501 -16.418232 -31.697996 -106.87077
81928000 -31.255209 -96.815002 -0.062987298 -16.615458 -0.063948408 -16.612133 -31.566391 -106.92003
82927000 -31.17288 -97.563217 -0.065031655 -16.812998 -0.065418459 -16.813324 -31.472208 -107.29887
83926000 -31.05463 -98.2621 -0.065902546 -17.010687 -0.066209264 -17.013624 -31.35688 -107.55211
84925000 -30.954203 -98.688828 -0.067752384 -17.212711 -0.066283122 -17.208153 -31.272429 -107.70163
85924000 -30.862391 -99.186317 -0.068877086 -17.41186 -0.068449207 -17.409414 -31.176872 -107.72858
86923000 -30.761789 -99.749542 -0.068386883 -17.611376 -0.068274856 -17.601597 -31.074898 -107.52442
87922000 -30.654951 -100.11173 -0.06834875 -17.814112 -0.068000339 -17.808445 -30.984982 -107.64771
88921000 -30.589853 -100.41147 -0.069586448 -18.011848 -0.068649597 -18.008926 -30.895151 -107.70901
89920000 -30.497097 -101.04526 -0.069893159 -18.211271 -0.069833972 -18.204571 -30.83786 -107.89089
90919000 -30.390491 -101.34456 -0.071342595 -18.407597 -0.07042589 -18.403622 -30.751284 -108.06875
91918000 -30.298141 -101.74747 -0.07218159 -18.606552 -0.070378534 -18.606432 -30.683073 -108.1421
92917000 -30.208496 -102.09257 -0.07288307 -18.806049 -0.072140798 -18.802086 -30.623693 -108.18779
93916000 -30.122458 -102.46249 -0.07222002 -18.997932 -0.071993411 -18.992737 -30.538652 -108.85918
94915000 -30.052933 -103.11857 -0.073231086 -19.200562 -0.0723124 -19.193928 -30.478464 -108.7489
95914000 -29.99362 -103.3319 -0.074808836 -19.394314 -0.073769227 -19.39119 -30.377377 -109.0341
96913000 -29.905636 -103.56628 -0.075547092 -19.593691 -0.074890219 -19.592705 -30.316629 -109.43195
97912000 -29.835571 -104.11394 -0.077033989 -19.792959 -0.074591309 -19.791935 -30.240665 -109.63662
98911000 -29.729481 -104.28656 -0.077586301 -19.994946 -0.075778894 -19.990309 -30.19931 -109.79189
99910000 -29.67137 -104.43084 -0.077872768 -20.187901 -0.076493338 -20.189161 -30.088886 -110.134
100909000 -29.574585 -104.72099 -0.07732068 -20.3997 -0.075920872 -20.390369 -30.002535 -110.34496
101908000 -29.489618 -104.96422 -0.07908497 -20.595188 -0.077260599 -20.596098 -29.88994 -110.09211
102907000 -29.35803 -104.96484 -0.078818463 -20.793951 -0.077070616 -20.795269 -29.820017 -110.04278
103906000 -29.26083 -105.07669 -0.079721384 -21.003889 -0.076899342 -20.998426 -29.662283 -110.05016
104905000 -29.115419 -104.94841 -0.080105282 -21.20002 -0.077220544 -21.200258 -29.528446 -109.70717
105904000 -28.970425 -105.11007 -0.079848208 -21.398029 -0.077584721 -21.395664 -29.419895 -109.58663
106903000 -28.86034 -105.22603 -0.080310956 -21.606255 -0.078202471 -21.605793 -29.290398 -109.45744
107902000 -28.701811 -105.56982 -0.081037752 -21.810396 -0.078469731 -21.800169 -29.148432 -109.42677
108901000 -28.587278 -105.85097 -0.081942461 -22.008156 -0.079615131 -22.00181 -29.018915 -109.39799
109900000 -28.466551 -106.32831 -0.083336547 -22.208843 -0.080558047 -22.201448 -28.872702 -109.47923
110899000 -28.355812 -106.99255 -0.084692024 -22.404705 -0.081382729 -22.397467 -28.738426 -109.79347
111898000 -28.26255 -107.67699 -0.085916169 -22.606361 -0.082636811 -22.602564 -28.621115 -109.95309
112897000 -28.142195 -108.30214 -0.086991437 -22.806795 -0.083522849 -22.798073 -28.492704 -110.18545
113896000 -28.037262 -108.87824 -0.08825691 -23.006275 -0.085196741 -22.998159 -28.386892 -110.32195
114895000 -27.929201 -109.5155 -0.08897499 -23.203386 -0.086436599 -23.193703 -28.275274 -110.3915
115894000 -27.800821 -109.93916 -0.090547107 -23.407181 -0.087703764 -23.390976 -28.202568 -110.61863
116893000 -27.722319 -110.51251 -0.090852931 -23.601578 -0.087878101 -23.577816 -28.077274 -110.75697
117892000 -27.651031 -110.98694 -0.090561114 -23.795731 -0.087894738 -23.783733 -27.997499 -110.98322
118891000 -27.583559 -111.4163 -0.091897696 -23.999624 -0.088671155 -23.985914 -27.909986 -111.15683
119890000 -27.502625 -111.78332 -0.092080131 -24.198147 -0.089434229 -24.184401 -27.895281 -111.32085
120889000 -27.451902 -112.32003 -0.093379885 -24.399569 -0.090346761 -24.384739 -27.817425 -111.26491
121888000 -27.406797 -112.64732 -0.09388376 -24.589586 -0.090291262 -24.581627 -27.757605 -111.59048
122887000 -27.362755 -112.87106 -0.094190873 -24.798628 -0.091147937 -24.786556 -27.714573 -111.59243
123886000 -27.315147 -113.31524 -0.094975822 -25.000813 -0.091942646 -24.981249 -27.696394 -111.75488
124885000 -27.274572 -113.78952 -0.094564416 -25.199211 -0.092589408 -25.179388 -27.66478 -111.85549
125884000 -27.222733 -114.01918 -0.095782347 -25.395065 -0.092197269 -25.384447 -27.639637 -112.02602
126883000 -27.202059 -114.40313 -0.096418835 -25.599184 -0.093575872 -25.584867 -27.600912 -112.08281
127882000 -27.157829 -114.70427 -0.096955881 -25.79936 -0.094290607 -25.78125 -27.553883 -112.23691
128881000 -27.1238 -114.99892 -0.097062029 -25.9988 -0.093635648 -25.984035 -27.510525 -112.36051
129880000 -27.07164 -115.35074 -0.097891711 -26.202637 -0.093746744 -26.18132 -27.475931 -112.32993
130879000 -27.00701 -115.48161 -0.097354017 -26.40029 -0.095093034 -26.381702 -27.395569 -112.4052
131878000 -26.94784 -115.73429 -0.097688645 -26.605074 -0.095002547 -26.581949 -27.331553 -112.27768
132877000 -26.87826 -115.76244 -0.097260304 -26.802868 -0.095027678 -26.787128 -27.246243 -112.30144
133876000 -26.788219 -115.91959 -0.098075196 -27.005991 -0.0948475 -26.985207 -27.147528 -112.2218
134875000 -26.692322 -116.07412 -0.097570039 -27.203115 -0.095721483 -27.183947 -27.049145 -112.07739
135874000 -26.610565 -116.08434 -0.098250479 -27.403456 -0.095168971 -27.388088 -26.945339 -112.06129
136873000 -26.496019 -116.03007 -0.098814763 -27.605583 -0.09503562 -27.586603 -26.862192 -112.03658
137872000 -26.420574 -116.15273 -0.098277219 -27.807316 -0.095630981 -27.792381 -26.750599 -111.98045
138871000 -26.34584 -116.33443 -0.099342048 -28.00544 -0.095508464 -27.994492 -26.654385 -112.14612
139870000 -26.246471 -116.60701 -0.099965021 -28.208361 -0.097223774 -28.190845 -26.575195 -112.355
140869000 -26.158428 -117.0644 -0.10133311 -28.399929 -0.098013766 -28.381561 -26.472973 -112.49664
141868000 -26.063744 -117.58012 -0.10246972 -28.593603 -0.098994054 -28.580824 -26.398481 -112.8052
142867000 -25.986015 -117.81601 -0.10011812 -28.787994 -0.097482145 -28.776823 -26.315084 -113.03871
143866000 -25.917709 -118.33756 -0.10176715 -28.989782 -0.098708309 -28.973322 -26.246393 -113.5314
144865000 -25.863007 -118.83173 -0.10323708 -29.188742 -0.10040714 -29.171408 -26.190941 -113.85791
145864000 -25.803244 -119.18451 -0.10394651 -29.390991 -0.1015496 -29.377993 -26.157061 -114.146
146863000 -25.758675 -119.57476 -0.10477538 -29.586573 -0.10184427 -29.573978 -26.106079 -114.46815
147862000 -25.718424 -119.95268 -0.10492177 -29.787241 -0.10248005 -29.771545 -26.071112 -114.81384
148861000 -25.695375 -120.49317 -0.10565216 -29.980333 -0.10254101 -29.968828 -26.0459 -115.05869
149860000 -25.673998 -120.63733 -0.10609433 -30.179325 -0.1030942 -30.167887 -26.019741 -115.21065
150859000 -25.65501 -121.04597 -0.1066546 -30.381632 -0.1038264 -30.367256 -26.009123 -115.50174
151858000 -25.636484 -121.37727 -0.10596382 -30.579805 -0.10454203 -30.56424 -26.004129 -115.77988
152857000 -25.619932 -121.6808 -0.10730754 -30.775036 -0.10407112 -30.767462 -25.981438 -115.93829
153856000 -25.615576 -121.90102 -0.10657262 -30.976257 -0.10400431 -30.959833 -26.005766 -116.20866
154855000 -25.609409 -122.08037 -0.10632484 -31.174971 -0.10433892 -31.162243 -25.991791 -116.45108
155854000 -25.620485 -122.33672 -0.10745454 -31.375916 -0.1050952 -31.361076 -25.980305 -116.68784
156853000 -25.607046 -123.0061 -0.1051928 -31.560675 -0.10385583 -31.550587 -25.977201 -117.01083
157852000 -25.609179 -123.28453 -0.10670951 -31.761805 -0.10543414 -31.750401 -25.96644 -117.34149
158851000 -25.602444 -123.5154 -0.10736697 -31.966152 -0.10561343 -31.950291 -25.948854 -117.61588
159850000 -25.588161 -123.60535 -0.10761799 -32.157623 -0.10589565 -32.149559 -25.952093 -117.76775
160849000 -25.57143 -123.73214 -0.10802453 -32.354427 -0.10671481 -32.352467 -25.91748 -118.07037
161848000 -25.547953 -123.83582 -0.1083369 -32.556393 -0.10675807 -32.55138 -25.880116 -118.16342
162847000 -25.504107 -124.04547 -0.10846853 -32.756348 -0.10660074 -32.754078 -25.847908 -118.40331
163846000 -25.457552 -124.26942 -0.10824639 -32.954102 -0.10742588 -32.950867 -25.767071 -118.40219
164845000 -25.403027 -124.2419 -0.1090822 -33.155182 -0.10753626 -33.145374 -25.700151 -118.50456
165844000 -25.34775 -124.34593 -0.10887489 -33.355194 -0.10784514 -33.348877 -25.619751 -118.63612
166843000 -25.283094 -124.41877 -0.10901345 -33.553291 -0.10782523 -33.546162 -25.553164 -118.79642
167842000 -25.224848 -124.53222 -0.10875014 -33.749676 -0.1086745 -33.745419 -25.468662 -118.75341
168841000 -25.14905 -124.7657 -0.10972701 -33.948734 -0.10820314 -33.946812 -25.389683 -118.81496
169840000 -25.083698 -125.03214 -0.10968559 -34.144569 -0.10886905 -34.142609 -25.303856 -119.0112
170839000 -25.020344 -125.25924 -0.11106153 -34.338348 -0.10893328 -34.338665 -25.215479 -119.25586
171838000 -24.960705 -125.70152 -0.11007109 -34.542934 -0.11040165 -34.534203 -25.152542 -119.48232
172837000 -24.897285 -126.06252 -0.11205433 -34.735592 -0.11190239 -34.732082 -25.084455 -119.68991
173836000 -24.826563 -126.52229 -0.1130346 -34.936974 -0.11198048 -34.930656 -25.041306 -119.9194
174835000 -24.778912 -126.96056 -0.11341587 -35.130802 -0.1129533 -35.13142 -24.998352 -120.3224
175834000 -24.725361 -127.3518 -0.11379532 -35.331398 -0.11368292 -35.328659 -24.933029 -120.54602
176833000 -24.671684 -127.69055 -0.11494397 -35.526443 -0.11414158 -35.526211 -24.879154 -120.75884
177832000 -24.62875 -128.20979 -0.11553755 -35.723751 -0.11464389 -35.72533 -24.855955 -120.9183
178831000 -24.588923 -128.58855 -0.11612774 -35.921219 -0.11558779 -35.914677 -24.819889 -121.15858
179830000 -24.551125 -129.02156 -0.11672015 -36.11401 -0.11586666 -36.119286 -24.795532 -121.29853
180829000 -24.513273 -129.2294 -0.11671802 -36.312141 -0.11617295 -36.311829 -24.765551 -121.43683
181828000 -24.489334 -129.58276 -0.11699884 -36.51125 -0.11612349 -36.509426 -24.746729 -121.57065
182827000 -24.462265 -129.95396 -0.11743817 -36.709602 -0.11631067 -36.71064 -24.73704 -121.68422
183826000 -24.425671 -130.28763 -0.11852367 -36.906639 -0.11662416 -36.901943 -24.727821 -121.79112
184825000 -24.433367 -130.59851 -0.11797491 -37.099052 -0.11695629 -37.101822 -24.708866 -121.9023
185824000 -24.405706 -130.95874 -0.11799937 -37.291641 -0.1172334 -37.299763 -24.707705 -121.96121
186823000 -24.38957 -131.30835 -0.11858565 -37.496185 -0.11743897 -37.49551 -24.701012 -121.92198
187822000 -24.368176 -131.6432 -0.11859683 -37.6884 -0.11809088 -37.687649 -24.669205 -121.99904
188821000 -24.348833 -131.86166 -0.11872718 -37.885506 -0.11840476 -37.890221 -24.654333 -122.11249
189820000 -24.32942 -132.13928 -0.11910763 -38.089172 -0.1184303 -38.086262 -24.644659 -122.2895
190819000 -24.300919 -132.39539 -0.12033273 -38.285622 -0.11966585 -38.289474 -24.610966 -122.21603
191818000 -24.265842 -132.58368 -0.12191784 -38.480659 -0.12118284 -38.482063 -24.577003 -122.10136
192817000 -24.194553 -132.84036 -0.12214494 -38.666428 -0.12114291 -38.666748 -24.500967 -122.19338
193816000 -24.160799 -133.20096 -0.12128479 -38.859554 -0.11991758 -38.856598 -24.446865 -122.46542
194815000 -24.101931 -133.63705 -0.12123288 -39.053413 -0.12097522 -39.056824 -24.384684 -122.54344
195814000 -24.051361 -133.85573 -0.12120999 -39.256081 -0.12069761 -39.255299 -24.32992 -122.67722
196813000 -23.99507 -134.18375 -0.12078518 -39.444984 -0.12036626 -39.448112 -24.250769 -122.85396
197812000 -23.938148 -134.4366 -0.12123448 -39.646976 -0.12041949 -39.644783 -24.185011 -122.9333
198811000 -23.892162 -134.60477 -0.12159571 -39.846466 -0.11959188 -39.845448 -24.110872 -123.12666
199810000 -23.814936 -134.97954 -0.12164922 -40.040718 -0.12004372 -40.033546 -24.030689 -123.21641
200809000 -23.756275 -135.29512 -0.12204216 -40.236019 -0.12018184 -40.234772 -23.951962 -123.42538
201808000 -23.699408 -135.50229 -0.12287557 -40.434063 -0.12115835 -40.439011 -23.88678 -123.50076
202807000 -23.639261 -135.87082 -0.12358821 -40.635963 -0.12212417 -40.637241 -23.828876 -123.72474
203806000 -23.59244 -136.32024 -0.12509112 -40.834583 -0.12254032 -40.836029 -23.766861 -123.89461
