!Keysight Technologies,E5080B,MY59205177,A.15.75.32
!Date: Friday, February 23, 2024 03:32:55
!Correction: S11(Cdelta 2-Port  ) 
!S21(Cdelta 2-Port  ) 
!S12(Cdelta 2-Port  ) 
!S22(Cdelta 2-Port  ) 
!S2P File: Measurements: S11, S21, S12, S22:
# Hz S  dB   R 50
10000000 -46.074146 -2.0767107 -0.014995196 -2.0420601 -0.018550098 -2.1009355 -45.956364 -158.29068
10999000 -45.271378 -4.4225521 -0.016046552 -2.2657075 -0.018646287 -2.3193305 -45.916821 -151.70984
11998000 -44.304604 -7.3877139 -0.016736163 -2.4893942 -0.018759897 -2.5331581 -46.075893 -146.98215
12997000 -43.589031 -12.896528 -0.015765697 -2.6701503 -0.018173421 -2.703898 -45.68235 -141.30217
13996000 -43.265224 -16.874561 -0.014971558 -2.8515222 -0.017959751 -2.8743427 -45.515514 -136.58508
14995000 -42.857822 -21.339663 -0.017358569 -3.0601401 -0.018415438 -3.0848105 -45.192932 -132.89374
15994000 -42.7243 -25.81081 -0.018700102 -3.2806985 -0.020539308 -3.2996354 -45.068272 -129.83745
16993000 -42.69632 -30.178232 -0.017943896 -3.4763336 -0.019815806 -3.4851782 -44.266911 -129.17418
17992000 -42.752949 -35.816021 -0.018738579 -3.6773312 -0.020621235 -3.6743546 -43.698261 -129.30745
18991000 -42.962055 -41.012283 -0.019173546 -3.8880322 -0.020857144 -3.8861673 -43.044495 -128.13513
19990000 -42.748352 -46.431587 -0.022061862 -4.09794 -0.023580266 -4.0899339 -42.384861 -128.97159
20989000 -42.610325 -50.004505 -0.023776514 -4.3039627 -0.024539985 -4.2910576 -41.856556 -128.44098
21988000 -42.466423 -55.182293 -0.024729246 -4.4973059 -0.025757181 -4.4845648 -41.566849 -127.87229
22987000 -42.111046 -60.015575 -0.025514496 -4.6978369 -0.026951278 -4.6880226 -41.327736 -127.07507
23986000 -42.049618 -64.097183 -0.025161428 -4.8901863 -0.025912382 -4.8916383 -41.165295 -126.94792
24985000 -41.6716 -66.689247 -0.026523866 -5.0999408 -0.026765304 -5.1001682 -40.988564 -124.47844
25984000 -41.256081 -68.984505 -0.027122149 -5.3024421 -0.02715523 -5.3097405 -40.657516 -123.0709
26983000 -40.942059 -70.769791 -0.027478503 -5.5052581 -0.027675446 -5.5250196 -40.556515 -122.28094
27982000 -40.841801 -71.696823 -0.030053033 -5.7064886 -0.028513342 -5.7393594 -40.316086 -120.75335
28981000 -40.787739 -73.263153 -0.027319338 -5.902576 -0.028921667 -5.9275641 -40.069153 -119.88891
29980000 -40.370205 -74.566238 -0.027331321 -6.0985947 -0.028766619 -6.1063604 -39.790596 -119.22834
30979000 -40.018112 -73.491119 -0.024620425 -6.4503927 -0.024680302 -6.4435267 -39.287704 -119.67798
31978000 -39.783585 -74.623131 -0.023932684 -6.6486173 -0.025546262 -6.6402512 -39.046471 -118.75517
32977000 -39.586082 -76.034317 -0.024477245 -6.8608322 -0.025672812 -6.8549447 -38.780041 -118.75336
33976000 -39.399677 -77.241028 -0.025046088 -7.0577931 -0.026348328 -7.0568562 -38.509235 -118.17472
34975000 -39.113831 -78.059639 -0.025068218 -7.2596116 -0.027894285 -7.2614074 -38.279026 -117.9199
35974000 -38.915306 -78.535187 -0.024666766 -7.4552183 -0.027181018 -7.4596705 -38.006866 -116.73755
36973000 -38.670837 -79.157501 -0.024456941 -7.6566772 -0.027497258 -7.6598344 -37.753582 -115.98014
37972000 -38.505981 -78.810135 -0.024459023 -7.8676472 -0.027496478 -7.8778577 -37.520042 -115.11201
38971000 -38.197319 -78.441109 -0.025921496 -8.0658913 -0.028207451 -8.0778828 -37.356346 -113.68006
39970000 -37.857014 -78.760681 -0.023359824 -8.2676334 -0.026117589 -8.2796803 -37.089809 -113.10958
40969000 -37.565659 -78.407219 -0.023907958 -8.4587336 -0.026189726 -8.4742832 -36.855278 -111.69407
41968000 -37.214249 -78.470184 -0.024519939 -8.66154 -0.026600437 -8.6795855 -36.657524 -110.48104
42967000 -36.96225 -78.417198 -0.024272116 -8.8789635 -0.026423074 -8.8916264 -36.463619 -108.59274
43966000 -36.66217 -79.043945 -0.02559834 -9.0753164 -0.028791895 -9.0905685 -36.209682 -107.73567
44965000 -36.424416 -79.830116 -0.025695207 -9.2800198 -0.027834885 -9.2982721 -35.97739 -107.59041
45964000 -36.191399 -80.777771 -0.027548058 -9.4745436 -0.029775701 -9.494648 -35.761662 -107.28563
46963000 -35.997341 -82.75563 -0.026807239 -9.6736231 -0.030358013 -9.6969318 -35.553421 -107.4818
47962000 -35.838081 -84.275642 -0.029396487 -9.8756218 -0.031485319 -9.8973827 -35.372787 -107.52945
48961000 -35.609806 -85.740746 -0.030566297 -10.077862 -0.032654911 -10.095402 -35.155582 -107.62317
49960000 -35.396515 -86.998756 -0.031870976 -10.272736 -0.034131102 -10.296277 -35.02029 -107.68457
50959000 -35.163414 -88.333519 -0.032592315 -10.487959 -0.034981728 -10.497211 -34.836815 -108.01241
51958000 -34.961872 -89.291183 -0.034956153 -10.684846 -0.036751613 -10.696203 -34.647137 -108.43584
52957000 -34.731503 -90.368362 -0.0365104 -10.883962 -0.03746175 -10.889997 -34.487122 -108.15109
53956000 -34.582249 -91.112991 -0.037328329 -11.083315 -0.038272288 -11.090283 -34.349766 -108.17795
54955000 -34.416737 -91.525604 -0.03814093 -11.291967 -0.039438486 -11.284543 -34.208836 -108.06886
55954000 -34.243271 -92.275871 -0.038974319 -11.486294 -0.039922815 -11.485622 -34.10973 -107.76475
56953000 -34.134853 -92.37188 -0.039472703 -11.688692 -0.038872976 -11.675242 -34.017529 -108.03757
57952000 -33.956036 -92.961411 -0.03987344 -11.884698 -0.041028567 -11.876295 -33.925285 -108.11242
58951000 -33.834129 -93.281166 -0.041184314 -12.090216 -0.040881708 -12.06822 -33.771626 -108.1903
59950000 -33.712208 -93.594002 -0.042400435 -12.287222 -0.041612912 -12.270427 -33.702816 -108.43666
60949000 -33.59436 -94.247887 -0.04245716 -12.493944 -0.042275488 -12.466778 -33.608719 -108.66423
61948000 -33.523712 -94.576508 -0.043215815 -12.694657 -0.042583417 -12.676664 -33.515526 -108.7679
62947000 -33.443043 -94.78643 -0.043002479 -12.902354 -0.043054245 -12.888234 -33.378986 -109.05132
63946000 -33.36911 -95.521667 -0.043984544 -13.102498 -0.043880209 -13.08313 -33.285027 -109.14207
64945000 -33.25383 -95.6772 -0.044345681 -13.303131 -0.044549409 -13.286626 -33.158516 -109.64711
65944000 -33.150818 -95.975365 -0.045269456 -13.505047 -0.044421785 -13.489143 -33.062569 -110.0759
66943000 -33.007187 -96.32338 -0.043519631 -13.708168 -0.043084309 -13.690997 -32.95826 -110.30635
67942000 -32.953388 -96.221146 -0.04531968 -13.904941 -0.044806238 -13.890153 -32.833244 -110.65128
68941000 -32.839745 -96.437286 -0.044607207 -14.097286 -0.04390505 -14.087696 -32.731888 -110.59158
69940000 -32.738789 -96.309975 -0.044935703 -14.294514 -0.044601452 -14.28816 -32.593983 -110.84751
70939000 -32.631271 -96.310371 -0.044813558 -14.493176 -0.04427978 -14.4868 -32.458214 -110.77619
71938000 -32.49263 -95.873444 -0.045183137 -14.691319 -0.044086266 -14.684639 -32.33569 -110.66213
72937000 -32.335526 -95.669441 -0.044747911 -14.890208 -0.044308547 -14.879036 -32.188339 -110.32082
73936000 -32.201488 -95.252197 -0.044649314 -15.091298 -0.043852229 -15.081171 -32.08234 -110.08828
74935000 -32.077019 -95.502289 -0.044090971 -15.281884 -0.0422666 -15.279191 -31.922789 -109.83244
75934000 -31.949493 -95.82428 -0.044278212 -15.492989 -0.042981043 -15.489894 -31.838627 -109.69304
76933000 -31.822674 -96.06855 -0.045606114 -15.686588 -0.044621851 -15.678532 -31.659214 -110.03333
77932000 -31.712244 -96.902267 -0.045644566 -15.883423 -0.045632794 -15.874632 -31.5536 -109.98726
78931000 -31.636425 -97.619774 -0.044627607 -16.085737 -0.044928379 -16.080719 -31.450848 -109.86719
79930000 -31.529608 -98.499084 -0.047021035 -16.275963 -0.047584463 -16.277241 -31.36581 -110.13245
80929000 -31.408316 -99.262161 -0.049618438 -16.471605 -0.048929345 -16.472589 -31.258423 -110.39097
81928000 -31.306631 -99.998352 -0.049247172 -16.664078 -0.049380176 -16.659708 -31.122868 -110.41531
82927000 -31.215214 -100.75496 -0.050341945 -16.865969 -0.050404273 -16.864817 -31.021965 -110.73496
83926000 -31.100805 -101.40458 -0.051911402 -17.062315 -0.05205968 -17.064981 -30.88936 -110.92468
84925000 -30.98805 -101.87672 -0.053120572 -17.265211 -0.052544896 -17.259249 -30.80735 -110.924
85924000 -30.892 -102.25193 -0.054125894 -17.462543 -0.053012874 -17.463274 -30.71521 -110.88853
86923000 -30.797235 -102.75971 -0.053386033 -17.663862 -0.053511299 -17.658367 -30.613424 -110.75454
87922000 -30.674297 -103.07271 -0.053668018 -17.871719 -0.053173244 -17.858932 -30.524324 -110.77704
88921000 -30.604671 -103.35511 -0.055178903 -18.067705 -0.054513305 -18.057745 -30.433348 -110.76152
89920000 -30.503012 -103.89104 -0.054888166 -18.263433 -0.054877155 -18.258093 -30.379522 -110.8942
90919000 -30.401443 -104.1598 -0.056815673 -18.463381 -0.055743389 -18.45929 -30.294378 -111.08036
91918000 -30.300955 -104.51841 -0.057353355 -18.659798 -0.056251831 -18.659609 -30.226099 -111.08853
92917000 -30.211735 -104.78143 -0.058529411 -18.860737 -0.057853069 -18.858135 -30.155416 -111.23479
93916000 -30.117821 -105.14846 -0.058008369 -19.056259 -0.057417359 -19.053516 -30.08041 -111.76719
94915000 -30.052492 -105.76385 -0.058875494 -19.258224 -0.058088124 -19.249523 -30.011635 -111.68239
95914000 -29.975025 -106.00285 -0.06034724 -19.450706 -0.05936252 -19.449999 -29.915504 -111.88897
96913000 -29.885826 -106.18283 -0.061653808 -19.652485 -0.060752269 -19.649424 -29.856882 -112.28806
97912000 -29.81225 -106.66908 -0.062294766 -19.847155 -0.060505256 -19.850965 -29.772808 -112.50838
98911000 -29.711523 -106.78544 -0.063255459 -20.052753 -0.061174925 -20.047277 -29.738552 -112.72871
99910000 -29.632572 -106.95125 -0.063712776 -20.246826 -0.062121194 -20.249725 -29.624588 -113.00301
100909000 -29.550018 -107.19793 -0.062881194 -20.454302 -0.061559025 -20.450878 -29.53974 -113.19483
101908000 -29.453564 -107.43899 -0.06400042 -20.65959 -0.06289117 -20.655792 -29.428391 -112.99001
102907000 -29.323809 -107.43365 -0.064307794 -20.861149 -0.062992021 -20.854513 -29.35828 -112.95662
103906000 -29.223164 -107.4649 -0.065565884 -21.067209 -0.062542409 -21.06337 -29.213192 -112.90223
104905000 -29.081772 -107.33976 -0.065940656 -21.264315 -0.062673189 -21.260733 -29.086922 -112.62449
105904000 -28.938835 -107.42148 -0.065853663 -21.466263 -0.062432896 -21.459509 -28.975025 -112.48683
106903000 -28.832943 -107.49625 -0.066139087 -21.671164 -0.062547393 -21.666807 -28.849709 -112.39342
107902000 -28.670208 -107.85339 -0.066870607 -21.872669 -0.063370243 -21.865244 -28.713274 -112.34435
108901000 -28.551563 -108.08127 -0.067565709 -22.071259 -0.065020621 -22.066357 -28.586401 -112.28147
109900000 -28.431812 -108.57735 -0.068130232 -22.275677 -0.066320971 -22.268007 -28.439016 -112.33771
110899000 -28.312489 -109.14745 -0.069885008 -22.470472 -0.067137964 -22.464052 -28.312992 -112.6366
111898000 -28.224194 -109.79597 -0.071258388 -22.672722 -0.0679041 -22.66806 -28.197109 -112.76399
112897000 -28.098509 -110.36182 -0.072693281 -22.873581 -0.068851046 -22.861895 -28.065952 -112.95082
113896000 -27.998758 -110.92686 -0.073554389 -23.072462 -0.070784234 -23.060755 -27.956036 -113.07378
114895000 -27.898598 -111.56818 -0.074502304 -23.272665 -0.072185539 -23.258587 -27.842852 -113.09712
115894000 -27.774014 -111.92424 -0.075468861 -23.473459 -0.072555088 -23.460699 -27.777153 -113.31639
116893000 -27.693825 -112.38593 -0.076262288 -23.668629 -0.073919043 -23.652855 -27.652752 -113.39412
117892000 -27.614502 -112.87371 -0.076498076 -23.866693 -0.074645564 -23.854729 -27.575394 -113.54644
118891000 -27.55724 -113.27667 -0.077299066 -24.064623 -0.074021474 -24.055147 -27.480583 -113.67134
119890000 -27.468571 -113.66171 -0.07766062 -24.269827 -0.075129621 -24.254232 -27.469994 -113.84042
120889000 -27.410482 -114.15399 -0.078895435 -24.468729 -0.07544779 -24.456972 -27.397816 -113.76387
121888000 -27.378687 -114.50414 -0.078716978 -24.667021 -0.076289423 -24.654676 -27.336472 -114.03685
122887000 -27.331041 -114.67765 -0.080153272 -24.868044 -0.076473311 -24.855255 -27.289759 -114.02612
123886000 -27.281912 -115.1207 -0.08040747 -25.070162 -0.07696785 -25.053011 -27.278921 -114.18008
124885000 -27.247591 -115.62147 -0.080162764 -25.270636 -0.078131571 -25.255692 -27.246336 -114.22544
125884000 -27.19544 -115.84589 -0.081201538 -25.468615 -0.078177698 -25.455006 -27.22196 -114.41584
126883000 -27.179653 -116.1811 -0.082051933 -25.675201 -0.078235678 -25.657263 -27.17782 -114.41339
127882000 -27.13184 -116.49473 -0.082567155 -25.872246 -0.078697473 -25.856106 -27.140387 -114.52762
128881000 -27.098795 -116.82711 -0.082403585 -26.077059 -0.07887619 -26.056332 -27.101831 -114.61323
129880000 -27.043118 -117.13316 -0.08343102 -26.275908 -0.079210982 -26.255781 -27.059837 -114.54611
130879000 -26.987005 -117.30006 -0.083569296 -26.476879 -0.080188081 -26.460939 -26.990194 -114.55627
131878000 -26.917233 -117.51618 -0.083281398 -26.678165 -0.08038453 -26.660999 -26.924742 -114.4594
132877000 -26.851603 -117.58225 -0.083038382 -26.878862 -0.080796175 -26.865191 -26.846426 -114.43645
133876000 -26.769213 -117.74398 -0.083261348 -27.082664 -0.080233172 -27.065466 -26.75754 -114.32117
134875000 -26.674236 -117.91232 -0.083752967 -27.284706 -0.081247956 -27.266747 -26.662025 -114.17515
135874000 -26.589785 -117.90542 -0.083306208 -27.480007 -0.081187032 -27.464375 -26.559334 -114.11002
136873000 -26.477184 -117.83755 -0.083534464 -27.68758 -0.080845229 -27.667795 -26.486975 -114.09977
137872000 -26.400175 -117.95724 -0.084349155 -27.89035 -0.080880836 -27.870928 -26.381845 -114.01517
138871000 -26.325068 -118.19619 -0.084235139 -28.085579 -0.081362158 -28.06871 -26.281462 -114.15903
139870000 -26.225878 -118.42937 -0.084967606 -28.289495 -0.082557924 -28.270977 -26.200171 -114.3286
140869000 -26.145576 -119.01971 -0.085788108 -28.483473 -0.083162397 -28.466339 -26.10128 -114.57665
141868000 -26.067854 -119.40586 -0.086370587 -28.680979 -0.084542625 -28.669668 -26.052589 -114.81892
142867000 -25.984398 -119.5919 -0.085371241 -28.88113 -0.083851397 -28.865944 -25.974215 -114.90866
143866000 -25.912601 -120.10532 -0.087033689 -29.077358 -0.085236862 -29.06123 -25.900383 -115.38624
144865000 -25.852806 -120.60635 -0.088702597 -29.277607 -0.086870216 -29.26161 -25.841206 -115.70232
145864000 -25.802433 -120.92039 -0.089571111 -29.477257 -0.087638788 -29.46707 -25.809582 -115.92894
146863000 -25.753977 -121.2562 -0.090241835 -29.677513 -0.088085726 -29.663631 -25.761339 -116.21973
147862000 -25.717636 -121.62621 -0.091126524 -29.875835 -0.088633634 -29.862509 -25.728342 -116.54191
148861000 -25.682915 -122.03941 -0.092207052 -30.072203 -0.089751862 -30.063526 -25.702177 -116.70627
149860000 -25.648663 -122.20278 -0.092805989 -30.267744 -0.090647817 -30.257387 -25.655823 -116.76678
150859000 -25.624996 -122.69897 -0.09300407 -30.460011 -0.090529136 -30.451115 -25.636623 -117.17329
151858000 -25.615791 -123.04161 -0.092166327 -30.666304 -0.089949012 -30.65304 -25.622608 -117.49448
152857000 -25.600195 -123.34905 -0.092477821 -30.864084 -0.091109872 -30.850216 -25.610788 -117.6718
153856000 -25.59944 -123.56335 -0.092351161 -31.062263 -0.08971592 -31.051714 -25.623615 -117.9846
154855000 -25.595911 -123.76419 -0.092957519 -31.264427 -0.090255581 -31.251667 -25.614559 -118.20564
155854000 -25.61158 -123.99825 -0.092782453 -31.465115 -0.090699352 -31.450171 -25.60417 -118.47964
156853000 -25.597324 -124.70377 -0.091302581 -31.650974 -0.089829028 -31.641842 -25.606102 -118.78673
157852000 -25.605513 -124.89878 -0.092532292 -31.8531 -0.091365762 -31.845734 -25.592348 -119.1641
158851000 -25.608639 -125.11115 -0.092760772 -32.050983 -0.091427892 -32.041195 -25.577991 -119.39967
159850000 -25.590786 -125.25309 -0.093116201 -32.250889 -0.091422342 -32.242069 -25.577639 -119.6012
160849000 -25.573915 -125.30077 -0.093672149 -32.450535 -0.092441857 -32.443752 -25.547388 -119.93044
161848000 -25.560995 -125.40166 -0.093962058 -32.652729 -0.092304617 -32.644272 -25.507385 -120.01162
162847000 -25.520388 -125.57908 -0.09398216 -32.850338 -0.093003541 -32.845215 -25.481356 -120.23553
163846000 -25.47978 -125.77892 -0.094578438 -33.051716 -0.092641771 -33.043102 -25.409309 -120.25887
164845000 -25.426563 -125.72664 -0.094568647 -33.253571 -0.093113028 -33.244888 -25.345108 -120.34535
165844000 -25.372669 -125.77064 -0.094887979 -33.449341 -0.09350922 -33.445976 -25.262938 -120.52464
166843000 -25.310732 -125.84132 -0.095335141 -33.647522 -0.093762875 -33.645393 -25.196714 -120.6412
167842000 -25.254383 -125.93948 -0.095621191 -33.850029 -0.094402507 -33.844563 -25.12108 -120.56525
168841000 -25.172119 -126.11051 -0.095750853 -34.04615 -0.094324999 -34.044159 -25.043352 -120.64241
169840000 -25.113134 -126.34306 -0.095994055 -34.243771 -0.094840623 -34.240536 -24.958185 -120.81953
170839000 -25.048594 -126.57822 -0.096641429 -34.439594 -0.09550079 -34.438465 -24.878826 -120.99992
171838000 -24.990986 -126.97962 -0.096567847 -34.643909 -0.096517026 -34.640388 -24.814108 -121.22585
172837000 -24.921963 -127.30648 -0.098203614 -34.840691 -0.097306632 -34.834053 -24.751074 -121.43292
173836000 -24.858835 -127.70821 -0.099383898 -35.041328 -0.09837281 -35.037903 -24.709703 -121.64772
174835000 -24.799028 -128.13542 -0.09954413 -35.235554 -0.098540686 -35.237553 -24.660482 -121.97075
175834000 -24.750782 -128.50336 -0.10080426 -35.433872 -0.099501491 -35.43335 -24.601879 -122.22905
176833000 -24.696629 -128.82204 -0.10115399 -35.635574 -0.1004074 -35.63483 -24.551794 -122.36835
177832000 -24.654049 -129.22961 -0.10248695 -35.831814 -0.10157266 -35.832951 -24.536188 -122.44561
178831000 -24.609612 -129.48824 -0.10422543 -36.028793 -0.10332827 -36.027737 -24.492329 -122.56122
179830000 -24.540483 -129.86667 -0.10582987 -36.216633 -0.1038447 -36.216995 -24.427025 -122.62908
180829000 -24.489418 -130.22389 -0.10472606 -36.405785 -0.10286783 -36.407116 -24.387741 -122.95141
181828000 -24.471163 -130.67606 -0.10353637 -36.60677 -0.10298897 -36.604408 -24.367571 -123.13
182827000 -24.442686 -131.05403 -0.10308598 -36.804081 -0.10279652 -36.80476 -24.35758 -123.26353
183826000 -24.400583 -131.35556 -0.10484592 -37.004967 -0.1028771 -37.003922 -24.344866 -123.44033
184825000 -24.404181 -131.68164 -0.1044707 -37.204681 -0.10305735 -37.200359 -24.327309 -123.55121
185824000 -24.373007 -132.08626 -0.1045659 -37.398037 -0.1036289 -37.398678 -24.318703 -123.61024
186823000 -24.361107 -132.43979 -0.10467011 -37.597702 -0.10335054 -37.594589 -24.313946 -123.60408
187822000 -24.335737 -132.78442 -0.10460196 -37.793533 -0.10421377 -37.790443 -24.2763 -123.72593
188821000 -24.311377 -133.02005 -0.10444127 -37.986683 -0.10447415 -37.992683 -24.256493 -123.83479
189820000 -24.296047 -133.33644 -0.10537738 -38.188358 -0.1043246 -38.185081 -24.240694 -124.02931
190819000 -24.256149 -133.65005 -0.10600282 -38.384445 -0.10464386 -38.385788 -24.200294 -124.03761
191818000 -24.226414 -133.93022 -0.10589989 -38.584579 -0.10503209 -38.584793 -24.172581 -124.12298
192817000 -24.176432 -134.19952 -0.10685835 -38.781273 -0.10540656 -38.779633 -24.127798 -124.1902
193816000 -24.144894 -134.45857 -0.10655219 -38.977261 -0.10545244 -38.976921 -24.07457 -124.34707
194815000 -24.084032 -134.83774 -0.1066798 -39.172512 -0.10625004 -39.176064 -24.011333 -124.39787
195814000 -24.030729 -135.01468 -0.1083905 -39.369827 -0.10632007 -39.373516 -23.954342 -124.48673
196813000 -23.976168 -135.35635 -0.10737228 -39.565773 -0.10630548 -39.562344 -23.875166 -124.62612
197812000 -23.918505 -135.59392 -0.10719211 -39.75985 -0.10723776 -39.761414 -23.803516 -124.73809
198811000 -23.864588 -135.73723 -0.10740492 -39.959911 -0.10677 -39.959061 -23.73517 -124.92016
199810000 -23.795996 -136.05974 -0.10857762 -40.15115 -0.10711279 -40.153103 -23.652639 -124.96466
200809000 -23.734758 -136.31721 -0.10763099 -40.35117 -0.10706105 -40.349392 -23.577816 -125.18329
201808000 -23.678497 -136.52657 -0.10898054 -40.553551 -0.10788441 -40.556763 -23.511597 -125.23763
202807000 -23.619701 -136.85405 -0.10948728 -40.748798 -0.10872412 -40.755753 -23.454988 -125.44527
