!Keysight Technologies,E5080B,MY59205177,A.15.75.32
!Date: Friday, February 23, 2024 02:54:41
!Correction: S11(Cdelta 2-Port  ) 
!S21(Cdelta 2-Port  ) 
!S12(Cdelta 2-Port  ) 
!S22(Cdelta 2-Port  ) 
!S2P File: Measurements: S11, S21, S12, S22:
# Hz S  dB   R 50
10000000 -43.709621 -3.6676702 -0.030577507 -2.0444372 -0.03369594 -2.0966773 -48.720367 -147.87048
10999000 -43.037296 -5.1371937 -0.03137685 -2.258996 -0.033711072 -2.3112795 -48.383354 -139.89957
11998000 -42.343105 -7.5379062 -0.031885318 -2.4781773 -0.032565974 -2.5270088 -48.513981 -133.81509
12997000 -41.718121 -12.161021 -0.031435777 -2.6627181 -0.032407928 -2.6945803 -47.762611 -127.59689
13996000 -41.519783 -15.366029 -0.029977443 -2.841799 -0.03270629 -2.860451 -47.31321 -121.39072
14995000 -41.208015 -19.1147 -0.032649953 -3.0502183 -0.033207349 -3.0769453 -46.857773 -117.72836
15994000 -41.076992 -22.655481 -0.033790901 -3.2691553 -0.03555508 -3.2918763 -46.552357 -114.62289
16993000 -41.081829 -26.374889 -0.032324471 -3.4671712 -0.034110233 -3.4724164 -45.646297 -115.9184
17992000 -41.185608 -30.966351 -0.032953814 -3.6627846 -0.035373174 -3.6652961 -44.987926 -116.82618
18991000 -41.435741 -34.960873 -0.034502644 -3.8761368 -0.03560232 -3.8717697 -44.280514 -116.37771
19990000 -41.315418 -39.976639 -0.036372308 -4.084908 -0.038079564 -4.0773301 -43.569912 -118.34518
20989000 -41.277065 -42.630856 -0.038427155 -4.2902317 -0.039645638 -4.277051 -42.992004 -118.31423
21988000 -41.192677 -47.105549 -0.038766675 -4.4814677 -0.040654115 -4.4715667 -42.72887 -117.7412
22987000 -41.009922 -51.545193 -0.04051511 -4.6860137 -0.041324127 -4.6738105 -42.439896 -117.74357
23986000 -41.014378 -55.314716 -0.039955471 -4.8782907 -0.04068312 -4.8742666 -42.341785 -117.74414
24985000 -40.742199 -57.949833 -0.041245464 -5.0872421 -0.040384728 -5.0813265 -42.019501 -115.09067
25984000 -40.512409 -60.200291 -0.042175114 -5.2905645 -0.040968988 -5.2945046 -41.648785 -113.91973
26983000 -40.251591 -62.055733 -0.042586558 -5.4898224 -0.041970715 -5.5031199 -41.555328 -113.12809
27982000 -40.103645 -62.997753 -0.044105876 -5.6914763 -0.043197777 -5.7224307 -41.19281 -111.79681
28981000 -40.118977 -64.246437 -0.04268511 -5.8848481 -0.043509956 -5.9119921 -40.906879 -111.13418
29980000 -39.713062 -66.036224 -0.042335346 -6.0810313 -0.044329468 -6.0850577 -40.579037 -110.40121
30979000 -39.387035 -65.351212 -0.040109351 -6.4271216 -0.039185107 -6.4261985 -40.090828 -111.41877
31978000 -39.203655 -66.604141 -0.039155331 -6.6281676 -0.040496036 -6.6165743 -39.826199 -110.84834
32977000 -39.046837 -67.888847 -0.039017677 -6.8364968 -0.041292768 -6.8324919 -39.587067 -111.02572
33976000 -38.881092 -69.307205 -0.039607499 -7.0366549 -0.041174907 -7.032681 -39.257401 -110.67755
34975000 -38.640961 -70.200012 -0.03964198 -7.2385244 -0.042178512 -7.2382045 -39.012508 -110.58077
35974000 -38.450352 -70.849434 -0.039179884 -7.4318104 -0.041075341 -7.4380708 -38.690132 -109.80162
36973000 -38.21302 -71.808922 -0.039661311 -7.633091 -0.042687986 -7.6352859 -38.396664 -108.93141
37972000 -38.065018 -71.792084 -0.038625117 -7.8421159 -0.041975159 -7.8508167 -38.152012 -108.3062
38971000 -37.741623 -71.718346 -0.040070161 -8.0448551 -0.042368282 -8.0589352 -37.953491 -106.81351
39970000 -37.422558 -72.28463 -0.038114555 -8.2387686 -0.041529279 -8.2533674 -37.678089 -106.47781
40969000 -37.152523 -72.15126 -0.038612321 -8.4312429 -0.041265327 -8.4542179 -37.402096 -105.02984
41968000 -36.800896 -72.364525 -0.038695112 -8.6399021 -0.042698964 -8.6528101 -37.160679 -103.93312
42967000 -36.536041 -72.658478 -0.038788877 -8.8455601 -0.042256147 -8.8678226 -36.940662 -102.16905
43966000 -36.261749 -73.693893 -0.03944815 -9.0443087 -0.043318827 -9.0648832 -36.632504 -101.5397
44965000 -36.058708 -74.510551 -0.041065674 -9.2466717 -0.042672299 -9.2677879 -36.422935 -101.64262
45964000 -35.836098 -75.663895 -0.041562993 -9.4535255 -0.044589423 -9.4684896 -36.180695 -101.37104
46963000 -35.673874 -77.687027 -0.04115374 -9.6408768 -0.044886533 -9.6663733 -36.00901 -101.8103
47962000 -35.541264 -79.191063 -0.043053459 -9.8461361 -0.046740785 -9.8612633 -35.795975 -102.09944
48961000 -35.338997 -80.574905 -0.045707349 -10.040093 -0.047921035 -10.064772 -35.565853 -102.39037
49960000 -35.142868 -82.13221 -0.046734508 -10.238772 -0.049026731 -10.265542 -35.439201 -102.47303
50959000 -34.927864 -83.50074 -0.047064211 -10.455043 -0.050095264 -10.467734 -35.27079 -102.98646
51958000 -34.746479 -84.650131 -0.049596444 -10.654078 -0.051401109 -10.661957 -35.081558 -103.53906
52957000 -34.557816 -85.706604 -0.050820686 -10.852441 -0.052843075 -10.858202 -34.919487 -103.44929
53956000 -34.398083 -86.626472 -0.051827308 -11.054838 -0.053254217 -11.050858 -34.786854 -103.50211
54955000 -34.21933 -87.053581 -0.052957058 -11.257483 -0.054272413 -11.251595 -34.629017 -103.51627
55954000 -34.065754 -88.089867 -0.053380266 -11.45236 -0.054907825 -11.454286 -34.516018 -103.32663
56953000 -33.964733 -88.143753 -0.053489547 -11.652368 -0.053983834 -11.63813 -34.447628 -103.59447
57952000 -33.80571 -88.698288 -0.054497577 -11.849169 -0.054704402 -11.842299 -34.350346 -103.72668
58951000 -33.696594 -89.138016 -0.055822313 -12.053519 -0.055462841 -12.034607 -34.186676 -103.90894
59950000 -33.575489 -89.491241 -0.056309786 -12.251405 -0.05590491 -12.233009 -34.116055 -104.13317
60949000 -33.466255 -90.131317 -0.056415994 -12.457628 -0.056771088 -12.43113 -34.026501 -104.49126
61948000 -33.400265 -90.496971 -0.057067197 -12.656038 -0.056764532 -12.638596 -33.931698 -104.58754
62947000 -33.336853 -90.646744 -0.05746064 -12.865975 -0.057201751 -12.84458 -33.794548 -104.85374
63946000 -33.260788 -91.415596 -0.058136918 -13.063919 -0.057561629 -13.045246 -33.696022 -104.98843
64945000 -33.157558 -91.631676 -0.058308236 -13.264007 -0.059244171 -13.247352 -33.579544 -105.54175
65944000 -33.051128 -91.924133 -0.059149176 -13.465151 -0.059186965 -13.446388 -33.490372 -106.00419
66943000 -32.910774 -92.417 -0.057339717 -13.665799 -0.057081621 -13.65066 -33.401764 -106.25845
67942000 -32.855213 -92.371429 -0.059157837 -13.861012 -0.059290357 -13.850244 -33.272579 -106.65083
68941000 -32.750351 -92.428123 -0.059069406 -14.054964 -0.0584465 -14.046117 -33.169724 -106.5686
69940000 -32.642815 -92.497864 -0.058974415 -14.25594 -0.059696071 -14.244866 -33.0261 -106.8929
70939000 -32.547104 -92.374504 -0.059456732 -14.450382 -0.059337329 -14.441837 -32.887859 -106.80166
71938000 -32.400452 -91.985481 -0.058496613 -14.644921 -0.059340216 -14.638078 -32.750614 -106.72421
72937000 -32.234203 -92.011047 -0.058358084 -14.844706 -0.05885214 -14.838388 -32.615944 -106.40781
73936000 -32.093395 -91.63591 -0.058504485 -15.038568 -0.058042213 -15.035094 -32.497295 -106.18322
74935000 -31.976904 -91.881058 -0.057958525 -15.239557 -0.057516512 -15.233852 -32.338135 -105.91823
75934000 -31.849342 -92.183136 -0.058362544 -15.443452 -0.057830244 -15.442475 -32.252098 -105.85799
76933000 -31.723133 -92.560379 -0.059244696 -15.644648 -0.059269361 -15.633178 -32.082581 -106.33701
77932000 -31.641926 -93.377235 -0.061100893 -15.836802 -0.06030577 -15.827481 -31.984884 -106.29076
78931000 -31.569134 -94.133202 -0.059242595 -16.038754 -0.05926254 -16.03327 -31.888407 -106.19323
79930000 -31.45174 -95.008484 -0.061849423 -16.228386 -0.061931081 -16.226831 -31.788177 -106.52025
80929000 -31.330114 -95.930145 -0.063470058 -16.424362 -0.064048499 -16.418621 -31.690042 -106.90148
81928000 -31.264072 -96.76416 -0.063502103 -16.615284 -0.063819952 -16.614086 -31.567297 -107.00482
82927000 -31.169073 -97.555756 -0.065708064 -16.817612 -0.065637104 -16.812698 -31.46357 -107.31756
83926000 -31.053143 -98.258034 -0.066384576 -17.012266 -0.066874027 -17.014151 -31.356503 -107.61027
84925000 -30.953869 -98.77285 -0.067582272 -17.210869 -0.066848792 -17.208698 -31.262573 -107.69258
85924000 -30.873859 -99.240234 -0.068460777 -17.409134 -0.067387193 -17.410038 -31.168201 -107.6954
86923000 -30.768726 -99.766449 -0.068165995 -17.613283 -0.067954585 -17.603966 -31.069473 -107.62659
87922000 -30.66271 -100.19101 -0.068056345 -17.814106 -0.067407437 -17.804859 -30.985212 -107.67408
88921000 -30.589647 -100.50046 -0.069480442 -18.015846 -0.068473928 -18.012802 -30.882669 -107.73512
89920000 -30.485353 -101.0691 -0.069880538 -18.213564 -0.069535151 -18.205196 -30.831909 -107.93729
90919000 -30.391453 -101.39741 -0.071241811 -18.406168 -0.070031531 -18.401571 -30.757557 -108.10593
91918000 -30.291227 -101.82192 -0.071811818 -18.611164 -0.069828972 -18.603008 -30.676872 -108.11991
92917000 -30.205269 -102.1742 -0.073017061 -18.806187 -0.071616806 -18.80031 -30.615067 -108.28237
93916000 -30.130939 -102.50774 -0.072017357 -18.999207 -0.071463384 -18.994646 -30.527143 -108.93363
94915000 -30.050184 -103.17979 -0.073771335 -19.199482 -0.07254561 -19.194042 -30.457024 -108.763
95914000 -29.997707 -103.40397 -0.074966855 -19.394455 -0.073822148 -19.389414 -30.3815 -109.03242
96913000 -29.906937 -103.66911 -0.075624533 -19.596289 -0.07490918 -19.589527 -30.312811 -109.41409
97912000 -29.838095 -104.11674 -0.076665379 -19.789099 -0.07463529 -19.792154 -30.231674 -109.64294
98911000 -29.725533 -104.29222 -0.077357829 -19.991676 -0.075844221 -19.987909 -30.194035 -109.8659
99910000 -29.663593 -104.51643 -0.078509532 -20.188999 -0.07635054 -20.187132 -30.089598 -110.12976
100909000 -29.580221 -104.7494 -0.077773146 -20.397833 -0.075474128 -20.389971 -29.995956 -110.37661
101908000 -29.484594 -105.0271 -0.078763634 -20.599104 -0.077776574 -20.597586 -29.879606 -110.13285
102907000 -29.358158 -105.02926 -0.07835824 -20.797672 -0.076473311 -20.795162 -29.811573 -110.0854
103906000 -29.264095 -105.10839 -0.07916458 -21.003038 -0.076760493 -20.996613 -29.657206 -110.04375
104905000 -29.109995 -105.0666 -0.07926634 -21.199047 -0.077095121 -21.202728 -29.532013 -109.75789
105904000 -28.971235 -105.1232 -0.080313861 -21.402773 -0.077475622 -21.398314 -29.41604 -109.60315
106903000 -28.863113 -105.28381 -0.079945765 -21.608717 -0.07761503 -21.603552 -29.284275 -109.49346
107902000 -28.707209 -105.6159 -0.080112405 -21.809542 -0.078483962 -21.803308 -29.146305 -109.46768
108901000 -28.591145 -105.90192 -0.081814259 -22.010708 -0.079244986 -21.999308 -29.019674 -109.46407
109900000 -28.467091 -106.37677 -0.08236929 -22.208221 -0.08067856 -22.199459 -28.863899 -109.55383
110899000 -28.351948 -107.05898 -0.084258102 -22.402712 -0.081386164 -22.398165 -28.739923 -109.80959
111898000 -28.260977 -107.70454 -0.085267223 -22.607334 -0.082264557 -22.603189 -28.62513 -109.98231
112897000 -28.137486 -108.32484 -0.086981401 -22.806791 -0.083623126 -22.794952 -28.493166 -110.14567
113896000 -28.037357 -108.93814 -0.087570377 -23.008339 -0.08509326 -22.993834 -28.379856 -110.33415
114895000 -27.93214 -109.56548 -0.088821217 -23.206327 -0.086568639 -23.191916 -28.264935 -110.43202
115894000 -27.808315 -109.93713 -0.089868933 -23.405573 -0.087508038 -23.391556 -28.197819 -110.64362
116893000 -27.726622 -110.51709 -0.090468347 -23.598539 -0.088060632 -23.582273 -28.066879 -110.80466
117892000 -27.647989 -111.03576 -0.090546846 -23.796364 -0.08856944 -23.782795 -27.988081 -111.00399
118891000 -27.588396 -111.48156 -0.09111727 -23.994036 -0.08899904 -23.980528 -27.906528 -111.16518
119890000 -27.499121 -111.86132 -0.09191224 -24.200821 -0.090035163 -24.185247 -27.888672 -111.37955
120889000 -27.445253 -112.34781 -0.093296312 -24.397255 -0.089072756 -24.382746 -27.81539 -111.2859
121888000 -27.405315 -112.66983 -0.093515038 -24.596491 -0.090087496 -24.581984 -27.755751 -111.60876
122887000 -27.369682 -112.88364 -0.093778223 -24.7969 -0.091140002 -24.781363 -27.707151 -111.63876
123886000 -27.312027 -113.3451 -0.095073722 -24.997442 -0.091447979 -24.985653 -27.696302 -111.79857
124885000 -27.273422 -113.86948 -0.094389282 -25.19595 -0.091978334 -25.185995 -27.666525 -111.87563
125884000 -27.230488 -114.04375 -0.095897198 -25.394344 -0.092314139 -25.383825 -27.639721 -112.12181
126883000 -27.202963 -114.40025 -0.09621954 -25.597258 -0.092978418 -25.583736 -27.595751 -112.13207
127882000 -27.156006 -114.70781 -0.096084036 -25.799536 -0.093433313 -25.780876 -27.550821 -112.26096
128881000 -27.127056 -115.05351 -0.096466742 -25.999796 -0.093397342 -25.982134 -27.509867 -112.40198
129880000 -27.067606 -115.37376 -0.096976794 -26.202675 -0.094179504 -26.180597 -27.46225 -112.35689
130879000 -27.009857 -115.51282 -0.097006708 -26.399948 -0.094200663 -26.383299 -27.396065 -112.4242
131878000 -26.943611 -115.69141 -0.097521856 -26.601898 -0.094348542 -26.582794 -27.328751 -112.34338
132877000 -26.877533 -115.79137 -0.097094588 -26.804972 -0.095298097 -26.785585 -27.24151 -112.35354
133876000 -26.789179 -115.95003 -0.09761028 -27.003756 -0.094954923 -26.982203 -27.149929 -112.20763
134875000 -26.694342 -116.10854 -0.098097965 -27.201391 -0.095592342 -27.184004 -27.043919 -112.11591
135874000 -26.607962 -116.12627 -0.097175859 -27.403275 -0.095123723 -27.382864 -26.941935 -112.12543
136873000 -26.495718 -116.07306 -0.098186933 -27.604578 -0.095231682 -27.588154 -26.857025 -112.03208
137872000 -26.42252 -116.14722 -0.09848243 -27.806406 -0.094725266 -27.788811 -26.74719 -112.04501
138871000 -26.343372 -116.3644 -0.099280074 -28.007944 -0.096062332 -27.989468 -26.650755 -112.1705
139870000 -26.245447 -116.61704 -0.099785432 -28.207542 -0.097120002 -28.189924 -26.575422 -112.39333
140869000 -26.154238 -117.12374 -0.10125203 -28.40041 -0.098015621 -28.382811 -26.465574 -112.5232
141868000 -26.066767 -117.57351 -0.10157875 -28.596134 -0.099106342 -28.577465 -26.394815 -112.87566
142867000 -25.991922 -117.85403 -0.099861711 -28.791191 -0.098106965 -28.774212 -26.323591 -113.08089
143866000 -25.921898 -118.37679 -0.10183446 -28.987326 -0.099251203 -28.972229 -26.240276 -113.59393
144865000 -25.864998 -118.85638 -0.10339348 -29.188131 -0.10075022 -29.171366 -26.184179 -113.88156
145864000 -25.805552 -119.22099 -0.10336406 -29.388174 -0.10194153 -29.378075 -26.15716 -114.19672
146863000 -25.764151 -119.58943 -0.10432884 -29.587479 -0.10177007 -29.575136 -26.101099 -114.4762
147862000 -25.717712 -119.96977 -0.10499549 -29.785336 -0.10213048 -29.775288 -26.06657 -114.85728
148861000 -25.690859 -120.4804 -0.10587125 -29.980968 -0.10258448 -29.971386 -26.044567 -115.09075
149860000 -25.675838 -120.69481 -0.10606515 -30.182364 -0.10262583 -30.170668 -26.008802 -115.23354
150859000 -25.657644 -121.09315 -0.10598212 -30.37834 -0.10384576 -30.366369 -26.004713 -115.48196
151858000 -25.640484 -121.3848 -0.10649993 -30.577852 -0.10414536 -30.564667 -25.995548 -115.82206
152857000 -25.618727 -121.69814 -0.10630893 -30.77479 -0.10410029 -30.765392 -25.980101 -115.97728
153856000 -25.613663 -121.9277 -0.10624447 -30.971865 -0.10351782 -30.963577 -25.993349 -116.24036
154855000 -25.606825 -122.12405 -0.1067578 -31.173018 -0.10346612 -31.165201 -25.986725 -116.48355
155854000 -25.620785 -122.34725 -0.10709792 -31.372057 -0.10427369 -31.361692 -25.979794 -116.70397
156853000 -25.601801 -123.03007 -0.10479713 -31.559511 -0.10312945 -31.551775 -25.971437 -117.03532
157852000 -25.607296 -123.2707 -0.10642485 -31.759506 -0.10542831 -31.753414 -25.962204 -117.3693
158851000 -25.605118 -123.53303 -0.10716346 -31.958868 -0.10563492 -31.954399 -25.946709 -117.64268
159850000 -25.587269 -123.65617 -0.10767902 -32.156548 -0.10599644 -32.151234 -25.949459 -117.7744
160849000 -25.569561 -123.75304 -0.10812007 -32.355145 -0.10652115 -32.350174 -25.916533 -118.08727
161848000 -25.544825 -123.85421 -0.10874908 -32.556564 -0.10670208 -32.549728 -25.874306 -118.17265
162847000 -25.508667 -124.07069 -0.10815325 -32.753159 -0.10698437 -32.751316 -25.839144 -118.43372
163846000 -25.462694 -124.28122 -0.10836211 -32.957157 -0.10720671 -32.950222 -25.766653 -118.42563
164845000 -25.40094 -124.28827 -0.10904716 -33.155067 -0.10777376 -33.149628 -25.698715 -118.53616
165844000 -25.346876 -124.34201 -0.10869069 -33.356266 -0.10759491 -33.3498 -25.618431 -118.65726
166843000 -25.283758 -124.45618 -0.10904796 -33.554409 -0.10776606 -33.54948 -25.546349 -118.82825
167842000 -25.225048 -124.54482 -0.11013826 -33.751495 -0.1085609 -33.744061 -25.465591 -118.7716
168841000 -25.146709 -124.76021 -0.10964577 -33.945271 -0.10828939 -33.941097 -25.385899 -118.85894
169840000 -25.078552 -125.06149 -0.10992241 -34.14637 -0.10866945 -34.138069 -25.299379 -119.04457
170839000 -25.021502 -125.32593 -0.11076809 -34.342419 -0.10933491 -34.338604 -25.215816 -119.23297
171838000 -24.963726 -125.73585 -0.11036103 -34.541336 -0.11053707 -34.535168 -25.144691 -119.49752
172837000 -24.894421 -126.08475 -0.11213694 -34.737209 -0.11129975 -34.732437 -25.080612 -119.72816
173836000 -24.829239 -126.53994 -0.11306754 -34.936016 -0.11233325 -34.933643 -25.04031 -119.94238
174835000 -24.780481 -126.94576 -0.11363748 -35.130577 -0.11271897 -35.132774 -24.99534 -120.3027
175834000 -24.726124 -127.36386 -0.11427712 -35.328896 -0.11353996 -35.327187 -24.932804 -120.57172
176833000 -24.667334 -127.73615 -0.1153076 -35.527843 -0.11391225 -35.525749 -24.877108 -120.77039
177832000 -24.630686 -128.23726 -0.11578159 -35.720474 -0.11441798 -35.722237 -24.852182 -120.97123
178831000 -24.588999 -128.60278 -0.11574384 -35.917343 -0.11490171 -35.916439 -24.818243 -121.18664
179830000 -24.549343 -129.04192 -0.11671218 -36.114693 -0.11540383 -36.119141 -24.79347 -121.35049
180829000 -24.514469 -129.25284 -0.11706745 -36.313004 -0.11548145 -36.314972 -24.758799 -121.50851
181828000 -24.491329 -129.59442 -0.11726531 -36.512016 -0.11587676 -36.508511 -24.743053 -121.63583
182827000 -24.463284 -129.98067 -0.1169281 -36.706482 -0.11662629 -36.708378 -24.731417 -121.68407
183826000 -24.424046 -130.30504 -0.11837337 -36.903046 -0.11640373 -36.901295 -24.72226 -121.82105
184825000 -24.428448 -130.60992 -0.11748711 -37.098217 -0.11665128 -37.101917 -24.703709 -121.92572
185824000 -24.401297 -130.9679 -0.11776797 -37.295383 -0.11751264 -37.298996 -24.701769 -121.9773
186823000 -24.388496 -131.31442 -0.11824223 -37.496098 -0.11724722 -37.494209 -24.701262 -121.97246
187822000 -24.366508 -131.65311 -0.11823824 -37.689678 -0.1175036 -37.690502 -24.664553 -122.01295
188821000 -24.347202 -131.9062 -0.11808609 -37.885445 -0.11790362 -37.888004 -24.648102 -122.12051
189820000 -24.328712 -132.15187 -0.11861492 -38.088127 -0.11834464 -38.086472 -24.637716 -122.29596
190819000 -24.302599 -132.42253 -0.11991864 -38.285458 -0.118807 -38.285172 -24.605618 -122.23729
191818000 -24.267366 -132.57594 -0.12105401 -38.482159 -0.12019115 -38.47921 -24.572107 -122.12431
192817000 -24.195778 -132.85141 -0.12194393 -38.666153 -0.12138434 -38.666893 -24.496338 -122.21495
193816000 -24.16008 -133.20088 -0.12089111 -38.859516 -0.11898631 -38.85733 -24.446384 -122.44772
194815000 -24.106089 -133.64534 -0.12082617 -39.055012 -0.12032022 -39.060745 -24.38171 -122.57254
195814000 -24.050615 -133.87141 -0.12159012 -39.25523 -0.120502 -39.25457 -24.326298 -122.72345
196813000 -23.992706 -134.21603 -0.12129783 -39.446213 -0.12017278 -39.44664 -24.248022 -122.84511
197812000 -23.938784 -134.4527 -0.12097442 -39.641907 -0.1204461 -39.64534 -24.175961 -122.96055
198811000 -23.888216 -134.62291 -0.12107583 -39.842995 -0.11994765 -39.847691 -24.111977 -123.13815
199810000 -23.816195 -134.98756 -0.12121638 -40.039841 -0.12017199 -40.038467 -24.029572 -123.24648
200809000 -23.761469 -135.28596 -0.12168116 -40.235344 -0.12014697 -40.236237 -23.952047 -123.44149
201808000 -23.701647 -135.53801 -0.12254193 -40.434925 -0.12143306 -40.436749 -23.883411 -123.51433
202807000 -23.644712 -135.90393 -0.12350832 -40.637222 -0.12202646 -40.639042 -23.827831 -123.71078
203806000 -23.590164 -136.3456 -0.12488251 -40.835358 -0.1228548 -40.833637 -23.763691 -123.89399
