!Keysight Technologies,E5080B,MY59205177,A.15.75.32
!Date: Friday, February 23, 2024 03:33:01
!Correction: S11(Cdelta 2-Port  ) 
!S21(Cdelta 2-Port  ) 
!S12(Cdelta 2-Port  ) 
!S22(Cdelta 2-Port  ) 
!S2P File: Measurements: S11, S21, S12, S22:
# Hz S  dB   R 50
10000000 -46.039436 -1.8339485 -0.01446299 -2.0459347 -0.018501746 -2.1036568 -45.932579 -158.08382
10999000 -45.28038 -4.2548385 -0.015994588 -2.2687669 -0.018149767 -2.3184736 -45.894775 -151.79135
11998000 -44.336464 -7.4040627 -0.016711216 -2.4896765 -0.018055407 -2.5348778 -46.071259 -147.8456
12997000 -43.570755 -12.906504 -0.015497071 -2.6703389 -0.017682932 -2.7021403 -45.698277 -141.67915
13996000 -43.309349 -16.737484 -0.014859865 -2.8500416 -0.018267263 -2.8729658 -45.499863 -136.28043
14995000 -42.878174 -21.087626 -0.017204454 -3.0602434 -0.017768446 -3.0835748 -45.179367 -132.87358
15994000 -42.73872 -25.837946 -0.018829053 -3.2789903 -0.020157516 -3.3013947 -45.039993 -129.46745
16993000 -42.689606 -30.120758 -0.01721511 -3.4769077 -0.01983921 -3.4846351 -44.296104 -129.36859
17992000 -42.752289 -35.663002 -0.018155226 -3.6779809 -0.020704726 -3.6812403 -43.66967 -129.28264
18991000 -42.990734 -40.737633 -0.018810075 -3.8912535 -0.02060771 -3.8880694 -43.03743 -128.16917
19990000 -42.773319 -46.689648 -0.021474419 -4.0960131 -0.02253229 -4.0902619 -42.386765 -129.04962
20989000 -42.591282 -49.845634 -0.023409013 -4.3000045 -0.024820104 -4.2926431 -41.853138 -128.45445
21988000 -42.418633 -54.979836 -0.024420496 -4.4991961 -0.025522567 -4.4857645 -41.582981 -127.49552
22987000 -42.05521 -60.256123 -0.025498873 -4.7000318 -0.026302753 -4.6913161 -41.326359 -127.00383
23986000 -42.038471 -63.940033 -0.025097119 -4.8898301 -0.02585379 -4.8896866 -41.197063 -126.64362
24985000 -41.656296 -66.515419 -0.026338432 -5.1007538 -0.026205091 -5.0983901 -40.992775 -124.68848
25984000 -41.291348 -69.131798 -0.027346689 -5.3075061 -0.026399635 -5.3067627 -40.658649 -122.84134
26983000 -40.944054 -70.884773 -0.027694725 -5.5065174 -0.026744207 -5.5233946 -40.529015 -122.21605
27982000 -40.806023 -71.652687 -0.029645123 -5.7055292 -0.028736914 -5.7364912 -40.29211 -120.77229
28981000 -40.780445 -73.463768 -0.02754415 -5.9067578 -0.028328866 -5.9316068 -40.063232 -119.88734
29980000 -40.378849 -74.426392 -0.027928675 -6.0968018 -0.029373553 -6.1066694 -39.81897 -118.93451
30979000 -39.975391 -73.569298 -0.025536889 -6.4538078 -0.023255723 -6.4431963 -39.277039 -119.48922
31978000 -39.767281 -74.635918 -0.02379187 -6.6505537 -0.02531088 -6.6384411 -39.020309 -118.73306
32977000 -39.589062 -76.020164 -0.024799798 -6.8589721 -0.026028786 -6.8555989 -38.795219 -118.80016
33976000 -39.407585 -77.152184 -0.025069781 -7.057651 -0.026026964 -7.0549054 -38.511074 -118.17322
34975000 -39.118118 -77.780563 -0.025076291 -7.2567253 -0.027280005 -7.2594924 -38.292587 -117.86728
35974000 -38.918667 -78.583138 -0.024209382 -7.4541636 -0.027145853 -7.4559522 -37.981518 -116.93391
36973000 -38.687534 -79.366692 -0.025344208 -7.6549516 -0.027215924 -7.663188 -37.751778 -115.93159
37972000 -38.502541 -78.865013 -0.025080195 -7.868753 -0.027545974 -7.8743963 -37.536736 -115.27713
38971000 -38.184292 -78.457329 -0.025324939 -8.0635767 -0.02768196 -8.0783367 -37.363064 -113.6312
39970000 -37.851547 -78.732605 -0.024209904 -8.2609167 -0.026396509 -8.280386 -37.09602 -113.05425
40969000 -37.572853 -78.436974 -0.024264567 -8.4602394 -0.026401198 -8.4749641 -36.86105 -111.69407
41968000 -37.220806 -78.419579 -0.024276542 -8.6627617 -0.026391041 -8.6780424 -36.668495 -110.37589
42967000 -36.970577 -78.368698 -0.024452254 -8.8739624 -0.026860634 -8.894762 -36.462612 -108.59535
43966000 -36.662422 -79.197769 -0.025030207 -9.0772018 -0.028314797 -9.0927439 -36.206219 -107.79521
44965000 -36.424377 -79.945427 -0.025519703 -9.276474 -0.028187389 -9.300108 -35.981529 -107.50317
45964000 -36.188782 -80.91925 -0.026725193 -9.4759092 -0.030073103 -9.4966249 -35.737617 -107.27949
46963000 -35.990349 -82.763077 -0.026576215 -9.6723547 -0.030163813 -9.694458 -35.577534 -107.56042
47962000 -35.845829 -84.328621 -0.028556336 -9.8773842 -0.031218326 -9.8921003 -35.356495 -107.46666
48961000 -35.61972 -85.608177 -0.030807961 -10.07167 -0.032854177 -10.094757 -35.161972 -107.70256
49960000 -35.387695 -86.987709 -0.032081939 -10.271551 -0.034169979 -10.293107 -34.986763 -107.72622
50959000 -35.149307 -88.265579 -0.032327339 -10.484521 -0.035049576 -10.49495 -34.828766 -108.00085
51958000 -34.962841 -89.316444 -0.034266513 -10.682104 -0.035856791 -10.697071 -34.654274 -108.37076
52957000 -34.74844 -90.355873 -0.035738297 -10.882971 -0.037324935 -10.88939 -34.489697 -108.10297
53956000 -34.570618 -91.035126 -0.03633498 -11.087738 -0.038303629 -11.094752 -34.356792 -108.15734
54955000 -34.392242 -91.515007 -0.038238339 -11.28475 -0.039000962 -11.282889 -34.220421 -108.09303
55954000 -34.234512 -92.412361 -0.039546371 -11.48978 -0.039419677 -11.492105 -34.095798 -107.86751
56953000 -34.116131 -92.446136 -0.038772684 -11.688916 -0.038802981 -11.680543 -34.024998 -107.9553
57952000 -33.952618 -92.881454 -0.040082965 -11.886849 -0.039323289 -11.876921 -33.917076 -108.04897
58951000 -33.828896 -93.255684 -0.040195309 -12.089237 -0.04089582 -12.067351 -33.763222 -108.16798
59950000 -33.705357 -93.66497 -0.041795339 -12.286693 -0.041522224 -12.270496 -33.699402 -108.50236
60949000 -33.580574 -94.206894 -0.041580502 -12.496375 -0.042183481 -12.469198 -33.612324 -108.66564
61948000 -33.512165 -94.51339 -0.042561982 -12.694895 -0.041429967 -12.675867 -33.513081 -108.76904
62947000 -33.425068 -94.676987 -0.042621847 -12.903129 -0.042069778 -12.882195 -33.377357 -109.0449
63946000 -33.362267 -95.456963 -0.043606438 -13.105431 -0.043477274 -13.083308 -33.275906 -109.1519
64945000 -33.257164 -95.655655 -0.044011738 -13.30469 -0.043683574 -13.283969 -33.163826 -109.64383
65944000 -33.147709 -95.894455 -0.044864301 -13.503958 -0.043888316 -13.488147 -33.057285 -110.06964
66943000 -33.008747 -96.311951 -0.042305026 -13.707162 -0.042873856 -13.688526 -32.953075 -110.35676
67942000 -32.939762 -96.304306 -0.045042418 -13.900445 -0.0448949 -13.89195 -32.844055 -110.5885
68941000 -32.838852 -96.367264 -0.044209696 -14.097494 -0.04344799 -14.086146 -32.721165 -110.64333
69940000 -32.73904 -96.356979 -0.044352483 -14.296595 -0.044074498 -14.2843 -32.584095 -110.87057
70939000 -32.634201 -96.309227 -0.044556469 -14.491165 -0.04396493 -14.485732 -32.460602 -110.77651
71938000 -32.489807 -95.876122 -0.044787928 -14.693098 -0.043750774 -14.678982 -32.314247 -110.67656
72937000 -32.334217 -95.760422 -0.043849092 -14.888311 -0.042946272 -14.880211 -32.177605 -110.39379
73936000 -32.19487 -95.315483 -0.044234015 -15.085872 -0.043119345 -15.084113 -32.067234 -110.11541
74935000 -32.076603 -95.521027 -0.04359049 -15.280725 -0.04208729 -15.280629 -31.908813 -109.81156
75934000 -31.952047 -95.769974 -0.043476228 -15.493479 -0.042205699 -15.485762 -31.825943 -109.71152
76933000 -31.815861 -96.162582 -0.044532932 -15.685111 -0.043690372 -15.680426 -31.651642 -110.04449
77932000 -31.718889 -96.905479 -0.045963723 -15.883007 -0.045746852 -15.875159 -31.55438 -109.98268
78931000 -31.632694 -97.603447 -0.044239245 -16.082342 -0.044766221 -16.074646 -31.447895 -109.90414
79930000 -31.526638 -98.579811 -0.046714623 -16.277224 -0.046876591 -16.274874 -31.356174 -110.13876
80929000 -31.407856 -99.312805 -0.048563637 -16.473314 -0.04861128 -16.470625 -31.259903 -110.4721
81928000 -31.301056 -100.00432 -0.048421498 -16.664284 -0.049131453 -16.660082 -31.133127 -110.3812
82927000 -31.207167 -100.80621 -0.050340112 -16.864008 -0.04999052 -16.8603 -31.020388 -110.65301
83926000 -31.095112 -101.42793 -0.051706806 -17.060122 -0.051349506 -17.064318 -30.902834 -110.90845
84925000 -30.983734 -101.88434 -0.052239664 -17.263769 -0.051932096 -17.259346 -30.808599 -110.94647
85924000 -30.899178 -102.20493 -0.053333621 -17.463257 -0.052293111 -17.459896 -30.718521 -110.85466
86923000 -30.785706 -102.73019 -0.053728823 -17.657303 -0.053066328 -17.654005 -30.621469 -110.76723
87922000 -30.675447 -103.06828 -0.053132102 -17.867949 -0.052959681 -17.860107 -30.532845 -110.75078
88921000 -30.594465 -103.34254 -0.054722488 -18.070543 -0.054354195 -18.060463 -30.435001 -110.76303
89920000 -30.487215 -103.87833 -0.054708596 -18.266888 -0.054411337 -18.264809 -30.381025 -110.87455
90919000 -30.39559 -104.07118 -0.056125436 -18.457355 -0.055330176 -18.457884 -30.295992 -111.0797
91918000 -30.289732 -104.47952 -0.056670379 -18.662481 -0.055499021 -18.657387 -30.225601 -111.09222
92917000 -30.20977 -104.78768 -0.057990268 -18.861128 -0.056439858 -18.858377 -30.153534 -111.17921
93916000 -30.112263 -105.15891 -0.057076376 -19.053097 -0.056287233 -19.05151 -30.074425 -111.7477
94915000 -30.031675 -105.76813 -0.059134219 -19.259081 -0.057374604 -19.25062 -30.012215 -111.65693
95914000 -29.976629 -105.99758 -0.059522077 -19.450287 -0.058530722 -19.449665 -29.92367 -111.9136
96913000 -29.889261 -106.15554 -0.060624957 -19.651234 -0.059430227 -19.65144 -29.846724 -112.27366
97912000 -29.814177 -106.65155 -0.061525945 -19.846445 -0.059711557 -19.847321 -29.770195 -112.48832
98911000 -29.705156 -106.81277 -0.062407162 -20.050367 -0.060690317 -20.048887 -29.735321 -112.76189
99910000 -29.634283 -106.97148 -0.06340912 -20.248167 -0.061184376 -20.248411 -29.622068 -113.01722
100909000 -29.542591 -107.18331 -0.062652178 -20.456133 -0.060639132 -20.451765 -29.541061 -113.24224
101908000 -29.459873 -107.48093 -0.06427443 -20.657116 -0.062473077 -20.655033 -29.423752 -112.99362
102907000 -29.319756 -107.44937 -0.064091057 -20.860058 -0.062261153 -20.859678 -29.357214 -112.97813
103906000 -29.227724 -107.46717 -0.064908944 -21.063166 -0.061546948 -21.060673 -29.215908 -112.939
104905000 -29.081226 -107.37637 -0.065211125 -21.266254 -0.062444977 -21.261875 -29.089787 -112.61447
105904000 -28.941315 -107.51907 -0.065374836 -21.464468 -0.062239096 -21.459078 -28.979141 -112.50951
106903000 -28.832611 -107.55199 -0.065435804 -21.672052 -0.062815011 -21.666899 -28.850058 -112.36869
107902000 -28.664747 -107.82718 -0.06603343 -21.871229 -0.062707856 -21.865326 -28.716454 -112.32922
108901000 -28.552418 -108.09415 -0.067633018 -22.072969 -0.064512461 -22.065687 -28.592001 -112.27744
109900000 -28.425129 -108.5234 -0.068307996 -22.273262 -0.066011615 -22.266621 -28.43697 -112.35461
110899000 -28.314972 -109.17693 -0.069442041 -22.468046 -0.066290483 -22.460545 -28.307453 -112.61715
111898000 -28.222637 -109.82323 -0.070616372 -22.673277 -0.067821272 -22.668217 -28.194653 -112.76921
112897000 -28.097782 -110.39757 -0.072163165 -22.872585 -0.068650648 -22.860441 -28.060066 -112.94749
113896000 -27.996002 -110.96848 -0.07304734 -23.073112 -0.069825821 -23.061117 -27.9515 -113.05109
114895000 -27.889282 -111.57729 -0.074133381 -23.273491 -0.070813701 -23.257931 -27.842815 -113.10148
115894000 -27.768431 -111.90726 -0.075516537 -23.472881 -0.072130002 -23.459518 -27.768381 -113.29115
116893000 -27.692282 -112.40768 -0.076092102 -23.668505 -0.073261894 -23.653847 -27.652941 -113.39256
117892000 -27.609945 -112.90247 -0.076149009 -23.861267 -0.073501997 -23.858273 -27.572187 -113.55696
118891000 -27.549515 -113.311 -0.077245839 -24.068148 -0.073429331 -24.054399 -27.479094 -113.67375
119890000 -27.466637 -113.67294 -0.077563904 -24.268385 -0.074540488 -24.254833 -27.462904 -113.84879
120889000 -27.417488 -114.14832 -0.078628674 -24.465807 -0.074894696 -24.454918 -27.394804 -113.78126
121888000 -27.37109 -114.51448 -0.078964233 -24.665003 -0.075119615 -24.650314 -27.340757 -114.02428
122887000 -27.337498 -114.71996 -0.07991913 -24.868855 -0.076327883 -24.856857 -27.286066 -114.04539
123886000 -27.282351 -115.13072 -0.080184914 -25.070641 -0.076738887 -25.055864 -27.278868 -114.19711
124885000 -27.243982 -115.60509 -0.080413274 -25.270723 -0.077001579 -25.255621 -27.249866 -114.23729
125884000 -27.19331 -115.78941 -0.081927687 -25.466599 -0.077052429 -25.455666 -27.218061 -114.39531
126883000 -27.181593 -116.15588 -0.081462912 -25.670574 -0.07829129 -25.658205 -27.174492 -114.41444
127882000 -27.127453 -116.49345 -0.082611747 -25.869316 -0.078363776 -25.855558 -27.140543 -114.55301
128881000 -27.097885 -116.8264 -0.082238175 -26.072338 -0.078339525 -26.056269 -27.097775 -114.62009
129880000 -27.040401 -117.14471 -0.083539739 -26.277622 -0.078630514 -26.256718 -27.05904 -114.55914
130879000 -26.983383 -117.31158 -0.083220445 -26.472618 -0.079578489 -26.460665 -26.983526 -114.60359
131878000 -26.92054 -117.54559 -0.083394602 -26.676847 -0.07959114 -26.662266 -26.928005 -114.46491
132877000 -26.847763 -117.59744 -0.082997486 -26.877558 -0.080586791 -26.862791 -26.84321 -114.47384
133876000 -26.761818 -117.76664 -0.083460569 -27.080704 -0.079634115 -27.062378 -26.759281 -114.32032
134875000 -26.67359 -117.89311 -0.083376132 -27.28087 -0.080844969 -27.261211 -26.659235 -114.15147
135874000 -26.58786 -117.90965 -0.083781727 -27.478327 -0.080302261 -27.465023 -26.563005 -114.11411
136873000 -26.47847 -117.86845 -0.084109776 -27.682199 -0.080783516 -27.66715 -26.477053 -114.07552
137872000 -26.401939 -117.96786 -0.083879642 -27.887142 -0.080025658 -27.871367 -26.376186 -114.03515
138871000 -26.324486 -118.18143 -0.084389806 -28.086672 -0.080960214 -28.070684 -26.285189 -114.14715
139870000 -26.221912 -118.48395 -0.084947012 -28.286722 -0.082068816 -28.269333 -26.201483 -114.3121
140869000 -26.142794 -119.00539 -0.08597742 -28.481813 -0.082057737 -28.461615 -26.098595 -114.57198
141868000 -26.069458 -119.41716 -0.086367421 -28.681505 -0.08412455 -28.668114 -26.052706 -114.79529
142867000 -25.985722 -119.61568 -0.085746661 -28.879768 -0.083439991 -28.862164 -25.969816 -114.92124
143866000 -25.915054 -120.07677 -0.087926179 -29.077263 -0.084475055 -29.060305 -25.894882 -115.40031
144865000 -25.855511 -120.60771 -0.089373715 -29.273071 -0.086214796 -29.259939 -25.840742 -115.68115
145864000 -25.799873 -120.94335 -0.089700066 -29.476648 -0.087363832 -29.466038 -25.809326 -115.94391
146863000 -25.755335 -121.24658 -0.090745345 -29.676319 -0.087999344 -29.665113 -25.759415 -116.21489
147862000 -25.719709 -121.5926 -0.091437407 -29.874994 -0.088051915 -29.859774 -25.727898 -116.57661
148861000 -25.683834 -122.04855 -0.092488661 -30.06765 -0.09002459 -30.060818 -25.706587 -116.72797
149860000 -25.651363 -122.23606 -0.094202511 -30.266235 -0.089649066 -30.255163 -25.649305 -116.7942
150859000 -25.627745 -122.68808 -0.092926055 -30.460144 -0.089794144 -30.450989 -25.634102 -117.12823
151858000 -25.611027 -123.06292 -0.09268117 -30.663902 -0.090154357 -30.650396 -25.62056 -117.48698
152857000 -25.601717 -123.37894 -0.093446799 -30.862213 -0.090130307 -30.848471 -25.61051 -117.67189
153856000 -25.598089 -123.57737 -0.092851475 -31.061893 -0.089152552 -31.046694 -25.628281 -117.99334
154855000 -25.593483 -123.75971 -0.093178086 -31.264639 -0.089645892 -31.253508 -25.611286 -118.23544
155854000 -25.613098 -124.01079 -0.093621366 -31.459581 -0.090130836 -31.447704 -25.604116 -118.48086
156853000 -25.599443 -124.69844 -0.090689048 -31.64986 -0.089175805 -31.640018 -25.603598 -118.81992
157852000 -25.601307 -124.89577 -0.092747018 -31.852932 -0.090548962 -31.845686 -25.583237 -119.141
158851000 -25.604694 -125.13337 -0.093500227 -32.051247 -0.091093741 -32.043087 -25.573563 -119.44098
159850000 -25.591852 -125.21673 -0.093792237 -32.25045 -0.091125466 -32.243217 -25.572678 -119.61121
160849000 -25.572395 -125.32249 -0.093656279 -32.449238 -0.092198856 -32.444046 -25.544479 -119.89465
161848000 -25.561918 -125.40316 -0.093976341 -32.651779 -0.091787182 -32.642635 -25.501638 -120.01992
162847000 -25.518629 -125.5745 -0.094290867 -32.848579 -0.092383154 -32.845951 -25.47654 -120.25783
163846000 -25.482122 -125.7853 -0.094530284 -33.05014 -0.092521712 -33.046066 -25.399954 -120.25231
164845000 -25.422764 -125.74924 -0.095270574 -33.25034 -0.092858084 -33.242168 -25.336216 -120.37627
165844000 -25.371315 -125.81043 -0.094703838 -33.450188 -0.093849905 -33.445747 -25.262005 -120.51112
166843000 -25.305578 -125.82853 -0.094376847 -33.646828 -0.093222521 -33.643055 -25.198122 -120.66085
167842000 -25.254827 -125.9751 -0.094807021 -33.851322 -0.093724526 -33.840668 -25.118067 -120.57725
168841000 -25.172079 -126.11732 -0.095585726 -34.044048 -0.0946877 -34.045242 -25.046968 -120.63534
169840000 -25.109953 -126.38261 -0.095550537 -34.243793 -0.094813898 -34.239094 -24.959358 -120.82607
170839000 -25.041582 -126.58195 -0.096557789 -34.441658 -0.094750404 -34.440151 -24.874454 -121.01682
171838000 -24.992256 -127.00497 -0.096171901 -34.643402 -0.096198894 -34.636513 -24.815182 -121.23653
172837000 -24.92009 -127.33158 -0.098113321 -34.835682 -0.097264275 -34.831459 -24.743603 -121.41384
173836000 -24.856319 -127.73187 -0.09920539 -35.039307 -0.097095646 -35.041245 -24.706739 -121.65524
174835000 -24.795931 -128.142 -0.099559762 -35.233509 -0.097904153 -35.23595 -24.662306 -121.95551
175834000 -24.749718 -128.49791 -0.10065378 -35.435543 -0.099149242 -35.431789 -24.60128 -122.23413
176833000 -24.697992 -128.82695 -0.10164897 -35.634502 -0.099773772 -35.633503 -24.548679 -122.39034
177832000 -24.652872 -129.25021 -0.10199771 -35.834206 -0.10067921 -35.835804 -24.533794 -122.47869
178831000 -24.613031 -129.49168 -0.10431161 -36.027283 -0.10225875 -36.026566 -24.489557 -122.60432
179830000 -24.537579 -129.8842 -0.10504402 -36.214905 -0.10366124 -36.21484 -24.428463 -122.62936
180829000 -24.486324 -130.25104 -0.10392954 -36.410442 -0.10238491 -36.407543 -24.385336 -122.96494
181828000 -24.460691 -130.6599 -0.10294311 -36.607834 -0.10183446 -36.609249 -24.36825 -123.15977
182827000 -24.443804 -131.0569 -0.10317717 -36.806572 -0.10250815 -36.802345 -24.354511 -123.28187
183826000 -24.397034 -131.36896 -0.10407059 -37.007961 -0.10255453 -37.002323 -24.340895 -123.41759
184825000 -24.402676 -131.70766 -0.10421377 -37.200706 -0.10282462 -37.203339 -24.32366 -123.55891
185824000 -24.371367 -132.08304 -0.10422649 -37.397034 -0.10293569 -37.397621 -24.321035 -123.61345
186823000 -24.360851 -132.42636 -0.1043649 -37.599155 -0.10264704 -37.595284 -24.31295 -123.6302
187822000 -24.334469 -132.75606 -0.10447521 -37.791004 -0.1039937 -37.793701 -24.273094 -123.71349
188821000 -24.314003 -133.04274 -0.10369702 -37.986305 -0.10366972 -37.99279 -24.253527 -123.82365
189820000 -24.288231 -133.31218 -0.10444498 -38.186859 -0.10351702 -38.187775 -24.233747 -124.03697
190819000 -24.255642 -133.63924 -0.10482153 -38.384583 -0.10438453 -38.38485 -24.199387 -124.07957
191818000 -24.222149 -133.97231 -0.10546225 -38.583691 -0.10435218 -38.585041 -24.169107 -124.12925
192817000 -24.180323 -134.19572 -0.10585003 -38.779953 -0.10511801 -38.780499 -24.128 -124.22333
193816000 -24.144388 -134.47873 -0.10612908 -38.979172 -0.10507001 -38.97578 -24.07593 -124.34652
194815000 -24.084171 -134.851 -0.10666654 -39.17268 -0.10551105 -39.174915 -24.008778 -124.43522
195814000 -24.028664 -135.03928 -0.10688302 -39.36911 -0.10603438 -39.372608 -23.948242 -124.51105
196813000 -23.978245 -135.36746 -0.10699445 -39.561871 -0.10552591 -39.562023 -23.872986 -124.66363
197812000 -23.916683 -135.57361 -0.10747868 -39.758808 -0.10561768 -39.758656 -23.803402 -124.7398
198811000 -23.86203 -135.75565 -0.10705839 -39.957047 -0.10583889 -39.959747 -23.732092 -124.89503
199810000 -23.790146 -136.10487 -0.10709581 -40.153122 -0.10572324 -40.152172 -23.654892 -125.02184
200809000 -23.734594 -136.33728 -0.1078669 -40.349216 -0.10624261 -40.350891 -23.577793 -125.19969
201808000 -23.675682 -136.55418 -0.10835759 -40.55262 -0.10790618 -40.554615 -23.510441 -125.26232
202807000 -23.619085 -136.86014 -0.10953321 -40.751549 -0.10821535 -40.75235 -23.455444 -125.43938
