!Keysight Technologies,E5080B,MY59205177,A.15.75.32
!Date: Friday, February 23, 2024 02:54:47
!Correction: S11(Cdelta 2-Port  ) 
!S21(Cdelta 2-Port  ) 
!S12(Cdelta 2-Port  ) 
!S22(Cdelta 2-Port  ) 
!S2P File: Measurements: S11, S21, S12, S22:
# Hz S  dB   R 50
10000000 -43.707752 -3.6262965 -0.03092554 -2.045471 -0.03427643 -2.0966854 -48.71624 -148.20065
10999000 -43.117882 -5.4893928 -0.031318966 -2.2605093 -0.033423334 -2.3152187 -48.442368 -139.98729
11998000 -42.308998 -7.7443614 -0.031439688 -2.4846585 -0.033299167 -2.5283864 -48.454369 -134.08368
12997000 -41.723095 -12.339377 -0.031244921 -2.6642661 -0.032957464 -2.6962316 -47.756706 -127.91185
13996000 -41.514782 -15.316722 -0.030022014 -2.8412526 -0.033503678 -2.8610795 -47.296646 -121.54267
14995000 -41.202179 -19.051151 -0.032021441 -3.0494208 -0.03262648 -3.075948 -46.774155 -117.96443
15994000 -41.095097 -22.833233 -0.033609852 -3.2684913 -0.035553776 -3.2892919 -46.477783 -114.66694
16993000 -41.099022 -26.536774 -0.032178689 -3.464057 -0.034630239 -3.4759617 -45.645622 -115.99902
17992000 -41.204929 -30.496637 -0.032730807 -3.6662526 -0.03491101 -3.6702855 -44.989418 -116.68819
18991000 -41.457447 -35.014809 -0.033875167 -3.8765845 -0.036239441 -3.873594 -44.264473 -116.8676
19990000 -41.37484 -39.964706 -0.036624737 -4.0843773 -0.037744273 -4.0797086 -43.55381 -118.69342
20989000 -41.249279 -42.923851 -0.038515687 -4.286756 -0.039872654 -4.2769632 -42.958504 -118.57025
21988000 -41.21151 -47.302013 -0.039408967 -4.4839954 -0.041237626 -4.4713359 -42.676514 -118.00195
22987000 -41.026134 -51.600861 -0.040534183 -4.678442 -0.041389201 -4.6724114 -42.408192 -117.98538
23986000 -41.04792 -55.389114 -0.040037245 -4.8776755 -0.040595066 -4.8761115 -42.309208 -118.03934
24985000 -40.748074 -58.250717 -0.041282315 -5.0836687 -0.040198442 -5.0792956 -42.003902 -115.60918
25984000 -40.557346 -60.184063 -0.041030135 -5.2929993 -0.040517461 -5.2922263 -41.663822 -114.18938
26983000 -40.241333 -62.316326 -0.04302993 -5.4860072 -0.042549696 -5.5038152 -41.535141 -113.50658
27982000 -40.136971 -63.278458 -0.044132289 -5.6897984 -0.043518063 -5.7226219 -41.190884 -111.95567
28981000 -40.159679 -64.430969 -0.04145924 -5.8858719 -0.043523554 -5.9102063 -40.954269 -111.44446
29980000 -39.756691 -66.268028 -0.041637216 -6.0771513 -0.044643819 -6.084374 -40.606274 -110.89212
30979000 -39.382511 -65.425537 -0.039478712 -6.432158 -0.038838502 -6.4233556 -40.098804 -111.63813
31978000 -39.2244 -66.7155 -0.039344445 -6.6240201 -0.040284138 -6.6184707 -39.820187 -110.99577
32977000 -39.053646 -68.254105 -0.038050577 -6.8394494 -0.040484801 -6.8343358 -39.567734 -111.26623
33976000 -38.928276 -69.26873 -0.039468523 -7.035624 -0.04063452 -7.0329666 -39.268341 -110.813
34975000 -38.633186 -70.282089 -0.039542973 -7.2367487 -0.041530587 -7.2346516 -39.000755 -110.66444
35974000 -38.45562 -71.132271 -0.039243616 -7.4323492 -0.041457932 -7.4374676 -38.686428 -109.87139
36973000 -38.254696 -72.053345 -0.039472967 -7.6338377 -0.041681126 -7.6375823 -38.387287 -109.03393
37972000 -38.062683 -72.105919 -0.038835626 -7.8403802 -0.042068996 -7.8512077 -38.168015 -108.48502
38971000 -37.736969 -71.652733 -0.04066091 -8.0394258 -0.041829579 -8.0528908 -37.945141 -106.95455
39970000 -37.438103 -72.256973 -0.038454577 -8.2369547 -0.042343713 -8.2504215 -37.651371 -106.58005
40969000 -37.15506 -72.202797 -0.037972238 -8.4346285 -0.040827356 -8.4512577 -37.38435 -105.19476
41968000 -36.813992 -72.59359 -0.039418109 -8.6354418 -0.041515168 -8.649127 -37.164955 -104.06434
42967000 -36.55426 -72.787262 -0.038189244 -8.8458471 -0.041101474 -8.8630104 -36.945934 -102.40871
43966000 -36.271286 -73.64064 -0.039486289 -9.0504589 -0.043056075 -9.0656404 -36.65942 -101.82816
44965000 -36.058922 -74.625557 -0.040539671 -9.2453766 -0.041982479 -9.2703371 -36.424564 -101.69059
45964000 -35.843742 -75.686012 -0.042284638 -9.4476795 -0.044505473 -9.4666042 -36.18721 -101.50896
46963000 -35.688076 -77.731194 -0.041050516 -9.6433468 -0.044623159 -9.6616478 -35.995068 -101.95277
47962000 -35.546597 -79.248764 -0.043076728 -9.8459015 -0.045941226 -9.8629599 -35.799412 -102.11304
48961000 -35.342503 -80.659218 -0.045266055 -10.039792 -0.047698308 -10.065075 -35.571575 -102.52153
49960000 -35.145344 -82.122757 -0.046708863 -10.238337 -0.04812362 -10.264245 -35.430027 -102.64486
50959000 -34.930309 -83.523674 -0.046932589 -10.453656 -0.049550623 -10.463816 -35.254829 -103.09847
51958000 -34.744259 -84.73983 -0.048983011 -10.652035 -0.05154125 -10.660429 -35.070591 -103.63622
52957000 -34.548855 -85.890472 -0.050870448 -10.851054 -0.05230464 -10.859469 -34.91468 -103.54074
53956000 -34.401302 -86.625969 -0.05161617 -11.05087 -0.05319709 -11.052565 -34.791847 -103.60253
54955000 -34.23983 -87.225555 -0.05245031 -11.255567 -0.053823173 -11.253945 -34.614578 -103.67827
55954000 -34.08527 -88.080635 -0.053961031 -11.455501 -0.05419378 -11.452802 -34.504395 -103.43385
56953000 -33.97525 -88.26963 -0.053589657 -11.650692 -0.05368977 -11.637444 -34.458015 -103.62173
57952000 -33.81395 -88.888947 -0.054058533 -11.850509 -0.054964453 -11.844068 -34.338692 -103.83799
58951000 -33.705173 -89.246193 -0.054918312 -12.055261 -0.055282723 -12.033036 -34.170425 -103.95522
59950000 -33.585125 -89.62587 -0.055988558 -12.253994 -0.056126222 -12.229159 -34.110802 -104.31884
60949000 -33.475998 -90.273857 -0.056953888 -12.451956 -0.056412585 -12.434384 -34.026859 -104.56873
61948000 -33.411694 -90.65863 -0.057297748 -12.657341 -0.056967266 -12.640917 -33.931393 -104.67442
62947000 -33.334129 -90.81221 -0.0567724 -12.861923 -0.057339191 -12.847582 -33.792637 -104.9572
63946000 -33.276848 -91.537384 -0.058220346 -13.06202 -0.059283007 -13.042239 -33.685207 -105.14427
64945000 -33.155937 -91.693001 -0.058606286 -13.263608 -0.059069932 -13.245496 -33.581944 -105.61855
65944000 -33.066051 -91.982674 -0.059562754 -13.463507 -0.059014563 -13.446649 -33.481396 -106.07639
66943000 -32.917137 -92.430969 -0.057912353 -13.66503 -0.057788536 -13.649378 -33.377777 -106.42067
67942000 -32.870293 -92.382668 -0.059513677 -13.859692 -0.059217405 -13.850216 -33.260773 -106.63674
68941000 -32.743916 -92.48719 -0.058408722 -14.057926 -0.058591068 -14.04388 -33.150642 -106.59763
69940000 -32.649494 -92.565071 -0.05902506 -14.251314 -0.059305049 -14.250692 -33.028709 -106.94153
70939000 -32.550095 -92.460365 -0.058954213 -14.452249 -0.059430752 -14.445207 -32.882584 -106.95001
71938000 -32.405376 -92.112671 -0.05945332 -14.650271 -0.059474315 -14.637259 -32.758976 -106.7646
72937000 -32.237881 -92.013916 -0.058262061 -14.843229 -0.058440991 -14.836812 -32.606506 -106.50542
73936000 -32.106216 -91.718941 -0.058440465 -15.039099 -0.058235303 -15.035799 -32.493816 -106.2931
74935000 -31.976429 -91.950745 -0.057817653 -15.236677 -0.056984313 -15.23695 -32.332981 -106.0205
75934000 -31.85216 -92.162964 -0.057689901 -15.446022 -0.057576057 -15.440265 -32.243725 -105.97045
76933000 -31.724293 -92.656929 -0.059063371 -15.640327 -0.059006952 -15.635941 -32.076397 -106.38256
77932000 -31.63879 -93.446312 -0.060552508 -15.83653 -0.060474545 -15.829447 -31.974081 -106.36684
78931000 -31.573172 -94.258209 -0.059367768 -16.037315 -0.059892382 -16.031803 -31.87686 -106.27845
79930000 -31.454618 -95.049683 -0.061624404 -16.230249 -0.062256165 -16.227436 -31.786936 -106.57977
80929000 -31.340155 -96.016365 -0.063624777 -16.423603 -0.063254677 -16.41984 -31.673664 -106.9208
81928000 -31.253649 -96.871323 -0.063427247 -16.613937 -0.063750073 -16.61338 -31.568077 -107.04254
82927000 -31.168364 -97.588448 -0.065247916 -16.815119 -0.065088935 -16.811123 -31.457699 -107.38845
83926000 -31.053501 -98.374908 -0.066439249 -17.008194 -0.066101499 -17.011538 -31.338491 -107.67625
84925000 -30.95393 -98.821335 -0.067209467 -17.209917 -0.066947371 -17.210241 -31.247416 -107.79379
85924000 -30.866522 -99.373878 -0.06773898 -17.410694 -0.068577275 -17.405235 -31.165287 -107.74962
86923000 -30.765263 -99.877541 -0.067846514 -17.607929 -0.068304047 -17.602438 -31.069054 -107.67123
87922000 -30.648239 -100.26197 -0.06832666 -17.816195 -0.068149425 -17.806274 -30.976297 -107.75529
88921000 -30.580976 -100.60178 -0.068851836 -18.011681 -0.069297373 -18.009169 -30.879211 -107.78413
89920000 -30.484287 -101.09986 -0.070124395 -18.210424 -0.068920217 -18.205088 -30.827179 -108.01317
90919000 -30.394062 -101.46437 -0.070470355 -18.407394 -0.070300661 -18.401686 -30.746679 -108.18179
91918000 -30.304256 -101.82763 -0.071804971 -18.604834 -0.070390113 -18.601751 -30.677746 -108.1945
92917000 -30.21336 -102.21194 -0.072610363 -18.803823 -0.071882874 -18.805435 -30.606672 -108.34304
93916000 -30.13641 -102.58286 -0.072093688 -18.996592 -0.071538381 -18.992653 -30.52227 -108.96555
94915000 -30.060135 -103.21317 -0.073188707 -19.19932 -0.072452165 -19.192661 -30.452917 -108.85482
95914000 -29.988407 -103.51279 -0.074761696 -19.392612 -0.073168695 -19.3918 -30.366081 -109.10728
96913000 -29.905064 -103.69971 -0.075922981 -19.594639 -0.07461106 -19.592607 -30.305424 -109.49717
97912000 -29.829834 -104.18729 -0.076449074 -19.789034 -0.074941836 -19.792137 -30.224358 -109.74158
98911000 -29.736893 -104.37741 -0.076912254 -19.990376 -0.075969085 -19.988119 -30.18392 -109.95524
99910000 -29.6658 -104.55241 -0.078057252 -20.187094 -0.076226197 -20.188457 -30.07616 -110.24647
100909000 -29.580288 -104.79551 -0.077026084 -20.394579 -0.075700656 -20.391706 -29.992512 -110.43063
101908000 -29.494717 -105.06339 -0.079096042 -20.5977 -0.077594474 -20.595375 -29.878088 -110.22363
102907000 -29.346737 -105.12627 -0.079278998 -20.793842 -0.0769502 -20.797516 -29.802555 -110.21229
103906000 -29.267521 -105.12772 -0.079559766 -21.002115 -0.076878533 -20.996397 -29.646727 -110.11974
104905000 -29.117924 -105.0906 -0.079163 -21.201651 -0.076904349 -21.20171 -29.522575 -109.79897
105904000 -28.975483 -105.19936 -0.080104232 -21.400688 -0.077176273 -21.397837 -29.409405 -109.68154
106903000 -28.869484 -105.28648 -0.079555549 -21.60758 -0.077533074 -21.602118 -29.286404 -109.5509
107902000 -28.702343 -105.63329 -0.08040721 -21.806261 -0.077875666 -21.80221 -29.136738 -109.52719
108901000 -28.595293 -105.94067 -0.081830353 -22.007072 -0.079448514 -22.003513 -29.018391 -109.44928
109900000 -28.469919 -106.44339 -0.082963713 -22.2083 -0.080712579 -22.200417 -28.862677 -109.54694
110899000 -28.354094 -107.07121 -0.083910778 -22.404749 -0.081123464 -22.395823 -28.730375 -109.9119
111898000 -28.260729 -107.76854 -0.0848343 -22.605009 -0.082727045 -22.598007 -28.616308 -110.01858
112897000 -28.146074 -108.32556 -0.086608246 -22.805067 -0.083376661 -22.794209 -28.480347 -110.23483
113896000 -28.03364 -108.96323 -0.087410048 -23.006882 -0.085351437 -22.994745 -28.374147 -110.37015
114895000 -27.941347 -109.58324 -0.088836811 -23.203976 -0.085872598 -23.190418 -28.267864 -110.50624
115894000 -27.810476 -109.98698 -0.090325885 -23.40449 -0.087440424 -23.392134 -28.193213 -110.68071
116893000 -27.729279 -110.54427 -0.090255052 -23.598694 -0.088147014 -23.583702 -28.065918 -110.81889
117892000 -27.654257 -111.08296 -0.090869583 -23.793879 -0.088284649 -23.784735 -27.993074 -111.07792
118891000 -27.586386 -111.48485 -0.090709932 -23.997063 -0.089238159 -23.983934 -27.897276 -111.20322
119890000 -27.505423 -111.84428 -0.091818906 -24.199335 -0.089578509 -24.184351 -27.88933 -111.37238
120889000 -27.452814 -112.38138 -0.093309797 -24.399986 -0.090468876 -24.384167 -27.808947 -111.34528
121888000 -27.408037 -112.72321 -0.093521126 -24.596706 -0.090699621 -24.581831 -27.752104 -111.68173
122887000 -27.372189 -112.89797 -0.093420878 -24.79561 -0.091748051 -24.785894 -27.710197 -111.71859
123886000 -27.311058 -113.36746 -0.094510972 -25.000402 -0.091274299 -24.977716 -27.690712 -111.8936
124885000 -27.282375 -113.89523 -0.095183261 -25.196575 -0.092056334 -25.183945 -27.664371 -111.93644
125884000 -27.231136 -114.05787 -0.095963359 -25.397003 -0.092323922 -25.381767 -27.629608 -112.14675
126883000 -27.207146 -114.4696 -0.095664851 -25.598833 -0.093590423 -25.579042 -27.584869 -112.2038
127882000 -27.159338 -114.75645 -0.095991939 -25.797142 -0.093384914 -25.780968 -27.548023 -112.34304
128881000 -27.132778 -115.10335 -0.096744388 -25.99659 -0.093507372 -25.980635 -27.504633 -112.43525
129880000 -27.070852 -115.41364 -0.097159185 -26.197367 -0.093803346 -26.183666 -27.465303 -112.41748
130879000 -27.006157 -115.55775 -0.09705621 -26.398388 -0.094347484 -26.383415 -27.389862 -112.46051
131878000 -26.948626 -115.78755 -0.097136676 -26.598169 -0.094868399 -26.58326 -27.323111 -112.40552
132877000 -26.878418 -115.86884 -0.096479975 -26.800819 -0.095088802 -26.786228 -27.237656 -112.36861
133876000 -26.796627 -116.02117 -0.096805267 -27.00448 -0.094742469 -26.986969 -27.145071 -112.2705
134875000 -26.693705 -116.13323 -0.097894624 -27.200562 -0.09501604 -27.184513 -27.043215 -112.13445
135874000 -26.613239 -116.16673 -0.097205505 -27.40134 -0.09502662 -27.379881 -26.940346 -112.13297
136873000 -26.503469 -116.07417 -0.098167598 -27.604198 -0.09493164 -27.586382 -26.855406 -112.08936
137872000 -26.420027 -116.19705 -0.098256037 -27.804989 -0.094900414 -27.788811 -26.74518 -112.05139
138871000 -26.343338 -116.38365 -0.09916725 -28.000546 -0.094997518 -27.988298 -26.652231 -112.20374
139870000 -26.248396 -116.68163 -0.099190027 -28.206343 -0.097060181 -28.188057 -26.564342 -112.44158
140869000 -26.158714 -117.1293 -0.10137286 -28.402704 -0.098699041 -28.385157 -26.465088 -112.56601
141868000 -26.065796 -117.62434 -0.10108034 -28.593088 -0.099157982 -28.579208 -26.392731 -112.8832
142867000 -25.991781 -117.88591 -0.099177845 -28.79158 -0.097800106 -28.77417 -26.310989 -113.08489
143866000 -25.919636 -118.35062 -0.1017547 -28.987848 -0.09966518 -28.970903 -26.240473 -113.59373
144865000 -25.862507 -118.91466 -0.10239577 -29.18849 -0.1000874 -29.171249 -26.186377 -113.93568
145864000 -25.805645 -119.27107 -0.10318591 -29.388615 -0.10141949 -29.376856 -26.152809 -114.20359
146863000 -25.760723 -119.59165 -0.10423975 -29.585491 -0.10167759 -29.573107 -26.103289 -114.51408
147862000 -25.725771 -120.00883 -0.10552538 -29.782791 -0.10204197 -29.769403 -26.059565 -114.88753
148861000 -25.689327 -120.54829 -0.10512517 -29.975965 -0.10301335 -29.966375 -26.047247 -115.09081
149860000 -25.673473 -120.68977 -0.10575454 -30.179667 -0.10330706 -30.168959 -26.007814 -115.28585
150859000 -25.657516 -121.09679 -0.10626357 -30.378506 -0.10342848 -30.361811 -26.007818 -115.53799
151858000 -25.636951 -121.42696 -0.10584897 -30.582838 -0.1039656 -30.564438 -25.994211 -115.83956
152857000 -25.619053 -121.76779 -0.10709979 -30.773907 -0.10451392 -30.762808 -25.978529 -116.01254
153856000 -25.614674 -121.95941 -0.10590361 -30.976318 -0.10340144 -30.961149 -25.996817 -116.28762
154855000 -25.607513 -122.12941 -0.10694829 -31.173513 -0.10351861 -31.165201 -25.980261 -116.50938
155854000 -25.622183 -122.36803 -0.10701143 -31.374733 -0.10524955 -31.360371 -25.972363 -116.7775
156853000 -25.607767 -123.10541 -0.10505277 -31.559801 -0.10374661 -31.552353 -25.969526 -117.05833
157852000 -25.608547 -123.32607 -0.10626755 -31.758423 -0.1055893 -31.751692 -25.96018 -117.44238
158851000 -25.603769 -123.54237 -0.10708439 -31.95812 -0.10605533 -31.949299 -25.946966 -117.66867
159850000 -25.589436 -123.64869 -0.1073744 -32.156166 -0.10596886 -32.150665 -25.942335 -117.84134
160849000 -25.57057 -123.77997 -0.10830531 -32.35598 -0.10681086 -32.351551 -25.915476 -118.12468
161848000 -25.547876 -123.86744 -0.10777614 -32.556374 -0.10624102 -32.550327 -25.868227 -118.23512
162847000 -25.504353 -124.0749 -0.10862274 -32.753441 -0.10688276 -32.747868 -25.839706 -118.50127
163846000 -25.464754 -124.29292 -0.10805107 -32.955421 -0.1069398 -32.950058 -25.755802 -118.4541
164845000 -25.403624 -124.32017 -0.1090599 -33.154099 -0.10764267 -33.149281 -25.695404 -118.5899
165844000 -25.352509 -124.39848 -0.10928474 -33.352123 -0.10756677 -33.347897 -25.60928 -118.68921
166843000 -25.287271 -124.48705 -0.10870847 -33.54882 -0.10776394 -33.546329 -25.539625 -118.87827
167842000 -25.226788 -124.59288 -0.10972594 -33.749874 -0.10789609 -33.74334 -25.458551 -118.80942
168841000 -25.153833 -124.79816 -0.11026438 -33.951885 -0.10873687 -33.943642 -25.383066 -118.88381
169840000 -25.082497 -125.03648 -0.1099694 -34.142818 -0.10916528 -34.140244 -25.292706 -119.09076
170839000 -25.021688 -125.312 -0.11059363 -34.33955 -0.10883773 -34.336697 -25.209433 -119.27774
171838000 -24.967602 -125.76001 -0.11024819 -34.541382 -0.11003445 -34.534164 -25.141556 -119.5542
172837000 -24.897003 -126.11394 -0.11222831 -34.738232 -0.11123787 -34.732517 -25.076941 -119.76562
173836000 -24.826046 -126.56592 -0.11298518 -34.93626 -0.11218157 -34.932617 -25.029924 -119.98014
174835000 -24.77511 -126.9852 -0.11332633 -35.131962 -0.11283321 -35.130947 -24.98753 -120.30482
175834000 -24.726191 -127.39505 -0.11422662 -35.329113 -0.11395875 -35.325813 -24.923399 -120.61414
176833000 -24.67573 -127.76992 -0.11502424 -35.526394 -0.11435127 -35.524117 -24.871496 -120.80132
177832000 -24.624212 -128.26256 -0.11512551 -35.723927 -0.11462315 -35.721882 -24.851219 -120.95467
178831000 -24.589535 -128.63364 -0.11515768 -35.917999 -0.11474568 -35.912575 -24.812496 -121.20965
179830000 -24.558598 -129.08511 -0.11692411 -36.116001 -0.11509973 -36.117512 -24.785601 -121.34162
180829000 -24.516298 -129.30086 -0.11673585 -36.313385 -0.11572097 -36.313499 -24.756937 -121.51894
181828000 -24.489555 -129.63457 -0.11662948 -36.510735 -0.1160751 -36.511139 -24.740025 -121.65353
182827000 -24.466497 -130.0296 -0.11652791 -36.705463 -0.11675844 -36.702057 -24.732979 -121.71397
183826000 -24.424664 -130.34567 -0.11804991 -36.902515 -0.11669596 -36.901264 -24.719334 -121.86588
184825000 -24.433243 -130.64674 -0.1175802 -37.096527 -0.11703181 -37.104187 -24.701124 -121.94234
185824000 -24.405745 -130.9959 -0.11746637 -37.292992 -0.11718924 -37.294991 -24.698254 -121.998
186823000 -24.389666 -131.35257 -0.1180547 -37.494923 -0.11742647 -37.492172 -24.695066 -121.99249
187822000 -24.367212 -131.67592 -0.11859044 -37.68972 -0.11793288 -37.688614 -24.661379 -122.06816
188821000 -24.349291 -131.92134 -0.11820021 -37.88522 -0.1179108 -37.891132 -24.644323 -122.14695
189820000 -24.333151 -132.18567 -0.11859444 -38.086674 -0.11813849 -38.083645 -24.636766 -122.34409
190819000 -24.304728 -132.41846 -0.11982551 -38.286201 -0.1192513 -38.285248 -24.599831 -122.24963
191818000 -24.268473 -132.59935 -0.12107317 -38.479931 -0.1208645 -38.482296 -24.568521 -122.14964
192817000 -24.197096 -132.88776 -0.12155285 -38.663906 -0.1209864 -38.666649 -24.495741 -122.2382
193816000 -24.163244 -133.24075 -0.12050705 -38.857922 -0.12029334 -38.85606 -24.440392 -122.50452
194815000 -24.104811 -133.71175 -0.12104629 -39.054527 -0.12051184 -39.055416 -24.375031 -122.62364
195814000 -24.051544 -133.89203 -0.12197188 -39.253376 -0.12023319 -39.252991 -24.322571 -122.72715
196813000 -24.001669 -134.27022 -0.12068723 -39.444092 -0.11967783 -39.448528 -24.244371 -122.87651
197812000 -23.942043 -134.47769 -0.12121851 -39.644661 -0.12085331 -39.642456 -24.171965 -122.98823
198811000 -23.884832 -134.66042 -0.12129837 -39.839195 -0.11996761 -39.844074 -24.107018 -123.15425
199810000 -23.822126 -135.041 -0.12157681 -40.034767 -0.11977548 -40.035679 -24.028893 -123.25866
200809000 -23.760237 -135.30428 -0.12164123 -40.231392 -0.12051104 -40.23518 -23.948502 -123.4534
201808000 -23.703455 -135.54961 -0.12243675 -40.435791 -0.12152836 -40.436718 -23.876719 -123.53027
202807000 -23.641991 -135.91127 -0.12296478 -40.629612 -0.12241465 -40.632202 -23.821173 -123.7587
203806000 -23.594063 -136.37651 -0.12459027 -40.835533 -0.12293416 -40.833176 -23.760542 -123.91151
