!Keysight Technologies,E5080B,MY59205177,A.15.75.32
!Date: Friday, February 23, 2024 03:33:07
!Correction: S11(Cdelta 2-Port  ) 
!S21(Cdelta 2-Port  ) 
!S12(Cdelta 2-Port  ) 
!S22(Cdelta 2-Port  ) 
!S2P File: Measurements: S11, S21, S12, S22:
# Hz S  dB   R 50
10000000 -45.989918 -2.2187462 -0.014972078 -2.0494368 -0.0185371 -2.1020761 -45.907921 -158.15393
10999000 -45.285328 -4.858047 -0.01614996 -2.2654328 -0.018577915 -2.322823 -45.872868 -151.79643
11998000 -44.321011 -7.3667512 -0.016736941 -2.4891973 -0.018257905 -2.5329208 -46.068478 -147.43704
12997000 -43.558197 -13.062686 -0.015634241 -2.6702459 -0.017859159 -2.7046583 -45.729889 -141.6344
13996000 -43.320751 -16.855274 -0.014647917 -2.8504431 -0.018040592 -2.8717601 -45.459507 -136.44225
14995000 -42.861595 -21.302084 -0.017559215 -3.0615885 -0.018407639 -3.0839784 -45.232918 -133.25516
15994000 -42.720589 -25.543966 -0.018344989 -3.281848 -0.020334624 -3.3044066 -45.108501 -129.61618
16993000 -42.665134 -30.019793 -0.0180055 -3.475775 -0.019511566 -3.4835377 -44.214417 -129.0827
17992000 -42.717377 -35.435059 -0.018249586 -3.6775217 -0.019909423 -3.6778691 -43.670731 -129.49652
18991000 -42.983875 -40.840958 -0.019121025 -3.8883948 -0.020937519 -3.8855171 -43.06414 -128.2531
19990000 -42.718208 -46.507332 -0.021604493 -4.0992565 -0.02349516 -4.0908809 -42.353333 -129.01698
20989000 -42.610165 -49.660622 -0.023302048 -4.3012457 -0.024897687 -4.2910886 -41.817375 -128.37524
21988000 -42.427246 -54.996357 -0.023617744 -4.4969435 -0.02539498 -4.487258 -41.566109 -127.51845
22987000 -42.113846 -59.837772 -0.026022015 -4.6971536 -0.026384789 -4.687644 -41.299698 -127.06715
23986000 -42.038162 -64.021706 -0.02529734 -4.8906016 -0.026189206 -4.8894258 -41.18832 -126.64676
24985000 -41.647552 -66.819458 -0.025957173 -5.1049404 -0.025611881 -5.0991011 -41.007931 -124.57478
25984000 -41.270691 -68.858231 -0.027283911 -5.3068538 -0.027134912 -5.3096027 -40.679047 -123.04411
26983000 -40.992878 -70.986397 -0.027315691 -5.5055919 -0.027652001 -5.52391 -40.540302 -122.22274
27982000 -40.780613 -71.698051 -0.029234646 -5.7077866 -0.02894043 -5.7408051 -40.279587 -120.77527
28981000 -40.796715 -73.308739 -0.027212277 -5.9040437 -0.02956537 -5.9302325 -40.05407 -119.78264
29980000 -40.36591 -74.743233 -0.027329497 -6.0994329 -0.030138267 -6.1053171 -39.745884 -119.08179
30979000 -39.978035 -73.446877 -0.024860717 -6.4534478 -0.023735128 -6.4451542 -39.275539 -119.51114
31978000 -39.779427 -74.558556 -0.024418933 -6.6478968 -0.02523433 -6.6352015 -39.03397 -118.76191
32977000 -39.593655 -76.287537 -0.023861626 -6.8600345 -0.026061079 -6.8520145 -38.799164 -118.67642
33976000 -39.392563 -77.222404 -0.02488493 -7.0601134 -0.026832243 -7.0532947 -38.506622 -118.11203
34975000 -39.101986 -77.957291 -0.025039058 -7.2598395 -0.027778091 -7.2586412 -38.28476 -117.89953
35974000 -38.91869 -78.438255 -0.024042008 -7.4571991 -0.026631951 -7.4599447 -37.999081 -116.92049
36973000 -38.664375 -79.272682 -0.02467796 -7.6577921 -0.027577756 -7.6625843 -37.754566 -116.05998
37972000 -38.499886 -79.133827 -0.024086259 -7.8646879 -0.027937273 -7.8719158 -37.516533 -115.28406
38971000 -38.184628 -78.512863 -0.025044266 -8.0691662 -0.028056597 -8.0806437 -37.342922 -113.70071
39970000 -37.844578 -78.91523 -0.023478763 -8.2649841 -0.026505634 -8.2793159 -37.104713 -113.10932
40969000 -37.553608 -78.552666 -0.023795513 -8.4587393 -0.02736805 -8.4738588 -36.843067 -111.55293
41968000 -37.242393 -78.344391 -0.023225013 -8.6632795 -0.026831722 -8.6785727 -36.672062 -110.42248
42967000 -36.956951 -78.403595 -0.024521502 -8.8749704 -0.027158096 -8.8971081 -36.489838 -108.52645
43966000 -36.65699 -79.126213 -0.024403576 -9.0764694 -0.028130589 -9.0927563 -36.200047 -107.87906
44965000 -36.424446 -80.003227 -0.025581416 -9.2734442 -0.027947433 -9.2956505 -35.982307 -107.67683
45964000 -36.199963 -80.961739 -0.026612937 -9.4805555 -0.029081151 -9.5025291 -35.753567 -107.29912
46963000 -35.99461 -82.840355 -0.026716338 -9.6705828 -0.029974576 -9.6957226 -35.570164 -107.54565
47962000 -35.841228 -84.31382 -0.028559202 -9.8757668 -0.031466026 -9.8930454 -35.363316 -107.45851
48961000 -35.608921 -85.661484 -0.030736009 -10.071598 -0.032695595 -10.094563 -35.130978 -107.75564
49960000 -35.401806 -86.98864 -0.031948946 -10.271063 -0.033759855 -10.295494 -34.987461 -107.70173
50959000 -35.159611 -88.267403 -0.032634828 -10.483929 -0.035032615 -10.498209 -34.82 -108.11128
51958000 -34.962177 -89.376266 -0.0343307 -10.685636 -0.036384318 -10.69106 -34.64325 -108.44128
52957000 -34.740952 -90.357574 -0.035699148 -10.88419 -0.037534077 -10.892837 -34.491447 -108.2001
53956000 -34.564301 -91.044518 -0.037103534 -11.086143 -0.038187675 -11.08946 -34.340385 -108.16715
54955000 -34.402588 -91.561295 -0.037671946 -11.290665 -0.039582159 -11.285028 -34.194614 -108.18239
55954000 -34.22744 -92.397987 -0.038936187 -11.489758 -0.040003542 -11.488207 -34.10284 -107.7539
56953000 -34.101662 -92.401276 -0.038490355 -11.685686 -0.038952902 -11.673196 -34.013531 -108.06984
57952000 -33.933781 -93.029282 -0.040492639 -11.882792 -0.039687697 -11.877164 -33.91935 -108.05334
58951000 -33.822628 -93.32386 -0.040866554 -12.087605 -0.040659342 -12.072474 -33.767681 -108.20869
59950000 -33.697197 -93.623894 -0.041026216 -12.28702 -0.041800305 -12.27146 -33.683994 -108.39662
60949000 -33.58905 -94.269653 -0.041277349 -12.493443 -0.041764498 -12.469936 -33.61013 -108.61589
61948000 -33.530521 -94.584915 -0.042099837 -12.692916 -0.041472305 -12.674079 -33.519569 -108.71749
62947000 -33.434315 -94.787659 -0.04211029 -12.902685 -0.04295516 -12.884521 -33.365131 -109.00465
63946000 -33.357239 -95.507584 -0.043049276 -13.103018 -0.043631278 -13.084657 -33.270287 -109.10958
64945000 -33.256668 -95.656624 -0.043783721 -13.3061 -0.044173606 -13.284198 -33.159641 -109.6031
65944000 -33.152458 -95.956451 -0.044833962 -13.504997 -0.044499978 -13.486845 -33.060703 -110.10927
66943000 -32.992855 -96.302727 -0.042694259 -13.703971 -0.042727459 -13.688142 -32.963478 -110.36308
67942000 -32.939007 -96.268509 -0.044815131 -13.906125 -0.044892285 -13.890119 -32.83136 -110.65936
68941000 -32.829441 -96.362022 -0.044423614 -14.094791 -0.044244476 -14.087923 -32.727268 -110.60915
69940000 -32.739033 -96.390854 -0.044256769 -14.2963 -0.044960026 -14.289344 -32.587509 -110.89129
70939000 -32.630932 -96.300423 -0.044654019 -14.491489 -0.044618189 -14.48524 -32.446201 -110.79798
71938000 -32.495655 -95.941193 -0.04445212 -14.688735 -0.044826377 -14.683825 -32.320812 -110.61132
72937000 -32.32626 -95.713699 -0.043320399 -14.88592 -0.044221204 -14.881866 -32.181149 -110.4022
73936000 -32.204563 -95.321075 -0.043997355 -15.090635 -0.044088881 -15.07997 -32.071987 -110.13808
74935000 -32.068787 -95.539276 -0.04277765 -15.283493 -0.0425165 -15.280381 -31.918877 -109.82512
75934000 -31.944679 -95.790085 -0.043506555 -15.491559 -0.042541333 -15.481174 -31.823483 -109.72747
76933000 -31.81949 -96.130081 -0.04406064 -15.68453 -0.044828728 -15.679748 -31.655479 -110.10299
77932000 -31.712109 -96.910362 -0.045157503 -15.881214 -0.046140056 -15.877422 -31.549786 -110.03339
78931000 -31.631275 -97.703094 -0.044380985 -16.082928 -0.045150444 -16.077209 -31.446829 -109.89291
79930000 -31.520691 -98.518898 -0.04709509 -16.27512 -0.047105033 -16.274797 -31.351025 -110.20753
80929000 -31.405178 -99.373032 -0.048446625 -16.473307 -0.048532225 -16.470495 -31.252516 -110.38916
81928000 -31.31319 -99.988533 -0.048538506 -16.663216 -0.049099252 -16.661295 -31.118862 -110.38553
82927000 -31.209633 -100.78183 -0.050245576 -16.863886 -0.050509028 -16.859705 -31.015991 -110.67928
83926000 -31.089022 -101.43006 -0.052257478 -17.060856 -0.052081425 -17.06181 -30.897718 -110.86201
84925000 -30.984682 -101.90629 -0.052457649 -17.26071 -0.051593117 -17.26189 -30.796921 -110.87146
85924000 -30.896215 -102.28732 -0.053577602 -17.460363 -0.053456787 -17.458565 -30.70796 -110.89816
86923000 -30.779665 -102.80647 -0.054355506 -17.658415 -0.053867988 -17.652279 -30.60545 -110.78289
87922000 -30.672037 -103.08174 -0.053620059 -17.86661 -0.053056631 -17.85965 -30.522804 -110.77046
88921000 -30.600901 -103.40237 -0.054362059 -18.065105 -0.053963128 -18.061251 -30.426386 -110.76636
89920000 -30.499706 -103.89977 -0.054892361 -18.266048 -0.054380406 -18.257071 -30.375959 -110.90109
90919000 -30.389599 -104.16625 -0.056493882 -18.460232 -0.054911759 -18.456165 -30.28595 -111.0976
91918000 -30.288946 -104.52066 -0.056857899 -18.660717 -0.055826247 -18.660854 -30.20953 -111.10827
92917000 -30.205135 -104.82728 -0.058731966 -18.863316 -0.057071652 -18.857311 -30.15601 -111.1871
93916000 -30.11968 -105.15466 -0.057338666 -19.054956 -0.056765579 -19.047979 -30.070459 -111.79836
94915000 -30.040079 -105.77999 -0.058777623 -19.254436 -0.057667866 -19.251936 -30.004168 -111.64078
95914000 -29.968836 -105.95992 -0.059819423 -19.451977 -0.058875229 -19.447523 -29.920361 -111.91405
96913000 -29.880129 -106.2423 -0.061199602 -19.651609 -0.05977428 -19.648775 -29.84831 -112.28441
97912000 -29.814138 -106.66315 -0.061795332 -19.847824 -0.060040936 -19.851366 -29.773024 -112.49277
98911000 -29.6952 -106.82558 -0.062038742 -20.049461 -0.060997456 -20.046289 -29.731009 -112.72132
99910000 -29.636179 -106.95987 -0.062653758 -20.251457 -0.061849684 -20.249123 -29.62491 -113.01254
100909000 -29.539547 -107.20123 -0.062512733 -20.458006 -0.060778521 -20.449951 -29.541336 -113.18462
101908000 -29.452776 -107.45622 -0.063451149 -20.654942 -0.06259913 -20.654463 -29.426813 -112.99251
102907000 -29.314398 -107.44337 -0.063827567 -20.855894 -0.062403221 -20.85405 -29.350979 -113.04693
103906000 -29.220102 -107.49482 -0.064813562 -21.063877 -0.062595978 -21.060192 -29.207125 -112.95909
104905000 -29.069712 -107.36135 -0.064960182 -21.260441 -0.062485155 -21.261707 -29.084661 -112.65626
105904000 -28.931154 -107.45361 -0.065338045 -21.465538 -0.06283287 -21.460314 -28.969193 -112.5431
106903000 -28.823986 -107.54926 -0.065406375 -21.669373 -0.063711725 -21.663784 -28.848579 -112.40486
107902000 -28.662064 -107.84528 -0.065987438 -21.873188 -0.064067148 -21.864212 -28.713875 -112.33466
108901000 -28.551037 -108.12409 -0.066867977 -22.071342 -0.064663276 -22.066965 -28.578011 -112.32611
109900000 -28.428425 -108.57929 -0.067410327 -22.27467 -0.066661105 -22.262957 -28.428032 -112.40345
110899000 -28.311447 -109.18527 -0.069102742 -22.471006 -0.066709466 -22.460033 -28.302559 -112.65633
111898000 -28.220751 -109.82635 -0.070649788 -22.671751 -0.067634068 -22.665823 -28.188965 -112.81358
112897000 -28.09638 -110.38833 -0.071812078 -22.872576 -0.068491548 -22.859613 -28.055429 -112.93935
113896000 -27.993082 -110.93053 -0.073591769 -23.071236 -0.07031592 -23.060312 -27.946724 -113.13413
114895000 -27.886572 -111.57416 -0.074442789 -23.272289 -0.071333654 -23.256943 -27.840454 -113.11796
115894000 -27.760757 -111.96368 -0.07515306 -23.47337 -0.072790414 -23.458256 -27.76895 -113.35632
116893000 -27.690603 -112.40002 -0.076380573 -23.665594 -0.073457763 -23.653038 -27.649904 -113.36839
117892000 -27.600254 -112.91473 -0.076367401 -23.865595 -0.073879816 -23.856991 -27.571119 -113.56527
118891000 -27.554644 -113.31881 -0.076175615 -24.062517 -0.073941953 -24.054022 -27.475996 -113.66265
119890000 -27.464924 -113.70406 -0.077802397 -24.267736 -0.074828587 -24.252359 -27.460627 -113.83394
120889000 -27.411613 -114.23161 -0.078396194 -24.471642 -0.075506002 -24.45277 -27.387123 -113.76157
121888000 -27.374899 -114.52567 -0.078466564 -24.664726 -0.07579127 -24.654469 -27.333818 -114.03967
122887000 -27.328487 -114.74261 -0.079817355 -24.86681 -0.077055596 -24.854504 -27.282866 -114.03926
123886000 -27.279816 -115.14997 -0.079952091 -25.071966 -0.07703346 -25.051758 -27.273661 -114.20387
124885000 -27.241711 -115.63203 -0.080610789 -25.271217 -0.076969698 -25.254436 -27.242495 -114.23471
125884000 -27.191864 -115.83347 -0.081334203 -25.46846 -0.078070164 -25.454287 -27.215611 -114.37584
126883000 -27.17872 -116.24207 -0.081534922 -25.669443 -0.078805804 -25.656536 -27.178955 -114.38005
127882000 -27.125448 -116.53494 -0.081942193 -25.870632 -0.079396307 -25.852812 -27.137804 -114.51505
128881000 -27.095551 -116.822 -0.08191397 -26.072252 -0.079250522 -26.057039 -27.100067 -114.61924
129880000 -27.041616 -117.16016 -0.082893789 -26.273872 -0.079285853 -26.257141 -27.053858 -114.59331
130879000 -26.980711 -117.29787 -0.082517035 -26.475979 -0.080310695 -26.457577 -26.980801 -114.63174
131878000 -26.915779 -117.51592 -0.083146565 -26.678425 -0.080378994 -26.657955 -26.921364 -114.46114
132877000 -26.847652 -117.60321 -0.082477458 -26.878708 -0.080259539 -26.860811 -26.843384 -114.45245
133876000 -26.765005 -117.79776 -0.08283522 -27.081491 -0.080313593 -27.062687 -26.759809 -114.33482
134875000 -26.673712 -117.87713 -0.083528392 -27.281286 -0.081359521 -27.264519 -26.658531 -114.19919
135874000 -26.590267 -117.88821 -0.083755076 -27.482462 -0.081228964 -27.465672 -26.563736 -114.15294
136873000 -26.480974 -117.86971 -0.083471395 -27.684542 -0.081134282 -27.667219 -26.481136 -114.10342
137872000 -26.389296 -117.99547 -0.083311215 -27.885408 -0.081549957 -27.872793 -26.377319 -114.07281
138871000 -26.320477 -118.21362 -0.083857998 -28.082991 -0.082158245 -28.066322 -26.278786 -114.17924
139870000 -26.220882 -118.47258 -0.084484823 -28.287851 -0.082235008 -28.265112 -26.2034 -114.36913
140869000 -26.148327 -119.06246 -0.085426413 -28.484901 -0.082453713 -28.467255 -26.09857 -114.56645
141868000 -26.061552 -119.42181 -0.0864131 -28.682253 -0.084277101 -28.670601 -26.047552 -114.80724
142867000 -25.982634 -119.61373 -0.085023567 -28.877186 -0.083501212 -28.859869 -25.967052 -114.98763
143866000 -25.905375 -120.09471 -0.087057725 -29.07547 -0.085044153 -29.059908 -25.893644 -115.40493
144865000 -25.851337 -120.62546 -0.088867195 -29.273197 -0.086555958 -29.258503 -25.836952 -115.70536
145864000 -25.796986 -120.88988 -0.088651337 -29.477823 -0.087746821 -29.465162 -25.802523 -115.9613
146863000 -25.75511 -121.28172 -0.089691348 -29.677299 -0.088617258 -29.663843 -25.756901 -116.21618
147862000 -25.715658 -121.63577 -0.091045894 -29.873434 -0.088923208 -29.862049 -25.723001 -116.57523
148861000 -25.68232 -122.06875 -0.092354067 -30.076622 -0.090357333 -30.058714 -25.700163 -116.68382
149860000 -25.650444 -122.23005 -0.092884533 -30.264858 -0.091271915 -30.254179 -25.647039 -116.81115
150859000 -25.623659 -122.69544 -0.092649169 -30.459885 -0.090464644 -30.450674 -25.630983 -117.17869
151858000 -25.613815 -123.03625 -0.09204682 -30.661669 -0.090882532 -30.651205 -25.617352 -117.51923
152857000 -25.598766 -123.38365 -0.092361473 -30.859219 -0.090659447 -30.84841 -25.60305 -117.67904
153856000 -25.596973 -123.60403 -0.092039414 -31.065132 -0.090520151 -31.04707 -25.619467 -117.99191
154855000 -25.591764 -123.77109 -0.09271846 -31.260513 -0.090566665 -31.252102 -25.609018 -118.20287
155854000 -25.611568 -124.00099 -0.092491038 -31.460211 -0.090772048 -31.449701 -25.599598 -118.50157
156853000 -25.594963 -124.68845 -0.090699881 -31.647545 -0.090342537 -31.638281 -25.600485 -118.80094
157852000 -25.604897 -124.92386 -0.092030689 -31.848131 -0.091713682 -31.840916 -25.587511 -119.14214
158851000 -25.601604 -125.15095 -0.092788801 -32.051495 -0.092004515 -32.038738 -25.572229 -119.41386
159850000 -25.594566 -125.22183 -0.093018346 -32.248299 -0.091799341 -32.239483 -25.574011 -119.58791
160849000 -25.573875 -125.30692 -0.093351059 -32.44725 -0.092827149 -32.44302 -25.541052 -119.90372
161848000 -25.557756 -125.39812 -0.093729816 -32.64761 -0.092826352 -32.643257 -25.504847 -119.97618
162847000 -25.519897 -125.58868 -0.094088763 -32.846973 -0.093336247 -32.84486 -25.481813 -120.24117
163846000 -25.479099 -125.77362 -0.094378963 -33.049641 -0.093074948 -33.042084 -25.402294 -120.26638
164845000 -25.423243 -125.74355 -0.094432667 -33.247471 -0.093544662 -33.241264 -25.339724 -120.36187
165844000 -25.361126 -125.79575 -0.094674736 -33.446423 -0.094131358 -33.438858 -25.263672 -120.5082
166843000 -25.306509 -125.8588 -0.094199076 -33.647541 -0.093062781 -33.640156 -25.198496 -120.68127
167842000 -25.248055 -125.98385 -0.094960473 -33.847401 -0.09385784 -33.838871 -25.115145 -120.58807
168841000 -25.170187 -126.1129 -0.094869465 -34.04528 -0.093958355 -34.041752 -25.045275 -120.66622
169840000 -25.105614 -126.37839 -0.095116057 -34.24453 -0.095473528 -34.240932 -24.960875 -120.85139
170839000 -25.047638 -126.59999 -0.096161582 -34.441715 -0.095351547 -34.440689 -24.877678 -121.04571
171838000 -24.988235 -127.01696 -0.095860146 -34.644268 -0.096297614 -34.634949 -24.810488 -121.22479
172837000 -24.918951 -127.33671 -0.097554423 -34.838467 -0.096936822 -34.832333 -24.746984 -121.45292
173836000 -24.85018 -127.7251 -0.0991797 -35.038815 -0.098499119 -35.038261 -24.70137 -121.67041
174835000 -24.797615 -128.13678 -0.099692725 -35.235508 -0.098344743 -35.235432 -24.654287 -122.00001
175834000 -24.746592 -128.4893 -0.10020766 -35.435791 -0.1002972 -35.431343 -24.600836 -122.24142
176833000 -24.698389 -128.83556 -0.10124832 -35.632736 -0.10008263 -35.630913 -24.548433 -122.38947
177832000 -24.65239 -129.27008 -0.101791 -35.832829 -0.10146666 -35.831562 -24.531898 -122.48795
178831000 -24.60988 -129.52109 -0.10354141 -36.029102 -0.10322011 -36.02903 -24.488012 -122.5799
179830000 -24.537989 -129.88014 -0.10509945 -36.211849 -0.10389242 -36.217316 -24.424953 -122.59967
180829000 -24.487076 -130.2637 -0.10447097 -36.404686 -0.10330441 -36.403091 -24.385359 -122.95412
181828000 -24.460943 -130.68364 -0.10297306 -36.607883 -0.10295504 -36.606052 -24.364311 -123.16985
182827000 -24.435034 -131.06168 -0.10339136 -36.807259 -0.10288797 -36.804028 -24.353113 -123.27563
183826000 -24.39917 -131.37804 -0.10379804 -37.003204 -0.10201838 -36.996243 -24.342522 -123.41486
184825000 -24.401867 -131.74107 -0.10369517 -37.202381 -0.10275888 -37.198456 -24.323317 -123.56912
185824000 -24.378115 -132.08696 -0.10344995 -37.393871 -0.10392901 -37.39629 -24.320427 -123.61716
186823000 -24.353962 -132.43481 -0.10361139 -37.595055 -0.10341204 -37.596081 -24.310839 -123.61034
187822000 -24.328104 -132.77861 -0.10425248 -37.79393 -0.10366999 -37.78957 -24.271029 -123.68208
188821000 -24.307037 -133.06841 -0.10432407 -37.985645 -0.10458287 -37.992783 -24.253019 -123.83416
189820000 -24.285322 -133.38495 -0.10481755 -38.186062 -0.10430047 -38.187008 -24.235252 -124.02021
190819000 -24.25749 -133.63637 -0.10503554 -38.38504 -0.1050289 -38.384834 -24.19858 -124.06529
191818000 -24.219372 -133.94057 -0.10529888 -38.582886 -0.10495651 -38.58427 -24.170341 -124.11938
192817000 -24.180552 -134.21234 -0.10628293 -38.780186 -0.10515355 -38.780159 -24.127207 -124.18246
193816000 -24.145969 -134.46425 -0.10617152 -38.976429 -0.10467064 -38.976101 -24.073326 -124.34589
194815000 -24.082861 -134.87833 -0.10639382 -39.169563 -0.10612616 -39.171471 -24.008762 -124.41519
195814000 -24.026453 -135.06131 -0.10704725 -39.363895 -0.1061893 -39.369724 -23.957754 -124.52129
196813000 -23.972322 -135.40134 -0.10691274 -39.55962 -0.10545032 -39.567173 -23.8703 -124.65206
197812000 -23.916288 -135.56479 -0.10695943 -39.756233 -0.10636251 -39.754814 -23.801706 -124.76299
198811000 -23.861269 -135.75208 -0.10675594 -39.956539 -0.10657952 -39.960655 -23.735319 -124.92021
199810000 -23.792606 -136.10896 -0.10704433 -40.15033 -0.10592218 -40.151943 -23.652367 -125.02341
200809000 -23.737501 -136.37108 -0.10708334 -40.349697 -0.10667874 -40.349232 -23.578655 -125.20889
201808000 -23.673346 -136.56966 -0.10860495 -40.549759 -0.10725924 -40.551361 -23.510443 -125.26607
202807000 -23.618155 -136.89844 -0.10882074 -40.751663 -0.10805054 -40.757065 -23.456978 -125.45037
