!Keysight Technologies,E5080B,MY59205177,A.15.75.32
!Date: Friday, February 23, 2024 02:54:53
!Correction: S11(Cdelta 2-Port  ) 
!S21(Cdelta 2-Port  ) 
!S12(Cdelta 2-Port  ) 
!S22(Cdelta 2-Port  ) 
!S2P File: Measurements: S11, S21, S12, S22:
# Hz S  dB   R 50
10000000 -43.764755 -3.7880051 -0.030408844 -2.0419662 -0.033709247 -2.0986137 -48.689514 -147.59605
10999000 -43.119713 -5.2263875 -0.031938255 -2.2602398 -0.033067014 -2.3160331 -48.405922 -139.72314
11998000 -42.341003 -7.9399834 -0.032078028 -2.4815862 -0.033088405 -2.5248902 -48.501427 -133.69341
12997000 -41.749592 -12.239573 -0.031716604 -2.6663625 -0.032913122 -2.6940095 -47.75827 -127.52186
13996000 -41.510456 -15.782367 -0.030587412 -2.8414652 -0.032832265 -2.8622105 -47.29641 -121.54867
14995000 -41.183182 -19.07999 -0.032513551 -3.0529802 -0.032714896 -3.0783083 -46.789093 -118.7401
15994000 -41.142036 -22.667387 -0.033144746 -3.2691488 -0.034266774 -3.2910972 -46.548119 -115.04286
16993000 -41.096306 -26.421837 -0.032679427 -3.466347 -0.034072403 -3.4727538 -45.606251 -116.1545
17992000 -41.174797 -30.648603 -0.033459593 -3.6605384 -0.034905531 -3.6677544 -44.98774 -116.89513
18991000 -41.451363 -35.205162 -0.034166064 -3.8782334 -0.035650082 -3.871119 -44.281761 -117.05931
19990000 -41.403355 -39.974926 -0.036436785 -4.0858927 -0.037669335 -4.0768862 -43.540825 -118.87708
20989000 -41.258602 -42.76078 -0.038483303 -4.2867756 -0.039673328 -4.2735744 -42.956421 -118.31568
21988000 -41.223366 -47.400005 -0.039318848 -4.4857521 -0.040459458 -4.4682312 -42.678883 -117.98322
22987000 -41.028046 -51.622181 -0.040496819 -4.6840863 -0.041509416 -4.6729846 -42.403999 -117.99889
23986000 -41.05896 -55.447701 -0.039829813 -4.8771353 -0.040513802 -4.8734107 -42.250309 -117.58381
24985000 -40.771526 -58.011181 -0.040912021 -5.0819583 -0.040874131 -5.080399 -42.000973 -115.65469
25984000 -40.526447 -60.36375 -0.042072915 -5.2908263 -0.041608989 -5.2896023 -41.617176 -114.14755
26983000 -40.28891 -62.21851 -0.042596228 -5.4909244 -0.042220596 -5.5033717 -41.488892 -113.40905
27982000 -40.14518 -63.298019 -0.043728024 -5.6885877 -0.044266704 -5.7216434 -41.175014 -111.89741
28981000 -40.128036 -64.721497 -0.042269997 -5.8864079 -0.043806992 -5.9100614 -40.915661 -111.5778
29980000 -39.775742 -66.601639 -0.041973852 -6.0761623 -0.043633368 -6.0850925 -40.602947 -110.70938
30979000 -39.389584 -65.583313 -0.039371613 -6.4295912 -0.038477037 -6.4175572 -40.088406 -111.51285
31978000 -39.218121 -66.672272 -0.03869668 -6.6277337 -0.040038288 -6.6166124 -39.799362 -111.00498
32977000 -39.05822 -68.189766 -0.038806636 -6.8405976 -0.04030478 -6.8310156 -39.55328 -111.22479
33976000 -38.930992 -69.671883 -0.04001138 -7.0346484 -0.040814552 -7.0324464 -39.223743 -110.8467
34975000 -38.634796 -70.449814 -0.039602272 -7.2375436 -0.041325957 -7.2372131 -38.988255 -110.62109
35974000 -38.453224 -71.306938 -0.038701382 -7.4300694 -0.041161578 -7.4371371 -38.684162 -109.80429
36973000 -38.230991 -72.159943 -0.039895386 -7.629786 -0.042329859 -7.6342282 -38.387508 -109.13065
37972000 -38.070442 -72.057701 -0.039107792 -7.839488 -0.041979864 -7.8475075 -38.142563 -108.52782
38971000 -37.747578 -71.851898 -0.040354162 -8.0444317 -0.042110816 -8.0553732 -37.947861 -106.96179
39970000 -37.41824 -72.327026 -0.038739774 -8.2364168 -0.040659342 -8.2511501 -37.667301 -106.66055
40969000 -37.133224 -72.22728 -0.039349932 -8.4269505 -0.041333534 -8.4487352 -37.36124 -105.25848
41968000 -36.801414 -72.569992 -0.038977977 -8.6341572 -0.0410432 -8.6504726 -37.150623 -104.05981
42967000 -36.535568 -72.725525 -0.038336795 -8.8491611 -0.041561946 -8.8696823 -36.944077 -102.31937
43966000 -36.2673 -73.691193 -0.039874747 -9.0462246 -0.042486437 -9.0706358 -36.633663 -101.65395
44965000 -36.044067 -74.600883 -0.040398579 -9.2472172 -0.042478595 -9.2707558 -36.417004 -101.76085
45964000 -35.846371 -75.773232 -0.041750122 -9.4509516 -0.044244736 -9.4654322 -36.177719 -101.38905
46963000 -35.673912 -77.80677 -0.042045992 -9.6440439 -0.044569023 -9.6620598 -36.001999 -102.00943
47962000 -35.53616 -79.226295 -0.04311882 -9.8456554 -0.045726448 -9.8640518 -35.797207 -102.16118
48961000 -35.358097 -80.555305 -0.045987532 -10.039272 -0.046991989 -10.064039 -35.551128 -102.48322
49960000 -35.141441 -82.195923 -0.046571232 -10.238791 -0.04862044 -10.262826 -35.427185 -102.81438
50959000 -34.935646 -83.587646 -0.047112886 -10.454782 -0.049643572 -10.464694 -35.245758 -103.08794
51958000 -34.755741 -84.750458 -0.04969437 -10.64942 -0.050972857 -10.662168 -35.07428 -103.79518
52957000 -34.559029 -85.918282 -0.050807588 -10.852433 -0.051554348 -10.859645 -34.912704 -103.59003
53956000 -34.401241 -86.584396 -0.051329862 -11.050169 -0.052394766 -11.056803 -34.776962 -103.54609
54955000 -34.244789 -87.220314 -0.05214823 -11.252502 -0.05345941 -11.249866 -34.626591 -103.64112
55954000 -34.095463 -88.140228 -0.053660944 -11.459069 -0.054241747 -11.450565 -34.513924 -103.45506
56953000 -33.97485 -88.223915 -0.053612981 -11.649912 -0.053046677 -11.640462 -34.438454 -103.65328
57952000 -33.817871 -88.881256 -0.054791171 -11.851608 -0.054782256 -11.838525 -34.344418 -103.91881
58951000 -33.696674 -89.300934 -0.055262271 -12.053499 -0.054964714 -12.034123 -34.185547 -103.98842
59950000 -33.57029 -89.677124 -0.05645664 -12.254096 -0.055701699 -12.229587 -34.112934 -104.22965
60949000 -33.474781 -90.268829 -0.056869701 -12.455318 -0.056925301 -12.430239 -34.024666 -104.56051
61948000 -33.424664 -90.554291 -0.05672178 -12.65247 -0.056902483 -12.634875 -33.935429 -104.73595
62947000 -33.332119 -90.819061 -0.057506282 -12.86396 -0.056884125 -12.845203 -33.79253 -105.06369
63946000 -33.256531 -91.593872 -0.058392193 -13.064007 -0.057669964 -13.044019 -33.684464 -105.21281
64945000 -33.15197 -91.706131 -0.058551189 -13.262749 -0.058845319 -13.24487 -33.573746 -105.73766
65944000 -33.054237 -92.047028 -0.05948481 -13.463243 -0.058980975 -13.449087 -33.482666 -106.15189
66943000 -32.92429 -92.486061 -0.05700241 -13.665344 -0.057165291 -13.647363 -33.380314 -106.33546
67942000 -32.85593 -92.434097 -0.059567217 -13.860346 -0.059240498 -13.850604 -33.255669 -106.68162
68941000 -32.744488 -92.519073 -0.058219299 -14.055206 -0.057993155 -14.045539 -33.153015 -106.65299
69940000 -32.652897 -92.581963 -0.059116639 -14.255513 -0.059063107 -14.24348 -33.007576 -107.0165
70939000 -32.544758 -92.571716 -0.059016924 -14.451847 -0.05885319 -14.437901 -32.87878 -106.90326
71938000 -32.392555 -92.159424 -0.059898421 -14.642489 -0.05871255 -14.643997 -32.741081 -106.78812
72937000 -32.239662 -92.028046 -0.057758369 -14.844061 -0.057913668 -14.838854 -32.59808 -106.54166
73936000 -32.094162 -91.696236 -0.058223233 -15.041089 -0.05771587 -15.031433 -32.485107 -106.33622
74935000 -31.97584 -91.993698 -0.058013353 -15.236276 -0.056819081 -15.234487 -32.332832 -106.00397
75934000 -31.864553 -92.23613 -0.057975054 -15.449316 -0.057184175 -15.446348 -32.245312 -105.99531
76933000 -31.729424 -92.756248 -0.058754794 -15.639446 -0.058329489 -15.630224 -32.074921 -106.4022
77932000 -31.637632 -93.528633 -0.060668267 -15.834767 -0.059959047 -15.828733 -31.97522 -106.40829
78931000 -31.56473 -94.234467 -0.05846959 -16.036119 -0.058966018 -16.031496 -31.87277 -106.27194
79930000 -31.453978 -95.09877 -0.061322469 -16.227859 -0.061812397 -16.226604 -31.78266 -106.61927
80929000 -31.332371 -96.034584 -0.062731229 -16.418509 -0.062988348 -16.419472 -31.680536 -107.00966
81928000 -31.261469 -96.902222 -0.06277325 -16.614386 -0.063620575 -16.613281 -31.55995 -107.07223
82927000 -31.159815 -97.637123 -0.064440213 -16.814991 -0.065181956 -16.813822 -31.465891 -107.4314
83926000 -31.059706 -98.391792 -0.066199273 -17.013819 -0.066217676 -17.01368 -31.337978 -107.61316
84925000 -30.957994 -98.840614 -0.066821977 -17.21011 -0.066123582 -17.207058 -31.252256 -107.77062
85924000 -30.860493 -99.445236 -0.068407394 -17.413258 -0.067707166 -17.40803 -31.162067 -107.78912
86923000 -30.764515 -99.897652 -0.06836874 -17.608784 -0.067971148 -17.598156 -31.061054 -107.69815
87922000 -30.65461 -100.30956 -0.068324298 -17.813196 -0.06757886 -17.806995 -30.977074 -107.78125
88921000 -30.589951 -100.62317 -0.069383912 -18.011061 -0.068820804 -18.007614 -30.870668 -107.74091
89920000 -30.494452 -101.22841 -0.070070729 -18.209625 -0.068917319 -18.201941 -30.833467 -107.97618
90919000 -30.394522 -101.52867 -0.071043149 -18.405743 -0.069181122 -18.402151 -30.742462 -108.26027
91918000 -30.305847 -101.87957 -0.071307071 -18.605328 -0.069904208 -18.601318 -30.677954 -108.26804
92917000 -30.214901 -102.2318 -0.072190017 -18.805439 -0.07142365 -18.802734 -30.601223 -108.37593
93916000 -30.136328 -102.62832 -0.071987882 -18.996998 -0.071222603 -18.99357 -30.518162 -109.0472
94915000 -30.054483 -103.3082 -0.073500417 -19.200914 -0.072207913 -19.195869 -30.457293 -108.93204
95914000 -29.988493 -103.48557 -0.074642666 -19.39323 -0.073218718 -19.393997 -30.371832 -109.1676
96913000 -29.909081 -103.71502 -0.075762033 -19.594208 -0.074280314 -19.593531 -30.302105 -109.52283
97912000 -29.837765 -104.24453 -0.076390058 -19.786413 -0.074175514 -19.788727 -30.229198 -109.76401
98911000 -29.728518 -104.4127 -0.077380233 -19.990444 -0.075762562 -19.989964 -30.18854 -109.95874
99910000 -29.671537 -104.58563 -0.077992149 -20.185783 -0.075983047 -20.187635 -30.064825 -110.24647
100909000 -29.573202 -104.83466 -0.077075623 -20.396002 -0.075158067 -20.39209 -29.986166 -110.50046
101908000 -29.495531 -105.06984 -0.078442849 -20.594898 -0.077492222 -20.595211 -29.871687 -110.2506
102907000 -29.356245 -105.1291 -0.078481331 -20.793962 -0.076969698 -20.793055 -29.795097 -110.18318
103906000 -29.256773 -105.18456 -0.078852467 -21.002337 -0.076325782 -20.995724 -29.656073 -110.14407
104905000 -29.113739 -105.10565 -0.080058612 -21.196932 -0.076732829 -21.201962 -29.523355 -109.79411
105904000 -28.972643 -105.20386 -0.079345427 -21.398895 -0.076990515 -21.393238 -29.397007 -109.70152
106903000 -28.871721 -105.3309 -0.079477511 -21.608366 -0.07818903 -21.601233 -29.281729 -109.57999
107902000 -28.699488 -105.6646 -0.080852084 -21.804882 -0.077952355 -21.799622 -29.132711 -109.52213
108901000 -28.595476 -105.92728 -0.081545211 -22.011185 -0.07932803 -22.000238 -29.005627 -109.47112
109900000 -28.473404 -106.47298 -0.081467666 -22.209459 -0.080478936 -22.198223 -28.853426 -109.52475
110899000 -28.353146 -107.07381 -0.083197489 -22.4044 -0.080931999 -22.396635 -28.731049 -109.89902
111898000 -28.263741 -107.80077 -0.084674604 -22.60552 -0.082174338 -22.600422 -28.613317 -110.05189
112897000 -28.146355 -108.35712 -0.086679809 -22.804714 -0.083704405 -22.79631 -28.474184 -110.26134
113896000 -28.039768 -108.94206 -0.087051384 -23.005316 -0.084581159 -22.992897 -28.368196 -110.39783
114895000 -27.940691 -109.63124 -0.088641301 -23.20137 -0.085966595 -23.192484 -28.25808 -110.52733
115894000 -27.806719 -109.99616 -0.090076126 -23.402536 -0.087104738 -23.392502 -28.184795 -110.67757
116893000 -27.73188 -110.61157 -0.090224393 -23.599178 -0.08819668 -23.582689 -28.061363 -110.89541
117892000 -27.655378 -111.10384 -0.090581208 -23.795345 -0.088292569 -23.780371 -27.990406 -111.09355
118891000 -27.590889 -111.51449 -0.090871431 -23.997517 -0.088176072 -23.982573 -27.891083 -111.19509
119890000 -27.504807 -111.92742 -0.091768146 -24.198835 -0.089797318 -24.179455 -27.879351 -111.4174
120889000 -27.450478 -112.40805 -0.092711583 -24.39896 -0.089348614 -24.387686 -27.806732 -111.37672
121888000 -27.410608 -112.78405 -0.092318371 -24.590569 -0.09017814 -24.579535 -27.751219 -111.68459
122887000 -27.374868 -112.97164 -0.0930961 -24.794109 -0.091155864 -24.781355 -27.709356 -111.72459
123886000 -27.31632 -113.40789 -0.094231613 -24.997314 -0.091200277 -24.977564 -27.689119 -111.90277
124885000 -27.284657 -113.92277 -0.09457764 -25.198219 -0.091486312 -25.183832 -27.66139 -111.95123
125884000 -27.222107 -114.12402 -0.095293865 -25.395638 -0.091713153 -25.378336 -27.624983 -112.14156
126883000 -27.214312 -114.48756 -0.095512427 -25.596762 -0.093062781 -25.585884 -27.58177 -112.19327
127882000 -27.159231 -114.81571 -0.095875233 -25.793846 -0.093214586 -25.780182 -27.540697 -112.32493
128881000 -27.12962 -115.125 -0.096239127 -25.997864 -0.09342511 -25.981754 -27.503416 -112.45452
129880000 -27.071249 -115.47054 -0.096991621 -26.196766 -0.093589894 -26.178612 -27.464521 -112.41755
130879000 -27.010126 -115.55666 -0.096582137 -26.39859 -0.093936399 -26.384087 -27.385309 -112.49535
131878000 -26.942711 -115.83949 -0.096575789 -26.60103 -0.093900688 -26.581692 -27.316595 -112.39787
132877000 -26.873396 -115.85833 -0.096352398 -26.801105 -0.094271824 -26.786739 -27.235666 -112.37061
133876000 -26.786699 -116.02155 -0.09678039 -27.003788 -0.094137177 -26.982821 -27.142715 -112.27879
134875000 -26.694502 -116.16102 -0.097220592 -27.203022 -0.094818398 -27.184877 -27.032663 -112.17509
135874000 -26.613182 -116.19196 -0.097453028 -27.400333 -0.094299071 -27.387543 -26.936506 -112.15604
136873000 -26.498072 -116.09837 -0.097482942 -27.604462 -0.095139869 -27.586199 -26.846188 -112.15128
137872000 -26.417768 -116.19657 -0.097616106 -27.805752 -0.095116317 -27.790709 -26.741699 -112.0842
138871000 -26.346312 -116.41339 -0.098554194 -28.003647 -0.095491529 -27.992939 -26.647198 -112.26098
139870000 -26.253443 -116.64951 -0.099254653 -28.207781 -0.096915387 -28.189608 -26.564854 -112.41454
140869000 -26.164942 -117.17133 -0.10073114 -28.40316 -0.09797617 -28.381351 -26.456966 -112.531
141868000 -26.067585 -117.63352 -0.1011797 -28.595171 -0.098428942 -28.577293 -26.387325 -112.91541
142867000 -25.993143 -117.88943 -0.099194527 -28.789412 -0.097031854 -28.773293 -26.312273 -113.13203
143866000 -25.922083 -118.38194 -0.10119639 -28.983566 -0.098874882 -28.97328 -26.237677 -113.60536
144865000 -25.863018 -118.95695 -0.10292216 -29.186178 -0.10026462 -29.169174 -26.184872 -113.94391
145864000 -25.807493 -119.26241 -0.10298366 -29.385288 -0.10145818 -29.375059 -26.149471 -114.21258
146863000 -25.760777 -119.64124 -0.10353187 -29.585562 -0.10166911 -29.574381 -26.100805 -114.50086
147862000 -25.723122 -120.04904 -0.10427449 -29.77985 -0.10189992 -29.769386 -26.067211 -114.88217
148861000 -25.688894 -120.53845 -0.10469636 -29.978571 -0.10291634 -29.966766 -26.041929 -115.14795
149860000 -25.674318 -120.72292 -0.10486899 -30.180168 -0.10322568 -30.172655 -26.006876 -115.33
150859000 -25.657707 -121.1304 -0.10587841 -30.380281 -0.10305258 -30.366245 -26.002203 -115.56248
151858000 -25.640667 -121.43351 -0.1057625 -30.575693 -0.10389587 -30.568048 -25.988623 -115.87815
152857000 -25.618311 -121.76922 -0.10618903 -30.776279 -0.1047197 -30.763029 -25.974791 -116.01794
153856000 -25.613859 -121.99017 -0.10596992 -30.975328 -0.10349793 -30.961664 -25.988419 -116.31009
154855000 -25.60651 -122.15627 -0.10630468 -31.172382 -0.10386697 -31.162731 -25.979441 -116.53987
155854000 -25.624416 -122.39952 -0.10677 -31.371782 -0.10420581 -31.359421 -25.969307 -116.82972
156853000 -25.6068 -123.1431 -0.10501458 -31.557516 -0.10334868 -31.553165 -25.967915 -117.10004
157852000 -25.609961 -123.31857 -0.10567816 -31.759739 -0.1046778 -31.753103 -25.95277 -117.45303
158851000 -25.602695 -123.55499 -0.10676072 -31.95644 -0.10539065 -31.949528 -25.939589 -117.73145
159850000 -25.590061 -123.68754 -0.10695041 -32.15588 -0.10558903 -32.150799 -25.941414 -117.86861
160849000 -25.568476 -123.7963 -0.10708837 -32.353794 -0.10610016 -32.350803 -25.904694 -118.17037
161848000 -25.549982 -123.91953 -0.1073208 -32.557076 -0.10602191 -32.550137 -25.860632 -118.24974
162847000 -25.506153 -124.10298 -0.10777933 -32.752037 -0.10646969 -32.75005 -25.833405 -118.49384
163846000 -25.463747 -124.34315 -0.1080309 -32.952694 -0.10690159 -32.945915 -25.755987 -118.50581
164845000 -25.402306 -124.28793 -0.10832336 -33.154675 -0.10752326 -33.141533 -25.687454 -118.62508
165844000 -25.348108 -124.39695 -0.10812219 -33.354046 -0.10718469 -33.346489 -25.607214 -118.76414
166843000 -25.282833 -124.46972 -0.10788282 -33.549953 -0.10699604 -33.549915 -25.535435 -118.91759
167842000 -25.222891 -124.63765 -0.10858081 -33.749565 -0.10779154 -33.744671 -25.45685 -118.8418
168841000 -25.146566 -124.83105 -0.1086238 -33.942738 -0.10844942 -33.943481 -25.376188 -118.89465
169840000 -25.080238 -125.08873 -0.10902168 -34.138073 -0.1087581 -34.137459 -25.28496 -119.10711
170839000 -25.018433 -125.37981 -0.10931022 -34.341026 -0.10914484 -34.337097 -25.203773 -119.28683
171838000 -24.963301 -125.75671 -0.10960037 -34.541122 -0.10998427 -34.535744 -25.140606 -119.51492
172837000 -24.897934 -126.15361 -0.11157835 -34.735252 -0.11050229 -34.733078 -25.071323 -119.75279
173836000 -24.827055 -126.57148 -0.11240098 -34.934849 -0.11127187 -34.930214 -25.025484 -119.96849
174835000 -24.777508 -127.00259 -0.11286244 -35.128361 -0.11232793 -35.129128 -24.983643 -120.31876
175834000 -24.721684 -127.42337 -0.11340073 -35.327156 -0.11275245 -35.324043 -24.920757 -120.62262
176833000 -24.676989 -127.80483 -0.11419314 -35.525471 -0.11346184 -35.522026 -24.869921 -120.8233
177832000 -24.62855 -128.2765 -0.11473797 -35.721004 -0.11408152 -35.72337 -24.848711 -120.98621
178831000 -24.586348 -128.6727 -0.11579967 -35.916996 -0.11432336 -35.917892 -24.806026 -121.21532
179830000 -24.551815 -129.08812 -0.1160517 -36.115822 -0.1151598 -36.119141 -24.787399 -121.34879
180829000 -24.51181 -129.31168 -0.11582546 -36.313457 -0.11519463 -36.315865 -24.754032 -121.505
181828000 -24.488947 -129.66624 -0.11611073 -36.50724 -0.11560826 -36.510357 -24.736479 -121.68227
182827000 -24.467926 -130.01114 -0.11583423 -36.704063 -0.11618624 -36.709465 -24.724152 -121.76468
183826000 -24.426359 -130.35551 -0.11806428 -36.90321 -0.11627318 -36.901165 -24.71916 -121.88243
184825000 -24.431118 -130.67328 -0.11753418 -37.096043 -0.11678398 -37.097141 -24.699108 -121.97694
185824000 -24.404339 -131.02423 -0.11716425 -37.292923 -0.11721318 -37.294361 -24.697941 -122.01926
186823000 -24.387388 -131.39272 -0.11786851 -37.496143 -0.1173786 -37.489964 -24.69302 -122.0336
187822000 -24.365852 -131.6861 -0.11787809 -37.689163 -0.11803395 -37.690998 -24.659941 -122.06773
188821000 -24.344545 -131.95178 -0.11780148 -37.884563 -0.11803927 -37.888828 -24.638206 -122.17847
189820000 -24.331514 -132.16858 -0.11834092 -38.088467 -0.11754189 -38.083855 -24.633453 -122.32922
190819000 -24.302711 -132.45923 -0.11933006 -38.285606 -0.11889639 -38.283901 -24.601156 -122.28111
191818000 -24.269648 -132.63869 -0.1203455 -38.479893 -0.1202151 -38.479977 -24.563566 -122.1291
192817000 -24.200924 -132.91486 -0.12145755 -38.664104 -0.12084054 -38.667549 -24.492121 -122.2698
193816000 -24.155346 -133.23537 -0.12016587 -38.856888 -0.11942052 -38.857353 -24.434376 -122.49528
194815000 -24.100763 -133.71312 -0.11999688 -39.054146 -0.11984866 -39.057117 -24.370058 -122.63911
195814000 -24.051386 -133.93552 -0.12008204 -39.251984 -0.11969618 -39.256248 -24.319216 -122.74747
196813000 -23.995363 -134.29916 -0.12009029 -39.441082 -0.11959374 -39.447643 -24.240238 -122.90437
197812000 -23.941824 -134.52319 -0.12022388 -39.645046 -0.11971535 -39.640415 -24.171064 -122.98367
198811000 -23.886856 -134.68315 -0.11984946 -39.841122 -0.11975739 -39.844448 -24.103165 -123.1751
199810000 -23.81612 -135.07132 -0.12063533 -40.034302 -0.12022734 -40.033001 -24.021105 -123.28848
200809000 -23.762114 -135.33673 -0.12143439 -40.230286 -0.12043013 -40.231354 -23.945181 -123.46304
201808000 -23.7034 -135.57097 -0.12228125 -40.429062 -0.12113333 -40.433723 -23.876856 -123.53987
202807000 -23.644295 -135.92401 -0.12224078 -40.632816 -0.12196442 -40.637627 -23.819622 -123.74715
203806000 -23.590675 -136.36519 -0.12348222 -40.831261 -0.12224078 -40.839417 -23.758581 -123.97187
