!Keysight Technologies,E5080B,MY59205177,A.15.75.32
!Date: Friday, February 23, 2024 02:55:00
!Correction: S11(Cdelta 2-Port  ) 
!S21(Cdelta 2-Port  ) 
!S12(Cdelta 2-Port  ) 
!S22(Cdelta 2-Port  ) 
!S2P File: Measurements: S11, S21, S12, S22:
# Hz S  dB   R 50
10000000 -43.729118 -3.8684852 -0.030701596 -2.0408211 -0.033494551 -2.0946388 -48.612453 -147.85907
10999000 -43.094044 -5.2993298 -0.031338785 -2.2584169 -0.033052929 -2.3137546 -48.384361 -139.87604
11998000 -42.321083 -7.5335026 -0.03135886 -2.4819527 -0.0333336 -2.527863 -48.435734 -134.06233
12997000 -41.783989 -12.375388 -0.031145062 -2.6623588 -0.032527894 -2.6954832 -47.795486 -127.88741
13996000 -41.526497 -15.415333 -0.029830437 -2.8397079 -0.03302528 -2.8635321 -47.282894 -121.73991
14995000 -41.222431 -19.149858 -0.031829253 -3.0513439 -0.032559454 -3.0787973 -46.787876 -118.68729
15994000 -41.106342 -22.832207 -0.033389423 -3.2716789 -0.035026614 -3.2917616 -46.483337 -114.73266
16993000 -41.078262 -26.521151 -0.032892257 -3.4643033 -0.03323552 -3.4755595 -45.562168 -116.24826
17992000 -41.197113 -30.943924 -0.032943118 -3.6622753 -0.034992948 -3.6655099 -44.99485 -117.28047
18991000 -41.464642 -35.598209 -0.034465592 -3.8714738 -0.035605971 -3.871907 -44.256207 -116.88322
19990000 -41.38591 -40.186806 -0.037096485 -4.0873017 -0.037565671 -4.0775151 -43.575733 -118.82904
20989000 -41.327579 -42.760555 -0.038654108 -4.2855935 -0.040557701 -4.2746067 -42.947529 -118.86245
21988000 -41.21587 -47.548981 -0.039478712 -4.486258 -0.041035622 -4.473515 -42.645119 -118.38949
22987000 -41.064579 -51.959053 -0.040201578 -4.6808009 -0.041844212 -4.6745129 -42.417515 -118.1103
23986000 -41.070953 -55.701481 -0.039865863 -4.8752551 -0.040523469 -4.8751101 -42.285423 -117.91983
24985000 -40.790485 -58.2052 -0.041461591 -5.0833054 -0.040653333 -5.0799274 -41.989307 -115.50978
25984000 -40.54232 -60.728325 -0.041392334 -5.2921977 -0.041546267 -5.29322 -41.598957 -114.3978
26983000 -40.282146 -62.36195 -0.042910196 -5.4902101 -0.042032141 -5.5061274 -41.499825 -113.56551
27982000 -40.130791 -63.05109 -0.043339744 -5.6910481 -0.043401711 -5.7194629 -41.160339 -112.0022
28981000 -40.13406 -64.83477 -0.04211526 -5.8842983 -0.043628402 -5.9103422 -40.915176 -111.50333
29980000 -39.758198 -66.347145 -0.042011492 -6.0788851 -0.043986633 -6.0835185 -40.604576 -110.84512
30979000 -39.412277 -65.575249 -0.0392875 -6.4324317 -0.038433682 -6.4223557 -40.05365 -111.64182
31978000 -39.213131 -66.577545 -0.038819171 -6.6254497 -0.040128425 -6.6168094 -39.800587 -111.2206
32977000 -39.062786 -68.427155 -0.039184324 -6.8363566 -0.039780699 -6.8372416 -39.546654 -111.37971
33976000 -38.919365 -69.689865 -0.039643288 -7.0371227 -0.040869951 -7.0327959 -39.243549 -110.98859
34975000 -38.657104 -70.55027 -0.039801076 -7.2354603 -0.041444603 -7.2341094 -39.003616 -110.66303
35974000 -38.449139 -71.309372 -0.038638178 -7.432838 -0.041322298 -7.4353218 -38.675064 -110.02954
36973000 -38.248734 -72.230858 -0.039346796 -7.6292591 -0.042422131 -7.6351333 -38.363564 -109.24942
37972000 -38.065666 -72.114296 -0.038810033 -7.8378844 -0.041660216 -7.8501344 -38.140896 -108.49307
38971000 -37.74667 -71.907318 -0.040428888 -8.0371723 -0.042053573 -8.0515261 -37.920223 -107.06271
39970000 -37.450264 -72.556282 -0.038032558 -8.2364693 -0.040076695 -8.2529745 -37.665371 -106.68347
40969000 -37.152779 -72.328949 -0.038271766 -8.4289207 -0.040355727 -8.4551411 -37.36837 -105.26382
41968000 -36.813408 -72.632164 -0.038487744 -8.6332903 -0.040422354 -8.6482725 -37.160355 -104.22361
42967000 -36.565407 -72.970146 -0.038205173 -8.8453064 -0.04020001 -8.865653 -36.941818 -102.54781
43966000 -36.28849 -73.695442 -0.038311202 -9.0476465 -0.042106111 -9.0673227 -36.633587 -101.91162
44965000 -36.064117 -74.796059 -0.039485242 -9.2474833 -0.041993719 -9.2673864 -36.42334 -101.84306
45964000 -35.856045 -75.719643 -0.040965069 -9.4462414 -0.043171372 -9.4673491 -36.175293 -101.80778
46963000 -35.687286 -77.782211 -0.041576583 -9.6448536 -0.044633884 -9.6650972 -35.993633 -102.0459
47962000 -35.553749 -79.281815 -0.043073852 -9.8451042 -0.045067005 -9.8622961 -35.780827 -102.26333
48961000 -35.340233 -80.79129 -0.04507485 -10.03926 -0.046966083 -10.06414 -35.567677 -102.57894
49960000 -35.152008 -82.254333 -0.046338111 -10.239251 -0.047693599 -10.263988 -35.419544 -102.68266
50959000 -34.934566 -83.567024 -0.046502158 -10.452812 -0.049229108 -10.467708 -35.240742 -103.17146
51958000 -34.751595 -84.790062 -0.04890788 -10.648089 -0.050860494 -10.661623 -35.081379 -103.7476
52957000 -34.556854 -85.956207 -0.049938671 -10.850343 -0.051749505 -10.856449 -34.922539 -103.65285
53956000 -34.411819 -86.7668 -0.051442496 -11.053743 -0.052316427 -11.056047 -34.760319 -103.6956
54955000 -34.240753 -87.274567 -0.051977679 -11.251113 -0.053801417 -11.248988 -34.620632 -103.79363
55954000 -34.088196 -88.185349 -0.053366899 -11.453074 -0.054130089 -11.449766 -34.518883 -103.48941
56953000 -33.963936 -88.267944 -0.052960727 -11.651584 -0.053336501 -11.641337 -34.429104 -103.75103
57952000 -33.817398 -88.939743 -0.054465074 -11.849171 -0.054047786 -11.842593 -34.325062 -103.8854
58951000 -33.708134 -89.297623 -0.055078752 -12.052062 -0.055323359 -12.030571 -34.174747 -104.05925
59950000 -33.585598 -89.715454 -0.05601478 -12.253622 -0.05545786 -12.23208 -34.110252 -104.37547
60949000 -33.473976 -90.349045 -0.056858946 -12.452565 -0.056275696 -12.436003 -34.014206 -104.65173
61948000 -33.423447 -90.676865 -0.057191782 -12.65342 -0.056412585 -12.635869 -33.921902 -104.77332
62947000 -33.327351 -90.94136 -0.057045426 -12.864383 -0.056970939 -12.846654 -33.789314 -105.02544
63946000 -33.252895 -91.687004 -0.057834703 -13.064812 -0.058091272 -13.043479 -33.682003 -105.2123
64945000 -33.153858 -91.796097 -0.058285672 -13.263758 -0.058159743 -13.243606 -33.562149 -105.74178
65944000 -33.05547 -92.069221 -0.05926149 -13.46233 -0.058467228 -13.446714 -33.483913 -106.21508
66943000 -32.923912 -92.514 -0.056989562 -13.66358 -0.05742313 -13.645769 -33.373363 -106.44921
67942000 -32.861897 -92.498566 -0.058943715 -13.858912 -0.05926254 -13.84885 -33.24995 -106.7868
68941000 -32.746819 -92.622604 -0.058956049 -14.052056 -0.057520706 -14.046411 -33.136246 -106.71896
69940000 -32.650307 -92.591766 -0.058758993 -14.252917 -0.058401898 -14.247456 -33.008247 -107.00651
70939000 -32.540936 -92.554726 -0.058853451 -14.447624 -0.058598679 -14.440849 -32.875301 -106.98278
71938000 -32.405422 -92.164642 -0.058778409 -14.645345 -0.058075007 -14.636856 -32.740417 -106.87576
72937000 -32.238159 -92.047173 -0.058241073 -14.84279 -0.057907108 -14.838992 -32.593739 -106.60246
73936000 -32.105171 -91.803932 -0.05796456 -15.039559 -0.057289619 -15.032384 -32.478386 -106.33894
74935000 -31.977289 -92.003464 -0.057743676 -15.234715 -0.056135401 -15.235641 -32.31485 -106.0434
75934000 -31.861782 -92.301529 -0.057440966 -15.444123 -0.057187848 -15.440799 -32.23996 -106.01096
76933000 -31.728554 -92.814636 -0.058516555 -15.642775 -0.057980038 -15.634813 -32.074154 -106.39542
77932000 -31.637384 -93.518852 -0.059959047 -15.839016 -0.059711032 -15.831142 -31.975187 -106.48957
78931000 -31.573561 -94.316711 -0.058730654 -16.036041 -0.059082262 -16.030924 -31.873137 -106.32137
79930000 -31.456985 -95.132111 -0.061538808 -16.227259 -0.06170737 -16.226694 -31.784544 -106.58145
80929000 -31.334116 -96.100937 -0.063073441 -16.423094 -0.063227355 -16.420761 -31.677015 -107.02538
81928000 -31.266647 -96.95153 -0.062988348 -16.615208 -0.063365519 -16.613316 -31.551285 -107.13731
82927000 -31.164324 -97.641541 -0.064727642 -16.814381 -0.064638048 -16.814238 -31.449564 -107.4748
83926000 -31.052254 -98.394569 -0.066102289 -17.010893 -0.065297581 -17.010756 -31.329012 -107.67533
84925000 -30.955719 -98.922874 -0.067047529 -17.20628 -0.066182978 -17.207664 -31.244112 -107.86606
85924000 -30.874578 -99.368523 -0.067831531 -17.409605 -0.06694527 -17.406395 -31.150402 -107.82132
86923000 -30.762156 -99.906746 -0.068161525 -17.605339 -0.067377992 -17.604687 -31.05945 -107.71978
87922000 -30.659838 -100.31681 -0.068167575 -17.812035 -0.067083545 -17.806398 -30.969109 -107.81953
88921000 -30.587305 -100.6385 -0.068873137 -18.012316 -0.067630649 -18.004406 -30.871174 -107.86461
89920000 -30.487867 -101.20916 -0.069677986 -18.213755 -0.068857618 -18.202686 -30.818615 -108.0167
90919000 -30.388111 -101.54814 -0.070617691 -18.406677 -0.069228984 -18.401754 -30.738106 -108.2199
91918000 -30.301826 -101.93917 -0.071331285 -18.606268 -0.070318021 -18.600443 -30.67104 -108.23243
92917000 -30.211952 -102.27847 -0.071985774 -18.808918 -0.070833698 -18.799574 -30.603889 -108.38373
93916000 -30.127274 -102.63482 -0.071996301 -18.996864 -0.071087092 -18.993505 -30.517294 -109.0489
94915000 -30.056286 -103.29283 -0.072758563 -19.195932 -0.072444268 -19.194069 -30.459673 -108.93239
95914000 -29.992498 -103.54169 -0.074332185 -19.395891 -0.073257148 -19.390478 -30.365036 -109.21828
96913000 -29.919275 -103.76075 -0.075335324 -19.593372 -0.073741846 -19.590414 -30.308334 -109.54681
97912000 -29.833239 -104.24296 -0.076109231 -19.789076 -0.074093617 -19.788363 -30.220093 -109.77102
98911000 -29.732012 -104.4408 -0.077139385 -19.990288 -0.074967645 -19.988012 -30.17893 -110.00769
99910000 -29.671501 -104.64234 -0.077376805 -20.188637 -0.075848438 -20.186943 -30.069284 -110.33189
100909000 -29.578608 -104.86757 -0.077076145 -20.395966 -0.07497634 -20.389532 -29.986107 -110.51409
101908000 -29.490259 -105.10241 -0.078548804 -20.596096 -0.076299958 -20.591909 -29.875345 -110.24671
102907000 -29.362228 -105.14379 -0.078365617 -20.795866 -0.076515466 -20.798225 -29.796463 -110.21692
103906000 -29.26845 -105.20285 -0.078813449 -20.999435 -0.076213025 -20.998974 -29.653749 -110.15143
104905000 -29.118773 -105.10526 -0.079603799 -21.19812 -0.077012382 -21.196217 -29.515169 -109.86823
105904000 -28.977894 -105.23803 -0.079057552 -21.399984 -0.076781571 -21.398853 -29.40395 -109.74078
106903000 -28.865345 -105.3627 -0.079111859 -21.607988 -0.077147819 -21.601274 -29.279816 -109.62772
107902000 -28.705379 -105.6916 -0.080826506 -21.804928 -0.077320412 -21.799278 -29.135365 -109.55646
108901000 -28.58983 -105.99271 -0.081071772 -22.008923 -0.079361245 -21.996027 -28.994896 -109.47361
109900000 -28.470078 -106.52771 -0.082118675 -22.212654 -0.079916231 -22.197439 -28.852125 -109.61047
110899000 -28.348244 -107.11553 -0.083700709 -22.402868 -0.08109314 -22.397646 -28.729134 -109.89616
111898000 -28.265799 -107.83237 -0.084749036 -22.60487 -0.081539407 -22.601233 -28.614222 -110.09959
112897000 -28.142103 -108.41479 -0.086338639 -22.803141 -0.082998276 -22.792465 -28.472351 -110.28507
113896000 -28.031988 -108.98882 -0.086591348 -23.004223 -0.084335692 -22.995495 -28.365953 -110.43846
114895000 -27.933079 -109.64745 -0.087655954 -23.20256 -0.085987717 -23.188639 -28.255432 -110.51208
115894000 -27.808355 -109.99484 -0.089661486 -23.402113 -0.086643107 -23.392939 -28.192886 -110.7271
116893000 -27.729801 -110.63223 -0.089760847 -23.600664 -0.087821044 -23.58338 -28.057673 -110.88412
117892000 -27.653934 -111.11224 -0.089782253 -23.793829 -0.087917984 -23.780495 -27.989216 -111.11877
118891000 -27.594782 -111.55053 -0.090622969 -23.995174 -0.088277511 -23.979784 -27.892185 -111.27854
119890000 -27.504189 -111.95979 -0.091427095 -24.199596 -0.088534832 -24.180176 -27.881603 -111.4063
120889000 -27.457533 -112.45905 -0.092589147 -24.396158 -0.089486815 -24.381798 -27.805428 -111.38471
121888000 -27.410976 -112.78388 -0.092436038 -24.593641 -0.089428678 -24.579067 -27.747166 -111.71811
122887000 -27.368679 -112.99418 -0.09356159 -24.796392 -0.090026706 -24.781506 -27.702236 -111.73759
123886000 -27.312828 -113.43679 -0.093902804 -24.99798 -0.090991974 -24.981224 -27.679293 -111.93003
124885000 -27.280014 -113.93168 -0.09421283 -25.19591 -0.091057003 -25.183586 -27.653423 -111.98095
125884000 -27.230257 -114.13267 -0.094798818 -25.397373 -0.090965271 -25.383051 -27.623207 -112.17688
126883000 -27.204235 -114.52293 -0.095420606 -25.598373 -0.091792464 -25.58182 -27.582968 -112.2009
127882000 -27.157366 -114.81362 -0.096192807 -25.798519 -0.092865489 -25.781614 -27.544559 -112.42019
128881000 -27.127197 -115.13734 -0.095839769 -25.997389 -0.092373371 -25.981138 -27.500206 -112.48456
129880000 -27.067972 -115.46449 -0.096424393 -26.197363 -0.092160247 -26.177906 -27.458197 -112.46436
130879000 -27.014568 -115.56226 -0.096197307 -26.396442 -0.093717121 -26.38538 -27.380661 -112.50664
131878000 -26.944021 -115.81114 -0.095968917 -26.60235 -0.094653837 -26.582375 -27.315481 -112.41025
132877000 -26.876513 -115.86655 -0.096364573 -26.804907 -0.094129771 -26.78406 -27.227757 -112.42854
133876000 -26.793774 -116.03568 -0.096903473 -27.001753 -0.094114691 -26.983955 -27.142155 -112.32242
134875000 -26.694754 -116.18444 -0.097120531 -27.201336 -0.09467791 -27.182945 -27.036465 -112.16143
135874000 -26.612656 -116.18898 -0.096527353 -27.401293 -0.094354622 -27.385206 -26.936296 -112.15778
136873000 -26.499859 -116.1638 -0.097503059 -27.605358 -0.094477907 -27.58625 -26.846903 -112.15482
137872000 -26.426769 -116.24229 -0.097434491 -27.80641 -0.095169239 -27.791519 -26.743324 -112.11201
138871000 -26.353954 -116.43272 -0.09799841 -28.003241 -0.095186174 -27.990622 -26.646801 -112.24645
139870000 -26.247902 -116.67818 -0.098570347 -28.208664 -0.0964633 -28.188929 -26.568069 -112.45477
140869000 -26.160482 -117.14126 -0.10070915 -28.399368 -0.097378373 -28.380972 -26.457209 -112.60438
141868000 -26.069679 -117.65423 -0.10112485 -28.593267 -0.098088965 -28.579113 -26.388279 -112.92656
142867000 -25.988115 -117.94962 -0.099234521 -28.79129 -0.096770063 -28.774023 -26.307301 -113.12856
143866000 -25.919107 -118.43137 -0.10123137 -28.987207 -0.098750949 -28.969477 -26.232653 -113.64593
144865000 -25.863987 -118.94158 -0.10234224 -29.186996 -0.099318475 -29.169764 -26.178839 -113.99052
145864000 -25.806324 -119.30185 -0.10285272 -29.385708 -0.10106603 -29.376719 -26.147074 -114.2036
146863000 -25.761518 -119.67475 -0.10313078 -29.583786 -0.10125892 -29.573101 -26.090717 -114.5516
147862000 -25.721045 -120.03269 -0.10396719 -29.779776 -0.10203534 -29.768909 -26.060719 -114.92269
148861000 -25.689011 -120.5751 -0.10481967 -29.981266 -0.10224259 -29.965942 -26.035755 -115.16198
149860000 -25.674543 -120.79854 -0.10530763 -30.176958 -0.10222589 -30.171131 -26.005756 -115.34344
150859000 -25.654501 -121.11777 -0.10575746 -30.378424 -0.10309261 -30.363152 -26.003038 -115.58941
151858000 -25.636274 -121.49152 -0.10575958 -30.577766 -0.10281508 -30.561682 -25.989614 -115.86222
152857000 -25.616272 -121.76727 -0.10581608 -30.779774 -0.10279812 -30.761162 -25.96768 -116.01196
153856000 -25.611567 -122.01178 -0.10595984 -30.975704 -0.1028681 -30.960091 -25.987822 -116.31159
154855000 -25.605587 -122.16952 -0.1063267 -31.172943 -0.1031602 -31.161274 -25.977884 -116.54986
155854000 -25.621443 -122.42187 -0.10641239 -31.37175 -0.10400006 -31.359097 -25.965973 -116.80447
156853000 -25.607271 -123.14217 -0.10475417 -31.556103 -0.10254261 -31.549385 -25.962709 -117.11911
157852000 -25.604353 -123.33363 -0.10615931 -31.758078 -0.10448582 -31.748775 -25.952253 -117.46091
158851000 -25.603977 -123.60174 -0.1066867 -31.957502 -0.10485176 -31.948879 -25.934612 -117.71799
159850000 -25.583853 -123.70585 -0.10706503 -32.156124 -0.10507399 -32.149162 -25.933376 -117.88009
160849000 -25.565639 -123.84111 -0.10725234 -32.35424 -0.10567418 -32.35017 -25.902588 -118.18428
161848000 -25.547628 -123.93584 -0.10748319 -32.556553 -0.10486872 -32.551491 -25.861881 -118.26108
162847000 -25.503469 -124.13497 -0.10705441 -32.752083 -0.10619858 -32.749886 -25.828531 -118.51222
163846000 -25.456587 -124.35048 -0.10759119 -32.95414 -0.10607523 -32.944912 -25.748026 -118.52186
164845000 -25.395027 -124.34921 -0.10842846 -33.155289 -0.1062129 -33.145287 -25.682072 -118.59686
165844000 -25.339958 -124.40966 -0.10795341 -33.349266 -0.10681564 -33.346272 -25.600357 -118.76139
166843000 -25.282331 -124.50319 -0.1078125 -33.548885 -0.10639886 -33.548889 -25.535467 -118.93913
167842000 -25.223873 -124.64381 -0.10878358 -33.751652 -0.10686445 -33.737686 -25.449554 -118.85928
168841000 -25.140749 -124.82675 -0.10883216 -33.9445 -0.10791042 -33.941669 -25.369495 -118.92336
169840000 -25.075232 -125.08829 -0.10878252 -34.142975 -0.10832495 -34.140942 -25.287882 -119.10808
170839000 -25.020054 -125.3561 -0.1100764 -34.338123 -0.10848472 -34.337803 -25.201668 -119.31585
171838000 -24.962309 -125.77012 -0.11000949 -34.543007 -0.10944083 -34.534279 -25.134935 -119.55543
172837000 -24.89226 -126.14091 -0.11148035 -34.735485 -0.11011782 -34.72995 -25.066841 -119.77193
173836000 -24.826672 -126.56159 -0.11298837 -34.935173 -0.11046777 -34.93325 -25.021711 -120.03157
174835000 -24.76771 -127.01159 -0.1126414 -35.127998 -0.11168008 -35.13092 -24.979904 -120.38087
175834000 -24.721205 -127.43121 -0.11367893 -35.328419 -0.1130516 -35.321171 -24.918898 -120.6514
176833000 -24.667587 -127.8214 -0.11467285 -35.524475 -0.11338212 -35.523499 -24.859531 -120.82351
177832000 -24.628204 -128.29185 -0.11536369 -35.718174 -0.11359045 -35.720871 -24.842318 -121.00674
178831000 -24.590485 -128.64948 -0.11525258 -35.920353 -0.11407647 -35.915264 -24.806412 -121.245
179830000 -24.552784 -129.12064 -0.11660954 -36.113792 -0.11409694 -36.118473 -24.776632 -121.3911
180829000 -24.512577 -129.30844 -0.11646383 -36.312119 -0.11490436 -36.314831 -24.752375 -121.5685
181828000 -24.487614 -129.68135 -0.11591718 -36.511826 -0.11430954 -36.508564 -24.730982 -121.63566
182827000 -24.465717 -130.05626 -0.11666565 -36.706238 -0.11520419 -36.703899 -24.720699 -121.76159
183826000 -24.424091 -130.37151 -0.11728977 -36.908035 -0.11614263 -36.899223 -24.714003 -121.89072
184825000 -24.429329 -130.69409 -0.11702596 -37.097332 -0.11554764 -37.098629 -24.69092 -121.95886
185824000 -24.402031 -131.04425 -0.11678105 -37.293465 -0.11635879 -37.292278 -24.691206 -122.02095
186823000 -24.386444 -131.36983 -0.11737833 -37.492123 -0.11610701 -37.494545 -24.689812 -122.02025
187822000 -24.365202 -131.71506 -0.11822388 -37.687309 -0.11727275 -37.691765 -24.655203 -122.09462
188821000 -24.345915 -131.96327 -0.11819807 -37.883228 -0.11757115 -37.887932 -24.638128 -122.1841
189820000 -24.330074 -132.23126 -0.11871548 -38.084904 -0.1175935 -38.086739 -24.630177 -122.35492
190819000 -24.302029 -132.4814 -0.11962328 -38.284103 -0.1187059 -38.283012 -24.594421 -122.28464
191818000 -24.269344 -132.64641 -0.12120413 -38.478821 -0.11984946 -38.476231 -24.568068 -122.20639
192817000 -24.197037 -132.89848 -0.12139952 -38.663918 -0.12013047 -38.662975 -24.493971 -122.26548
193816000 -24.155792 -133.26793 -0.11996495 -38.860634 -0.1192404 -38.858707 -24.436827 -122.51801
194815000 -24.099405 -133.72462 -0.12005117 -39.052811 -0.11967117 -39.057388 -24.368557 -122.60065
195814000 -24.047142 -133.96205 -0.12088312 -39.250137 -0.11929972 -39.254604 -24.313578 -122.73726
196813000 -23.99625 -134.29695 -0.12029281 -39.445061 -0.1189331 -39.45208 -24.239662 -122.91897
197812000 -23.938265 -134.51241 -0.12088632 -39.646465 -0.12058849 -39.644688 -24.166811 -122.99295
198811000 -23.887684 -134.68402 -0.1204642 -39.843605 -0.11957698 -39.844566 -24.098976 -123.2123
199810000 -23.816608 -135.06088 -0.12105507 -40.032928 -0.11883865 -40.033802 -24.018551 -123.30235
200809000 -23.759937 -135.35504 -0.12163272 -40.228333 -0.11925183 -40.228802 -23.938005 -123.45894
201808000 -23.698936 -135.60007 -0.12197614 -40.432537 -0.12088872 -40.435932 -23.874096 -123.57108
202807000 -23.64196 -135.96036 -0.12256669 -40.631927 -0.12131061 -40.63485 -23.814034 -123.80093
203806000 -23.595854 -136.39931 -0.12396749 -40.832672 -0.12193993 -40.835835 -23.753418 -123.97488
