!Keysight Technologies,E5080B,MY59205177,A.15.75.32
!Date: Friday, February 23, 2024 03:33:14
!Correction: S11(Cdelta 2-Port  ) 
!S21(Cdelta 2-Port  ) 
!S12(Cdelta 2-Port  ) 
!S22(Cdelta 2-Port  ) 
!S2P File: Measurements: S11, S21, S12, S22:
# Hz S  dB   R 50
10000000 -46.093555 -2.6430547 -0.015274441 -2.0463417 -0.01833823 -2.1000075 -45.941727 -158.18179
10999000 -45.293232 -4.2580118 -0.016353408 -2.2677271 -0.017706586 -2.3189409 -45.835106 -151.57956
11998000 -44.26646 -7.4272308 -0.017264228 -2.492444 -0.017737256 -2.5315778 -46.098995 -147.53065
12997000 -43.556767 -12.714087 -0.015635278 -2.6713567 -0.017154556 -2.7024655 -45.68536 -141.48875
13996000 -43.311996 -16.652067 -0.015157545 -2.8482642 -0.017356232 -2.8737383 -45.509502 -136.26425
14995000 -42.884129 -21.247084 -0.017182883 -3.0600731 -0.017426403 -3.086128 -45.168652 -132.96605
15994000 -42.740902 -25.703682 -0.019202927 -3.2795432 -0.019692026 -3.2995911 -45.07814 -129.8586
16993000 -42.680103 -30.178799 -0.018064765 -3.4753816 -0.018945528 -3.484606 -44.193027 -129.29887
17992000 -42.745068 -35.788807 -0.017828489 -3.6724548 -0.01931265 -3.6825051 -43.621658 -129.24661
18991000 -42.947414 -41.009007 -0.018977506 -3.8838916 -0.020677676 -3.8870356 -43.026783 -128.356
19990000 -42.739891 -46.385876 -0.020976275 -4.0965567 -0.022560652 -4.0903802 -42.368168 -128.96002
20989000 -42.598911 -49.780258 -0.023488652 -4.3028164 -0.024295805 -4.2895765 -41.823498 -128.18803
21988000 -42.399765 -55.010159 -0.024227083 -4.4960589 -0.025399927 -4.4843092 -41.551094 -127.63078
22987000 -42.099041 -59.716503 -0.025244225 -4.6956806 -0.026466306 -4.6893411 -41.299366 -126.94188
23986000 -42.022594 -64.15731 -0.025040099 -4.8902054 -0.025221832 -4.8877106 -41.186234 -126.67988
24985000 -41.63055 -66.807716 -0.025994672 -5.0998998 -0.025572041 -5.0959768 -40.978779 -124.47887
25984000 -41.287388 -68.761391 -0.02684162 -5.3027368 -0.02630171 -5.3044524 -40.671597 -122.99794
26983000 -41.002541 -70.681664 -0.027833322 -5.5040312 -0.026637159 -5.5257974 -40.535736 -122.22981
27982000 -40.824551 -71.778381 -0.02932612 -5.7048388 -0.028226731 -5.740449 -40.259098 -120.65864
28981000 -40.794758 -73.204453 -0.02751914 -5.9033237 -0.028679846 -5.9285288 -40.036755 -119.92027
29980000 -40.376503 -74.676895 -0.02762126 -6.0973887 -0.028985512 -6.1075501 -39.766891 -119.05177
30979000 -39.990776 -73.634018 -0.025260627 -6.4519401 -0.024053982 -6.4447126 -39.269482 -119.54888
31978000 -39.755386 -74.688049 -0.024320014 -6.6488891 -0.024930751 -6.6397109 -39.024708 -118.76396
32977000 -39.599045 -76.227768 -0.023355659 -6.8605108 -0.025669949 -6.8510885 -38.778446 -118.81334
33976000 -39.397091 -77.26783 -0.024943769 -7.058404 -0.025789991 -7.0527015 -38.478714 -118.1995
34975000 -39.08289 -78.003517 -0.025182778 -7.2610273 -0.026862197 -7.2588453 -38.276321 -117.96457
35974000 -38.89233 -78.601036 -0.024379104 -7.4537616 -0.026389478 -7.4587111 -37.977238 -116.97205
36973000 -38.661198 -79.383995 -0.024912007 -7.6534576 -0.027653825 -7.658267 -37.726517 -115.91776
37972000 -38.504341 -79.107025 -0.024333289 -7.8642101 -0.026977845 -7.8746653 -37.511719 -115.31071
38971000 -38.190117 -78.671463 -0.024977615 -8.0641232 -0.027108083 -8.0741253 -37.344852 -113.87109
39970000 -37.843277 -78.846924 -0.023895204 -8.2640896 -0.026603563 -8.2802334 -37.090141 -113.16633
40969000 -37.566757 -78.42215 -0.024066996 -8.4575691 -0.026097536 -8.4734573 -36.843578 -111.63348
41968000 -37.214535 -78.420044 -0.024044611 -8.664897 -0.026249625 -8.6773701 -36.669102 -110.39737
42967000 -36.938293 -78.505554 -0.024212245 -8.8728895 -0.026832243 -8.8914862 -36.456791 -108.58442
43966000 -36.66161 -79.169815 -0.024869571 -9.0693178 -0.027954727 -9.0897198 -36.188213 -107.81299
44965000 -36.411114 -79.756393 -0.025300464 -9.2762918 -0.028117303 -9.2949524 -35.982861 -107.5936
45964000 -36.192104 -81.02829 -0.026956486 -9.4811869 -0.028848181 -9.4967384 -35.741543 -107.29608
46963000 -35.98896 -82.785797 -0.026847349 -9.667325 -0.030175542 -9.6949453 -35.563187 -107.36076
47962000 -35.830189 -84.21962 -0.02852116 -9.8745251 -0.030962821 -9.8915892 -35.359089 -107.5771
48961000 -35.624405 -85.667686 -0.030365832 -10.06894 -0.033147093 -10.093149 -35.131016 -107.61867
49960000 -35.380238 -86.976898 -0.03185194 -10.270906 -0.033585332 -10.296446 -35.006531 -107.69364
50959000 -35.158333 -88.309944 -0.032550324 -10.485091 -0.035369523 -10.495265 -34.822598 -107.99323
51958000 -34.955639 -89.349625 -0.03408049 -10.68521 -0.036649801 -10.693253 -34.643475 -108.40172
52957000 -34.742893 -90.387642 -0.035724465 -10.884304 -0.037596222 -10.890671 -34.482731 -108.16979
53956000 -34.578316 -91.058327 -0.037206661 -11.085895 -0.038375966 -11.090447 -34.33498 -108.20898
54955000 -34.409092 -91.573074 -0.037564628 -11.286653 -0.039543498 -11.286804 -34.193623 -108.13683
55954000 -34.229881 -92.361908 -0.038799323 -11.490772 -0.03959287 -11.486619 -34.090836 -107.83797
56953000 -34.117184 -92.32811 -0.039377097 -11.6864 -0.03853162 -11.673209 -34.02626 -108.03136
57952000 -33.958405 -93.006081 -0.039820407 -11.882371 -0.040185381 -11.874619 -33.924957 -108.03422
58951000 -33.821938 -93.337692 -0.04135026 -12.093356 -0.040711079 -12.071211 -33.774853 -108.1787
59950000 -33.702431 -93.766167 -0.04158181 -12.292336 -0.041377701 -12.268113 -33.702385 -108.39546
60949000 -33.57613 -94.231644 -0.041515429 -12.491493 -0.041996591 -12.472265 -33.602493 -108.68986
61948000 -33.516293 -94.588432 -0.042481471 -12.69468 -0.041333273 -12.670499 -33.513092 -108.75938
62947000 -33.428387 -94.766029 -0.042451408 -12.905865 -0.042783923 -12.882645 -33.373207 -109.06583
63946000 -33.359226 -95.558151 -0.043664746 -13.100917 -0.043648798 -13.08214 -33.272453 -109.17137
64945000 -33.23708 -95.684006 -0.043864518 -13.303048 -0.043500021 -13.287217 -33.144478 -109.72077
65944000 -33.138977 -95.961815 -0.044968922 -13.504437 -0.044064563 -13.488033 -33.051796 -110.02435
66943000 -32.997356 -96.420258 -0.042714126 -13.707099 -0.042638578 -13.689244 -32.953159 -110.38866
67942000 -32.935322 -96.327309 -0.045194648 -13.90263 -0.044550717 -13.892627 -32.822971 -110.66283
68941000 -32.828632 -96.448547 -0.044705804 -14.096473 -0.043692723 -14.085439 -32.718163 -110.60948
69940000 -32.734196 -96.39386 -0.044942502 -14.29425 -0.044269059 -14.287687 -32.573418 -110.88757
70939000 -32.631794 -96.352753 -0.044767007 -14.492131 -0.044144582 -14.487841 -32.451046 -110.75346
71938000 -32.484921 -95.871506 -0.044956103 -14.691619 -0.044179883 -14.68165 -32.324276 -110.63909
72937000 -32.332066 -95.711655 -0.043692201 -14.889843 -0.043800715 -14.881507 -32.170414 -110.38738
73936000 -32.196049 -95.341438 -0.0436671 -15.088079 -0.042762227 -15.07581 -32.054592 -110.13069
74935000 -32.065937 -95.523163 -0.043253466 -15.279478 -0.042377956 -15.279757 -31.907007 -109.80495
75934000 -31.935543 -95.808197 -0.043597285 -15.492384 -0.043159343 -15.488219 -31.822964 -109.74072
76933000 -31.814716 -96.129562 -0.044759158 -15.687859 -0.044049393 -15.681922 -31.646927 -110.07979
77932000 -31.705114 -96.920876 -0.045696363 -15.885612 -0.045557719 -15.874917 -31.562119 -110.07045
78931000 -31.630732 -97.622025 -0.044448983 -16.080322 -0.044406354 -16.078653 -31.444036 -109.86201
79930000 -31.505814 -98.515259 -0.046565216 -16.272327 -0.046551347 -16.275782 -31.351408 -110.19421
80929000 -31.403477 -99.279503 -0.048258685 -16.472385 -0.048506308 -16.471247 -31.250277 -110.44066
81928000 -31.303724 -100.03438 -0.048345588 -16.662415 -0.049466316 -16.660875 -31.125513 -110.47017
82927000 -31.207212 -100.8048 -0.050361063 -16.861528 -0.050634474 -16.863016 -31.011106 -110.76462
83926000 -31.088905 -101.439 -0.051266473 -17.055387 -0.051357888 -17.063202 -30.898239 -110.95443
84925000 -30.978703 -101.86658 -0.052515812 -17.26158 -0.051246565 -17.260025 -30.802324 -110.86267
85924000 -30.883392 -102.29957 -0.053497408 -17.461424 -0.053688198 -17.459095 -30.720072 -110.90047
86923000 -30.775442 -102.79659 -0.053509463 -17.658733 -0.053255003 -17.653481 -30.611696 -110.804
87922000 -30.668869 -103.09525 -0.052942909 -17.867569 -0.053458098 -17.86343 -30.521799 -110.81373
88921000 -30.594551 -103.43047 -0.055211674 -18.065388 -0.054709643 -18.058777 -30.430157 -110.83636
89920000 -30.486526 -103.94382 -0.055671547 -18.262808 -0.054852776 -18.257404 -30.367199 -110.90981
90919000 -30.39403 -104.2114 -0.056362234 -18.461414 -0.055592887 -18.457476 -30.288942 -111.10097
91918000 -30.285975 -104.54077 -0.056666706 -18.659094 -0.056162149 -18.654247 -30.222 -111.03565
92917000 -30.206818 -104.83547 -0.058096781 -18.861017 -0.05672624 -18.857115 -30.166054 -111.2034
93916000 -30.115164 -105.17818 -0.057504445 -19.054251 -0.056648612 -19.052107 -30.062498 -111.7851
94915000 -30.04072 -105.82785 -0.059323419 -19.255342 -0.058208015 -19.24782 -30.013466 -111.73044
95914000 -29.966747 -106.00905 -0.059824146 -19.45051 -0.05889491 -19.445562 -29.913315 -111.92795
96913000 -29.884251 -106.21695 -0.060699243 -19.65139 -0.059799477 -19.648878 -29.847607 -112.30122
97912000 -29.80806 -106.69787 -0.062374335 -19.847992 -0.060119148 -19.848116 -29.771544 -112.56532
98911000 -29.698761 -106.86063 -0.062597029 -20.049767 -0.061218768 -20.048283 -29.720428 -112.7864
99910000 -29.629416 -107.0093 -0.063524954 -20.249622 -0.061889332 -20.250904 -29.616762 -112.95747
100909000 -29.539503 -107.26099 -0.062636949 -20.457169 -0.060829446 -20.45167 -29.535795 -113.20901
101908000 -29.449507 -107.48639 -0.064275481 -20.65469 -0.062027976 -20.657883 -29.421625 -113.03629
102907000 -29.315107 -107.48594 -0.064818554 -20.857712 -0.062409524 -20.858883 -29.359375 -112.99432
103906000 -29.227528 -107.52161 -0.064694799 -21.063507 -0.062214151 -21.053438 -29.205122 -112.93188
104905000 -29.082844 -107.38103 -0.065556429 -21.261766 -0.062547132 -21.259148 -29.074608 -112.61208
105904000 -28.940292 -107.51999 -0.066155382 -21.461781 -0.06252192 -21.46443 -28.97385 -112.53191
106903000 -28.82749 -107.57358 -0.064997494 -21.66976 -0.063170098 -21.663126 -28.847694 -112.40223
107902000 -28.665108 -107.82124 -0.066423483 -21.873047 -0.064018816 -21.864017 -28.709 -112.35118
108901000 -28.552927 -108.08354 -0.067885429 -22.072815 -0.065891765 -22.065035 -28.58309 -112.31729
109900000 -28.424526 -108.57018 -0.068584375 -22.271057 -0.065816864 -22.264294 -28.43379 -112.39333
110899000 -28.307049 -109.17905 -0.06986475 -22.469696 -0.066591181 -22.464079 -28.307211 -112.66293
111898000 -28.221403 -109.82769 -0.070814759 -22.672567 -0.067630917 -22.666601 -28.191799 -112.7551
112897000 -28.089708 -110.4126 -0.072856218 -22.87084 -0.068921 -22.858414 -28.057215 -112.91495
113896000 -27.98698 -110.95605 -0.073508836 -23.07136 -0.07019148 -23.060076 -27.948452 -113.0621
114895000 -27.891438 -111.58067 -0.074665047 -23.268721 -0.071816288 -23.25691 -27.835985 -113.14104
115894000 -27.76346 -111.98108 -0.07508827 -23.470539 -0.073250569 -23.455051 -27.765879 -113.32792
116893000 -27.686493 -112.4291 -0.076271512 -23.667383 -0.073833734 -23.648798 -27.646755 -113.37644
117892000 -27.604855 -112.92153 -0.075775728 -23.864157 -0.074074924 -23.855375 -27.567545 -113.62925
118891000 -27.550669 -113.294 -0.076610841 -24.065037 -0.07441777 -24.050827 -27.47719 -113.71518
119890000 -27.45793 -113.70119 -0.077298544 -24.264576 -0.075349279 -24.254742 -27.460627 -113.84052
120889000 -27.412706 -114.19447 -0.07847289 -24.467766 -0.075931147 -24.455761 -27.389351 -113.78159
121888000 -27.366213 -114.5489 -0.078324504 -24.662836 -0.076627173 -24.650326 -27.332569 -114.05647
122887000 -27.327929 -114.73409 -0.079203069 -24.865641 -0.076914102 -24.855318 -27.285532 -114.06753
123886000 -27.27508 -115.1796 -0.080183864 -25.069162 -0.077262178 -25.054438 -27.269085 -114.23535
124885000 -27.247715 -115.64218 -0.079665758 -25.268414 -0.077449009 -25.254274 -27.238028 -114.24178
125884000 -27.196194 -115.84072 -0.081169091 -25.469591 -0.077821903 -25.458338 -27.215525 -114.41344
126883000 -27.173761 -116.20756 -0.081122153 -25.671452 -0.079217836 -25.657091 -27.173027 -114.40689
127882000 -27.12356 -116.55518 -0.08188495 -25.870888 -0.079002194 -25.85425 -27.129614 -114.54395
128881000 -27.095026 -116.83085 -0.082024232 -26.073343 -0.079237342 -26.054478 -27.089455 -114.61234
129880000 -27.034269 -117.16409 -0.083028883 -26.275398 -0.079379171 -26.254944 -27.057535 -114.59406
130879000 -26.978338 -117.33503 -0.082531542 -26.475544 -0.080328099 -26.46043 -26.987623 -114.61683
131878000 -26.914591 -117.5574 -0.082730733 -26.675539 -0.080072328 -26.659561 -26.916048 -114.4891
132877000 -26.847563 -117.61432 -0.083103552 -26.877308 -0.080730513 -26.863527 -26.835413 -114.46371
133876000 -26.761429 -117.74906 -0.082959227 -27.077438 -0.080813058 -27.061596 -26.754566 -114.34037
134875000 -26.669481 -117.88871 -0.083365314 -27.279566 -0.081439704 -27.261183 -26.653942 -114.16788
135874000 -26.588367 -117.92078 -0.083500154 -27.481352 -0.081070453 -27.462732 -26.556234 -114.13599
136873000 -26.473166 -117.86334 -0.083865389 -27.6831 -0.081287779 -27.664955 -26.477516 -114.10707
137872000 -26.397688 -117.97266 -0.083572194 -27.88484 -0.081610359 -27.872351 -26.372198 -114.03873
138871000 -26.31933 -118.20597 -0.083845593 -28.084347 -0.081365585 -28.065508 -26.276285 -114.1634
139870000 -26.221537 -118.47417 -0.084468722 -28.284597 -0.082299642 -28.269312 -26.196615 -114.35173
140869000 -26.144335 -119.02563 -0.085916959 -28.483068 -0.083139703 -28.465025 -26.097403 -114.5652
141868000 -26.059925 -119.40804 -0.086335205 -28.680412 -0.084568754 -28.668484 -26.050522 -114.836
142867000 -25.982033 -119.63123 -0.085253231 -28.880606 -0.083587237 -28.864393 -25.967888 -114.93336
143866000 -25.910095 -120.07956 -0.086977705 -29.0746 -0.085025676 -29.06041 -25.890995 -115.36209
144865000 -25.848043 -120.6192 -0.088624388 -29.273218 -0.086917222 -29.259972 -25.835831 -115.71014
145864000 -25.792759 -120.91398 -0.08915519 -29.477427 -0.087943606 -29.464266 -25.798407 -115.95234
146863000 -25.751648 -121.30426 -0.089735217 -29.674665 -0.087903984 -29.66234 -25.752609 -116.24917
147862000 -25.711626 -121.65362 -0.090949148 -29.874159 -0.088584229 -29.859211 -25.725092 -116.56588
148861000 -25.682669 -122.04786 -0.091543153 -30.070055 -0.090169951 -30.056969 -25.696276 -116.72842
149860000 -25.647936 -122.27011 -0.09275151 -30.264465 -0.090850815 -30.252869 -25.643 -116.82682
150859000 -25.620558 -122.72525 -0.092419647 -30.458584 -0.090122379 -30.446821 -25.627632 -117.16255
151858000 -25.609505 -123.06717 -0.091557428 -30.665569 -0.09017048 -30.650255 -25.621519 -117.49107
152857000 -25.598818 -123.3939 -0.092199117 -30.862143 -0.089643516 -30.848061 -25.604994 -117.65702
153856000 -25.59799 -123.62508 -0.092295893 -31.061516 -0.08987131 -31.048449 -25.61869 -117.99516
154855000 -25.589218 -123.77032 -0.092338733 -31.262716 -0.089686856 -31.247911 -25.607155 -118.22572
155854000 -25.612221 -124.00484 -0.092351951 -31.458912 -0.090019837 -31.45101 -25.599953 -118.5038
156853000 -25.593399 -124.71378 -0.090823323 -31.648405 -0.089895099 -31.642532 -25.594053 -118.79702
157852000 -25.600828 -124.93389 -0.091822341 -31.851751 -0.091045104 -31.841963 -25.585505 -119.16219
158851000 -25.603897 -125.13759 -0.092166327 -32.046444 -0.091460407 -32.038715 -25.571522 -119.45245
159850000 -25.584686 -125.2669 -0.093204007 -32.24934 -0.091882363 -32.240093 -25.5704 -119.59941
160849000 -25.575882 -125.32523 -0.092698887 -32.450401 -0.092709996 -32.441887 -25.542751 -119.953
161848000 -25.555107 -125.42604 -0.09415172 -32.64838 -0.09264838 -32.642208 -25.501797 -120.0244
162847000 -25.51403 -125.62563 -0.093885086 -32.847633 -0.092926845 -32.845852 -25.470789 -120.275
163846000 -25.473215 -125.81008 -0.09345156 -33.051262 -0.092419907 -33.040398 -25.3997 -120.29596
164845000 -25.417406 -125.78335 -0.093832977 -33.246498 -0.09338782 -33.239582 -25.33614 -120.32935
165844000 -25.363567 -125.79826 -0.0946832 -33.448112 -0.09387318 -33.439407 -25.257471 -120.49343
166843000 -25.305298 -125.86951 -0.094406478 -33.647015 -0.094267324 -33.641975 -25.192293 -120.65176
167842000 -25.247009 -125.95215 -0.095059432 -33.845734 -0.094375789 -33.838066 -25.114969 -120.55881
168841000 -25.173134 -126.14278 -0.095147274 -34.043209 -0.094274208 -34.044079 -25.039349 -120.65594
169840000 -25.106071 -126.37037 -0.09494672 -34.239811 -0.094936132 -34.234592 -24.952776 -120.85512
170839000 -25.040483 -126.59308 -0.095750064 -34.436871 -0.095981091 -34.436092 -24.874962 -121.01065
171838000 -24.986694 -126.98039 -0.096408248 -34.641029 -0.096670806 -34.636753 -24.811773 -121.23295
172837000 -24.91778 -127.35075 -0.097724125 -34.838657 -0.09701094 -34.832394 -24.741859 -121.46269
173836000 -24.848745 -127.73923 -0.098432124 -35.040371 -0.098542809 -35.035038 -24.703499 -121.65704
174835000 -24.799006 -128.13797 -0.099201679 -35.234425 -0.098346859 -35.233215 -24.658455 -121.9759
175834000 -24.745127 -128.52129 -0.10079525 -35.436466 -0.099846877 -35.432625 -24.596685 -122.24241
176833000 -24.69206 -128.86627 -0.10132331 -35.632954 -0.10086626 -35.631905 -24.54595 -122.38007
177832000 -24.650854 -129.26373 -0.10202474 -35.834507 -0.1021758 -35.831142 -24.533804 -122.48964
178831000 -24.607025 -129.49315 -0.10342052 -36.027313 -0.10270958 -36.028194 -24.487803 -122.59466
179830000 -24.531231 -129.89734 -0.10528907 -36.213432 -0.10409869 -36.214973 -24.42436 -122.67792
180829000 -24.478989 -130.25291 -0.10384682 -36.406242 -0.10288108 -36.407486 -24.382664 -122.98325
181828000 -24.458235 -130.70518 -0.10354167 -36.610718 -0.10224789 -36.601723 -24.364042 -123.18596
182827000 -24.433611 -131.04434 -0.10294231 -36.80183 -0.10256434 -36.808041 -24.349653 -123.30303
183826000 -24.397852 -131.37125 -0.10373123 -37.001339 -0.10229718 -36.999775 -24.341599 -123.43275
184825000 -24.401102 -131.71756 -0.10326041 -37.197479 -0.10316551 -37.199398 -24.321136 -123.55781
185824000 -24.367207 -132.09953 -0.10364877 -37.398556 -0.10316391 -37.39677 -24.315273 -123.62726
186823000 -24.355766 -132.44844 -0.10370047 -37.595455 -0.10271383 -37.598396 -24.306917 -123.6059
187822000 -24.329472 -132.78847 -0.10458764 -37.786865 -0.10389295 -37.791111 -24.27277 -123.71418
188821000 -24.306479 -133.03065 -0.10395101 -37.985847 -0.10407218 -37.991135 -24.249552 -123.83801
189820000 -24.287718 -133.36208 -0.10466029 -38.186745 -0.10399582 -38.18557 -24.238634 -124.04736
190819000 -24.251905 -133.65732 -0.10565747 -38.384399 -0.10474356 -38.383884 -24.192535 -124.07753
191818000 -24.223034 -133.95227 -0.10542513 -38.580975 -0.10490453 -38.581142 -24.166489 -124.12904
192817000 -24.175117 -134.22865 -0.10629938 -38.779247 -0.10488411 -38.781223 -24.124081 -124.21982
193816000 -24.144169 -134.47263 -0.10593119 -38.974968 -0.10501564 -38.971291 -24.076214 -124.34765
194815000 -24.083111 -134.85558 -0.1063397 -39.170265 -0.10621237 -39.17178 -24.008785 -124.4122
195814000 -24.029917 -135.05812 -0.10708837 -39.369316 -0.10611475 -39.369488 -23.950039 -124.50079
196813000 -23.974522 -135.38297 -0.10710695 -39.560928 -0.10556623 -39.562599 -23.870306 -124.67007
197812000 -23.915792 -135.59529 -0.10715338 -39.761375 -0.10686339 -39.75927 -23.80085 -124.74695
198811000 -23.857985 -135.75803 -0.10700692 -39.958565 -0.10620601 -39.957714 -23.728947 -124.92795
199810000 -23.78997 -136.11987 -0.10736565 -40.15168 -0.10593491 -40.149696 -23.654123 -125.02224
200809000 -23.734642 -136.34409 -0.10762356 -40.348026 -0.1064933 -40.350548 -23.577982 -125.19656
201808000 -23.677082 -136.53122 -0.10918864 -40.552673 -0.10794652 -40.552795 -23.510094 -125.2543
202807000 -23.620083 -136.90121 -0.1091674 -40.754581 -0.10804842 -40.7505 -23.453848 -125.47819
