!Keysight Technologies,E5080B,MY59205177,A.15.75.32
!Date: Friday, February 23, 2024 03:33:20
!Correction: S11(Cdelta 2-Port  ) 
!S21(Cdelta 2-Port  ) 
!S12(Cdelta 2-Port  ) 
!S22(Cdelta 2-Port  ) 
!S2P File: Measurements: S11, S21, S12, S22:
# Hz S  dB   R 50
10000000 -46.065437 -1.8831995 -0.015516035 -2.0498066 -0.018516302 -2.1004515 -45.994389 -158.16338
10999000 -45.311398 -4.0544281 -0.016694326 -2.266109 -0.018637188 -2.3189478 -45.835094 -151.63788
11998000 -44.321453 -7.2818875 -0.016643135 -2.4919825 -0.017302433 -2.5397427 -46.095451 -147.62492
12997000 -43.550934 -13.234319 -0.015689317 -2.6689098 -0.018199157 -2.7014008 -45.658428 -141.34489
13996000 -43.286644 -16.785805 -0.014984805 -2.8512833 -0.017774424 -2.8735583 -45.518444 -136.1844
14995000 -42.899845 -21.402218 -0.017447196 -3.0570872 -0.017685533 -3.0825737 -45.18256 -132.72429
15994000 -42.708561 -25.71381 -0.018665785 -3.2827713 -0.020663891 -3.3017616 -45.08112 -129.51547
16993000 -42.658096 -30.332144 -0.018104017 -3.4706724 -0.019205006 -3.4880435 -44.222294 -129.15155
17992000 -42.733013 -35.600716 -0.018292218 -3.6739254 -0.019812165 -3.679256 -43.651001 -129.38281
18991000 -42.934269 -41.077579 -0.019092165 -3.8888621 -0.021164602 -3.884382 -43.036308 -128.03578
19990000 -42.714737 -46.556343 -0.02179857 -4.0995317 -0.022300452 -4.0929193 -42.357941 -129.10658
20989000 -42.551476 -49.844555 -0.023545912 -4.3010993 -0.024887012 -4.2908382 -41.799065 -128.34692
21988000 -42.396893 -55.277603 -0.023845227 -4.5004883 -0.024371557 -4.4833975 -41.567177 -127.47637
22987000 -42.104931 -59.881691 -0.025760306 -4.6959014 -0.026648359 -4.6858892 -41.330585 -127.11365
23986000 -42.005684 -64.239769 -0.025409563 -4.8933926 -0.025821241 -4.8898559 -41.185081 -126.74308
24985000 -41.58189 -66.794914 -0.026631691 -5.1024995 -0.02652074 -5.0952048 -40.969364 -124.54696
25984000 -41.261929 -68.909439 -0.027216705 -5.3075972 -0.026519438 -5.3085523 -40.62257 -122.82012
26983000 -40.960926 -70.821037 -0.027595209 -5.5056782 -0.027269324 -5.521831 -40.513569 -122.1174
27982000 -40.733826 -71.853897 -0.02914161 -5.7073841 -0.029411342 -5.7363577 -40.270969 -120.55843
28981000 -40.730701 -73.240646 -0.026917417 -5.904942 -0.028543567 -5.9246063 -40.040859 -120.08752
29980000 -40.359367 -74.477493 -0.027269324 -6.1015067 -0.028767921 -6.1085849 -39.758354 -118.98227
30979000 -39.958965 -73.455391 -0.024606368 -6.4520707 -0.024125043 -6.4476485 -39.279133 -119.45193
31978000 -39.766865 -74.542252 -0.023608897 -6.649549 -0.02598712 -6.635757 -39.018978 -118.8851
32977000 -39.559414 -76.151917 -0.024438718 -6.8572617 -0.025798324 -6.8541002 -38.799072 -118.81975
33976000 -39.398411 -77.240288 -0.024330165 -7.0595417 -0.025842592 -7.0540833 -38.495956 -118.2731
34975000 -39.110119 -77.867989 -0.024143264 -7.2599463 -0.027009623 -7.257719 -38.27985 -117.91584
35974000 -38.898003 -78.506752 -0.024146648 -7.4556255 -0.026606167 -7.4582591 -37.995235 -116.84451
36973000 -38.668564 -79.259033 -0.023960536 -7.6555767 -0.027402697 -7.659183 -37.729877 -115.94676
37972000 -38.50536 -78.888138 -0.023980839 -7.8644147 -0.027804663 -7.8748827 -37.51495 -115.27208
38971000 -38.17981 -78.539772 -0.025519703 -8.0690641 -0.027635068 -8.07728 -37.340431 -113.70294
39970000 -37.850819 -78.909248 -0.023383247 -8.2620268 -0.026499383 -8.2781219 -37.078281 -113.02086
40969000 -37.549637 -78.512505 -0.023285391 -8.4567242 -0.026168892 -8.4769964 -36.848923 -111.60658
41968000 -37.220982 -78.404213 -0.023890778 -8.6603022 -0.026748896 -8.6799278 -36.639851 -110.4307
42967000 -36.968586 -78.605164 -0.02331402 -8.8707333 -0.026314471 -8.8922062 -36.46101 -108.66452
43966000 -36.641037 -79.250336 -0.024769859 -9.0762863 -0.028195726 -9.0884285 -36.184078 -107.80158
44965000 -36.418839 -79.965019 -0.024872694 -9.2758856 -0.028584477 -9.295496 -35.988663 -107.5492
45964000 -36.169083 -80.99424 -0.026015766 -9.4799919 -0.02933003 -9.4974775 -35.734364 -107.30869
46963000 -35.985889 -82.986488 -0.026496258 -9.6691723 -0.03001993 -9.6939335 -35.570568 -107.57239
47962000 -35.82658 -84.351433 -0.027433436 -9.8730259 -0.031392235 -9.8917522 -35.361282 -107.61879
48961000 -35.625462 -85.686264 -0.030279288 -10.071844 -0.033435855 -10.09411 -35.147293 -107.63129
49960000 -35.377682 -87.044052 -0.031426392 -10.270812 -0.033926822 -10.293694 -35.004395 -107.87006
50959000 -35.152565 -88.298096 -0.031960681 -10.484915 -0.035354644 -10.495929 -34.816475 -107.93119
51958000 -34.95739 -89.433815 -0.03456657 -10.684829 -0.036207858 -10.694069 -34.648209 -108.573
52957000 -34.741226 -90.413879 -0.035448339 -10.883654 -0.036941927 -10.891459 -34.469585 -108.1981
53956000 -34.556408 -91.112587 -0.036608033 -11.08604 -0.037867785 -11.087968 -34.347401 -108.17063
54955000 -34.396671 -91.568047 -0.037733305 -11.284992 -0.039224289 -11.285643 -34.196289 -108.19197
55954000 -34.214909 -92.365173 -0.039309967 -11.486327 -0.03957171 -11.4871 -34.088577 -107.86235
56953000 -34.105076 -92.445259 -0.038150072 -11.689251 -0.038482781 -11.675748 -34.015789 -108.0192
57952000 -33.936337 -92.981972 -0.039710164 -11.883386 -0.039432999 -11.873514 -33.914494 -108.13772
58951000 -33.820351 -93.347588 -0.040103082 -12.087265 -0.040570501 -12.06874 -33.759918 -108.17345
59950000 -33.706047 -93.59964 -0.040675282 -12.286868 -0.040839639 -12.267303 -33.686047 -108.39745
60949000 -33.577026 -94.222672 -0.040816907 -12.488188 -0.042097483 -12.468415 -33.59383 -108.63124
61948000 -33.524628 -94.549744 -0.041942488 -12.690346 -0.041812327 -12.673816 -33.499725 -108.78678
62947000 -33.430527 -94.714081 -0.041832976 -12.906384 -0.042597011 -12.88237 -33.371281 -109.05151
63946000 -33.34444 -95.491165 -0.043556236 -13.102513 -0.043506294 -13.079685 -33.258221 -109.13408
64945000 -33.239597 -95.724998 -0.043867655 -13.305167 -0.043755479 -13.287271 -33.152561 -109.66331
65944000 -33.140198 -95.953941 -0.045030911 -13.502924 -0.044546794 -13.486631 -33.056458 -110.14273
66943000 -33.002048 -96.3386 -0.042759091 -13.705033 -0.043022349 -13.688732 -32.95034 -110.36839
67942000 -32.950027 -96.337822 -0.044745822 -13.901003 -0.044735096 -13.892373 -32.8358 -110.70294
68941000 -32.828175 -96.438202 -0.044109799 -14.095466 -0.043332424 -14.08827 -32.723579 -110.62624
69940000 -32.730873 -96.325836 -0.044873193 -14.297463 -0.044328421 -14.282714 -32.572899 -111.01554
70939000 -32.617207 -96.372772 -0.044274028 -14.49457 -0.04422434 -14.483611 -32.448025 -110.85457
71938000 -32.487045 -95.937637 -0.044100124 -14.689117 -0.044261474 -14.680081 -32.319302 -110.65705
72937000 -32.326012 -95.760078 -0.043638077 -14.888512 -0.043849614 -14.881336 -32.178455 -110.36407
73936000 -32.188656 -95.345619 -0.043630492 -15.083338 -0.04377326 -15.079726 -32.063118 -110.18672
74935000 -32.065742 -95.587433 -0.04308274 -15.282014 -0.042677004 -15.279985 -31.909763 -109.80344
75934000 -31.938639 -95.875244 -0.043372951 -15.490561 -0.042357303 -15.48729 -31.809515 -109.72218
76933000 -31.807875 -96.196053 -0.043781627 -15.687318 -0.044494487 -15.682635 -31.646624 -110.05814
77932000 -31.697262 -96.967041 -0.045728277 -15.879983 -0.045861434 -15.871891 -31.53706 -110.00997
78931000 -31.634523 -97.700661 -0.044075284 -16.082438 -0.044953488 -16.078938 -31.451519 -109.90012
79930000 -31.526028 -98.544662 -0.046959542 -16.276213 -0.047105033 -16.272825 -31.349129 -110.21716
80929000 -31.400179 -99.375786 -0.048551593 -16.474306 -0.048455525 -16.471165 -31.245766 -110.44383
81928000 -31.290237 -100.1326 -0.048436679 -16.662212 -0.049241412 -16.66214 -31.11771 -110.47337
82927000 -31.203283 -100.80724 -0.050613783 -16.862574 -0.050268881 -16.861221 -31.00971 -110.80504
83926000 -31.085398 -101.49255 -0.051740337 -17.058023 -0.051151223 -17.061848 -30.893106 -110.83327
84925000 -30.973345 -101.93603 -0.052802198 -17.256197 -0.052167356 -17.256821 -30.795282 -110.97124
85924000 -30.881096 -102.25654 -0.053045627 -17.461784 -0.05352414 -17.457462 -30.707041 -110.93904
86923000 -30.779732 -102.79456 -0.053777047 -17.659983 -0.053712573 -17.654577 -30.611675 -110.75965
87922000 -30.658665 -103.14844 -0.053739306 -17.867115 -0.053143106 -17.856434 -30.52387 -110.77431
88921000 -30.597244 -103.41135 -0.054922771 -18.063942 -0.054171499 -18.061184 -30.424782 -110.81332
89920000 -30.484467 -103.93156 -0.055252835 -18.262396 -0.053896558 -18.258865 -30.368414 -110.89716
90919000 -30.38838 -104.18806 -0.056573868 -18.461061 -0.05512647 -18.45558 -30.281883 -111.06122
91918000 -30.286066 -104.48199 -0.056984052 -18.660851 -0.055576369 -18.656895 -30.219833 -111.12527
92917000 -30.199301 -104.80378 -0.057540644 -18.859869 -0.056875732 -18.858919 -30.15159 -111.19405
93916000 -30.117075 -105.22453 -0.057674423 -19.052481 -0.056826949 -19.047209 -30.068014 -111.78481
94915000 -30.034723 -105.80814 -0.058120392 -19.256323 -0.057963509 -19.24765 -30.003878 -111.68263
95914000 -29.970901 -105.95316 -0.059325255 -19.448483 -0.058554597 -19.444288 -29.917673 -111.93877
96913000 -29.882586 -106.20731 -0.060817372 -19.652946 -0.059382465 -19.649326 -29.849787 -112.28869
97912000 -29.806704 -106.65324 -0.06184338 -19.84955 -0.059627574 -19.84853 -29.764187 -112.55019
98911000 -29.696167 -106.83578 -0.062737532 -20.047188 -0.061646193 -20.044098 -29.727547 -112.71696
99910000 -29.630198 -106.96014 -0.063001476 -20.247334 -0.062373023 -20.246964 -29.620378 -112.99258
100909000 -29.540886 -107.18573 -0.062433161 -20.457253 -0.060493447 -20.450331 -29.529606 -113.26479
101908000 -29.454954 -107.48899 -0.063568823 -20.657244 -0.062669247 -20.656178 -29.426653 -113.01696
102907000 -29.32305 -107.44752 -0.064271018 -20.852127 -0.062709697 -20.857693 -29.356426 -112.95786
103906000 -29.217987 -107.49702 -0.064364545 -21.062723 -0.062517717 -21.055752 -29.208895 -112.96166
104905000 -29.080599 -107.38712 -0.064766265 -21.262356 -0.062786117 -21.260338 -29.080175 -112.67464
105904000 -28.934069 -107.50806 -0.065679416 -21.462807 -0.062829718 -21.456976 -28.970423 -112.51228
106903000 -28.825674 -107.5621 -0.06532754 -21.668137 -0.063370511 -21.665747 -28.847393 -112.40379
107902000 -28.658686 -107.92164 -0.065933034 -21.873096 -0.063916095 -21.860609 -28.707188 -112.38243
108901000 -28.548874 -108.13042 -0.067225248 -22.074287 -0.065338574 -22.065519 -28.581505 -112.28354
109900000 -28.423403 -108.6083 -0.06820228 -22.272457 -0.065984808 -22.265238 -28.435163 -112.39548
110899000 -28.309103 -109.19012 -0.069868438 -22.470701 -0.066896372 -22.463743 -28.308802 -112.65128
111898000 -28.223026 -109.85041 -0.07064689 -22.670986 -0.067751601 -22.667931 -28.193808 -112.79618
112897000 -28.089754 -110.39468 -0.07238742 -22.870279 -0.069266602 -22.860687 -28.056747 -112.95366
113896000 -27.989122 -110.97388 -0.073283739 -23.071751 -0.070566118 -23.062487 -27.948013 -113.05577
114895000 -27.888153 -111.5721 -0.073989086 -23.271132 -0.071576543 -23.259186 -27.838886 -113.17767
115894000 -27.765396 -111.96507 -0.075191513 -23.470474 -0.073119201 -23.458748 -27.773388 -113.34539
116893000 -27.684668 -112.46729 -0.076200902 -23.665434 -0.07400436 -23.654039 -27.644819 -113.39434
117892000 -27.605814 -112.96776 -0.077003688 -23.861423 -0.073907457 -23.85285 -27.569313 -113.60283
118891000 -27.547649 -113.33726 -0.077018179 -24.070515 -0.07446675 -24.05138 -27.474216 -113.70143
119890000 -27.46068 -113.68782 -0.077809781 -24.266304 -0.074805945 -24.249855 -27.461544 -113.83846
120889000 -27.415249 -114.21115 -0.079391301 -24.468975 -0.076047055 -24.452831 -27.387865 -113.76649
121888000 -27.370066 -114.51933 -0.079104476 -24.663675 -0.075597137 -24.649462 -27.329067 -114.0722
122887000 -27.333931 -114.74052 -0.07997714 -24.865667 -0.076766551 -24.857355 -27.28306 -114.07715
123886000 -27.277555 -115.16342 -0.080610521 -25.071249 -0.077269554 -25.052055 -27.273117 -114.18998
124885000 -27.244276 -115.63618 -0.080640055 -25.270145 -0.077675112 -25.255905 -27.24243 -114.2505
125884000 -27.193188 -115.83662 -0.081719033 -25.464907 -0.077250317 -25.453413 -27.21069 -114.40907
126883000 -27.171137 -116.26417 -0.081607461 -25.67181 -0.078517705 -25.657993 -27.170589 -114.4256
127882000 -27.123888 -116.51965 -0.081902102 -25.872742 -0.079512574 -25.854393 -27.135881 -114.54286
128881000 -27.09111 -116.84579 -0.082141362 -26.072657 -0.079128467 -26.058529 -27.094217 -114.66682
129880000 -27.038336 -117.17553 -0.082698017 -26.272518 -0.07920254 -26.255507 -27.052504 -114.5942
130879000 -26.973417 -117.30392 -0.082346603 -26.475801 -0.079746962 -26.455603 -26.980494 -114.61921
131878000 -26.910637 -117.55622 -0.082278542 -26.677202 -0.080325723 -26.659702 -26.919981 -114.47871
132877000 -26.846006 -117.58735 -0.082528114 -26.880068 -0.080579929 -26.863743 -26.835781 -114.48123
133876000 -26.761614 -117.76305 -0.083023608 -27.078773 -0.080386378 -27.058451 -26.755848 -114.36691
134875000 -26.667862 -117.92199 -0.083332591 -27.284441 -0.080562003 -27.261965 -26.654755 -114.18564
135874000 -26.582825 -117.93385 -0.083165295 -27.482679 -0.080728404 -27.464151 -26.554028 -114.16824
136873000 -26.473894 -117.90121 -0.083823159 -27.683676 -0.079841085 -27.663532 -26.471329 -114.1248
137872000 -26.396454 -117.9818 -0.083890721 -27.88221 -0.080296457 -27.863977 -26.370905 -114.05899
138871000 -26.320196 -118.2223 -0.083703615 -28.081125 -0.080359481 -28.075068 -26.276491 -114.22841
139870000 -26.21991 -118.50615 -0.085164532 -28.286106 -0.082179084 -28.267979 -26.198534 -114.37859
140869000 -26.13888 -119.01611 -0.086196311 -28.481865 -0.08287295 -28.462008 -26.094934 -114.5742
141868000 -26.061066 -119.44135 -0.08657524 -28.684086 -0.083929785 -28.664972 -26.046097 -114.84644
142867000 -25.98262 -119.63454 -0.085622311 -28.879465 -0.083390906 -28.860815 -25.964729 -114.92446
143866000 -25.910084 -120.10709 -0.087294102 -29.074074 -0.08462102 -29.060219 -25.897135 -115.4138
144865000 -25.843687 -120.59148 -0.088315025 -29.273811 -0.086247012 -29.260691 -25.838947 -115.71364
145864000 -25.798393 -120.92146 -0.08922416 -29.471556 -0.08737915 -29.463268 -25.808315 -115.95141
146863000 -25.744804 -121.286 -0.089722529 -29.675646 -0.087552682 -29.66259 -25.754999 -116.25565
147862000 -25.707146 -121.63687 -0.091462784 -29.875498 -0.088097878 -29.861595 -25.716457 -116.55834
148861000 -25.678585 -122.07853 -0.092450581 -30.0725 -0.089701653 -30.05681 -25.696943 -116.71365
149860000 -25.646688 -122.25315 -0.09328758 -30.267273 -0.090756185 -30.251526 -25.652689 -116.81218
150859000 -25.620741 -122.73009 -0.092602894 -30.463692 -0.089235783 -30.450592 -25.626568 -117.18175
151858000 -25.610096 -123.08125 -0.092116624 -30.664856 -0.089650914 -30.648251 -25.614653 -117.49458
152857000 -25.600328 -123.36162 -0.092342429 -30.85877 -0.090191625 -30.848331 -25.602568 -117.69933
153856000 -25.590948 -123.62096 -0.09222503 -31.060081 -0.089256659 -31.046051 -25.617033 -118.01042
154855000 -25.591805 -123.76386 -0.092478879 -31.258787 -0.089866556 -31.250294 -25.607365 -118.21055
155854000 -25.604496 -124.03058 -0.092671648 -31.460976 -0.090099648 -31.447666 -25.596485 -118.53437
156853000 -25.585461 -124.69886 -0.090668961 -31.647894 -0.08963532 -31.642166 -25.595507 -118.82874
157852000 -25.599209 -124.91599 -0.091865174 -31.852192 -0.090724997 -31.838654 -25.580658 -119.18332
158851000 -25.601999 -125.16065 -0.093021519 -32.048401 -0.090677947 -32.04126 -25.57003 -119.46679
159850000 -25.584087 -125.24165 -0.093223579 -32.245808 -0.091509581 -32.239933 -25.567677 -119.63343
160849000 -25.569641 -125.3402 -0.093164332 -32.44799 -0.091932863 -32.447216 -25.536779 -119.91639
161848000 -25.551586 -125.41592 -0.093129426 -32.648613 -0.092190653 -32.640598 -25.501219 -120.03265
162847000 -25.513092 -125.62409 -0.093606554 -32.844334 -0.09282212 -32.839729 -25.468254 -120.28291
163846000 -25.472332 -125.82075 -0.094144054 -33.049259 -0.092377335 -33.042759 -25.396996 -120.28117
164845000 -25.415522 -125.77198 -0.094903857 -33.244995 -0.092874482 -33.243885 -25.333982 -120.39384
165844000 -25.366709 -125.82024 -0.094571561 -33.44891 -0.093695961 -33.438774 -25.252115 -120.49903
166843000 -25.29969 -125.85889 -0.094245367 -33.646217 -0.093086049 -33.642914 -25.188177 -120.72192
167842000 -25.244335 -125.97346 -0.095029265 -33.847553 -0.093447328 -33.839405 -25.115175 -120.59133
168841000 -25.164816 -126.15005 -0.095551595 -34.045246 -0.093287848 -34.040516 -25.038363 -120.67701
169840000 -25.102043 -126.39697 -0.095702693 -34.241879 -0.094457537 -34.241276 -24.954021 -120.82602
170839000 -25.040541 -126.62446 -0.096460119 -34.440067 -0.094546162 -34.436699 -24.869226 -121.05447
171838000 -24.980724 -127.01477 -0.096393421 -34.639954 -0.095860943 -34.634441 -24.808435 -121.2737
172837000 -24.916721 -127.34827 -0.097943604 -34.836349 -0.096374102 -34.831841 -24.741745 -121.48148
173836000 -24.848587 -127.72059 -0.099110045 -35.036484 -0.098037072 -35.034077 -24.702778 -121.66251
174835000 -24.791231 -128.15533 -0.099360585 -35.231903 -0.098462306 -35.233475 -24.655367 -122.00677
175834000 -24.747952 -128.50179 -0.1000821 -35.43568 -0.099312916 -35.429268 -24.594595 -122.26221
176833000 -24.694904 -128.86874 -0.10142691 -35.63475 -0.10013137 -35.629345 -24.546972 -122.36655
177832000 -24.646418 -129.312 -0.10232554 -35.831409 -0.1008501 -35.831528 -24.522713 -122.49853
178831000 -24.604607 -129.5153 -0.10359814 -36.026474 -0.10283178 -36.026661 -24.483593 -122.5855
179830000 -24.531584 -129.90245 -0.10492707 -36.21228 -0.10361299 -36.214115 -24.424925 -122.65385
180829000 -24.483709 -130.26776 -0.10447893 -36.406376 -0.10325351 -36.404316 -24.37969 -122.97523
181828000 -24.466555 -130.68338 -0.10344703 -36.604767 -0.10221715 -36.604073 -24.359606 -123.18644
182827000 -24.437815 -131.0704 -0.10291713 -36.805347 -0.10270958 -36.80117 -24.344044 -123.2851
183826000 -24.396358 -131.42169 -0.10436543 -37.004986 -0.10303032 -37.000313 -24.337111 -123.45827
184825000 -24.396767 -131.7446 -0.10394492 -37.197803 -0.10333569 -37.200027 -24.31996 -123.56918
185824000 -24.367546 -132.09734 -0.10359894 -37.395241 -0.10346904 -37.393456 -24.31587 -123.64604
186823000 -24.349369 -132.43803 -0.10394306 -37.59341 -0.10341787 -37.591644 -24.307785 -123.65477
187822000 -24.326025 -132.81502 -0.10401969 -37.79023 -0.1041337 -37.790154 -24.264935 -123.72776
188821000 -24.306198 -133.04538 -0.10441846 -37.983166 -0.1038781 -37.990383 -24.250525 -123.88488
189820000 -24.284451 -133.35469 -0.10478758 -38.186268 -0.10371744 -38.186115 -24.233263 -124.06007
190819000 -24.253714 -133.62547 -0.10534556 -38.383091 -0.10444976 -38.382442 -24.191566 -124.08463
191818000 -24.221046 -133.95055 -0.10513737 -38.580597 -0.10432035 -38.579773 -24.164749 -124.11898
192817000 -24.171246 -134.2435 -0.10606462 -38.778831 -0.10477804 -38.77932 -24.119596 -124.20556
193816000 -24.138607 -134.48334 -0.10623731 -38.977917 -0.10474515 -38.975002 -24.071562 -124.38136
194815000 -24.080812 -134.87325 -0.10635164 -39.169716 -0.10600812 -39.172623 -24.004992 -124.41657
195814000 -24.0224 -135.06985 -0.10717275 -39.366009 -0.10649516 -39.368526 -23.94882 -124.54025
196813000 -23.972618 -135.392 -0.10659278 -39.563999 -0.10547207 -39.561306 -23.867504 -124.66174
197812000 -23.915163 -135.60358 -0.10675196 -39.758064 -0.10641929 -39.758377 -23.799963 -124.75495
198811000 -23.862049 -135.75446 -0.10748027 -39.953468 -0.10692255 -39.957355 -23.726711 -124.92184
199810000 -23.788818 -136.11205 -0.10764506 -40.148876 -0.10618585 -40.148014 -23.653749 -125.03492
200809000 -23.734171 -136.3727 -0.10793112 -40.350876 -0.10672331 -40.351196 -23.576771 -125.18342
201808000 -23.672579 -136.54562 -0.1091828 -40.55159 -0.10783028 -40.55159 -23.506308 -125.26066
202807000 -23.617668 -136.91458 -0.10888073 -40.749382 -0.10846243 -40.754715 -23.456657 -125.46373
