!Keysight Technologies,E5080B,MY59205177,A.15.75.32
!Date: Friday, February 23, 2024 02:55:06
!Correction: S11(Cdelta 2-Port  ) 
!S21(Cdelta 2-Port  ) 
!S12(Cdelta 2-Port  ) 
!S22(Cdelta 2-Port  ) 
!S2P File: Measurements: S11, S21, S12, S22:
# Hz S  dB   R 50
10000000 -43.754032 -3.7774224 -0.029964931 -2.0421517 -0.033329427 -2.0948956 -48.671333 -148.60329
10999000 -43.157188 -5.3123426 -0.030686475 -2.2598746 -0.033555854 -2.3146727 -48.328693 -140.19078
11998000 -42.391434 -7.888207 -0.031719994 -2.4826615 -0.032608487 -2.5268049 -48.37109 -134.79796
12997000 -41.758247 -12.316777 -0.030576725 -2.6621244 -0.032845568 -2.6944313 -47.656033 -128.0983
13996000 -41.549866 -15.4423 -0.030014977 -2.8441324 -0.032819487 -2.8614373 -47.217793 -122.10672
14995000 -41.262798 -19.067554 -0.032699771 -3.0493879 -0.032294743 -3.0740488 -46.699833 -118.83112
15994000 -41.159298 -22.84692 -0.033034932 -3.2702157 -0.034738265 -3.2902055 -46.46796 -114.98781
16993000 -41.129581 -26.515348 -0.032148439 -3.4651046 -0.034681901 -3.472919 -45.565155 -116.48901
17992000 -41.220119 -31.102411 -0.032612398 -3.6645968 -0.034570746 -3.6676486 -44.98064 -117.08019
18991000 -41.496368 -35.07822 -0.033497158 -3.8727715 -0.035966936 -3.8712075 -44.200394 -117.00729
19990000 -41.365517 -40.067215 -0.036066644 -4.0811367 -0.037826005 -4.0784626 -43.558468 -118.72028
20989000 -41.277199 -42.875332 -0.038451701 -4.2848148 -0.040002499 -4.2743483 -42.943405 -119.07829
21988000 -41.239998 -47.414463 -0.038333397 -4.4838586 -0.040271077 -4.4694448 -42.622204 -118.44579
22987000 -41.087498 -51.737293 -0.040210463 -4.6798797 -0.041522484 -4.6719689 -42.388283 -118.06712
23986000 -41.082958 -55.765167 -0.039149322 -4.8744526 -0.040540192 -4.8736134 -42.244831 -118.06878
24985000 -40.766544 -58.224892 -0.039598353 -5.0848265 -0.041087102 -5.0785174 -41.976425 -115.36913
25984000 -40.560696 -60.354279 -0.041245464 -5.2903929 -0.040945731 -5.2940888 -41.624226 -114.54145
26983000 -40.299244 -62.369301 -0.042131986 -5.4877396 -0.042210404 -5.5072079 -41.448021 -113.65593
27982000 -40.147751 -63.414791 -0.04296222 -5.6851735 -0.043758616 -5.7237124 -41.169727 -111.83586
28981000 -40.141094 -64.790352 -0.041556198 -5.8816848 -0.04344276 -5.9092717 -40.902107 -111.59529
29980000 -39.752056 -66.365227 -0.041767113 -6.0769801 -0.044362679 -6.0855131 -40.575283 -110.96111
30979000 -39.40704 -65.559052 -0.039281495 -6.4300814 -0.038246173 -6.4218454 -40.062523 -111.56226
31978000 -39.20219 -66.740578 -0.038449615 -6.6278238 -0.039274178 -6.618907 -39.801086 -111.20557
32977000 -39.058552 -68.423798 -0.038624596 -6.8373833 -0.040772222 -6.8300042 -39.547916 -111.41526
33976000 -38.930355 -69.574425 -0.038867231 -7.0383739 -0.040206019 -7.0332565 -39.225109 -110.89769
34975000 -38.653255 -70.690613 -0.038599525 -7.2368536 -0.041123427 -7.2360802 -38.965084 -110.76735
35974000 -38.439159 -71.374855 -0.038405739 -7.4315157 -0.041283097 -7.4366932 -38.685276 -110.02306
36973000 -38.240238 -72.198631 -0.039071225 -7.6314368 -0.041942749 -7.6336293 -38.375042 -109.09429
37972000 -38.088631 -72.11599 -0.038832754 -7.8407969 -0.042293787 -7.8509226 -38.143448 -108.55112
38971000 -37.753498 -72.011391 -0.0392875 -8.0404758 -0.041625194 -8.0550175 -37.940712 -106.99584
39970000 -37.445824 -72.457886 -0.038263932 -8.2388525 -0.041319944 -8.2509832 -37.649357 -106.6114
40969000 -37.158157 -72.399811 -0.037739314 -8.4329576 -0.041269507 -8.4526825 -37.377411 -105.424
41968000 -36.813126 -72.721504 -0.038407307 -8.6376019 -0.041163933 -8.6530943 -37.147305 -104.20034
42967000 -36.549618 -72.791481 -0.038195774 -8.8456612 -0.041393902 -8.8648729 -36.918056 -102.40242
43966000 -36.283962 -73.78215 -0.03885809 -9.0435791 -0.042650342 -9.0653915 -36.6385 -101.89999
44965000 -36.062199 -74.654388 -0.040216733 -9.245821 -0.042828105 -9.2669277 -36.401939 -101.8285
45964000 -35.849831 -75.880981 -0.041289892 -9.450573 -0.043927275 -9.4685659 -36.153641 -101.53372
46963000 -35.688419 -77.704514 -0.041609515 -9.6413441 -0.044837099 -9.667635 -35.993435 -102.01225
47962000 -35.545155 -79.429443 -0.04180919 -9.8462706 -0.046243135 -9.8605585 -35.787281 -102.27605
48961000 -35.344227 -80.862549 -0.04410065 -10.042692 -0.047052436 -10.06208 -35.543747 -102.61928
49960000 -35.143837 -82.354103 -0.045783475 -10.238533 -0.048489556 -10.264023 -35.421299 -102.79517
50959000 -34.928959 -83.733505 -0.04606837 -10.455076 -0.049665045 -10.463013 -35.23632 -103.23592
51958000 -34.748775 -84.884033 -0.048432231 -10.651439 -0.051045932 -10.663859 -35.077778 -103.78575
52957000 -34.548672 -86.02282 -0.049806699 -10.853717 -0.052371711 -10.859513 -34.891922 -103.63561
53956000 -34.405273 -86.762955 -0.050879352 -11.054182 -0.052758966 -11.053716 -34.77047 -103.69973
54955000 -34.237717 -87.262634 -0.052064396 -11.252731 -0.053848069 -11.250081 -34.6157 -103.73759
55954000 -34.082161 -88.224907 -0.052373283 -11.455406 -0.054063775 -11.45035 -34.504539 -103.49683
56953000 -33.969109 -88.282501 -0.052473105 -11.649989 -0.052882116 -11.640626 -34.434101 -103.70098
57952000 -33.821724 -88.996994 -0.053932726 -11.847754 -0.054484207 -11.838112 -34.327286 -103.90801
58951000 -33.699039 -89.345947 -0.054661147 -12.052439 -0.056199387 -12.036096 -34.170891 -104.03436
59950000 -33.580254 -89.701889 -0.055174444 -12.252397 -0.055268563 -12.230336 -34.098682 -104.31819
60949000 -33.478596 -90.387672 -0.055286918 -12.4554 -0.056715224 -12.432642 -34.000336 -104.61685
61948000 -33.413639 -90.634315 -0.056743026 -12.651258 -0.056404192 -12.635942 -33.921841 -104.74064
62947000 -33.334286 -90.848534 -0.056563903 -12.864238 -0.056844521 -12.84241 -33.784084 -105.06789
63946000 -33.272198 -91.591682 -0.057688851 -13.061014 -0.057809785 -13.043195 -33.681145 -105.18037
64945000 -33.164627 -91.753151 -0.057841264 -13.266256 -0.058768701 -13.244477 -33.570267 -105.76653
65944000 -33.065685 -92.110832 -0.058572702 -13.461515 -0.058724355 -13.445135 -33.469757 -106.15031
66943000 -32.915077 -92.570679 -0.056399737 -13.664163 -0.057352308 -13.648353 -33.375713 -106.49113
67942000 -32.852371 -92.534325 -0.058834035 -13.860123 -0.058774997 -13.847591 -33.253319 -106.80661
68941000 -32.760487 -92.635101 -0.058539119 -14.051436 -0.057857789 -14.044665 -33.144081 -106.67834
69940000 -32.669487 -92.590057 -0.059077013 -14.253489 -0.058825638 -14.24174 -33.014893 -107.0807
70939000 -32.550674 -92.636391 -0.058296956 -14.446147 -0.05867162 -14.445952 -32.882072 -107.00385
71938000 -32.405514 -92.151855 -0.058369104 -14.6442 -0.058681589 -14.631466 -32.739307 -106.86887
72937000 -32.247143 -92.064484 -0.056791283 -14.8432 -0.057931244 -14.839411 -32.601955 -106.62502
73936000 -32.100075 -91.719391 -0.057867758 -15.041739 -0.057437032 -15.030863 -32.488831 -106.44236
74935000 -31.984682 -92.043541 -0.057113621 -15.238487 -0.056999002 -15.230885 -32.326954 -106.07526
75934000 -31.856756 -92.410393 -0.05704936 -15.442708 -0.056053326 -15.439706 -32.238098 -106.12185
76933000 -31.725012 -92.739815 -0.058781557 -15.636791 -0.058568504 -15.629231 -32.068901 -106.44726
77932000 -31.63328 -93.515755 -0.059617601 -15.836106 -0.060314432 -15.828301 -31.969416 -106.49506
78931000 -31.573591 -94.362709 -0.057697769 -16.035498 -0.059025582 -16.031446 -31.879684 -106.35299
79930000 -31.461088 -95.110031 -0.061251849 -16.229557 -0.060803983 -16.223478 -31.778025 -106.64347
80929000 -31.335405 -96.143646 -0.061904036 -16.419985 -0.06281054 -16.419775 -31.674105 -107.05342
81928000 -31.262722 -96.926201 -0.062764056 -16.611271 -0.063293286 -16.612156 -31.548027 -107.21244
82927000 -31.171396 -97.688309 -0.064117856 -16.814367 -0.064832747 -16.809742 -31.438541 -107.48598
83926000 -31.062941 -98.39798 -0.066089146 -17.009228 -0.065437116 -17.009111 -31.326702 -107.72956
84925000 -30.949976 -98.954742 -0.066497602 -17.207529 -0.06603238 -17.202383 -31.237604 -107.85545
85924000 -30.868971 -99.413475 -0.067194223 -17.408955 -0.067650899 -17.405237 -31.156578 -107.88236
86923000 -30.764309 -99.992874 -0.067155316 -17.605801 -0.068215691 -17.60375 -31.055429 -107.81303
87922000 -30.660936 -100.36636 -0.067677714 -17.811493 -0.067273356 -17.803804 -30.970188 -107.85936
88921000 -30.587936 -100.59885 -0.068573594 -18.011148 -0.06800586 -18.004774 -30.875591 -107.86048
89920000 -30.494249 -101.17407 -0.069203213 -18.211008 -0.068760052 -18.198828 -30.825163 -108.01817
90919000 -30.395111 -101.5143 -0.069973923 -18.408115 -0.069326304 -18.403088 -30.726658 -108.28359
91918000 -30.300451 -101.97498 -0.070414841 -18.605644 -0.069842391 -18.603436 -30.669558 -108.28025
92917000 -30.211983 -102.27112 -0.071400493 -18.805378 -0.071073405 -18.799294 -30.595129 -108.39007
93916000 -30.131729 -102.68967 -0.07095895 -18.996437 -0.070977889 -18.991247 -30.516911 -109.02349
94915000 -30.052246 -103.36176 -0.072630368 -19.199635 -0.072337933 -19.191135 -30.448622 -108.88731
95914000 -29.993408 -103.54893 -0.073255047 -19.394403 -0.073122628 -19.389275 -30.361874 -109.23394
96913000 -29.911095 -103.80922 -0.074653991 -19.591288 -0.073884815 -19.589025 -30.303572 -109.52624
97912000 -29.836254 -104.25914 -0.07530161 -19.786547 -0.074093096 -19.789982 -30.217686 -109.75719
98911000 -29.733433 -104.445 -0.076410346 -19.987514 -0.075531289 -19.985525 -30.181475 -110.01963
99910000 -29.664661 -104.65232 -0.076994725 -20.186758 -0.075664833 -20.188044 -30.065588 -110.24759
100909000 -29.575613 -104.88263 -0.076149799 -20.394403 -0.074918926 -20.388454 -29.982229 -110.48291
101908000 -29.494434 -105.15144 -0.077658243 -20.596958 -0.076081306 -20.594606 -29.871382 -110.27354
102907000 -29.361759 -105.18207 -0.077678539 -20.793028 -0.076461196 -20.79401 -29.803802 -110.22714
103906000 -29.258228 -105.23724 -0.078199044 -20.999659 -0.076009385 -20.994368 -29.649862 -110.16967
104905000 -29.117264 -105.16196 -0.079266608 -21.196957 -0.076378204 -21.194347 -29.516396 -109.86461
105904000 -28.976862 -105.303 -0.078656875 -21.396582 -0.076759703 -21.393461 -29.401773 -109.76186
106903000 -28.867727 -105.34814 -0.079026975 -21.604286 -0.077122524 -21.600288 -29.271849 -109.60048
107902000 -28.704308 -105.74979 -0.079450622 -21.80335 -0.077682756 -21.797186 -29.139614 -109.58308
108901000 -28.597954 -105.97459 -0.081033006 -22.008736 -0.079066515 -21.998951 -29.006264 -109.57307
109900000 -28.475006 -106.49007 -0.081501953 -22.209696 -0.080673814 -22.19618 -28.84947 -109.69365
110899000 -28.353148 -107.11574 -0.083048411 -22.403582 -0.080696233 -22.395407 -28.724585 -109.94527
111898000 -28.264116 -107.80608 -0.084734522 -22.605099 -0.081815317 -22.599611 -28.608437 -110.0998
112897000 -28.138514 -108.41846 -0.085704155 -22.807037 -0.083147883 -22.793198 -28.481218 -110.29028
113896000 -28.040306 -109.02943 -0.087033957 -23.006115 -0.084019512 -22.99176 -28.362324 -110.43903
114895000 -27.93166 -109.66804 -0.087951533 -23.202963 -0.085740589 -23.189877 -28.260471 -110.5947
115894000 -27.803787 -110.04408 -0.089493416 -23.404037 -0.087066174 -23.390858 -28.183262 -110.75148
116893000 -27.730774 -110.65192 -0.089649327 -23.59959 -0.087686069 -23.578888 -28.056273 -110.91107
117892000 -27.648844 -111.07449 -0.089589082 -23.797091 -0.087741539 -23.780636 -27.988108 -111.12167
118891000 -27.586514 -111.55261 -0.090068728 -23.997129 -0.087863304 -23.980938 -27.885956 -111.26344
119890000 -27.503517 -111.95948 -0.091514342 -24.198193 -0.089014888 -24.181538 -27.873167 -111.45888
120889000 -27.446812 -112.44114 -0.091847986 -24.396294 -0.089203283 -24.380384 -27.804598 -111.40948
121888000 -27.407223 -112.77952 -0.09238527 -24.59285 -0.090038866 -24.578341 -27.743082 -111.72168
122887000 -27.363394 -113.03638 -0.093521126 -24.796463 -0.090648867 -24.779131 -27.693102 -111.77279
123886000 -27.314293 -113.44355 -0.094057284 -24.999737 -0.090855047 -24.978481 -27.676992 -111.90818
124885000 -27.27877 -113.95605 -0.094226055 -25.196007 -0.091878131 -25.18297 -27.650116 -111.99637
125884000 -27.230732 -114.1355 -0.094518915 -25.396803 -0.091666095 -25.376883 -27.621338 -112.14683
126883000 -27.205069 -114.51878 -0.095505282 -25.597233 -0.092313342 -25.581406 -27.582731 -112.20302
127882000 -27.156324 -114.8169 -0.095749006 -25.797577 -0.092397958 -25.778208 -27.535839 -112.38549
128881000 -27.126152 -115.15382 -0.095765412 -25.996237 -0.092796206 -25.979788 -27.495983 -112.47997
129880000 -27.067638 -115.45617 -0.096694365 -26.197929 -0.09253943 -26.181221 -27.45858 -112.48697
130879000 -27.007576 -115.6126 -0.096206039 -26.398314 -0.09387397 -26.382048 -27.380201 -112.53528
131878000 -26.943207 -115.8205 -0.096502736 -26.597471 -0.093819216 -26.581209 -27.310915 -112.42386
132877000 -26.869139 -115.89237 -0.095942453 -26.800005 -0.093986392 -26.781704 -27.225996 -112.43781
133876000 -26.788527 -116.03874 -0.096139617 -26.998381 -0.093869738 -26.983547 -27.135561 -112.35761
134875000 -26.693115 -116.17179 -0.096964881 -27.197386 -0.094777919 -27.18185 -27.03018 -112.18594
135874000 -26.607773 -116.17542 -0.096740156 -27.401958 -0.094395369 -27.385544 -26.93012 -112.2265
136873000 -26.497005 -116.14635 -0.097607367 -27.604185 -0.094673946 -27.583609 -26.846376 -112.16041
137872000 -26.422457 -116.2459 -0.097637817 -27.804911 -0.094960213 -27.78907 -26.739193 -112.15448
138871000 -26.345322 -116.46133 -0.09843874 -28.004879 -0.094562829 -27.984018 -26.635263 -112.3054
139870000 -26.242483 -116.71001 -0.098902948 -28.206411 -0.096952178 -28.185638 -26.560062 -112.4725
140869000 -26.155596 -117.18714 -0.10039178 -28.39827 -0.097663492 -28.380194 -26.451893 -112.61478
141868000 -26.062763 -117.64871 -0.10052396 -28.591499 -0.098657206 -28.574305 -26.383263 -112.93424
142867000 -25.986822 -117.91114 -0.098822974 -28.786991 -0.096978121 -28.771784 -26.303305 -113.13509
143866000 -25.923925 -118.44069 -0.10058755 -28.984253 -0.098675206 -28.969948 -26.234449 -113.6014
144865000 -25.859827 -118.98487 -0.10177988 -29.18504 -0.10022567 -29.17058 -26.176527 -113.96971
145864000 -25.808533 -119.31685 -0.10261285 -29.384991 -0.10117678 -29.374989 -26.140329 -114.23089
146863000 -25.759647 -119.73446 -0.10313264 -29.585548 -0.1020788 -29.572895 -26.091827 -114.57336
147862000 -25.71921 -120.08849 -0.10432884 -29.783566 -0.10159332 -29.769524 -26.057425 -114.93778
148861000 -25.688892 -120.5955 -0.105048 -29.978294 -0.10252459 -29.962711 -26.036741 -115.16112
149860000 -25.675161 -120.7847 -0.10446964 -30.178726 -0.10293224 -30.166204 -26.002714 -115.34473
150859000 -25.655094 -121.15575 -0.10529093 -30.374266 -0.10314006 -30.364498 -25.99523 -115.56927
151858000 -25.63648 -121.4838 -0.10557949 -30.581158 -0.10290653 -30.567898 -25.98241 -115.91999
152857000 -25.617605 -121.79431 -0.10512809 -30.774893 -0.1036851 -30.759254 -25.964481 -116.0323
153856000 -25.613394 -122.01964 -0.1051379 -30.974194 -0.10279652 -30.958462 -25.9851 -116.33962
154855000 -25.605614 -122.17232 -0.10561582 -31.171164 -0.10344544 -31.162657 -25.969858 -116.53612
155854000 -25.616972 -122.4649 -0.10613916 -31.373501 -0.10403161 -31.359482 -25.963432 -116.82494
156853000 -25.601542 -123.19235 -0.10437949 -31.557486 -0.10314722 -31.549986 -25.960836 -117.14594
157852000 -25.605999 -123.38016 -0.1060121 -31.760765 -0.10531215 -31.750244 -25.948187 -117.48548
158851000 -25.604956 -123.57923 -0.10577072 -31.956188 -0.10501989 -31.948421 -25.933241 -117.72417
159850000 -25.586336 -123.72736 -0.10669307 -32.158875 -0.10516521 -32.149044 -25.934816 -117.88159
160849000 -25.572231 -123.86084 -0.10672013 -32.35445 -0.10583571 -32.350319 -25.905117 -118.15981
161848000 -25.547375 -123.91444 -0.1071685 -32.55526 -0.10600282 -32.548798 -25.859003 -118.25694
162847000 -25.507452 -124.13822 -0.10681564 -32.752773 -0.10682067 -32.7481 -25.829208 -118.52219
163846000 -25.462559 -124.37389 -0.10734256 -32.953777 -0.10623041 -32.945431 -25.752367 -118.51714
164845000 -25.397923 -124.37344 -0.10787699 -33.151115 -0.10624686 -33.144024 -25.680756 -118.61557
165844000 -25.344389 -124.41483 -0.10773979 -33.349678 -0.10708679 -33.342037 -25.607964 -118.73495
166843000 -25.283794 -124.51746 -0.1078117 -33.550175 -0.1067891 -33.540035 -25.531311 -118.92535
167842000 -25.225941 -124.68989 -0.10755696 -33.749905 -0.10776234 -33.742336 -25.451813 -118.82825
168841000 -25.141212 -124.8683 -0.10825489 -33.944958 -0.10793006 -33.942329 -25.375971 -118.92352
169840000 -25.078051 -125.134 -0.10797889 -34.140087 -0.10829576 -34.136696 -25.285101 -119.14608
170839000 -25.018803 -125.41117 -0.110061 -34.338253 -0.10881543 -34.336708 -25.197071 -119.298
171838000 -24.960451 -125.76523 -0.10949658 -34.541161 -0.10932509 -34.53183 -25.131601 -119.59679
172837000 -24.894766 -126.18401 -0.11107454 -34.737068 -0.11096752 -34.730705 -25.070982 -119.78008
173836000 -24.826906 -126.61436 -0.11184236 -34.934631 -0.11195286 -34.928581 -25.026115 -120.02917
174835000 -24.777103 -127.04204 -0.11234387 -35.132339 -0.11246474 -35.127312 -24.979481 -120.35548
175834000 -24.724119 -127.44028 -0.11311377 -35.32663 -0.11328302 -35.32357 -24.917418 -120.66912
176833000 -24.674986 -127.82574 -0.11454076 -35.525074 -0.11374138 -35.52248 -24.865396 -120.83691
177832000 -24.62549 -128.28839 -0.11466409 -35.721191 -0.11413281 -35.718948 -24.843395 -121.00427
178831000 -24.590132 -128.68208 -0.11493573 -35.916302 -0.11466196 -35.916546 -24.812698 -121.2448
179830000 -24.558352 -129.12685 -0.11587624 -36.113983 -0.11456946 -36.11689 -24.782476 -121.36428
180829000 -24.513208 -129.34653 -0.11561517 -36.30983 -0.11556971 -36.309284 -24.750458 -121.55643
181828000 -24.495022 -129.6929 -0.11565664 -36.511112 -0.1153488 -36.503674 -24.732197 -121.66082
182827000 -24.465786 -130.05873 -0.11568323 -36.706394 -0.11632769 -36.70459 -24.722347 -121.79269
183826000 -24.422222 -130.39568 -0.11677945 -36.901558 -0.11591292 -36.895874 -24.713404 -121.8822
184825000 -24.435013 -130.69711 -0.11673611 -37.094082 -0.11597779 -37.100956 -24.696012 -121.99588
185824000 -24.402649 -131.0677 -0.11650849 -37.290874 -0.11726398 -37.293182 -24.694016 -122.05766
186823000 -24.38747 -131.41814 -0.11637183 -37.493889 -0.11693023 -37.494053 -24.688948 -122.04466
187822000 -24.366474 -131.7364 -0.11697118 -37.688412 -0.11729616 -37.686142 -24.654089 -122.09545
188821000 -24.346537 -131.97139 -0.11720334 -37.886963 -0.11756583 -37.886684 -24.635372 -122.18919
189820000 -24.3293 -132.26645 -0.11792596 -38.08643 -0.1172552 -38.083126 -24.62767 -122.35869
190819000 -24.299778 -132.49001 -0.11944819 -38.283211 -0.11856118 -38.283035 -24.592936 -122.31105
191818000 -24.264744 -132.64862 -0.12016773 -38.479458 -0.12022894 -38.479797 -24.560295 -122.19853
192817000 -24.197779 -132.93468 -0.12120094 -38.662701 -0.12110724 -38.663395 -24.491381 -122.30519
193816000 -24.156775 -133.28352 -0.11992184 -38.855659 -0.11928323 -38.855324 -24.430939 -122.53469
194815000 -24.101858 -133.72032 -0.11977628 -39.053131 -0.11987208 -39.051605 -24.366556 -122.66351
195814000 -24.046682 -133.96207 -0.12050997 -39.253937 -0.12016507 -39.251862 -24.316864 -122.75491
196813000 -23.996206 -134.27588 -0.12007805 -39.445919 -0.12019701 -39.451935 -24.235765 -122.93457
197812000 -23.937393 -134.52892 -0.12003254 -39.641346 -0.12028376 -39.641563 -24.16683 -123.02402
198811000 -23.885523 -134.67099 -0.12051263 -39.837524 -0.12045302 -39.841244 -24.098648 -123.2168
199810000 -23.817757 -135.07698 -0.12063027 -40.034401 -0.12003174 -40.03421 -24.021858 -123.3031
200809000 -23.759224 -135.32661 -0.12096138 -40.230274 -0.12006155 -40.232059 -23.937866 -123.52464
201808000 -23.697628 -135.58163 -0.12175731 -40.434456 -0.12088499 -40.434174 -23.870708 -123.56554
202807000 -23.645073 -135.95364 -0.12238323 -40.633648 -0.12172057 -40.635605 -23.813885 -123.81801
203806000 -23.593588 -136.39395 -0.12427328 -40.831566 -0.12217209 -40.834682 -23.749657 -123.96387
