!Keysight Technologies,E5080B,MY59205177,A.15.75.32
!Date: Friday, February 23, 2024 02:55:12
!Correction: S11(Cdelta 2-Port  ) 
!S21(Cdelta 2-Port  ) 
!S12(Cdelta 2-Port  ) 
!S22(Cdelta 2-Port  ) 
!S2P File: Measurements: S11, S21, S12, S22:
# Hz S  dB   R 50
10000000 -43.768456 -3.8312042 -0.029907066 -2.0461414 -0.032732893 -2.094023 -48.599533 -148.12965
10999000 -43.163685 -5.5681138 -0.031261347 -2.2598836 -0.03254224 -2.3138056 -48.216057 -140.51146
11998000 -42.399632 -7.5888801 -0.030988371 -2.4846959 -0.032643434 -2.5259774 -48.41333 -134.74747
12997000 -41.779091 -12.138387 -0.030022275 -2.6625016 -0.032475997 -2.6950285 -47.646393 -127.91019
13996000 -41.563942 -15.333898 -0.029497087 -2.8431256 -0.032582667 -2.8641069 -47.23048 -122.47334
14995000 -41.262825 -19.102337 -0.031975806 -3.0503211 -0.032144528 -3.0731306 -46.772266 -118.74885
15994000 -41.163586 -22.844156 -0.033304382 -3.2679822 -0.034595273 -3.2920823 -46.44297 -115.25577
16993000 -41.159378 -26.600389 -0.032351073 -3.4646096 -0.033898909 -3.4755528 -45.56525 -116.42641
17992000 -41.208557 -30.6894 -0.032307521 -3.662534 -0.03459423 -3.6682804 -44.93708 -117.47511
18991000 -41.488583 -35.247402 -0.033874124 -3.8717082 -0.035220508 -3.8724468 -44.180622 -117.00666
19990000 -41.392326 -40.153976 -0.035906121 -4.0861464 -0.037040614 -4.0750127 -43.57452 -118.82359
20989000 -41.320164 -42.806931 -0.038374402 -4.287508 -0.039049283 -4.2781196 -42.915943 -118.92416
21988000 -41.241974 -47.682789 -0.038342539 -4.4825253 -0.040190343 -4.4706907 -42.630196 -118.31799
22987000 -41.063232 -51.8475 -0.039279927 -4.6820259 -0.040996164 -4.6710463 -42.373478 -117.98994
23986000 -41.078865 -55.797325 -0.039318584 -4.8771386 -0.039724007 -4.8716149 -42.237766 -117.96127
24985000 -40.762508 -58.137657 -0.040199488 -5.0854301 -0.040237896 -5.0812092 -41.980518 -115.75527
25984000 -40.552021 -60.592926 -0.041156877 -5.2908492 -0.041075341 -5.2964697 -41.633125 -114.62762
26983000 -40.296352 -62.500034 -0.042320449 -5.4853506 -0.041448783 -5.5066991 -41.484596 -113.64301
27982000 -40.144314 -63.329529 -0.043188624 -5.6874018 -0.043239348 -5.7219634 -41.158272 -112.22758
28981000 -40.167145 -64.709076 -0.042090166 -5.8841825 -0.043214247 -5.9090724 -40.926212 -111.55285
29980000 -39.743504 -66.537407 -0.04119895 -6.0769 -0.043871839 -6.0841231 -40.597103 -110.85778
30979000 -39.416565 -65.770393 -0.039609849 -6.4338489 -0.038268112 -6.4202099 -40.068905 -111.69601
31978000 -39.249752 -67.039795 -0.039219588 -6.6252146 -0.039140441 -6.6165423 -39.787216 -111.15922
32977000 -39.056026 -68.42675 -0.038778689 -6.8362041 -0.039730802 -6.8320165 -39.557114 -111.33125
33976000 -38.930313 -69.703033 -0.039468002 -7.03582 -0.0402264 -7.0308123 -39.240459 -110.81935
34975000 -38.630508 -70.733658 -0.039259553 -7.2382369 -0.040963762 -7.2359033 -38.983704 -110.9003
35974000 -38.439621 -71.470573 -0.038923126 -7.4320612 -0.040147759 -7.4314036 -38.68721 -110.09151
36973000 -38.238651 -72.31488 -0.038674481 -7.6321549 -0.040991459 -7.6367106 -38.358002 -109.28105
37972000 -38.063644 -72.346245 -0.038898837 -7.8402452 -0.040858455 -7.8499064 -38.143188 -108.69872
38971000 -37.733845 -71.957024 -0.039881278 -8.0386295 -0.041776519 -8.0539398 -37.919571 -107.08068
39970000 -37.444202 -72.529175 -0.038534753 -8.2373934 -0.040608913 -8.2539721 -37.652843 -106.67946
40969000 -37.158253 -72.41188 -0.038275946 -8.432766 -0.040683381 -8.4471617 -37.374756 -105.33507
41968000 -36.813065 -72.665451 -0.038191073 -8.6358519 -0.040400408 -8.6511059 -37.160049 -104.38902
42967000 -36.540501 -72.939789 -0.03814093 -8.8477793 -0.040004849 -8.8666267 -36.928108 -102.5245
43966000 -36.276958 -73.897148 -0.038989469 -9.0478926 -0.042014629 -9.064045 -36.62368 -101.94109
44965000 -36.064301 -74.730522 -0.039665751 -9.2484331 -0.042259283 -9.2685061 -36.382206 -101.94585
45964000 -35.849861 -75.989693 -0.040841989 -9.4482832 -0.042736869 -9.4701252 -36.166351 -101.73933
46963000 -35.69389 -77.94516 -0.040886413 -9.6424646 -0.043522507 -9.6647768 -35.982384 -102.15736
47962000 -35.561211 -79.388092 -0.042509962 -9.8474045 -0.044994291 -9.8631783 -35.777523 -102.35078
48961000 -35.367134 -80.864761 -0.045041893 -10.039235 -0.046180606 -10.064871 -35.558456 -102.77051
49960000 -35.15696 -82.34301 -0.045998257 -10.24158 -0.047699355 -10.260541 -35.406746 -102.84086
50959000 -34.945969 -83.763145 -0.04635381 -10.45501 -0.048425686 -10.46298 -35.236626 -103.28848
51958000 -34.756126 -84.955132 -0.048499241 -10.65057 -0.050123021 -10.659883 -35.057648 -103.78144
52957000 -34.552788 -86.07531 -0.049760353 -10.853316 -0.051913496 -10.857491 -34.900822 -103.63605
53956000 -34.391777 -86.808861 -0.051384605 -11.049463 -0.052642103 -11.053115 -34.756199 -103.73753
54955000 -34.238255 -87.275276 -0.051905636 -11.252943 -0.052815039 -11.250111 -34.59911 -103.77103
55954000 -34.077847 -88.253662 -0.052735645 -11.455998 -0.053410403 -11.450654 -34.499401 -103.62891
56953000 -33.960358 -88.367661 -0.052911203 -11.649139 -0.052856438 -11.643182 -34.413525 -103.76524
57952000 -33.812115 -89.007446 -0.054333225 -11.846888 -0.053498719 -11.840296 -34.319092 -103.91306
58951000 -33.7099 -89.379768 -0.055090815 -12.051903 -0.054546334 -12.032153 -34.165359 -104.06226
59950000 -33.598038 -89.827866 -0.055267777 -12.252122 -0.054989357 -12.230891 -34.09 -104.33146
60949000 -33.469677 -90.460938 -0.056465294 -12.452494 -0.055445537 -12.43583 -34.009796 -104.65424
61948000 -33.419701 -90.664009 -0.056514859 -12.651814 -0.055531535 -12.637142 -33.92321 -104.75078
62947000 -33.333946 -90.857437 -0.056339681 -12.863843 -0.056457952 -12.846322 -33.775333 -105.05181
63946000 -33.262199 -91.567116 -0.057402145 -13.06062 -0.057239782 -13.042502 -33.669029 -105.19098
64945000 -33.161488 -91.786865 -0.05793649 -13.261938 -0.057761252 -13.241775 -33.560333 -105.70603
65944000 -33.064255 -92.098366 -0.058611535 -13.460703 -0.058029357 -13.446486 -33.481892 -106.19374
66943000 -32.928001 -92.58075 -0.056221414 -13.665102 -0.05712175 -13.647008 -33.377407 -106.47946
67942000 -32.865925 -92.494049 -0.058848992 -13.861015 -0.058866046 -13.848529 -33.255692 -106.7655
68941000 -32.756214 -92.601898 -0.05829512 -14.053044 -0.057970069 -14.040375 -33.145767 -106.75184
69940000 -32.657372 -92.675407 -0.058412917 -14.249669 -0.058025949 -14.242496 -33.011616 -107.09219
70939000 -32.552265 -92.607109 -0.057927307 -14.448132 -0.057711411 -14.441723 -32.870403 -107.00542
71938000 -32.410496 -92.193832 -0.058888875 -14.648026 -0.058086287 -14.63654 -32.743656 -106.90527
72937000 -32.251144 -92.109032 -0.058328439 -14.845796 -0.057465885 -14.836285 -32.603909 -106.60102
73936000 -32.114086 -91.871788 -0.057520971 -15.04075 -0.057145093 -15.034172 -32.474274 -106.4009
74935000 -31.983534 -92.07692 -0.057210404 -15.236014 -0.056176048 -15.2315 -32.327305 -106.12754
75934000 -31.851482 -92.356453 -0.057762302 -15.443501 -0.056720208 -15.43769 -32.237568 -106.03884
76933000 -31.733389 -92.780785 -0.058256026 -15.636953 -0.058095731 -15.629125 -32.072182 -106.47989
77932000 -31.638134 -93.580315 -0.059758272 -15.83592 -0.059550155 -15.826317 -31.960472 -106.50517
78931000 -31.562685 -94.380859 -0.057469033 -16.0348 -0.058703892 -16.029108 -31.869247 -106.42129
79930000 -31.459961 -95.194107 -0.060733892 -16.226089 -0.061087765 -16.22562 -31.768917 -106.70313
80929000 -31.338797 -96.14312 -0.062666096 -16.418503 -0.06269446 -16.418041 -31.672352 -107.09381
81928000 -31.256929 -96.961479 -0.062680282 -16.614086 -0.062610164 -16.6115 -31.550873 -107.16421
82927000 -31.171347 -97.696144 -0.063666277 -16.814013 -0.064110234 -16.8088 -31.449614 -107.51986
83926000 -31.05183 -98.394661 -0.065685198 -17.009443 -0.065210335 -17.009157 -31.332951 -107.76707
84925000 -30.95586 -98.926559 -0.066525206 -17.210382 -0.066159852 -17.207087 -31.238686 -107.86295
85924000 -30.866913 -99.408562 -0.067252584 -17.410551 -0.067325145 -17.403761 -31.154188 -107.89503
86923000 -30.76865 -99.982445 -0.067596473 -17.609667 -0.06711562 -17.603788 -31.05188 -107.8331
87922000 -30.659546 -100.39033 -0.067287818 -17.814314 -0.066650584 -17.805109 -30.967957 -107.85714
88921000 -30.593473 -100.71413 -0.069144294 -18.012304 -0.068186507 -18.00976 -30.866796 -107.92777
89920000 -30.491371 -101.26224 -0.069399424 -18.212292 -0.068767413 -18.20137 -30.817465 -108.08602
90919000 -30.392187 -101.55926 -0.0705285 -18.406773 -0.069341302 -18.40189 -30.731991 -108.28332
91918000 -30.298851 -101.95288 -0.070536919 -18.605951 -0.06905961 -18.603579 -30.666042 -108.27142
92917000 -30.211708 -102.3173 -0.072176591 -18.803011 -0.070092306 -18.800667 -30.598013 -108.36534
93916000 -30.126207 -102.61121 -0.070930004 -18.998058 -0.0695149 -18.992025 -30.51292 -109.02531
94915000 -30.054712 -103.34739 -0.07246875 -19.197647 -0.071073666 -19.190517 -30.453373 -108.97287
95914000 -29.988325 -103.51284 -0.073387206 -19.393911 -0.071997359 -19.39028 -30.364614 -109.17781
96913000 -29.906027 -103.84251 -0.074608952 -19.592432 -0.073591769 -19.588306 -30.295542 -109.62428
97912000 -29.835421 -104.31033 -0.075851597 -19.790037 -0.073451705 -19.787437 -30.219986 -109.78195
98911000 -29.735451 -104.48485 -0.076508619 -19.991697 -0.074608691 -19.985941 -30.179317 -110.04393
99910000 -29.665503 -104.62901 -0.076990515 -20.187311 -0.075378515 -20.184464 -30.068575 -110.33015
100909000 -29.57902 -104.93208 -0.076317608 -20.397776 -0.074272417 -20.390526 -29.980816 -110.50571
101908000 -29.489195 -105.18952 -0.077395514 -20.597845 -0.075675897 -20.593548 -29.862499 -110.32516
102907000 -29.358978 -105.15813 -0.077831388 -20.789053 -0.076325782 -20.793259 -29.793056 -110.2552
103906000 -29.256765 -105.20127 -0.078263879 -21.003046 -0.075598985 -20.992094 -29.647057 -110.24656
104905000 -29.113462 -105.1283 -0.078937083 -21.197645 -0.076547079 -21.194437 -29.512108 -109.87452
105904000 -28.972633 -105.30009 -0.079276882 -21.39986 -0.076641664 -21.393929 -29.402016 -109.75664
106903000 -28.867117 -105.4024 -0.079016432 -21.60367 -0.076623224 -21.601423 -29.266699 -109.6673
107902000 -28.703373 -105.79084 -0.080345504 -21.807346 -0.077056646 -21.794069 -29.134218 -109.62645
108901000 -28.596653 -106.04368 -0.080895334 -22.007332 -0.078121819 -22.000326 -29.000353 -109.55251
109900000 -28.46862 -106.54101 -0.081637003 -22.206703 -0.079406068 -22.194273 -28.847696 -109.65597
110899000 -28.346325 -107.16243 -0.083194062 -22.402847 -0.079569526 -22.395683 -28.721104 -109.97655
111898000 -28.264168 -107.86377 -0.08449591 -22.604069 -0.080901667 -22.597866 -28.60743 -110.1308
112897000 -28.138802 -108.40443 -0.085725538 -22.803024 -0.082476139 -22.79236 -28.470722 -110.30929
113896000 -28.035082 -109.04248 -0.086920395 -23.004349 -0.083609931 -22.990795 -28.363121 -110.48836
114895000 -27.938992 -109.70502 -0.087690294 -23.201471 -0.08486782 -23.190014 -28.253925 -110.58411
115894000 -27.800438 -110.07581 -0.089060336 -23.400852 -0.086384848 -23.388927 -28.182207 -110.74178
116893000 -27.729725 -110.64687 -0.089875542 -23.596701 -0.086624093 -23.582216 -28.049757 -110.91788
117892000 -27.646685 -111.14896 -0.089556046 -23.794207 -0.087122165 -23.7831 -27.980778 -111.16595
118891000 -27.587509 -111.61713 -0.090489753 -23.996359 -0.087569579 -23.982576 -27.888134 -111.30984
119890000 -27.50028 -111.97039 -0.091321088 -24.196541 -0.088887006 -24.184383 -27.875122 -111.4448
120889000 -27.45126 -112.49083 -0.091955073 -24.398746 -0.088547513 -24.382105 -27.798019 -111.43259
121888000 -27.404686 -112.78529 -0.092804141 -24.595501 -0.089274101 -24.578556 -27.735464 -111.70617
122887000 -27.367086 -113.04162 -0.093394697 -24.792576 -0.089689761 -24.783802 -27.692162 -111.78541
123886000 -27.312708 -113.43037 -0.094123684 -24.996759 -0.089982308 -24.981098 -27.676634 -111.95008
124885000 -27.278229 -113.98243 -0.094160981 -25.193027 -0.090375572 -25.177862 -27.657629 -112.02647
125884000 -27.228073 -114.19916 -0.094768927 -25.392609 -0.090769134 -25.381456 -27.617867 -112.17277
126883000 -27.203772 -114.52197 -0.095588639 -25.595932 -0.091439523 -25.585897 -27.580189 -112.21574
127882000 -27.147749 -114.87777 -0.095666967 -25.794523 -0.092101812 -25.778662 -27.530155 -112.38171
128881000 -27.125259 -115.15925 -0.095810659 -25.996916 -0.091904044 -25.981348 -27.493862 -112.50537
129880000 -27.069757 -115.44444 -0.09673354 -26.197245 -0.091959037 -26.17799 -27.453346 -112.48434
130879000 -27.010582 -115.63815 -0.096318521 -26.396242 -0.093472458 -26.378105 -27.377974 -112.56474
131878000 -26.946262 -115.843 -0.096246004 -26.599167 -0.09299878 -26.578823 -27.313219 -112.46001
132877000 -26.877762 -115.91111 -0.09617243 -26.801271 -0.093663156 -26.785837 -27.224701 -112.45617
133876000 -26.786547 -116.09821 -0.096390247 -27.001484 -0.093372218 -26.981926 -27.137512 -112.35927
134875000 -26.691898 -116.20782 -0.097063884 -27.200621 -0.094153315 -27.180622 -27.025757 -112.20453
135874000 -26.609734 -116.21893 -0.096523382 -27.398926 -0.094082154 -27.383488 -26.92868 -112.21313
136873000 -26.498375 -116.13868 -0.097813077 -27.603594 -0.093164071 -27.585922 -26.842571 -112.19753
137872000 -26.415705 -116.30084 -0.097050652 -27.803461 -0.093197659 -27.789347 -26.734228 -112.16099
138871000 -26.341309 -116.46049 -0.09791898 -28.006567 -0.094214946 -27.98671 -26.636169 -112.29969
139870000 -26.243904 -116.74966 -0.098316148 -28.206972 -0.095382243 -28.187424 -26.559351 -112.47928
140869000 -26.155914 -117.17098 -0.10096985 -28.401703 -0.097113118 -28.37858 -26.452137 -112.63021
141868000 -26.068335 -117.68355 -0.10020661 -28.593733 -0.097916864 -28.573841 -26.381008 -112.94595
142867000 -25.98597 -117.91606 -0.099341519 -28.789585 -0.096793361 -28.774313 -26.299879 -113.16537
143866000 -25.920984 -118.46501 -0.10065219 -28.986315 -0.098233268 -28.971392 -26.227606 -113.65302
144865000 -25.866056 -118.95964 -0.10211696 -29.186064 -0.099230811 -29.169935 -26.172567 -113.98369
145864000 -25.807755 -119.32144 -0.10279547 -29.385225 -0.10025958 -29.373543 -26.13459 -114.33167
146863000 -25.757593 -119.69637 -0.10373732 -29.584858 -0.10062623 -29.5732 -26.083849 -114.59414
147862000 -25.72035 -120.06846 -0.10386061 -29.779587 -0.10093462 -29.768379 -26.053038 -114.92325
148861000 -25.689499 -120.60187 -0.10406608 -29.979971 -0.10166937 -29.961281 -26.030436 -115.17771
149860000 -25.678406 -120.79132 -0.10580706 -30.176043 -0.10206953 -30.166531 -26.000172 -115.34535
150859000 -25.656029 -121.19009 -0.10557789 -30.378246 -0.10235284 -30.36566 -25.990234 -115.60444
151858000 -25.638487 -121.5068 -0.10518087 -30.575304 -0.10260674 -30.563484 -25.985514 -115.90615
152857000 -25.617123 -121.81159 -0.1061503 -30.776634 -0.10322277 -30.762281 -25.961342 -116.04749
153856000 -25.610565 -122.03844 -0.10626171 -30.973074 -0.10259032 -30.959867 -25.989672 -116.35935
154855000 -25.60652 -122.19423 -0.10578664 -31.17417 -0.10320102 -31.159504 -25.975441 -116.59263
155854000 -25.62006 -122.44967 -0.10663364 -31.369474 -0.10318857 -31.35771 -25.961123 -116.83629
156853000 -25.601992 -123.1511 -0.10390329 -31.559084 -0.102576 -31.551903 -25.960138 -117.09702
157852000 -25.606569 -123.41557 -0.10558532 -31.758167 -0.1041899 -31.746845 -25.948118 -117.46189
158851000 -25.601126 -123.62881 -0.10605321 -31.957069 -0.1039595 -31.94598 -25.931877 -117.75399
159850000 -25.584703 -123.74464 -0.10646252 -32.15451 -0.10455423 -32.149593 -25.929707 -117.8883
160849000 -25.566971 -123.84917 -0.10677212 -32.355568 -0.10493211 -32.34565 -25.900499 -118.18653
161848000 -25.551851 -123.94165 -0.1070507 -32.555347 -0.10509096 -32.545357 -25.863792 -118.2608
162847000 -25.502621 -124.16377 -0.10720856 -32.754051 -0.10583411 -32.748051 -25.830776 -118.53374
163846000 -25.463051 -124.38637 -0.10759146 -32.952564 -0.10578106 -32.943565 -25.754454 -118.53342
164845000 -25.403963 -124.4168 -0.10752512 -33.150219 -0.10559805 -33.142506 -25.683634 -118.60754
165844000 -25.346703 -124.43971 -0.10763126 -33.349194 -0.10680927 -33.344582 -25.602076 -118.76542
166843000 -25.288492 -124.50642 -0.10798419 -33.548214 -0.10638002 -33.544273 -25.530191 -118.93459
167842000 -25.224638 -124.65562 -0.10876978 -33.747757 -0.10684535 -33.743031 -25.452055 -118.85597
168841000 -25.147882 -124.87065 -0.10851073 -33.941338 -0.10755537 -33.939018 -25.368902 -118.92313
169840000 -25.085564 -125.13024 -0.10832123 -34.14513 -0.10735344 -34.138 -25.285324 -119.17383
170839000 -25.02323 -125.40932 -0.10996383 -34.337227 -0.10856169 -34.333828 -25.196724 -119.33219
171838000 -24.963434 -125.8243 -0.1095279 -34.539864 -0.10853303 -34.532391 -25.134504 -119.59485
172837000 -24.893887 -126.21278 -0.11116112 -34.735214 -0.10991949 -34.726933 -25.067736 -119.80973
173836000 -24.829874 -126.62899 -0.11225408 -34.93539 -0.11109818 -34.930542 -25.024487 -120.05977
174835000 -24.775898 -127.06525 -0.11229818 -35.128368 -0.11146999 -35.128902 -24.979403 -120.38802
175834000 -24.727036 -127.47028 -0.11321846 -35.325012 -0.11219405 -35.3218 -24.914743 -120.67629
176833000 -24.670988 -127.85698 -0.11451843 -35.524567 -0.11281541 -35.523594 -24.863371 -120.84762
177832000 -24.631741 -128.33942 -0.11459658 -35.722881 -0.11272482 -35.7197 -24.840761 -121.00081
178831000 -24.590506 -128.69356 -0.11481611 -35.914391 -0.1133986 -35.914635 -24.799644 -121.27235
179830000 -24.552368 -129.10591 -0.11562022 -36.113281 -0.11309305 -36.11422 -24.777895 -121.41731
180829000 -24.513739 -129.33725 -0.11613998 -36.31321 -0.11441213 -36.309986 -24.751339 -121.54746
181828000 -24.48978 -129.69302 -0.11570396 -36.509739 -0.11414132 -36.507854 -24.724993 -121.65373
182827000 -24.467621 -130.0415 -0.11601821 -36.703922 -0.11477226 -36.705894 -24.716055 -121.79226
183826000 -24.426102 -130.38719 -0.11722515 -36.899559 -0.11510053 -36.896339 -24.707985 -121.88675
184825000 -24.430979 -130.7271 -0.11690364 -37.094063 -0.11570343 -37.095188 -24.694645 -122.00512
185824000 -24.400665 -131.05858 -0.1170108 -37.293022 -0.11605038 -37.290974 -24.688824 -122.08033
186823000 -24.389606 -131.41908 -0.11652498 -37.492664 -0.11557157 -37.488289 -24.684229 -122.03479
187822000 -24.366278 -131.74202 -0.11792729 -37.686001 -0.1165186 -37.687355 -24.647793 -122.07115
188821000 -24.348055 -132.00227 -0.11706053 -37.881165 -0.11682466 -37.886059 -24.631989 -122.21443
189820000 -24.332239 -132.25757 -0.1173419 -38.085011 -0.11741823 -38.084183 -24.628422 -122.35934
190819000 -24.302637 -132.48065 -0.11933006 -38.283867 -0.11836725 -38.28194 -24.593613 -122.35677
191818000 -24.264166 -132.6582 -0.12003174 -38.479885 -0.11936677 -38.476334 -24.557198 -122.21038
192817000 -24.195278 -132.92793 -0.12065157 -38.664753 -0.11964776 -38.662251 -24.490492 -122.29339
193816000 -24.157087 -133.28873 -0.11963206 -38.854839 -0.11835901 -38.85437 -24.429703 -122.55028
194815000 -24.103184 -133.75111 -0.11926407 -39.052387 -0.11896875 -39.054855 -24.366016 -122.65856
195814000 -24.046812 -133.96465 -0.12023985 -39.251678 -0.11929813 -39.251156 -24.314394 -122.77206
196813000 -23.994486 -134.31953 -0.11990242 -39.446754 -0.11832336 -39.445885 -24.232771 -122.93201
197812000 -23.935661 -134.53116 -0.12032209 -39.640369 -0.11902861 -39.642929 -24.166952 -123.05399
198811000 -23.885799 -134.71068 -0.12084772 -39.83984 -0.11921139 -39.841595 -24.095303 -123.21578
199810000 -23.815304 -135.08905 -0.12026726 -40.033485 -0.11857342 -40.034828 -24.016607 -123.34251
200809000 -23.756863 -135.36092 -0.12122836 -40.22966 -0.11893097 -40.231838 -23.938015 -123.51982
201808000 -23.698 -135.59721 -0.12158533 -40.427643 -0.11986542 -40.432293 -23.869133 -123.60193
202807000 -23.638706 -135.96494 -0.1221492 -40.630726 -0.12047325 -40.633907 -23.813625 -123.83723
203806000 -23.590618 -136.40417 -0.12375707 -40.830467 -0.12117006 -40.834721 -23.74774 -123.99218
