!Keysight Technologies,E5080B,MY59205177,A.15.75.32
!Date: Friday, February 23, 2024 03:33:26
!Correction: S11(Cdelta 2-Port  ) 
!S21(Cdelta 2-Port  ) 
!S12(Cdelta 2-Port  ) 
!S22(Cdelta 2-Port  ) 
!S2P File: Measurements: S11, S21, S12, S22:
# Hz S  dB   R 50
10000000 -46.030029 -2.2023456 -0.015631123 -2.0462494 -0.018510323 -2.102294 -45.946133 -157.8978
10999000 -45.294624 -4.7031631 -0.016249474 -2.2679174 -0.018315094 -2.3179884 -45.874729 -151.68332
11998000 -44.334332 -7.2281885 -0.016152559 -2.4886892 -0.017873716 -2.5357659 -46.088474 -147.57877
12997000 -43.59066 -12.710676 -0.016198028 -2.6687837 -0.018207995 -2.7040389 -45.703861 -141.46555
13996000 -43.353153 -16.852125 -0.015213136 -2.8498733 -0.018002121 -2.8730185 -45.488892 -136.35629
14995000 -42.895561 -21.149958 -0.017569611 -3.0630162 -0.017992504 -3.0848982 -45.155876 -132.91112
15994000 -42.70248 -25.605225 -0.018365785 -3.2778881 -0.020590285 -3.3021889 -45.025021 -129.35616
16993000 -42.692986 -30.346554 -0.017718801 -3.4802825 -0.01978486 -3.4853473 -44.252243 -129.34764
17992000 -42.742294 -35.703056 -0.017829787 -3.6761901 -0.020534106 -3.6828039 -43.66518 -129.26216
18991000 -43.003098 -41.165138 -0.018774457 -3.8880057 -0.021095669 -3.8855178 -43.037067 -128.04704
19990000 -42.729 -46.740726 -0.021320159 -4.0964808 -0.023575582 -4.0888348 -42.370071 -129.08022
20989000 -42.593693 -50.186462 -0.023788486 -4.3029127 -0.024547534 -4.2891417 -41.804058 -128.17227
21988000 -42.43285 -54.98893 -0.024251031 -4.4962397 -0.025819939 -4.4838824 -41.542789 -127.65697
22987000 -42.045898 -60.050293 -0.0261491 -4.6965404 -0.02653845 -4.6886449 -41.297161 -126.98502
23986000 -42.010841 -63.952747 -0.024804745 -4.8919854 -0.026476463 -4.8918123 -41.145355 -126.8651
24985000 -41.596779 -67.014626 -0.02555095 -5.0990214 -0.025630107 -5.0987635 -40.99538 -124.49417
25984000 -41.269543 -69.157013 -0.027237022 -5.3094654 -0.027137257 -5.3051605 -40.628784 -122.90629
26983000 -40.955688 -70.80912 -0.027530082 -5.5067844 -0.027200034 -5.5231638 -40.507507 -122.36823
27982000 -40.80014 -71.766472 -0.029139785 -5.7075744 -0.028625907 -5.7409596 -40.264717 -120.62013
28981000 -40.73555 -73.296585 -0.026915332 -5.9028106 -0.028838539 -5.9281006 -40.002644 -119.86627
29980000 -40.335178 -74.643776 -0.026683781 -6.0977421 -0.02881222 -6.1052871 -39.783115 -118.94243
30979000 -39.950928 -73.762199 -0.02511326 -6.4528074 -0.02397407 -6.4432316 -39.247368 -119.38352
31978000 -39.757137 -74.664825 -0.024289297 -6.6480894 -0.025122374 -6.6366358 -39.018154 -118.77068
32977000 -39.573135 -76.091751 -0.024161747 -6.8601322 -0.02561084 -6.8529029 -38.783852 -118.91013
33976000 -39.39806 -77.167252 -0.024435595 -7.0584755 -0.025672292 -7.0516701 -38.483177 -118.28031
34975000 -39.106979 -77.961304 -0.024295025 -7.2587256 -0.026594447 -7.2599192 -38.269268 -117.75986
35974000 -38.909702 -78.648743 -0.023936588 -7.4536276 -0.0267515 -7.455348 -37.983929 -116.92701
36973000 -38.65715 -79.218834 -0.023759855 -7.6567259 -0.027154189 -7.6564355 -37.695965 -116.07808
37972000 -38.500774 -79.043381 -0.024417372 -7.8673244 -0.02769186 -7.873692 -37.508137 -115.20756
38971000 -38.183483 -78.432747 -0.025064314 -8.0639963 -0.028417196 -8.07691 -37.340839 -113.53689
39970000 -37.869083 -78.897362 -0.0230163 -8.262599 -0.026588976 -8.2736578 -37.077236 -113.10487
40969000 -37.561752 -78.541161 -0.02389208 -8.4553242 -0.026867667 -8.4776182 -36.829224 -111.51696
41968000 -37.209908 -78.481079 -0.023467051 -8.6628733 -0.026246499 -8.682373 -36.640934 -110.34441
42967000 -36.949341 -78.591995 -0.024417372 -8.8733072 -0.027263332 -8.8884439 -36.458309 -108.52459
43966000 -36.639416 -79.242439 -0.024920858 -9.0755548 -0.027693423 -9.0888557 -36.18095 -107.79565
44965000 -36.435905 -79.86972 -0.025569176 -9.2810163 -0.028133456 -9.2954035 -35.983719 -107.67472
45964000 -36.173523 -81.01815 -0.026120193 -9.4798231 -0.029808544 -9.4950361 -35.765167 -107.32075
46963000 -35.986721 -83.000465 -0.026403019 -9.67663 -0.030757906 -9.6929703 -35.562111 -107.32512
47962000 -35.822582 -84.209862 -0.028177487 -9.8709326 -0.03137242 -9.8916531 -35.359562 -107.46326
48961000 -35.598507 -85.680016 -0.03029128 -10.071746 -0.032782711 -10.089871 -35.120728 -107.6437
49960000 -35.372978 -87.165146 -0.031629775 -10.270732 -0.033924475 -10.293395 -35.006054 -107.74806
50959000 -35.136116 -88.359833 -0.032289263 -10.4843 -0.035505492 -10.49304 -34.816051 -108.0416
51958000 -34.941296 -89.392578 -0.033751506 -10.682445 -0.036300004 -10.694467 -34.638748 -108.51227
52957000 -34.727573 -90.3909 -0.03599852 -10.884708 -0.037574288 -10.89017 -34.484718 -108.24265
53956000 -34.555622 -91.108734 -0.036656849 -11.086954 -0.038103327 -11.089689 -34.363613 -108.1723
54955000 -34.393394 -91.581543 -0.037202746 -11.289495 -0.039516851 -11.283526 -34.182766 -108.15334
55954000 -34.229774 -92.385994 -0.03869433 -11.483292 -0.039242052 -11.483091 -34.091415 -107.89927
56953000 -34.089119 -92.323196 -0.03781347 -11.687565 -0.038746566 -11.676213 -34.024498 -107.96397
57952000 -33.935013 -93.030655 -0.039589994 -11.884673 -0.03944815 -11.871585 -33.917267 -108.02139
58951000 -33.821144 -93.383987 -0.039812047 -12.089358 -0.041050255 -12.066818 -33.763317 -108.23245
59950000 -33.689789 -93.647224 -0.040854797 -12.289304 -0.041732088 -12.268716 -33.684208 -108.42069
60949000 -33.575138 -94.323257 -0.041530062 -12.492179 -0.042259019 -12.46809 -33.606369 -108.73051
61948000 -33.516171 -94.55954 -0.04177678 -12.692365 -0.040863156 -12.676602 -33.49823 -108.80725
62947000 -33.422714 -94.730995 -0.041841861 -12.902615 -0.041903023 -12.882097 -33.361687 -109.05964
63946000 -33.356049 -95.487694 -0.042856861 -13.103041 -0.043431778 -13.08104 -33.248589 -109.12419
64945000 -33.248848 -95.69281 -0.04329399 -13.303831 -0.043981928 -13.284582 -33.147923 -109.69367
65944000 -33.149055 -96.023895 -0.043914463 -13.501506 -0.044387002 -13.487 -33.040302 -110.08433
66943000 -33.002522 -96.366531 -0.04207553 -13.705731 -0.042979736 -13.687161 -32.948795 -110.30654
67942000 -32.938313 -96.322365 -0.044591516 -13.899055 -0.044570852 -13.887989 -32.822487 -110.63696
68941000 -32.830509 -96.375534 -0.043882038 -14.094771 -0.043859027 -14.085025 -32.708843 -110.616
69940000 -32.733658 -96.327461 -0.044116862 -14.293606 -0.044947211 -14.278704 -32.564903 -110.88225
70939000 -32.627361 -96.342987 -0.043735083 -14.491645 -0.04432999 -14.483551 -32.444084 -110.82507
71938000 -32.490108 -96.011665 -0.043816928 -14.6851 -0.043892235 -14.679939 -32.297031 -110.67601
72937000 -32.327515 -95.750862 -0.043091368 -14.885858 -0.044217803 -14.878236 -32.163338 -110.33681
73936000 -32.188286 -95.440178 -0.043154117 -15.084131 -0.043254249 -15.079459 -32.049904 -110.09386
74935000 -32.049389 -95.589546 -0.042292479 -15.284545 -0.042382661 -15.277692 -31.907557 -109.81524
75934000 -31.934855 -95.861626 -0.042880654 -15.493021 -0.0430464 -15.487295 -31.81955 -109.76567
76933000 -31.804287 -96.193275 -0.044299915 -15.678689 -0.043917339 -15.678056 -31.648819 -110.06273
77932000 -31.698334 -97.003525 -0.045669418 -15.885203 -0.04618584 -15.873958 -31.545023 -110.00499
78931000 -31.634447 -97.722633 -0.043643307 -16.083136 -0.044770144 -16.07572 -31.444075 -109.87641
79930000 -31.517763 -98.64212 -0.046259359 -16.274881 -0.047245037 -16.271414 -31.347416 -110.17859
80929000 -31.398226 -99.353844 -0.047635496 -16.471407 -0.048820965 -16.468439 -31.247911 -110.40872
81928000 -31.293034 -100.11986 -0.04832517 -16.663235 -0.049448248 -16.660172 -31.11204 -110.41935
82927000 -31.20891 -100.81798 -0.050111499 -16.862389 -0.051071335 -16.859215 -31.005322 -110.72632
83926000 -31.086666 -101.53562 -0.051711258 -17.058752 -0.051486503 -17.058413 -30.887846 -110.89719
84925000 -30.974964 -101.88438 -0.052188314 -17.260822 -0.05168768 -17.254255 -30.791983 -110.94363
85924000 -30.878635 -102.35712 -0.053154375 -17.461941 -0.052519482 -17.455 -30.701923 -110.88675
86923000 -30.780582 -102.82765 -0.053219888 -17.659885 -0.053022042 -17.65243 -30.609482 -110.75418
87922000 -30.663849 -103.15827 -0.052933738 -17.865995 -0.052967276 -17.856133 -30.519979 -110.82757
88921000 -30.588421 -103.43081 -0.05441894 -18.064167 -0.054439124 -18.057638 -30.424437 -110.78578
89920000 -30.489677 -103.9286 -0.055158976 -18.260456 -0.055014525 -18.252155 -30.374958 -110.89314
90919000 -30.392338 -104.16816 -0.055949487 -18.456181 -0.055218752 -18.459747 -30.289728 -111.08807
91918000 -30.297138 -104.55614 -0.056479458 -18.659567 -0.055854827 -18.654034 -30.224613 -111.0803
92917000 -30.203665 -104.85919 -0.057166077 -18.861454 -0.056997951 -18.85413 -30.150438 -111.17974
93916000 -30.107752 -105.2035 -0.057113882 -19.056362 -0.057242665 -19.047575 -30.057152 -111.86424
94915000 -30.032213 -105.85939 -0.058855027 -19.254726 -0.058185454 -19.248016 -29.998568 -111.70709
95914000 -29.972561 -105.94704 -0.059315287 -19.447792 -0.059517089 -19.444845 -29.914757 -111.95478
96913000 -29.884434 -106.21884 -0.060650941 -19.649542 -0.060089231 -19.646427 -29.845236 -112.29763
97912000 -29.81097 -106.68822 -0.06170737 -19.844221 -0.060601592 -19.848051 -29.762972 -112.56588
98911000 -29.702955 -106.79528 -0.062208373 -20.050358 -0.06146057 -20.043667 -29.722826 -112.707
99910000 -29.630445 -107.00996 -0.063014872 -20.250237 -0.061593421 -20.242529 -29.614241 -113.09226
100909000 -29.543406 -107.25983 -0.062582582 -20.455782 -0.061616525 -20.446159 -29.530613 -113.20467
101908000 -29.443937 -107.45994 -0.063669167 -20.655527 -0.062583111 -20.652685 -29.432358 -113.02904
102907000 -29.331665 -107.46062 -0.064477779 -20.856426 -0.06269525 -20.852104 -29.349857 -112.99596
103906000 -29.220844 -107.55075 -0.064736314 -21.061863 -0.061953139 -21.060162 -29.208071 -112.97108
104905000 -29.07868 -107.39652 -0.064342476 -21.260477 -0.063092619 -21.259769 -29.078321 -112.65047
105904000 -28.938103 -107.51154 -0.06580767 -21.462719 -0.062634058 -21.457354 -28.968294 -112.53704
106903000 -28.824652 -107.57241 -0.064938895 -21.669001 -0.063455872 -21.659962 -28.845627 -112.44018
107902000 -28.667068 -107.88514 -0.066002414 -21.871565 -0.063741408 -21.866268 -28.714773 -112.37865
108901000 -28.556444 -108.13009 -0.066787541 -22.074236 -0.064936005 -22.061451 -28.579662 -112.32509
109900000 -28.424635 -108.60777 -0.067965627 -22.27112 -0.065665752 -22.261395 -28.431404 -112.36813
110899000 -28.307516 -109.23499 -0.069820292 -22.469242 -0.067042537 -22.461412 -28.30183 -112.62224
111898000 -28.215759 -109.8914 -0.070776343 -22.666838 -0.068264604 -22.662653 -28.186937 -112.7979
112897000 -28.085131 -110.41231 -0.07213527 -22.869459 -0.069597758 -22.85692 -28.058119 -112.92822
113896000 -27.986217 -110.97272 -0.073240303 -23.069506 -0.070277512 -23.057219 -27.942327 -113.09838
114895000 -27.884092 -111.62074 -0.073945902 -23.269493 -0.072298452 -23.255913 -27.837744 -113.15622
115894000 -27.76725 -111.95853 -0.074978709 -23.468241 -0.072683275 -23.457569 -27.768648 -113.33669
116893000 -27.683182 -112.45052 -0.075486511 -23.669889 -0.073531479 -23.650766 -27.65163 -113.41553
117892000 -27.60359 -112.94421 -0.07551074 -23.864676 -0.07395038 -23.853956 -27.564453 -113.62155
118891000 -27.541101 -113.385 -0.076641403 -24.062813 -0.074576035 -24.051735 -27.47216 -113.70421
119890000 -27.455997 -113.74543 -0.077399991 -24.265408 -0.075275004 -24.248539 -27.46291 -113.87061
120889000 -27.40489 -114.20369 -0.078708537 -24.468111 -0.07504455 -24.450846 -27.389345 -113.78812
121888000 -27.369349 -114.54027 -0.078493193 -24.660433 -0.07613004 -24.654165 -27.321491 -114.06837
122887000 -27.327082 -114.70235 -0.079170644 -24.864677 -0.076418512 -24.85494 -27.280239 -114.08889
123886000 -27.275593 -115.11942 -0.079349644 -25.068773 -0.077239782 -25.05069 -27.267296 -114.20831
124885000 -27.24316 -115.63898 -0.080020644 -25.268162 -0.077837452 -25.255476 -27.240238 -114.29558
125884000 -27.189196 -115.842 -0.0806216 -25.467981 -0.077512518 -25.454317 -27.205589 -114.3851
126883000 -27.170221 -116.22456 -0.081327341 -25.67149 -0.077575758 -25.658463 -27.166698 -114.46446
127882000 -27.119413 -116.52602 -0.08219254 -25.869444 -0.078800268 -25.855692 -27.12883 -114.56837
128881000 -27.086475 -116.84149 -0.082453713 -26.072014 -0.079078116 -26.05508 -27.087032 -114.67605
129880000 -27.032501 -117.15009 -0.083334967 -26.275406 -0.078884095 -26.25449 -27.049454 -114.62996
130879000 -26.976698 -117.34645 -0.082603037 -26.473171 -0.08010792 -26.458851 -26.977245 -114.63497
131878000 -26.907005 -117.57481 -0.083203562 -26.6742 -0.080326781 -26.655739 -26.920429 -114.50944
132877000 -26.839518 -117.64887 -0.082816482 -26.877815 -0.080415912 -26.859587 -26.836538 -114.46694
133876000 -26.758753 -117.77783 -0.083648458 -27.0809 -0.080352619 -27.062147 -26.746655 -114.346
134875000 -26.660955 -117.92028 -0.083189309 -27.277719 -0.081573166 -27.257652 -26.646904 -114.22023
135874000 -26.583725 -117.9454 -0.083608352 -27.479509 -0.081137709 -27.463444 -26.55735 -114.14846
136873000 -26.471796 -117.85321 -0.084065169 -27.684025 -0.080294609 -27.66466 -26.472767 -114.09212
137872000 -26.38722 -117.99973 -0.083594628 -27.886843 -0.081356354 -27.865349 -26.365299 -114.02315
138871000 -26.318035 -118.23085 -0.084820837 -28.08099 -0.08131811 -28.069496 -26.269268 -114.18311
139870000 -26.218048 -118.50074 -0.084607027 -28.28426 -0.082584307 -28.266153 -26.191006 -114.37678
140869000 -26.142626 -119.06312 -0.085534655 -28.480791 -0.083598323 -28.463337 -26.095867 -114.54871
141868000 -26.056873 -119.47972 -0.086406499 -28.68059 -0.084762238 -28.662899 -26.039146 -114.83099
142867000 -25.979376 -119.65743 -0.085358828 -28.88106 -0.083494611 -28.860752 -25.963417 -114.92961
143866000 -25.89909 -120.13622 -0.087529697 -29.074692 -0.085186176 -29.059996 -25.890673 -115.39902
144865000 -25.848278 -120.62784 -0.088605635 -29.272432 -0.086436339 -29.25885 -25.834982 -115.71234
145864000 -25.78727 -120.92912 -0.089074075 -29.473106 -0.088031836 -29.462769 -25.798525 -115.96915
146863000 -25.748182 -121.29837 -0.090147488 -29.67515 -0.08831767 -29.660339 -25.752192 -116.24093
147862000 -25.706444 -121.66743 -0.090639621 -29.874786 -0.088195354 -29.856508 -25.719145 -116.55901
148861000 -25.677071 -122.05679 -0.091965646 -30.070414 -0.089787006 -30.054951 -25.700331 -116.7077
149860000 -25.643314 -122.25312 -0.092464864 -30.267529 -0.090500064 -30.253349 -25.645226 -116.82935
150859000 -25.62064 -122.70622 -0.092427045 -30.462309 -0.090300247 -30.447584 -25.626913 -117.17508
151858000 -25.606342 -123.08194 -0.092136189 -30.661919 -0.089518256 -30.649818 -25.618015 -117.53514
152857000 -25.596615 -123.41752 -0.091883421 -30.85815 -0.08966624 -30.847942 -25.602722 -117.70358
153856000 -25.595867 -123.59917 -0.092877127 -31.06073 -0.089625284 -31.043921 -25.613686 -118.00401
154855000 -25.596188 -123.74717 -0.091725312 -31.260874 -0.089818984 -31.248453 -25.609066 -118.26866
155854000 -25.606249 -124.01031 -0.092408009 -31.461863 -0.089842774 -31.444887 -25.600346 -118.54163
156853000 -25.592968 -124.68486 -0.089906462 -31.649591 -0.089702442 -31.640343 -25.592968 -118.83443
157852000 -25.601372 -124.94107 -0.09186808 -31.847759 -0.091501646 -31.838947 -25.583403 -119.18298
158851000 -25.602306 -125.15491 -0.092876069 -32.048965 -0.091706276 -32.035011 -25.571365 -119.44215
159850000 -25.585398 -125.22952 -0.09319713 -32.245476 -0.091531262 -32.239769 -25.564621 -119.63176
160849000 -25.570864 -125.34656 -0.093394965 -32.446693 -0.092712373 -32.439075 -25.538567 -119.92575
161848000 -25.554985 -125.41031 -0.093523502 -32.647888 -0.092084892 -32.642689 -25.503273 -120.02939
162847000 -25.510992 -125.60423 -0.093797527 -32.845837 -0.093118846 -32.842403 -25.471088 -120.27534
163846000 -25.479439 -125.80995 -0.093652315 -33.047867 -0.092619821 -33.040417 -25.395535 -120.30936
164845000 -25.41526 -125.76071 -0.094499335 -33.248978 -0.09344098 -33.239532 -25.335226 -120.36427
165844000 -25.362709 -125.81994 -0.094503306 -33.445759 -0.093700193 -33.441433 -25.248291 -120.52322
166843000 -25.30372 -125.89791 -0.093793824 -33.64468 -0.093207181 -33.641933 -25.190191 -120.706
167842000 -25.245533 -125.99708 -0.094869725 -33.849556 -0.093875825 -33.839634 -25.114912 -120.57188
168841000 -25.167353 -126.15862 -0.094974235 -34.043297 -0.094733469 -34.03722 -25.036554 -120.64265
169840000 -25.101227 -126.4101 -0.095152035 -34.243469 -0.094005972 -34.23735 -24.952929 -120.8719
170839000 -25.041344 -126.62795 -0.096401103 -34.437489 -0.094731882 -34.432838 -24.870289 -121.0453
171838000 -24.981344 -127.03001 -0.095382772 -34.641445 -0.096068159 -34.63332 -24.809481 -121.23338
172837000 -24.912266 -127.3469 -0.097635962 -34.835335 -0.096609138 -34.830696 -24.737019 -121.45526
173836000 -24.843012 -127.77239 -0.098489851 -35.037891 -0.097916603 -35.033501 -24.697622 -121.66381
174835000 -24.792784 -128.13875 -0.099230811 -35.235428 -0.098479785 -35.230583 -24.656958 -121.98919
175834000 -24.739311 -128.52026 -0.10009852 -35.431469 -0.099717088 -35.426701 -24.59679 -122.24338
176833000 -24.692003 -128.88365 -0.10099661 -35.632393 -0.09982039 -35.629307 -24.549334 -122.36819
177832000 -24.648102 -129.2713 -0.10199347 -35.829437 -0.10120381 -35.833324 -24.529314 -122.52346
178831000 -24.601892 -129.51816 -0.10344624 -36.028023 -0.10333622 -36.025772 -24.484991 -122.58852
179830000 -24.532715 -129.9024 -0.10491275 -36.210934 -0.10339507 -36.214462 -24.425798 -122.66216
180829000 -24.481581 -130.24963 -0.10420263 -36.402363 -0.10275677 -36.404263 -24.378691 -122.95346
181828000 -24.454659 -130.69951 -0.10329752 -36.603718 -0.10232925 -36.605267 -24.364826 -123.17925
182827000 -24.436029 -131.06485 -0.10352232 -36.801769 -0.1022251 -36.801952 -24.350805 -123.32684
183826000 -24.391848 -131.38789 -0.1039306 -37.001133 -0.10214426 -36.999802 -24.340309 -123.46988
184825000 -24.399353 -131.73331 -0.10389295 -37.197006 -0.10295662 -37.195614 -24.320766 -123.56334
185824000 -24.369879 -132.09633 -0.10392158 -37.391571 -0.10279149 -37.396706 -24.313675 -123.64954
186823000 -24.351353 -132.4258 -0.10369464 -37.597469 -0.10306318 -37.585846 -24.312162 -123.65648
187822000 -24.323555 -132.80421 -0.10425778 -37.78632 -0.10401809 -37.78989 -24.271009 -123.73946
188821000 -24.304468 -133.03896 -0.10438664 -37.983849 -0.1036843 -37.985794 -24.247612 -123.86278
189820000 -24.282795 -133.35971 -0.10424426 -38.186619 -0.10385159 -38.185818 -24.230551 -124.07915
190819000 -24.251692 -133.64276 -0.10503606 -38.383568 -0.10411116 -38.383255 -24.192459 -124.1021
191818000 -24.218639 -133.96893 -0.10511854 -38.578968 -0.10432035 -38.579163 -24.164917 -124.15511
192817000 -24.17522 -134.20035 -0.10541584 -38.775925 -0.105423 -38.776718 -24.12084 -124.22491
193816000 -24.14176 -134.4915 -0.1053063 -38.972351 -0.10481914 -38.971222 -24.068666 -124.38827
194815000 -24.08005 -134.87717 -0.1066485 -39.170387 -0.1059548 -39.16954 -24.003756 -124.42821
195814000 -24.024843 -135.08806 -0.10717753 -39.367062 -0.10621953 -39.367825 -23.946175 -124.54235
196813000 -23.974569 -135.39406 -0.10644953 -39.563374 -0.10608292 -39.561798 -23.866484 -124.6704
197812000 -23.913656 -135.62698 -0.10695174 -39.759449 -0.10622563 -39.758884 -23.796606 -124.79153
198811000 -23.858797 -135.76173 -0.10647977 -39.955917 -0.1057137 -39.960781 -23.726908 -124.93153
199810000 -23.787167 -136.12648 -0.10750707 -40.150146 -0.10576144 -40.146877 -23.652643 -125.03255
200809000 -23.728653 -136.36034 -0.10731019 -40.348263 -0.10696792 -40.34515 -23.571608 -125.21152
201808000 -23.674477 -136.60931 -0.10817102 -40.550488 -0.10713507 -40.551922 -23.505846 -125.30206
202807000 -23.616858 -136.88872 -0.10884463 -40.74839 -0.10811635 -40.752094 -23.455341 -125.46775
