!Keysight Technologies,E5080B,MY59205177,A.15.75.32
!Date: Friday, February 23, 2024 02:46:42
!Correction: S11(Cdelta 2-Port  ) 
!S21(Cdelta 2-Port  ) 
!S12(Cdelta 2-Port  ) 
!S22(Cdelta 2-Port  ) 
!S2P File: Measurements: S11, S21, S12, S22:
# Hz S  dB   R 50
10000000 -39.448975 -3.2051914 -0.067581221 -2.0521019 -0.070675306 -2.1074872 -53.608959 -57.663837
10999000 -39.062855 -4.4580383 -0.06898281 -2.2736518 -0.070612952 -2.327574 -51.670906 -59.039227
11998000 -38.577854 -6.1727843 -0.069545671 -2.4955313 -0.070128605 -2.5392113 -50.498604 -56.160961
12997000 -38.132236 -9.1874695 -0.068884708 -2.6740127 -0.070081778 -2.7097182 -49.065037 -58.922165
13996000 -38.012547 -11.382778 -0.068261713 -2.8575385 -0.069812402 -2.8745341 -47.973553 -59.300045
14995000 -37.849876 -14.129087 -0.070155703 -3.0664144 -0.0689523 -3.0931435 -47.347004 -60.139462
15994000 -37.788353 -16.710642 -0.071163401 -3.286284 -0.072317928 -3.3064146 -46.676395 -59.519047
16993000 -37.841709 -19.269754 -0.070102297 -3.4847901 -0.071082354 -3.4895895 -46.227131 -65.114601
17992000 -37.971554 -22.425606 -0.070239887 -3.6828432 -0.072107896 -3.6849041 -46.083115 -69.119087
18991000 -38.179337 -24.969839 -0.072233438 -3.8900874 -0.072789885 -3.889327 -45.347382 -72.912811
19990000 -38.213833 -28.425568 -0.074418828 -4.1068783 -0.075401433 -4.1006818 -45.099369 -77.946083
20989000 -38.225834 -30.561604 -0.076629281 -4.3083787 -0.077551514 -4.2966609 -44.530445 -80.398636
21988000 -38.273304 -33.838039 -0.077496439 -4.5050516 -0.077542029 -4.493484 -44.203739 -81.560776
22987000 -38.274212 -37.074783 -0.07912425 -4.7042136 -0.079221785 -4.6950331 -43.906151 -82.269356
23986000 -38.357658 -39.838772 -0.078360081 -4.8983502 -0.077897541 -4.8969893 -43.803371 -82.832275
24985000 -38.206776 -42.112309 -0.079308525 -5.1059446 -0.078847982 -5.1039171 -43.35968 -81.408531
25984000 -38.117241 -44.17067 -0.080052026 -5.3154483 -0.07895527 -5.316184 -42.930065 -82.030762
26983000 -37.985218 -45.834396 -0.081445239 -5.5129495 -0.080004558 -5.5329823 -42.684772 -81.715424
27982000 -37.910061 -46.941769 -0.082090713 -5.7129054 -0.081642278 -5.7498302 -42.327591 -81.599365
28981000 -37.949699 -48.119118 -0.081055425 -5.9157209 -0.081753328 -5.9408736 -41.961647 -81.673775
29980000 -37.682468 -50.053173 -0.08087793 -6.1111269 -0.08219333 -6.1141448 -41.608624 -82.482773
30979000 -37.369537 -50.005768 -0.079235494 -6.4636388 -0.076713592 -6.4502149 -41.204666 -85.028374
31978000 -37.270325 -51.249142 -0.078127883 -6.6571374 -0.078070164 -6.6484857 -40.853416 -85.240067
32977000 -37.207207 -52.762215 -0.078090459 -6.8700666 -0.078464724 -6.8660493 -40.616806 -86.426186
33976000 -37.100883 -53.951035 -0.078281015 -7.0699892 -0.078814246 -7.0661149 -40.286407 -86.807602
34975000 -36.928864 -55.248013 -0.078684814 -7.2680511 -0.079733253 -7.2681727 -40.025757 -87.309074
35974000 -36.752655 -56.207142 -0.078320548 -7.4629173 -0.079509147 -7.4694815 -39.657845 -87.419662
36973000 -36.608341 -57.234905 -0.078602575 -7.6671562 -0.08079987 -7.6673007 -39.298038 -87.408234
37972000 -36.441589 -57.425621 -0.078264937 -7.8739371 -0.080591269 -7.8859172 -39.016163 -87.318336
38971000 -36.173004 -57.792007 -0.078675851 -8.0778141 -0.081244528 -8.0842514 -38.7313 -86.190727
39970000 -35.920944 -58.788929 -0.07817506 -8.2752638 -0.079869561 -8.2854156 -38.413952 -86.398926
40969000 -35.673573 -59.123711 -0.077245578 -8.4681034 -0.078966081 -8.4852257 -38.079262 -85.781479
41968000 -35.397739 -59.789284 -0.078246221 -8.6730309 -0.07985796 -8.686264 -37.774246 -85.002426
42967000 -35.167866 -60.345978 -0.077570491 -8.8828793 -0.080708623 -8.9005108 -37.455532 -83.749878
43966000 -34.962437 -61.525272 -0.07867454 -9.0868959 -0.081973322 -9.0996857 -37.146454 -83.721336
44965000 -34.800983 -62.600883 -0.079412922 -9.2863808 -0.081927948 -9.3060198 -36.931084 -84.024002
45964000 -34.637955 -63.829353 -0.080813058 -9.4906607 -0.082937852 -9.5092697 -36.695004 -84.304131
46963000 -34.532341 -65.810135 -0.080795653 -9.6800699 -0.083982565 -9.7006779 -36.530151 -85.136543
47962000 -34.453331 -67.297493 -0.082433932 -9.8871698 -0.085269339 -9.9020987 -36.337406 -85.657837
48961000 -34.31461 -68.824066 -0.085017756 -10.084239 -0.086755864 -10.101172 -36.125618 -86.430389
49960000 -34.154526 -70.281845 -0.085977159 -10.283166 -0.088315822 -10.306726 -35.993767 -86.809952
50959000 -34.013187 -71.814362 -0.086953141 -10.496597 -0.089631096 -10.505181 -35.837822 -87.473236
51958000 -33.871483 -73.051445 -0.089467525 -10.693894 -0.090111017 -10.702746 -35.687618 -88.480659
52957000 -33.722958 -74.385231 -0.091195256 -10.896537 -0.092355654 -10.900713 -35.527317 -88.539856
53956000 -33.599194 -75.282631 -0.091446392 -11.098016 -0.092880562 -11.095835 -35.384579 -88.759468
54955000 -33.46772 -76.026436 -0.09283296 -11.297761 -0.093257166 -11.297003 -35.231583 -89.148033
55954000 -33.338711 -76.935997 -0.094296165 -11.49714 -0.094026603 -11.493956 -35.108261 -89.087868
56953000 -33.237244 -77.171089 -0.093527734 -11.695733 -0.093174122 -11.681437 -35.054287 -89.421883
57952000 -33.10268 -77.992691 -0.094913378 -11.896435 -0.094590873 -11.886098 -34.963146 -89.661186
58951000 -33.002579 -78.526161 -0.096290208 -12.100953 -0.09547168 -12.079589 -34.804146 -90.105515
59950000 -32.904118 -79.085068 -0.096938148 -12.302186 -0.096525759 -12.276122 -34.760349 -90.53978
60949000 -32.810974 -79.734909 -0.097081885 -12.502983 -0.096634544 -12.478351 -34.673553 -90.926941
61948000 -32.760021 -80.074738 -0.097523443 -12.700708 -0.096980505 -12.684051 -34.588722 -91.154022
62947000 -32.66814 -80.372688 -0.097280949 -12.912901 -0.0970525 -12.890987 -34.465561 -91.699692
63946000 -32.624237 -81.215523 -0.098589145 -13.113336 -0.09831588 -13.092412 -34.354191 -92.033813
64945000 -32.526318 -81.496468 -0.099611409 -13.315488 -0.099145532 -13.295674 -34.263912 -92.724319
65944000 -32.435757 -81.916809 -0.10004025 -13.513282 -0.099823304 -13.493676 -34.185776 -93.251846
66943000 -32.30521 -82.490723 -0.097936988 -13.714134 -0.097917661 -13.696948 -34.093842 -93.759277
67942000 -32.249352 -82.495552 -0.1001168 -13.909497 -0.099753641 -13.900019 -33.979156 -94.299362
68941000 -32.141346 -82.724945 -0.099989124 -14.104355 -0.099294908 -14.09642 -33.881214 -94.313751
69940000 -32.043045 -82.93325 -0.10009429 -14.306472 -0.099812448 -14.296231 -33.729843 -94.878128
70939000 -31.928724 -83.006378 -0.10001508 -14.498285 -0.099918395 -14.493237 -33.576214 -94.977478
71938000 -31.782534 -82.756783 -0.10034859 -14.698137 -0.099985152 -14.691023 -33.451382 -95.007629
72937000 -31.627165 -82.811577 -0.099364296 -14.898596 -0.099688485 -14.893247 -33.29652 -94.857071
73936000 -31.474123 -82.705032 -0.099226311 -15.095433 -0.098583058 -15.086669 -33.161255 -94.846603
74935000 -31.368607 -83.113098 -0.098888122 -15.29356 -0.097736299 -15.288691 -32.994484 -94.666878
75934000 -31.254841 -83.496864 -0.098773986 -15.50281 -0.098427624 -15.497663 -32.90976 -94.748917
76933000 -31.128172 -84.045509 -0.10002171 -15.692151 -0.099585451 -15.691099 -32.748631 -95.367645
77932000 -31.060938 -84.919991 -0.10227413 -15.892699 -0.10138822 -15.88343 -32.638714 -95.468674
78931000 -30.995689 -85.704521 -0.10045032 -16.087914 -0.10078386 -16.087116 -32.538124 -95.435341
79930000 -30.909605 -86.573196 -0.10332191 -16.283913 -0.10337095 -16.279436 -32.441498 -95.876808
80929000 -30.809828 -87.582481 -0.10500875 -16.479584 -0.10511006 -16.475235 -32.351299 -96.32563
81928000 -30.746508 -88.434944 -0.10529013 -16.675041 -0.10511907 -16.669436 -32.228642 -96.633842
82927000 -30.6733 -89.293457 -0.10766045 -16.871082 -0.10642274 -16.867338 -32.133331 -97.192619
83926000 -30.56777 -90.062561 -0.10884171 -17.07041 -0.10752087 -17.067739 -32.015202 -97.52887
84925000 -30.490396 -90.584152 -0.10885047 -17.270933 -0.10741155 -17.262915 -31.920631 -97.753891
85924000 -30.403 -91.149239 -0.11000657 -17.470057 -0.10914909 -17.466507 -31.833172 -97.83461
86923000 -30.308247 -91.800087 -0.11020411 -17.665848 -0.10966382 -17.657419 -31.729467 -97.8284
87922000 -30.216084 -92.351768 -0.11020888 -17.872072 -0.10919501 -17.861992 -31.647266 -98.106178
88921000 -30.140972 -92.700829 -0.11200704 -18.07527 -0.11071365 -18.064341 -31.549561 -98.188072
89920000 -30.066887 -93.301849 -0.11234891 -18.273544 -0.11136641 -18.260912 -31.497549 -98.390648
90919000 -29.96328 -93.679779 -0.11268417 -18.469755 -0.11215527 -18.466532 -31.417349 -98.710876
91918000 -29.893837 -94.156883 -0.11348309 -18.666603 -0.11305107 -18.657013 -31.341196 -98.797852
92917000 -29.798662 -94.65007 -0.11545407 -18.864195 -0.11380754 -18.861069 -31.284834 -98.986549
93916000 -29.728786 -95.104836 -0.11429865 -19.058088 -0.11381711 -19.056683 -31.217985 -99.772133
94915000 -29.668127 -95.754822 -0.11622107 -19.262756 -0.11476561 -19.254932 -31.143026 -99.735596
95914000 -29.603552 -96.076752 -0.11715547 -19.456888 -0.11623888 -19.452923 -31.053989 -100.07607
96913000 -29.52754 -96.384216 -0.11836406 -19.654179 -0.11703793 -19.652956 -30.997326 -100.51913
97912000 -29.453159 -96.852043 -0.11945085 -19.852402 -0.1173169 -19.85273 -30.916409 -100.89848
98911000 -29.357672 -97.176437 -0.1197047 -20.054831 -0.11848935 -20.050085 -30.890509 -101.06076
99910000 -29.28948 -97.392372 -0.12079476 -20.253216 -0.11864897 -20.252552 -30.772633 -101.49198
100909000 -29.198238 -97.706482 -0.12022042 -20.459698 -0.11871096 -20.453629 -30.686321 -101.80579
101908000 -29.11698 -98.033508 -0.12125578 -20.662373 -0.11878145 -20.66032 -30.552994 -101.67956
102907000 -28.98481 -98.224701 -0.12123315 -20.861696 -0.11933405 -20.857506 -30.477835 -101.67537
103906000 -28.887365 -98.350945 -0.12213402 -21.062746 -0.11907756 -21.062464 -30.321011 -101.78288
104905000 -28.740665 -98.407639 -0.12258692 -21.264242 -0.11997426 -21.263479 -30.174238 -101.53268
105904000 -28.601915 -98.661186 -0.12288222 -21.468828 -0.11923587 -21.461712 -30.043306 -101.52869
106903000 -28.49646 -98.846207 -0.12358609 -21.673365 -0.12067499 -21.671759 -29.907417 -101.48298
107902000 -28.332958 -99.299721 -0.12414169 -21.873224 -0.12118949 -21.863348 -29.761944 -101.5872
108901000 -28.223055 -99.659248 -0.12473732 -22.073763 -0.12279116 -22.065447 -29.613672 -101.63291
109900000 -28.113066 -100.25961 -0.1262878 -22.274916 -0.12350565 -22.266554 -29.458633 -101.90044
110899000 -28.002058 -100.9192 -0.12706764 -22.469324 -0.12422852 -22.467407 -29.330217 -102.2929
111898000 -27.921097 -101.72084 -0.12830564 -22.674711 -0.12536821 -22.667055 -29.209768 -102.58492
112897000 -27.805666 -102.37368 -0.13000943 -22.875374 -0.12691598 -22.86323 -29.073627 -102.88869
113896000 -27.70779 -102.96165 -0.13057892 -23.075724 -0.12843603 -23.062996 -28.97254 -103.17961
114895000 -27.618252 -103.69083 -0.13228306 -23.273146 -0.12943067 -23.258137 -28.843342 -103.45603
115894000 -27.488148 -104.12769 -0.13288435 -23.473238 -0.13095668 -23.458975 -28.772783 -103.64455
116893000 -27.422157 -104.78898 -0.13396785 -23.664003 -0.13143665 -23.652515 -28.639494 -103.92406
117892000 -27.343967 -105.3553 -0.13450502 -23.867405 -0.13165385 -23.852848 -28.57164 -104.23563
118891000 -27.282782 -105.78519 -0.13541533 -24.065723 -0.13220941 -24.053812 -28.466984 -104.44944
119890000 -27.198683 -106.24756 -0.13511303 -24.272579 -0.13327752 -24.251595 -28.457397 -104.60732
120889000 -27.14757 -106.73869 -0.137252 -24.467281 -0.1334222 -24.454737 -28.382523 -104.67288
121888000 -27.10677 -107.13913 -0.13733242 -24.6651 -0.13370943 -24.648327 -28.322655 -105.0542
122887000 -27.060951 -107.37308 -0.13795473 -24.866949 -0.13462037 -24.852928 -28.269798 -105.11087
123886000 -27.008963 -107.85545 -0.1380437 -25.071018 -0.13528955 -25.051603 -28.254297 -105.30384
124885000 -26.974369 -108.34766 -0.13951741 -25.267239 -0.13599595 -25.253666 -28.228321 -105.40848
125884000 -26.920059 -108.58817 -0.14002319 -25.468658 -0.13592143 -25.450115 -28.191561 -105.62842
126883000 -26.897028 -108.99176 -0.14038894 -25.674208 -0.13692126 -25.652393 -28.153692 -105.67986
127882000 -26.843929 -109.34304 -0.14065389 -25.872858 -0.13774738 -25.851084 -28.109423 -105.93551
128881000 -26.81575 -109.6763 -0.14064454 -26.073078 -0.13727285 -26.054663 -28.066641 -106.08206
129880000 -26.762585 -110.03163 -0.14180271 -26.271578 -0.13774095 -26.250782 -28.015635 -106.04374
130879000 -26.697546 -110.24125 -0.14172275 -26.471254 -0.13874468 -26.456877 -27.934217 -106.142
131878000 -26.628206 -110.505 -0.14195436 -26.676369 -0.13810971 -26.654114 -27.870356 -106.12282
132877000 -26.558962 -110.6488 -0.14178747 -26.875088 -0.13878985 -26.859146 -27.772451 -106.18239
133876000 -26.473606 -110.84333 -0.14187172 -27.081776 -0.13896011 -27.059151 -27.674065 -106.12849
134875000 -26.372736 -111.06511 -0.14241093 -27.277685 -0.14015071 -27.258003 -27.563198 -106.08334
135874000 -26.295641 -111.1134 -0.14269368 -27.475878 -0.13949656 -27.460266 -27.449604 -106.13914
136873000 -26.18017 -111.13984 -0.14325388 -27.677654 -0.13967246 -27.659031 -27.360012 -106.16832
137872000 -26.100056 -111.32992 -0.14305109 -27.878719 -0.14028813 -27.866274 -27.251881 -106.20003
138871000 -26.023998 -111.53449 -0.1437213 -28.078943 -0.14070711 -28.066095 -27.144762 -106.38744
139870000 -25.929628 -111.84978 -0.14467689 -28.279436 -0.14235771 -28.264471 -27.062506 -106.62268
140869000 -25.84926 -112.37305 -0.14678551 -28.472408 -0.14280765 -28.457392 -26.951708 -106.84792
141868000 -25.759611 -112.91742 -0.14647974 -28.670799 -0.14408468 -28.652719 -26.889673 -107.27544
142867000 -25.683702 -113.25719 -0.14520577 -28.867624 -0.1427092 -28.852219 -26.810354 -107.45407
143866000 -25.620487 -113.75453 -0.14690654 -29.062569 -0.14413257 -29.048607 -26.742144 -108.07546
144865000 -25.570475 -114.28529 -0.14878908 -29.261675 -0.14546807 -29.24766 -26.68578 -108.436
145864000 -25.514299 -114.67463 -0.14897445 -29.462915 -0.14684576 -29.451584 -26.659838 -108.72594
146863000 -25.470919 -115.0884 -0.15035379 -29.663624 -0.14690574 -29.65073 -26.614058 -109.08282
147862000 -25.433372 -115.48956 -0.1505446 -29.863148 -0.14758003 -29.844021 -26.583702 -109.42896
148861000 -25.409071 -116.03436 -0.15217991 -30.05813 -0.14816013 -30.045412 -26.565641 -109.73909
149860000 -25.392414 -116.21112 -0.15228018 -30.257254 -0.14856139 -30.250717 -26.535303 -109.89698
150859000 -25.374691 -116.64335 -0.15254399 -30.453543 -0.14966647 -30.44272 -26.533199 -110.16261
151858000 -25.359089 -116.9567 -0.15222467 -30.658394 -0.14968711 -30.64151 -26.531467 -110.48611
152857000 -25.346939 -117.30843 -0.15302421 -30.852251 -0.15020265 -30.840132 -26.519426 -110.60157
153856000 -25.335812 -117.51788 -0.1526247 -31.05394 -0.1495786 -31.039057 -26.542482 -110.90549
154855000 -25.332132 -117.71928 -0.15314703 -31.253502 -0.14970586 -31.239868 -26.542086 -111.16572
155854000 -25.347855 -117.95049 -0.15311377 -31.449978 -0.1501153 -31.438566 -26.533899 -111.39877
156853000 -25.334774 -118.66885 -0.15188555 -31.637388 -0.14993843 -31.629335 -26.536123 -111.73048
157852000 -25.338163 -118.90462 -0.1526558 -31.839153 -0.1516888 -31.828302 -26.522852 -112.06989
158851000 -25.333891 -119.14523 -0.15408726 -32.036716 -0.15169817 -32.030857 -26.517525 -112.33788
159850000 -25.315674 -119.26264 -0.15441905 -32.236027 -0.15239143 -32.229374 -26.519783 -112.4797
160849000 -25.296871 -119.40073 -0.1543241 -32.435181 -0.15325777 -32.431229 -26.499966 -112.8472
161848000 -25.273951 -119.53245 -0.15469828 -32.635231 -0.15283866 -32.630814 -26.455385 -112.96461
162847000 -25.232492 -119.74812 -0.15502717 -32.832504 -0.15408458 -32.825432 -26.423838 -113.2288
163846000 -25.200249 -120.00372 -0.1548721 -33.035934 -0.15356778 -33.023518 -26.344269 -113.2459
164845000 -25.13089 -120.0598 -0.15548298 -33.233131 -0.15394859 -33.225529 -26.276411 -113.43725
165844000 -25.075821 -120.17339 -0.15607245 -33.430542 -0.15460278 -33.424862 -26.193407 -113.58317
166843000 -25.007523 -120.33961 -0.15555193 -33.629135 -0.15407734 -33.625473 -26.122255 -113.8138
167842000 -24.952221 -120.49512 -0.1557757 -33.831753 -0.15481551 -33.825741 -26.036934 -113.79998
168841000 -24.876696 -120.71571 -0.15632309 -34.031219 -0.15568581 -34.022301 -25.950333 -113.93722
169840000 -24.80901 -121.01896 -0.1567895 -34.222065 -0.15584654 -34.224079 -25.864418 -114.18161
170839000 -24.750799 -121.32648 -0.15753537 -34.420837 -0.15624526 -34.421589 -25.777689 -114.42576
171838000 -24.695917 -121.7906 -0.15732789 -34.622101 -0.15743956 -34.614334 -25.708599 -114.70084
172837000 -24.626827 -122.18587 -0.15913869 -34.817387 -0.15815683 -34.81398 -25.642914 -114.99773
173836000 -24.564032 -122.65134 -0.16068807 -35.019115 -0.15932532 -35.012672 -25.599796 -115.27042
174835000 -24.515421 -123.09158 -0.16075414 -35.213528 -0.16011514 -35.210506 -25.553682 -115.63752
175834000 -24.467188 -123.51826 -0.16203888 -35.412418 -0.16064025 -35.406818 -25.491964 -115.99889
176833000 -24.419945 -123.91809 -0.16234359 -35.608566 -0.16149372 -35.60656 -25.439741 -116.24142
177832000 -24.376213 -124.41258 -0.16293322 -35.803307 -0.16226029 -35.804264 -25.416374 -116.42008
178831000 -24.334169 -124.82452 -0.16350408 -36.001701 -0.16233392 -36.001194 -25.379114 -116.67347
179830000 -24.302715 -125.2726 -0.16499828 -36.200134 -0.16315359 -36.200218 -25.354605 -116.84721
180829000 -24.263523 -125.53371 -0.16548768 -36.400616 -0.1636589 -36.398205 -25.322676 -117.05502
181828000 -24.237728 -125.90729 -0.1648356 -36.593342 -0.16302459 -36.590862 -25.305645 -117.18008
182827000 -24.213886 -126.2552 -0.16484906 -36.793636 -0.16471004 -36.787277 -25.29291 -117.30612
183826000 -24.173227 -126.59094 -0.16648465 -36.989609 -0.16424547 -36.988792 -25.285643 -117.44444
184825000 -24.17865 -126.92639 -0.1665215 -37.182346 -0.16538602 -37.179531 -25.268017 -117.5701
185824000 -24.146807 -127.28526 -0.16618718 -37.379581 -0.16585772 -37.384338 -25.26408 -117.61451
186823000 -24.136339 -127.64002 -0.16643812 -37.576607 -0.16509992 -37.577328 -25.257456 -117.62267
187822000 -24.110237 -127.98465 -0.16713159 -37.771942 -0.16624716 -37.775105 -25.217943 -117.65205
188821000 -24.088257 -128.25684 -0.16703098 -37.96706 -0.16669823 -37.977245 -25.199615 -117.81162
189820000 -24.073521 -128.5094 -0.1675771 -38.172726 -0.16680017 -38.17244 -25.196289 -117.97278
190819000 -24.04076 -128.77098 -0.16899492 -38.371662 -0.16764894 -38.369934 -25.153851 -117.95274
191818000 -24.003704 -128.9843 -0.17015046 -38.566849 -0.16927698 -38.566803 -25.117479 -117.83343
192817000 -23.935537 -129.27661 -0.16996956 -38.752193 -0.17003901 -38.752262 -25.040102 -117.98367
193816000 -23.894245 -129.6413 -0.16945058 -38.946732 -0.16851078 -38.947182 -24.982199 -118.26343
194815000 -23.840292 -130.1369 -0.16927645 -39.138195 -0.16954936 -39.143509 -24.916435 -118.42218
195814000 -23.783779 -130.36113 -0.17020699 -39.338123 -0.16971329 -39.33897 -24.859015 -118.56624
196813000 -23.733475 -130.72307 -0.16966431 -39.533772 -0.16910984 -39.538246 -24.776791 -118.77075
197812000 -23.674513 -130.99217 -0.17068216 -39.734951 -0.16981182 -39.733028 -24.703592 -118.94443
198811000 -23.619015 -131.18925 -0.17029044 -39.928581 -0.16950576 -39.935558 -24.62981 -119.10245
199810000 -23.552637 -131.58238 -0.17082594 -40.12603 -0.16942878 -40.123768 -24.547869 -119.28714
200809000 -23.491249 -131.90436 -0.17142694 -40.321644 -0.17023875 -40.323002 -24.466022 -119.55585
201808000 -23.435707 -132.16655 -0.17179829 -40.524258 -0.17060758 -40.529549 -24.394655 -119.64301
202807000 -23.376461 -132.5621 -0.17255241 -40.723495 -0.17135908 -40.725826 -24.332348 -119.92121
203806000 -23.32807 -133.0452 -0.17363749 -40.92437 -0.17182198 -40.92461 -24.263615 -120.13541
204805000 -23.278656 -133.42545 -0.1749724 -41.122478 -0.17310622 -41.124985 -24.20475 -120.36774
