!Keysight Technologies,E5080B,MY59205177,A.15.75.32
!Date: Friday, February 23, 2024 03:26:03
!Correction: S11(Cdelta 2-Port  ) 
!S21(Cdelta 2-Port  ) 
!S12(Cdelta 2-Port  ) 
!S22(Cdelta 2-Port  ) 
!S2P File: Measurements: S11, S21, S12, S22:
# Hz S  dB   R 50
10000000 -45.913559 -0.21925235 -0.017248636 -2.0582058 -0.01994973 -2.1102946 -46.198456 -159.39548
10999000 -45.12595 -2.2213111 -0.017959492 -2.27637 -0.019648341 -2.3308156 -46.156902 -153.05902
11998000 -44.209038 -5.4016166 -0.018295078 -2.5048289 -0.019446559 -2.5491726 -46.370678 -148.95721
12997000 -43.439667 -10.978148 -0.017955074 -2.6879532 -0.019245569 -2.7155018 -46.142323 -142.62764
13996000 -43.237057 -15.003361 -0.01701786 -2.8661301 -0.01930329 -2.8884802 -45.925205 -137.52139
14995000 -42.839527 -19.013226 -0.019242708 -3.0764687 -0.018769518 -3.1005881 -45.585045 -133.63863
15994000 -42.715977 -23.131111 -0.019984577 -3.2986546 -0.021795187 -3.3175249 -45.587807 -130.06903
16993000 -42.639191 -27.538391 -0.019350613 -3.493999 -0.020772351 -3.5056422 -44.657318 -130.03256
17992000 -42.743793 -33.112385 -0.020347107 -3.6977901 -0.021798309 -3.6977262 -44.135437 -129.70955
18991000 -43.03223 -38.123142 -0.02149133 -3.9069118 -0.022354573 -3.9054885 -43.474648 -128.65405
19990000 -42.838394 -43.7159 -0.023869434 -4.1200519 -0.024517857 -4.1131477 -42.796337 -129.25227
20989000 -42.699699 -47.191948 -0.02523433 -4.323813 -0.027005455 -4.3096566 -42.256519 -128.60948
21988000 -42.58287 -52.338707 -0.026404582 -4.5210371 -0.027898714 -4.5085058 -41.981754 -127.9016
22987000 -42.306538 -57.292297 -0.027982604 -4.7224989 -0.028801797 -4.7118483 -41.734901 -127.39539
23986000 -42.259052 -61.449158 -0.026927054 -4.916327 -0.027553268 -4.914753 -41.635784 -127.55497
24985000 -41.867485 -64.456787 -0.028428661 -5.1276684 -0.028052688 -5.1199951 -41.439468 -124.87815
25984000 -41.539398 -66.173714 -0.029395705 -5.3324347 -0.029414991 -5.3342652 -41.155445 -122.90511
26983000 -41.25555 -67.954155 -0.030289194 -5.5324683 -0.028863296 -5.5518427 -40.995033 -122.37654
27982000 -41.102684 -69.277473 -0.03212497 -5.7323527 -0.031162269 -5.762897 -40.73357 -120.5902
28981000 -41.052994 -70.994118 -0.029280774 -5.9301095 -0.031631339 -5.9544301 -40.510475 -119.69459
29980000 -40.678215 -72.207916 -0.029599512 -6.1287241 -0.03131558 -6.1310368 -40.246464 -118.94885
30979000 -40.230309 -71.157471 -0.027459485 -6.4806309 -0.026032692 -6.4737496 -39.720352 -119.47613
31978000 -40.070477 -72.119934 -0.027104437 -6.6723166 -0.027430831 -6.6668735 -39.462769 -118.72504
32977000 -39.871017 -73.782257 -0.026912207 -6.8873391 -0.028184783 -6.885952 -39.218643 -118.74147
33976000 -39.717434 -75.001923 -0.027841659 -7.0894465 -0.028299425 -7.0859628 -38.948494 -118.12072
34975000 -39.428257 -75.827499 -0.02802429 -7.2910008 -0.030011849 -7.2900939 -38.674503 -117.74827
35974000 -39.200748 -76.378571 -0.026723631 -7.4878931 -0.029187215 -7.4896269 -38.422604 -116.77978
36973000 -38.969105 -77.09153 -0.027912522 -7.689117 -0.030300925 -7.6953268 -38.138287 -115.76366
37972000 -38.835899 -76.744415 -0.027082557 -7.8973613 -0.030011849 -7.9068108 -37.90836 -114.97044
38971000 -38.437145 -76.334915 -0.028445335 -8.101264 -0.030500343 -8.111517 -37.748024 -113.2841
39970000 -38.133995 -76.785347 -0.02679031 -8.3008595 -0.02876219 -8.3138075 -37.479012 -112.68592
40969000 -37.819843 -76.475906 -0.026238946 -8.4926128 -0.028701736 -8.5138931 -37.222454 -111.13975
41968000 -37.459888 -76.365631 -0.027296415 -8.7027473 -0.030160945 -8.717185 -37.052956 -109.89053
42967000 -37.173866 -76.48349 -0.027480587 -8.9078789 -0.029705329 -8.929162 -36.832832 -107.79886
43966000 -36.88662 -77.259087 -0.028210316 -9.1111794 -0.032110367 -9.1300955 -36.555965 -107.06258
44965000 -36.634964 -78.037163 -0.029302925 -9.3125801 -0.031570323 -9.337182 -36.337208 -106.93383
45964000 -36.421505 -79.209572 -0.030295189 -9.5134201 -0.032515377 -9.5323372 -36.089348 -106.57876
46963000 -36.230503 -81.132141 -0.030207083 -9.7107677 -0.033657331 -9.7327213 -35.904602 -106.73159
47962000 -36.05492 -82.554504 -0.031759892 -9.9135818 -0.034589533 -9.9329309 -35.709293 -106.76363
48961000 -35.848736 -84.036926 -0.033788815 -10.112598 -0.036177579 -10.133341 -35.472355 -107.00188
49960000 -35.610004 -85.371826 -0.035451729 -10.315 -0.037750017 -10.337905 -35.323032 -107.03806
50959000 -35.385715 -86.731728 -0.036036368 -10.526793 -0.038657505 -10.535522 -35.137455 -107.25339
51958000 -35.180099 -87.812637 -0.037998613 -10.729015 -0.04037036 -10.737995 -34.962784 -107.70539
52957000 -34.969959 -88.943436 -0.039469048 -10.926732 -0.041360192 -10.935814 -34.810749 -107.40586
53956000 -34.801006 -89.517464 -0.040772483 -11.129571 -0.042630736 -11.128684 -34.66848 -107.30819
54955000 -34.638908 -89.995667 -0.042252485 -11.327716 -0.042826276 -11.327605 -34.517002 -107.35213
55954000 -34.452679 -90.850677 -0.043156207 -11.53053 -0.043602515 -11.527626 -34.413452 -106.92487
56953000 -34.351204 -90.885406 -0.043271244 -11.728989 -0.043148626 -11.720827 -34.335361 -107.17653
57952000 -34.189903 -91.474228 -0.044491872 -11.93161 -0.044103265 -11.917899 -34.227726 -107.27104
58951000 -34.04287 -91.807419 -0.045934424 -12.136999 -0.044791851 -12.119452 -34.075577 -107.27523
59950000 -33.940422 -92.175537 -0.046160724 -12.335964 -0.045900676 -12.314355 -34.015141 -107.6009
60949000 -33.813072 -92.711548 -0.046845451 -12.537863 -0.04610081 -12.518467 -33.907791 -107.85423
61948000 -33.750748 -93.006241 -0.047296591 -12.738868 -0.045862742 -12.722389 -33.83017 -107.90031
62947000 -33.65229 -93.318306 -0.047491033 -12.95114 -0.047029931 -12.931517 -33.696262 -108.18148
63946000 -33.594856 -94.009819 -0.048521493 -13.152672 -0.04779698 -13.131284 -33.582996 -108.28314
64945000 -33.48592 -94.175201 -0.049303986 -13.352242 -0.048760753 -13.334645 -33.466766 -108.78085
65944000 -33.391071 -94.483604 -0.049722124 -13.554581 -0.048980918 -13.53637 -33.379593 -109.3148
66943000 -33.243088 -94.872353 -0.048070487 -13.755259 -0.047628954 -13.739468 -33.27879 -109.53242
67942000 -33.176685 -94.800224 -0.050033465 -13.954752 -0.049671065 -13.943486 -33.146862 -109.72925
68941000 -33.06921 -94.865837 -0.049365252 -14.149459 -0.048617821 -14.137482 -33.034855 -109.7154
69940000 -32.966309 -94.900833 -0.04993134 -14.347844 -0.049569998 -14.336514 -32.896778 -110.07944
70939000 -32.851852 -94.786903 -0.049970359 -14.54232 -0.049165227 -14.537931 -32.74966 -109.92376
71938000 -32.698746 -94.377335 -0.050562453 -14.741409 -0.049034324 -14.732425 -32.621147 -109.775
72937000 -32.541103 -94.148514 -0.049571831 -14.940245 -0.050074577 -14.934818 -32.479908 -109.49407
73936000 -32.401627 -93.801559 -0.04958728 -15.140227 -0.048734315 -15.133172 -32.354866 -109.28096
74935000 -32.26804 -94.066826 -0.048418354 -15.335679 -0.047967888 -15.332917 -32.192673 -108.89977
75934000 -32.140755 -94.292618 -0.049004741 -15.544218 -0.047693074 -15.545596 -32.109119 -108.83801
76933000 -32.009735 -94.725426 -0.050385155 -15.742442 -0.049900182 -15.733457 -31.93347 -109.17484
77932000 -31.895622 -95.485924 -0.051714927 -15.936223 -0.05089847 -15.929644 -31.828537 -109.14391
78931000 -31.82119 -96.196846 -0.050647568 -16.138271 -0.049907513 -16.134605 -31.71904 -108.98639
79930000 -31.716642 -97.075752 -0.053299814 -16.331156 -0.052621406 -16.330048 -31.618687 -109.24136
80929000 -31.59314 -97.872101 -0.055051751 -16.528799 -0.05437962 -16.527321 -31.52231 -109.56466
81928000 -31.48881 -98.648338 -0.055201188 -16.722887 -0.054799035 -16.716331 -31.384514 -109.51599
82927000 -31.395834 -99.412437 -0.0572167 -16.920145 -0.056011893 -16.920523 -31.271738 -109.80917
83926000 -31.279165 -100.03904 -0.058424462 -17.121851 -0.057071131 -17.121708 -31.157635 -109.98853
84925000 -31.16716 -100.49043 -0.059200346 -17.318178 -0.057990268 -17.311378 -31.059465 -110.07156
85924000 -31.079203 -100.93839 -0.060345929 -17.519827 -0.05856457 -17.520084 -30.967674 -109.94257
86923000 -30.971315 -101.4592 -0.059556194 -17.719084 -0.059214778 -17.713976 -30.856482 -109.83228
87922000 -30.858385 -101.79977 -0.06019894 -17.922457 -0.058887824 -17.916653 -30.77656 -109.92002
88921000 -30.775478 -102.0285 -0.061498903 -18.122869 -0.059958261 -18.119087 -30.676891 -109.85817
89920000 -30.674568 -102.53854 -0.06215743 -18.321428 -0.060723919 -18.315916 -30.623201 -109.97892
90919000 -30.57032 -102.88528 -0.062433947 -18.521261 -0.060874861 -18.519808 -30.530895 -110.12659
91918000 -30.472923 -103.17744 -0.063591942 -18.718786 -0.061519381 -18.715487 -30.46093 -110.16577
92917000 -30.384533 -103.52477 -0.064538732 -18.921976 -0.062588364 -18.917973 -30.398928 -110.28487
93916000 -30.295177 -103.93505 -0.064878203 -19.114639 -0.063087627 -19.111057 -30.310793 -110.85458
94915000 -30.212851 -104.48196 -0.065975867 -19.317511 -0.064218208 -19.311092 -30.247259 -110.7254
95914000 -30.156012 -104.75001 -0.067308843 -19.514372 -0.065365642 -19.512354 -30.15251 -111.00896
96913000 -30.064741 -104.93033 -0.0682128 -19.715216 -0.066091776 -19.71026 -30.089197 -111.35839
97912000 -29.984087 -105.38714 -0.069222413 -19.909889 -0.066900313 -19.91284 -30.012274 -111.6132
98911000 -29.874929 -105.58614 -0.069764264 -20.110979 -0.067911461 -20.109148 -29.968353 -111.83321
99910000 -29.808998 -105.75202 -0.070954733 -20.311476 -0.068158634 -20.311777 -29.854368 -112.11973
100909000 -29.710777 -106.00158 -0.070105195 -20.520773 -0.067394294 -20.511698 -29.770805 -112.28125
101908000 -29.627869 -106.22892 -0.071636543 -20.718967 -0.069041461 -20.71579 -29.66165 -112.06764
102907000 -29.48538 -106.23746 -0.072246864 -20.919514 -0.068923369 -20.920929 -29.587688 -112.0069
103906000 -29.399225 -106.3083 -0.072205015 -21.12874 -0.068370581 -21.122883 -29.44158 -111.96951
104905000 -29.248978 -106.16209 -0.073028117 -21.328074 -0.069662988 -21.326704 -29.30752 -111.73325
105904000 -29.098673 -106.24319 -0.073257416 -21.526833 -0.069900528 -21.523304 -29.193058 -111.5659
106903000 -28.989637 -106.3486 -0.073174223 -21.734682 -0.070438258 -21.728941 -29.066637 -111.46816
107902000 -28.821049 -106.69916 -0.074406184 -21.935598 -0.071000785 -21.923996 -28.926792 -111.38247
108901000 -28.714098 -106.89803 -0.075035065 -22.140234 -0.071458913 -22.131664 -28.795208 -111.39557
109900000 -28.581242 -107.36906 -0.076464094 -22.337814 -0.073376939 -22.329756 -28.642551 -111.43651
110899000 -28.467697 -108.0218 -0.077789746 -22.536539 -0.074461482 -22.52487 -28.51874 -111.66224
111898000 -28.37686 -108.67756 -0.078675851 -22.736961 -0.075057454 -22.730579 -28.396038 -111.82728
112897000 -28.253357 -109.2537 -0.080279052 -22.939362 -0.075995691 -22.927273 -28.265095 -111.98799
113896000 -28.147095 -109.83396 -0.081498526 -23.140991 -0.077863544 -23.128557 -28.156954 -112.12287
114895000 -28.043879 -110.48582 -0.082568213 -23.33917 -0.079458266 -23.324064 -28.037271 -112.22809
115894000 -27.926401 -110.84805 -0.083805747 -23.541115 -0.08039587 -23.530321 -27.972433 -112.44858
116893000 -27.856506 -111.31968 -0.085320026 -23.736696 -0.081664957 -23.720449 -27.855247 -112.47414
117892000 -27.761992 -111.84824 -0.084020831 -23.936613 -0.082190953 -23.920408 -27.77183 -112.66436
118891000 -27.702383 -112.27812 -0.085600659 -24.139482 -0.082611479 -24.121433 -27.683243 -112.78278
119890000 -27.619061 -112.6271 -0.085753791 -24.335363 -0.083235227 -24.317099 -27.66699 -112.95198
120889000 -27.574993 -113.08839 -0.087213285 -24.537188 -0.083048932 -24.522087 -27.587515 -112.86372
121888000 -27.532993 -113.44908 -0.087137222 -24.73485 -0.083840847 -24.72389 -27.526987 -113.10705
122887000 -27.495186 -113.62008 -0.088200904 -24.938089 -0.084785461 -24.926298 -27.488846 -113.14291
123886000 -27.44105 -114.05788 -0.088716067 -25.142019 -0.085065275 -25.121153 -27.464954 -113.30176
124885000 -27.402676 -114.55779 -0.089593045 -25.339468 -0.085763559 -25.328775 -27.443565 -113.33709
125884000 -27.353626 -114.77401 -0.09014722 -25.539324 -0.086182579 -25.521843 -27.415987 -113.48079
126883000 -27.338789 -115.15919 -0.090631954 -25.741056 -0.08716812 -25.728472 -27.370266 -113.48124
127882000 -27.282837 -115.45588 -0.090536535 -25.942293 -0.087781951 -25.925774 -27.332584 -113.63448
128881000 -27.250278 -115.76607 -0.091254734 -26.142376 -0.087793045 -26.127316 -27.288128 -113.73449
129880000 -27.19327 -116.11988 -0.092283994 -26.34992 -0.087570637 -26.329435 -27.247641 -113.66208
130879000 -27.136515 -116.26619 -0.091772906 -26.54764 -0.089062184 -26.530359 -27.170519 -113.66322
131878000 -27.072643 -116.48238 -0.091886587 -26.748461 -0.088906825 -26.732071 -27.116661 -113.58962
132877000 -26.997501 -116.54276 -0.092105255 -26.950712 -0.089132205 -26.932159 -27.02544 -113.5559
133876000 -26.914671 -116.71716 -0.092556886 -27.151987 -0.088349104 -27.133404 -26.94227 -113.43624
134875000 -26.808504 -116.86214 -0.093289964 -27.353874 -0.089736536 -27.333805 -26.832174 -113.24103
135874000 -26.732176 -116.90116 -0.092884004 -27.551128 -0.089749485 -27.53721 -26.735476 -113.23143
136873000 -26.61669 -116.87247 -0.094036654 -27.759073 -0.089280441 -27.737503 -26.649942 -113.20573
137872000 -26.529076 -116.94326 -0.093562119 -27.958025 -0.089601234 -27.944424 -26.546087 -113.11475
138871000 -26.458681 -117.16091 -0.094114952 -28.155996 -0.090722881 -28.143764 -26.44828 -113.31033
139870000 -26.350924 -117.48073 -0.094629765 -28.360245 -0.091478914 -28.344522 -26.360046 -113.48347
140869000 -26.274446 -118.01493 -0.095627807 -28.557772 -0.091948986 -28.539633 -26.261446 -113.70149
141868000 -26.189148 -118.45355 -0.096465945 -28.757978 -0.094023429 -28.742817 -26.209139 -113.92752
142867000 -26.108318 -118.66267 -0.095147274 -28.953125 -0.092868134 -28.937849 -26.129906 -114.07276
143866000 -26.035673 -119.14735 -0.097011209 -29.151409 -0.094194576 -29.136549 -26.057049 -114.52859
144865000 -25.981964 -119.6579 -0.098749354 -29.348166 -0.095966533 -29.336367 -25.993107 -114.80944
145864000 -25.923218 -119.99353 -0.09909495 -29.552279 -0.096806861 -29.53788 -25.960577 -115.08373
146863000 -25.877113 -120.3072 -0.099850059 -29.752287 -0.097670905 -29.739616 -25.910921 -115.36146
147862000 -25.83857 -120.68439 -0.10123163 -29.950182 -0.09819673 -29.937719 -25.884041 -115.6802
148861000 -25.807119 -121.12926 -0.1020947 -30.149836 -0.099012062 -30.131561 -25.855959 -115.85325
149860000 -25.773434 -121.30008 -0.10375615 -30.344202 -0.10020554 -30.329609 -25.810169 -115.93269
150859000 -25.748829 -121.7198 -0.10317505 -30.541754 -0.09994065 -30.526506 -25.783884 -116.27127
151858000 -25.738817 -122.09802 -0.10322277 -30.739609 -0.099905685 -30.728256 -25.774029 -116.6082
152857000 -25.721514 -122.45374 -0.10353027 -30.938236 -0.099948332 -30.926096 -25.756842 -116.79393
153856000 -25.726101 -122.65454 -0.10319095 -31.133724 -0.099672064 -31.122467 -25.776846 -117.09723
154855000 -25.717649 -122.80929 -0.10346718 -31.338333 -0.10014356 -31.327049 -25.765793 -117.34718
155854000 -25.739029 -123.04923 -0.10392211 -31.539536 -0.1006718 -31.528086 -25.761913 -117.62537
156853000 -25.725683 -123.76038 -0.10090229 -31.727024 -0.099679746 -31.719587 -25.753153 -117.87741
157852000 -25.738953 -123.91739 -0.10269634 -31.929949 -0.10151488 -31.921022 -25.741947 -118.27708
158851000 -25.733583 -124.17152 -0.1038166 -32.126514 -0.1011434 -32.119244 -25.73378 -118.50693
159850000 -25.722895 -124.30696 -0.10440839 -32.326588 -0.10174596 -32.318569 -25.736645 -118.71221
160849000 -25.708239 -124.36695 -0.10426229 -32.527931 -0.10213393 -32.522865 -25.70085 -118.96076
161848000 -25.693172 -124.47639 -0.10426362 -32.728241 -0.10258926 -32.720974 -25.667173 -119.1029
162847000 -25.648096 -124.64713 -0.10486501 -32.927425 -0.10315411 -32.922787 -25.640722 -119.35442
163846000 -25.60989 -124.8334 -0.10508035 -33.127853 -0.10278274 -33.1208 -25.562151 -119.34505
164845000 -25.553984 -124.84469 -0.10595666 -33.327339 -0.10369968 -33.322247 -25.498709 -119.46266
165844000 -25.496878 -124.86282 -0.10599644 -33.525814 -0.10396507 -33.51939 -25.418968 -119.59198
166843000 -25.432034 -124.92441 -0.10569672 -33.725193 -0.1033842 -33.72242 -25.349045 -119.76368
167842000 -25.379322 -125.04382 -0.10601926 -33.928547 -0.10371453 -33.920723 -25.275036 -119.67754
168841000 -25.297222 -125.20624 -0.1069589 -34.126163 -0.10492124 -34.122887 -25.203735 -119.77304
169840000 -25.232677 -125.44971 -0.10692123 -34.323261 -0.10471015 -34.31945 -25.108639 -119.98897
170839000 -25.173605 -125.71585 -0.10803621 -34.52121 -0.10572086 -34.516586 -25.028263 -120.13094
171838000 -25.110615 -126.10718 -0.10771644 -34.722351 -0.10653389 -34.716209 -24.967201 -120.3626
172837000 -25.041794 -126.46904 -0.10934579 -34.918621 -0.10823844 -34.914234 -24.897417 -120.57919
173836000 -24.970673 -126.88943 -0.11039316 -35.119572 -0.10889984 -35.113369 -24.851967 -120.82244
174835000 -24.921337 -127.25943 -0.11088228 -35.316097 -0.10965931 -35.316902 -24.813206 -121.15434
175834000 -24.863018 -127.61386 -0.11191886 -35.516876 -0.11064754 -35.51347 -24.744398 -121.41374
176833000 -24.81637 -127.98415 -0.11346343 -35.71669 -0.11124106 -35.715332 -24.696907 -121.55281
177832000 -24.769804 -128.45688 -0.11346104 -35.912289 -0.11220069 -35.913841 -24.679193 -121.6741
178831000 -24.728567 -128.73987 -0.11460136 -36.113743 -0.11405282 -36.109276 -24.644569 -121.80064
179830000 -24.676991 -129.00758 -0.11662177 -36.302536 -0.11450781 -36.304268 -24.590223 -121.76961
180829000 -24.60268 -129.35808 -0.11684141 -36.489174 -0.11513455 -36.49144 -24.528955 -122.05698
181828000 -24.57795 -129.80949 -0.11574996 -36.688015 -0.11409242 -36.689041 -24.507191 -122.2905
182827000 -24.557728 -130.19464 -0.11559177 -36.884796 -0.11342677 -36.881695 -24.491976 -122.41922
183826000 -24.518227 -130.5545 -0.11669409 -37.084793 -0.11415168 -37.079033 -24.482557 -122.6155
184825000 -24.516197 -130.88414 -0.11622958 -37.282288 -0.11477891 -37.282799 -24.464375 -122.70655
185824000 -24.484026 -131.22017 -0.11619209 -37.477283 -0.11503726 -37.4846 -24.453897 -122.76672
186823000 -24.47044 -131.60384 -0.11665155 -37.680412 -0.11489532 -37.67807 -24.449978 -122.8144
187822000 -24.447466 -131.95793 -0.1168212 -37.873615 -0.11609531 -37.873665 -24.408438 -122.87933
188821000 -24.422096 -132.1918 -0.11700469 -38.071728 -0.11657763 -38.073193 -24.38903 -123.0366
189820000 -24.4018 -132.50716 -0.11719217 -38.271217 -0.11605809 -38.270607 -24.369001 -123.21307
190819000 -24.366146 -132.82881 -0.11804779 -38.469028 -0.11696108 -38.469639 -24.330288 -123.25024
191818000 -24.33124 -133.0925 -0.11809141 -38.667545 -0.11661113 -38.668835 -24.301533 -123.29937
192817000 -24.285574 -133.38222 -0.11874793 -38.865688 -0.11716584 -38.864876 -24.256195 -123.36393
193816000 -24.25337 -133.66405 -0.11874421 -39.063026 -0.11684248 -39.058609 -24.205151 -123.53856
194815000 -24.194359 -134.05739 -0.11957645 -39.25436 -0.11826697 -39.2617 -24.133228 -123.59783
195814000 -24.132845 -134.24001 -0.12013739 -39.452602 -0.11790628 -39.455048 -24.081778 -123.69484
196813000 -24.081167 -134.57309 -0.12012089 -39.64785 -0.11827761 -39.649918 -23.997793 -123.88021
197812000 -24.022089 -134.77277 -0.12084427 -39.847748 -0.11901424 -39.843319 -23.925993 -123.97702
198811000 -23.963129 -134.95425 -0.12095739 -40.042332 -0.11839412 -40.043034 -23.855953 -124.15721
199810000 -23.894911 -135.30795 -0.12134042 -40.236561 -0.11922523 -40.236481 -23.779259 -124.23695
200809000 -23.836256 -135.58302 -0.12075616 -40.435452 -0.11886951 -40.436401 -23.696152 -124.45016
201808000 -23.771795 -135.80177 -0.12191278 -40.637333 -0.11982391 -40.637779 -23.627604 -124.50998
202807000 -23.718618 -136.13928 -0.12279089 -40.840263 -0.12084746 -40.839417 -23.572071 -124.72243
203806000 -23.66408 -136.55972 -0.12408043 -41.036724 -0.12129677 -41.039013 -23.509123 -124.87827
