!Keysight Technologies,E5080B,MY59205177,A.15.75.32
!Date: Friday, February 23, 2024 03:33:32
!Correction: S11(Cdelta 2-Port  ) 
!S21(Cdelta 2-Port  ) 
!S12(Cdelta 2-Port  ) 
!S22(Cdelta 2-Port  ) 
!S2P File: Measurements: S11, S21, S12, S22:
# Hz S  dB   R 50
10000000 -46.068024 -2.2689879 -0.015015976 -2.0477784 -0.01889639 -2.0995553 -45.880035 -157.75433
10999000 -45.295681 -4.1521535 -0.016024986 -2.2653508 -0.018531902 -2.3203464 -45.879253 -151.47935
11998000 -44.354931 -7.2713556 -0.016398618 -2.4909859 -0.017827708 -2.5334857 -46.084175 -146.97954
12997000 -43.58147 -12.985241 -0.0158969 -2.667846 -0.017624712 -2.7027946 -45.649586 -141.17273
13996000 -43.31567 -17.026819 -0.015028184 -2.8502767 -0.01796885 -2.8691888 -45.489109 -136.24602
14995000 -42.91518 -21.229445 -0.017576369 -3.0612862 -0.018132091 -3.0859368 -45.172112 -132.86588
15994000 -42.70155 -25.614059 -0.018124292 -3.2797036 -0.02057858 -3.3025846 -45.055077 -129.4313
16993000 -42.703274 -30.095078 -0.017210692 -3.4741523 -0.019312911 -3.484163 -44.198742 -129.07626
17992000 -42.727581 -35.713379 -0.017724259 -3.6759839 -0.019518586 -3.6785073 -43.62619 -129.4005
18991000 -42.98077 -41.07354 -0.019050306 -3.8883853 -0.021379989 -3.8840494 -43.034512 -127.99936
19990000 -42.728188 -46.530544 -0.02120544 -4.0952559 -0.02322007 -4.0930715 -42.348248 -129.04721
20989000 -42.545067 -50.075302 -0.022740198 -4.3000641 -0.02506952 -4.2898202 -41.825359 -128.56303
21988000 -42.417522 -55.304741 -0.023856942 -4.4979815 -0.025945714 -4.4861035 -41.550175 -127.65551
22987000 -42.06213 -59.806843 -0.025437161 -4.6964307 -0.026756449 -4.6928101 -41.326351 -126.95764
23986000 -42.004719 -64.484848 -0.025004951 -4.8909936 -0.025643649 -4.8905392 -41.157875 -126.8216
24985000 -41.580067 -66.859428 -0.026718162 -5.1013818 -0.026255354 -5.0957093 -40.981464 -124.46394
25984000 -41.302799 -68.986626 -0.026713474 -5.3038244 -0.026764784 -5.3066335 -40.639172 -123.01009
26983000 -40.950047 -70.926361 -0.027961241 -5.5021453 -0.027535813 -5.5223508 -40.521183 -122.26722
27982000 -40.769726 -71.728416 -0.028680889 -5.7074404 -0.029188778 -5.7388759 -40.249405 -120.50722
28981000 -40.783089 -73.001793 -0.027104696 -5.9010515 -0.02932195 -5.924027 -40.029156 -120.10988
29980000 -40.355198 -74.807228 -0.026904913 -6.0977564 -0.029860672 -6.105278 -39.766117 -118.96832
30979000 -39.950611 -73.529518 -0.024364788 -6.4512596 -0.023539664 -6.4435902 -39.259937 -119.4678
31978000 -39.746044 -74.547653 -0.023590418 -6.6471372 -0.025038799 -6.6360669 -39.007122 -118.81385
32977000 -39.555412 -76.246529 -0.023459764 -6.8599777 -0.025678281 -6.856287 -38.744167 -118.75018
33976000 -39.399635 -77.285553 -0.025021615 -7.0592732 -0.025648857 -7.0515537 -38.48428 -118.3091
34975000 -39.089062 -78.082367 -0.024994278 -7.2598567 -0.027317254 -7.2581158 -38.253487 -117.91814
35974000 -38.884426 -78.573677 -0.023378301 -7.4535413 -0.026843183 -7.4553719 -38.001129 -116.97255
36973000 -38.66095 -79.15786 -0.024388997 -7.6549373 -0.027768712 -7.6562424 -37.709801 -116.0433
37972000 -38.496269 -79.077339 -0.023263009 -7.8621325 -0.027222175 -7.874887 -37.487442 -115.18808
38971000 -38.164524 -78.459473 -0.024607148 -8.0682507 -0.027817952 -8.0749178 -37.318298 -113.72876
39970000 -37.848835 -78.833061 -0.023080058 -8.2594643 -0.026779629 -8.2798367 -37.073299 -113.12048
40969000 -37.564899 -78.601631 -0.02313601 -8.4583645 -0.026353016 -8.4809113 -36.833961 -111.71006
41968000 -37.209774 -78.51033 -0.023643773 -8.659338 -0.026261345 -8.677206 -36.63966 -110.49151
42967000 -36.95961 -78.498146 -0.023328073 -8.8726721 -0.027116159 -8.8932724 -36.457783 -108.61719
43966000 -36.661442 -79.200981 -0.023532897 -9.0744276 -0.027211236 -9.0919724 -36.187408 -107.94122
44965000 -36.414223 -80.060593 -0.024553262 -9.276433 -0.028191557 -9.297905 -35.964775 -107.69423
45964000 -36.180687 -81.137169 -0.025793897 -9.4752016 -0.029518196 -9.4946661 -35.73455 -107.28896
46963000 -35.98595 -82.941315 -0.026557202 -9.6702709 -0.030478446 -9.6948862 -35.54554 -107.52095
47962000 -35.832253 -84.447136 -0.027810136 -9.873662 -0.031577624 -9.8882399 -35.352741 -107.52037
48961000 -35.616882 -85.794754 -0.030144002 -10.069736 -0.032488775 -10.092385 -35.137985 -107.70743
49960000 -35.358456 -87.05629 -0.031316102 -10.268458 -0.03364481 -10.292754 -35.001484 -107.77348
50959000 -35.154747 -88.422363 -0.032000057 -10.484799 -0.035071235 -10.494935 -34.810516 -107.94392
51958000 -34.94138 -89.410667 -0.034140237 -10.684283 -0.036374137 -10.692065 -34.64188 -108.46251
52957000 -34.724964 -90.458488 -0.035595011 -10.883421 -0.037710328 -10.892004 -34.476604 -108.22291
53956000 -34.553162 -91.10244 -0.03617993 -11.085968 -0.038479388 -11.084969 -34.347847 -108.18977
54955000 -34.392551 -91.592674 -0.037576377 -11.288988 -0.039075926 -11.284443 -34.184826 -108.14909
55954000 -34.215153 -92.415199 -0.038273595 -11.485591 -0.039553944 -11.48526 -34.079346 -107.80306
56953000 -34.114853 -92.409698 -0.03860344 -11.68611 -0.038719926 -11.674409 -34.021641 -107.96414
57952000 -33.932232 -93.00499 -0.040292762 -11.880986 -0.040148541 -11.874822 -33.912277 -108.18304
58951000 -33.826847 -93.285881 -0.040603165 -12.08895 -0.041464467 -12.069152 -33.761982 -108.20682
59950000 -33.696548 -93.669708 -0.041130219 -12.287278 -0.041923407 -12.264913 -33.677502 -108.5135
60949000 -33.576035 -94.218712 -0.042112123 -12.494439 -0.041844737 -12.468384 -33.593884 -108.70306
61948000 -33.508305 -94.574028 -0.042214584 -12.692083 -0.041644011 -12.673924 -33.505989 -108.82087
62947000 -33.429909 -94.846954 -0.042239156 -12.900686 -0.042743668 -12.88075 -33.368565 -109.03675
63946000 -33.352535 -95.521561 -0.043049276 -13.098784 -0.043803331 -13.083585 -33.266792 -109.16502
64945000 -33.244007 -95.688988 -0.043991081 -13.302702 -0.044540256 -13.282836 -33.144985 -109.70818
65944000 -33.141445 -95.985306 -0.044543914 -13.501956 -0.04483553 -13.486259 -33.042664 -110.1751
66943000 -32.996826 -96.36232 -0.042716742 -13.703588 -0.04260407 -13.684645 -32.952381 -110.4078
67942000 -32.942616 -96.214195 -0.04468305 -13.900974 -0.044099078 -13.888217 -32.821716 -110.62413
68941000 -32.825436 -96.450737 -0.044305146 -14.089769 -0.04387524 -14.084435 -32.705738 -110.64556
69940000 -32.741131 -96.423912 -0.043965716 -14.293852 -0.044728559 -14.284654 -32.572292 -110.89111
70939000 -32.620968 -96.367821 -0.044242647 -14.490385 -0.044644866 -14.484134 -32.43787 -110.82164
71938000 -32.490654 -95.884727 -0.044248138 -14.685497 -0.04464696 -14.683117 -32.3083 -110.65764
72937000 -32.334644 -95.735542 -0.043899033 -14.886041 -0.043965455 -14.878862 -32.161572 -110.32089
73936000 -32.183849 -95.335358 -0.043614544 -15.084757 -0.043611929 -15.07726 -32.046772 -110.21172
74935000 -32.053844 -95.61438 -0.043125618 -15.279886 -0.04279935 -15.275334 -31.904711 -109.81609
75934000 -31.945227 -95.851692 -0.042831242 -15.495152 -0.04255205 -15.485385 -31.809061 -109.70101
76933000 -31.801939 -96.258842 -0.043774568 -15.684493 -0.043846477 -15.677798 -31.645206 -110.10609
77932000 -31.693815 -97.028862 -0.045190986 -15.879861 -0.045802835 -15.874846 -31.549225 -110.02162
78931000 -31.627964 -97.744545 -0.043789733 -16.081934 -0.044233233 -16.07777 -31.440969 -109.92789
79930000 -31.513905 -98.592621 -0.04625465 -16.273396 -0.047307059 -16.271729 -31.332102 -110.17883
80929000 -31.40007 -99.391693 -0.047923394 -16.471224 -0.048656564 -16.4694 -31.248951 -110.47243
81928000 -31.292904 -100.06467 -0.048533008 -16.662498 -0.049317077 -16.660067 -31.118824 -110.44771
82927000 -31.203899 -100.855 -0.050206818 -16.862965 -0.05045272 -16.86043 -31.01524 -110.70932
83926000 -31.085993 -101.55396 -0.051593903 -17.059908 -0.051516365 -17.05899 -30.881294 -110.88549
84925000 -30.9732 -101.93263 -0.052465245 -17.258358 -0.052027717 -17.254131 -30.794752 -110.94298
85924000 -30.880415 -102.39584 -0.053114805 -17.460871 -0.053056896 -17.458414 -30.709818 -110.9321
86923000 -30.771967 -102.85105 -0.05356843 -17.662628 -0.053884763 -17.655678 -30.601875 -110.80489
87922000 -30.658075 -103.13918 -0.053536721 -17.865807 -0.053083099 -17.860481 -30.518253 -110.81597
88921000 -30.593132 -103.45845 -0.054571498 -18.066481 -0.053659633 -18.060673 -30.423912 -110.78676
89920000 -30.483665 -103.92258 -0.055375796 -18.261278 -0.055183619 -18.256166 -30.3643 -110.96614
90919000 -30.386169 -104.19528 -0.05614825 -18.459007 -0.055306841 -18.450861 -30.287909 -111.13811
91918000 -30.286844 -104.51142 -0.05672729 -18.659336 -0.054715674 -18.656378 -30.219822 -111.09579
92917000 -30.201639 -104.84956 -0.057765711 -18.857573 -0.056552362 -18.855331 -30.15349 -111.20259
93916000 -30.116146 -105.21626 -0.056969889 -19.055281 -0.056821443 -19.044785 -30.06373 -111.84568
94915000 -30.035645 -105.85435 -0.059003279 -19.254541 -0.057506803 -19.247919 -30.000193 -111.7375
95914000 -29.959257 -105.99931 -0.059668515 -19.448021 -0.058672667 -19.445049 -29.912127 -111.97111
96913000 -29.88295 -106.22495 -0.060932089 -19.649485 -0.05899331 -19.6462 -29.847855 -112.31857
97912000 -29.810423 -106.7244 -0.061531719 -19.847101 -0.059330504 -19.84598 -29.775248 -112.49031
98911000 -29.701166 -106.85653 -0.062355954 -20.047823 -0.060661182 -20.045116 -29.724104 -112.75426
99910000 -29.631481 -106.97023 -0.063225254 -20.246708 -0.060822621 -20.245005 -29.620253 -112.99976
100909000 -29.54307 -107.24207 -0.062705755 -20.454369 -0.060020201 -20.448689 -29.534111 -113.2416
101908000 -29.45303 -107.53221 -0.063994907 -20.657387 -0.062133797 -20.651854 -29.416767 -113.04016
102907000 -29.319019 -107.44782 -0.063926078 -20.855967 -0.06213012 -20.851416 -29.348518 -113.03266
103906000 -29.228506 -107.51189 -0.063945517 -21.058861 -0.062003817 -21.057205 -29.204214 -112.99901
104905000 -29.085207 -107.4566 -0.064382672 -21.25951 -0.062414516 -21.257631 -29.078529 -112.65759
105904000 -28.94227 -107.53492 -0.065328591 -21.461086 -0.062476229 -21.459349 -28.974108 -112.47688
106903000 -28.831047 -107.60488 -0.064900801 -21.666039 -0.062284 -21.664751 -28.838173 -112.46474
107902000 -28.665106 -107.90535 -0.065997951 -21.869232 -0.063188486 -21.858618 -28.713539 -112.37452
108901000 -28.5504 -108.14277 -0.066494711 -22.068295 -0.063944995 -22.062958 -28.586433 -112.33089
109900000 -28.422337 -108.62631 -0.067356169 -22.270765 -0.066133827 -22.259834 -28.436216 -112.36124
110899000 -28.299807 -109.19837 -0.06900385 -22.468647 -0.06653624 -22.460831 -28.305073 -112.59798
111898000 -28.221519 -109.84979 -0.070259094 -22.669285 -0.06757991 -22.663349 -28.184681 -112.78031
112897000 -28.085714 -110.39132 -0.071873657 -22.870821 -0.069243193 -22.858166 -28.055729 -112.94479
113896000 -27.986135 -110.98949 -0.072504811 -23.068945 -0.070018381 -23.057957 -27.947111 -113.06654
114895000 -27.889214 -111.62974 -0.073582292 -23.269793 -0.071293652 -23.2512 -27.833252 -113.1469
115894000 -27.763163 -111.95047 -0.074759066 -23.469503 -0.072338462 -23.459452 -27.768553 -113.37412
116893000 -27.685516 -112.48817 -0.076211967 -23.666946 -0.073691033 -23.648718 -27.647247 -113.43383
117892000 -27.597284 -112.94154 -0.075734638 -23.864388 -0.073574133 -23.848339 -27.567472 -113.59226
118891000 -27.5464 -113.35303 -0.076465406 -24.062597 -0.07455945 -24.054401 -27.470036 -113.71947
119890000 -27.466825 -113.71807 -0.076576322 -24.267183 -0.07474748 -24.248003 -27.460033 -113.86074
120889000 -27.403364 -114.22701 -0.077695668 -24.463078 -0.074743263 -24.451839 -27.38442 -113.79488
121888000 -27.364391 -114.53904 -0.077642173 -24.662682 -0.07594195 -24.651676 -27.331118 -114.07605
122887000 -27.319969 -114.71472 -0.079494648 -24.869574 -0.075829998 -24.852121 -27.277945 -114.09786
123886000 -27.268785 -115.18884 -0.079808131 -25.067245 -0.076634027 -25.050608 -27.264477 -114.22765
124885000 -27.236549 -115.63099 -0.079612501 -25.26819 -0.077331215 -25.253729 -27.230461 -114.26343
125884000 -27.181406 -115.82925 -0.08089745 -25.467484 -0.077152297 -25.451057 -27.204298 -114.41273
126883000 -27.172537 -116.23955 -0.080790907 -25.66811 -0.078059621 -25.655966 -27.163338 -114.42986
127882000 -27.119453 -116.51374 -0.081422031 -25.867249 -0.078841396 -25.853304 -27.127512 -114.61041
128881000 -27.084538 -116.84264 -0.081351608 -26.072235 -0.078697473 -26.056114 -27.083021 -114.66825
129880000 -27.029413 -117.19096 -0.08243525 -26.274384 -0.07837458 -26.252697 -27.045265 -114.61995
130879000 -26.971169 -117.32701 -0.082375623 -26.472757 -0.079598784 -26.454502 -26.974363 -114.64874
131878000 -26.910732 -117.5439 -0.082545787 -26.674423 -0.079510465 -26.656202 -26.912302 -114.5248
132877000 -26.838686 -117.60836 -0.082714111 -26.875809 -0.080381103 -26.859671 -26.837973 -114.4977
133876000 -26.75633 -117.81506 -0.082459517 -27.078251 -0.079692386 -27.058588 -26.752457 -114.41335
134875000 -26.661135 -117.92246 -0.082648158 -27.277334 -0.080420658 -27.259655 -26.648184 -114.25768
135874000 -26.581938 -117.94698 -0.082511753 -27.480593 -0.080280632 -27.461149 -26.551786 -114.18319
136873000 -26.466982 -117.88999 -0.083014637 -27.683359 -0.0803397 -27.663658 -26.466524 -114.14311
137872000 -26.389372 -118.0164 -0.083158173 -27.881382 -0.080671966 -27.872044 -26.363453 -114.04815
138871000 -26.315235 -118.23077 -0.084105022 -28.085539 -0.080782726 -28.069134 -26.271368 -114.23769
139870000 -26.214281 -118.52635 -0.084181562 -28.282257 -0.081360579 -28.268686 -26.188723 -114.38306
140869000 -26.139948 -119.07277 -0.085478686 -28.480074 -0.082197025 -28.459288 -26.091995 -114.579
141868000 -26.055567 -119.46677 -0.085859925 -28.680401 -0.083954059 -28.662868 -26.043974 -114.8392
142867000 -25.97176 -119.64194 -0.084925897 -28.876921 -0.083097488 -28.862173 -25.957777 -114.98425
143866000 -25.899273 -120.12818 -0.086635977 -29.07268 -0.084509365 -29.057299 -25.88835 -115.42334
144865000 -25.846281 -120.64125 -0.088095769 -29.27277 -0.086781487 -29.255285 -25.829731 -115.7216
145864000 -25.789824 -120.94004 -0.088829674 -29.474466 -0.086827695 -29.460361 -25.800068 -115.96735
146863000 -25.744263 -121.32355 -0.090057895 -29.67205 -0.086878665 -29.661518 -25.749277 -116.25648
147862000 -25.704531 -121.65329 -0.090456717 -29.871719 -0.088323481 -29.859999 -25.720364 -116.578
148861000 -25.681164 -122.06345 -0.091847725 -30.070793 -0.089968562 -30.05691 -25.699736 -116.73157
149860000 -25.642593 -122.24991 -0.092255704 -30.261017 -0.090112336 -30.251366 -25.648243 -116.82364
150859000 -25.618711 -122.72551 -0.092003457 -30.459175 -0.089629248 -30.449352 -25.620621 -117.16393
151858000 -25.610857 -123.06777 -0.091890819 -30.661686 -0.089769833 -30.645615 -25.61791 -117.51691
152857000 -25.598558 -123.39028 -0.091775544 -30.857853 -0.089486018 -30.844868 -25.600418 -117.69492
153856000 -25.591917 -123.61965 -0.0915154 -31.057413 -0.089498706 -31.043476 -25.618601 -118.0287
154855000 -25.589199 -123.78194 -0.091927044 -31.256647 -0.089494474 -31.246231 -25.605358 -118.26888
155854000 -25.604185 -124.0426 -0.092739612 -31.461966 -0.090077184 -31.444845 -25.598635 -118.50702
156853000 -25.589373 -124.72767 -0.09031716 -31.648733 -0.089436345 -31.638836 -25.591784 -118.8475
157852000 -25.598471 -124.91162 -0.09176074 -31.848347 -0.090748787 -31.839153 -25.580093 -119.19889
158851000 -25.59655 -125.14942 -0.092299335 -32.048218 -0.091229886 -32.036343 -25.569693 -119.44917
159850000 -25.585312 -125.2627 -0.093073092 -32.248177 -0.091054358 -32.239807 -25.564949 -119.63787
160849000 -25.569183 -125.3401 -0.093112499 -32.445862 -0.091909856 -32.438278 -25.540884 -119.9215
161848000 -25.551895 -125.46111 -0.09399195 -32.646976 -0.092072204 -32.640591 -25.496952 -120.05042
162847000 -25.510378 -125.60075 -0.093250558 -32.843372 -0.092691481 -32.841805 -25.469105 -120.25952
163846000 -25.47665 -125.83348 -0.093828209 -33.049797 -0.092397429 -33.037846 -25.392868 -120.30483
164845000 -25.413994 -125.80564 -0.094451979 -33.250092 -0.092527002 -33.236866 -25.33005 -120.39429
165844000 -25.362881 -125.86367 -0.094024219 -33.444664 -0.093150586 -33.438915 -25.252378 -120.52317
166843000 -25.303204 -125.89576 -0.094107285 -33.644367 -0.093524829 -33.641327 -25.186613 -120.6923
167842000 -25.243153 -126.00938 -0.094121829 -33.840973 -0.093633533 -33.841778 -25.10943 -120.61084
168841000 -25.16781 -126.19505 -0.094222091 -34.039028 -0.093883231 -34.04089 -25.037622 -120.67599
169840000 -25.104822 -126.41209 -0.094810724 -34.241486 -0.094244048 -34.232128 -24.947775 -120.87252
170839000 -25.041492 -126.63874 -0.09558811 -34.436245 -0.094482139 -34.434315 -24.867117 -121.03173
171838000 -24.980917 -127.00146 -0.094950423 -34.638187 -0.095899843 -34.635025 -24.807306 -121.24029
172837000 -24.910763 -127.35712 -0.097217947 -34.833752 -0.097007237 -34.831264 -24.74299 -121.46433
173836000 -24.847393 -127.78549 -0.097981729 -35.035919 -0.097201534 -35.030918 -24.700649 -121.71934
174835000 -24.796085 -128.17128 -0.098676004 -35.232986 -0.098942146 -35.232368 -24.654535 -121.98478
175834000 -24.741856 -128.53539 -0.099154539 -35.432381 -0.099811122 -35.423847 -24.590027 -122.25763
176833000 -24.696081 -128.87857 -0.10044979 -35.629505 -0.10011654 -35.626251 -24.548008 -122.41161
177832000 -24.643339 -129.29004 -0.10160657 -35.831142 -0.10095581 -35.833405 -24.52635 -122.52752
178831000 -24.601078 -129.50208 -0.10331766 -36.024677 -0.1030099 -36.024059 -24.486902 -122.63107
179830000 -24.528601 -129.91898 -0.10429119 -36.209705 -0.10383038 -36.213448 -24.425936 -122.65983
180829000 -24.483316 -130.25935 -0.10305947 -36.403698 -0.10279785 -36.406105 -24.379778 -122.99229
181828000 -24.450966 -130.69705 -0.10272761 -36.606827 -0.10219488 -36.602509 -24.360929 -123.22398
182827000 -24.431313 -131.08362 -0.10291634 -36.804237 -0.10219594 -36.802387 -24.346565 -123.28204
183826000 -24.392427 -131.39525 -0.10318512 -36.997635 -0.10230619 -36.999825 -24.336781 -123.45007
184825000 -24.393206 -131.7139 -0.10325828 -37.197178 -0.10238782 -37.197834 -24.315845 -123.57533
185824000 -24.365574 -132.08662 -0.10258183 -37.39249 -0.10277399 -37.396004 -24.317118 -123.64509
186823000 -24.347279 -132.43678 -0.1034518 -37.593117 -0.10289381 -37.592175 -24.305555 -123.66132
187822000 -24.325191 -132.79733 -0.10396931 -37.78614 -0.10414828 -37.788094 -24.268257 -123.74956
188821000 -24.30546 -133.0575 -0.1039762 -37.983257 -0.10342317 -37.987499 -24.249882 -123.90579
189820000 -24.282543 -133.35477 -0.10362306 -38.184513 -0.10402896 -38.183975 -24.232487 -124.04946
190819000 -24.248158 -133.62553 -0.10457385 -38.382191 -0.10426282 -38.381714 -24.191473 -124.09059
191818000 -24.218195 -133.97357 -0.10465685 -38.581173 -0.10397037 -38.582756 -24.164263 -124.15082
192817000 -24.170183 -134.2513 -0.10515487 -38.778664 -0.10476372 -38.778263 -24.116282 -124.23364
193816000 -24.140179 -134.4883 -0.10536094 -38.971615 -0.10412574 -38.973434 -24.068798 -124.37775
194815000 -24.080261 -134.87912 -0.10517476 -39.16996 -0.10532487 -39.169601 -24.00045 -124.45986
195814000 -24.024523 -135.05107 -0.1062182 -39.364964 -0.10540656 -39.367165 -23.945635 -124.5479
196813000 -23.97179 -135.40471 -0.10662489 -39.559414 -0.10478228 -39.562756 -23.866232 -124.67278
197812000 -23.913887 -135.65234 -0.10698862 -39.756805 -0.1063405 -39.755409 -23.798923 -124.78027
198811000 -23.859562 -135.76373 -0.10729692 -39.951908 -0.10585162 -39.958912 -23.726479 -124.95043
199810000 -23.785526 -136.1404 -0.1060044 -40.146736 -0.10564128 -40.146122 -23.647701 -125.04074
200809000 -23.733837 -136.40126 -0.10692468 -40.349754 -0.10634395 -40.347435 -23.574415 -125.21761
201808000 -23.678684 -136.59586 -0.10793218 -40.549011 -0.10714781 -40.548576 -23.502979 -125.29572
202807000 -23.619898 -136.90959 -0.10862858 -40.746937 -0.10729268 -40.747288 -23.446787 -125.47603
