!Keysight Technologies,E5080B,MY59205177,A.15.75.32
!Date: Friday, February 23, 2024 02:55:19
!Correction: S11(Cdelta 2-Port  ) 
!S21(Cdelta 2-Port  ) 
!S12(Cdelta 2-Port  ) 
!S22(Cdelta 2-Port  ) 
!S2P File: Measurements: S11, S21, S12, S22:
# Hz S  dB   R 50
10000000 -43.837563 -3.9824798 -0.029521845 -2.0431893 -0.032818966 -2.0996985 -48.560917 -148.57681
10999000 -43.159054 -5.4950957 -0.030534493 -2.2616339 -0.032626741 -2.3120182 -48.224636 -140.73697
11998000 -42.404728 -7.788424 -0.030429438 -2.4847655 -0.032328382 -2.5241838 -48.381165 -134.72423
12997000 -41.815617 -12.279939 -0.030099951 -2.6606212 -0.032143746 -2.6963985 -47.601753 -128.01903
13996000 -41.580364 -15.407607 -0.029140046 -2.8381884 -0.032000057 -2.8644054 -47.197216 -122.31631
14995000 -41.263241 -19.3585 -0.031418048 -3.0481808 -0.03189601 -3.0742095 -46.682121 -118.89212
15994000 -41.168549 -22.79952 -0.033097271 -3.2736282 -0.034526911 -3.2924023 -46.543209 -115.53954
16993000 -41.133362 -26.561245 -0.032164868 -3.4624629 -0.033970129 -3.4758401 -45.549896 -116.16831
17992000 -41.247078 -31.103565 -0.032530766 -3.6622624 -0.034360182 -3.6667452 -44.918339 -117.36742
18991000 -41.542732 -35.191498 -0.033513591 -3.8742993 -0.034592927 -3.8699548 -44.199402 -117.37881
19990000 -41.391396 -40.081062 -0.035636246 -4.0838494 -0.037085257 -4.0764947 -43.512054 -119.04775
20989000 -41.308418 -43.042496 -0.037170894 -4.2872219 -0.038813427 -4.2788081 -42.909283 -118.65179
21988000 -41.279186 -47.793041 -0.037860997 -4.4849992 -0.039489161 -4.4720068 -42.639839 -118.52787
22987000 -41.100803 -52.12804 -0.039954688 -4.6816297 -0.040549077 -4.6748266 -42.317722 -118.29266
23986000 -41.076454 -55.672596 -0.038535535 -4.873754 -0.039576411 -4.8735013 -42.227783 -118.3007
24985000 -40.777523 -58.113792 -0.040615443 -5.0842133 -0.039343663 -5.0793052 -41.948044 -115.54817
25984000 -40.572479 -60.573799 -0.041065414 -5.292377 -0.040410336 -5.2936082 -41.606731 -114.57794
26983000 -40.304512 -62.272995 -0.042010967 -5.4912066 -0.041407231 -5.5072403 -41.441643 -113.47352
27982000 -40.168865 -63.494373 -0.043056861 -5.6861873 -0.0429 -5.7188215 -41.126476 -112.18225
28981000 -40.161472 -64.919495 -0.041926023 -5.8842816 -0.042519636 -5.9095354 -40.869865 -111.67325
29980000 -39.713814 -66.607651 -0.04094521 -6.0770068 -0.043200914 -6.0846915 -40.53915 -111.04777
30979000 -39.394527 -66.006516 -0.039810218 -6.4329257 -0.037769079 -6.4225178 -40.040466 -111.79083
31978000 -39.21191 -67.110588 -0.037867524 -6.6255908 -0.039190594 -6.6184487 -39.770626 -111.37498
32977000 -39.082687 -68.472748 -0.038402345 -6.8373895 -0.039544541 -6.8384719 -39.523609 -111.58127
33976000 -38.910576 -69.667488 -0.038352724 -7.0380454 -0.039993614 -7.0314307 -39.195313 -111.22711
34975000 -38.64983 -70.698425 -0.038846076 -7.2361913 -0.040902354 -7.2379551 -38.965019 -110.89422
35974000 -38.47266 -71.413383 -0.038635828 -7.4317188 -0.0404801 -7.4330568 -38.656761 -110.04427
36973000 -38.24596 -72.404373 -0.038848687 -7.6310973 -0.041223776 -7.634789 -38.355644 -109.41328
37972000 -38.095955 -72.290863 -0.038014539 -7.8405066 -0.040982313 -7.8466058 -38.114193 -108.72638
38971000 -37.757427 -71.916275 -0.038384326 -8.0400591 -0.041295901 -8.0520563 -37.92057 -107.31384
39970000 -37.433811 -72.622612 -0.037358094 -8.2355032 -0.040210463 -8.2504368 -37.63987 -106.86922
40969000 -37.156483 -72.582748 -0.037369061 -8.4324541 -0.040164478 -8.4532709 -37.380661 -105.50282
41968000 -36.811726 -72.680244 -0.037693877 -8.6353331 -0.040870473 -8.6484442 -37.134575 -104.37215
42967000 -36.557365 -72.97924 -0.037402742 -8.8460617 -0.040698014 -8.8667336 -36.922092 -102.50011
43966000 -36.292267 -73.99411 -0.037659932 -9.0446091 -0.04240305 -9.0622406 -36.604794 -101.91434
44965000 -36.071552 -74.906059 -0.038590122 -9.2532825 -0.042001557 -9.2655592 -36.396698 -101.93468
45964000 -35.870636 -76.007362 -0.040611003 -9.4483633 -0.043494269 -9.4653063 -36.160847 -101.71163
46963000 -35.679913 -77.973404 -0.040396225 -9.6388083 -0.044163149 -9.6664724 -35.984852 -102.2075
47962000 -35.537918 -79.476952 -0.042073697 -9.8456135 -0.044752099 -9.8573627 -35.77697 -102.38984
48961000 -35.366211 -80.98291 -0.044080511 -10.03921 -0.046265636 -10.062181 -35.541908 -102.69741
49960000 -35.150425 -82.318863 -0.045899369 -10.239801 -0.047425345 -10.262239 -35.401829 -102.87062
50959000 -34.941204 -83.748863 -0.046537481 -10.45488 -0.049298227 -10.461973 -35.229744 -103.2472
51958000 -34.755856 -84.914734 -0.047810063 -10.647915 -0.050561666 -10.66106 -35.064373 -103.92337
52957000 -34.542793 -86.029495 -0.049172558 -10.846665 -0.051388275 -10.858116 -34.88826 -103.79731
53956000 -34.405628 -86.829247 -0.049981616 -11.05159 -0.05200807 -11.05318 -34.752903 -103.7749
54955000 -34.238079 -87.467209 -0.05112372 -11.252863 -0.053284615 -11.250216 -34.604519 -103.83576
55954000 -34.086365 -88.269768 -0.052308571 -11.452988 -0.053418003 -11.450678 -34.49411 -103.52897
56953000 -33.972977 -88.43029 -0.051892802 -11.650163 -0.052080378 -11.641061 -34.422443 -103.9344
57952000 -33.817356 -89.002258 -0.052988503 -11.849443 -0.053531215 -11.843136 -34.322922 -103.91972
58951000 -33.69833 -89.347443 -0.05382527 -12.050699 -0.053908352 -12.031974 -34.151539 -104.08685
59950000 -33.57653 -89.840347 -0.054836784 -12.251054 -0.055039167 -12.229797 -34.104256 -104.41779
60949000 -33.471447 -90.352623 -0.054970481 -12.455515 -0.055948436 -12.430897 -34.001205 -104.74406
61948000 -33.426052 -90.712311 -0.056113899 -12.651524 -0.055544645 -12.630452 -33.908783 -104.80236
62947000 -33.326042 -90.948959 -0.055957355 -12.863886 -0.056103934 -12.842988 -33.768261 -105.07803
63946000 -33.263691 -91.711853 -0.056900911 -13.06146 -0.057438865 -13.043137 -33.671021 -105.26144
64945000 -33.161343 -91.862457 -0.057841789 -13.265164 -0.05759022 -13.244182 -33.551121 -105.77019
65944000 -33.056423 -92.193253 -0.058148988 -13.461405 -0.058375925 -13.445862 -33.473042 -106.32777
66943000 -32.92469 -92.646339 -0.056401834 -13.662726 -0.056662511 -13.646416 -33.37059 -106.56646
67942000 -32.867046 -92.569733 -0.058173385 -13.8581 -0.058482971 -13.848555 -33.251614 -106.81251
68941000 -32.75729 -92.696358 -0.057224043 -14.051442 -0.057871431 -14.039829 -33.144016 -106.86356
69940000 -32.662823 -92.659584 -0.058119867 -14.253275 -0.058442827 -14.240259 -32.995327 -107.18719
70939000 -32.546883 -92.687439 -0.058216672 -14.44673 -0.05852836 -14.441381 -32.871254 -107.0438
71938000 -32.40974 -92.265259 -0.05827754 -14.646075 -0.05904815 -14.638154 -32.735359 -106.91463
72937000 -32.249313 -92.174232 -0.057526216 -14.844003 -0.057792209 -14.836698 -32.596336 -106.63254
73936000 -32.113037 -91.836769 -0.057453033 -15.040925 -0.056809116 -15.032019 -32.475147 -106.46201
74935000 -31.981886 -92.144707 -0.05661032 -15.234891 -0.056200698 -15.231573 -32.320221 -106.16366
75934000 -31.869362 -92.464462 -0.056807805 -15.447519 -0.056304015 -15.440662 -32.2374 -106.09492
76933000 -31.740713 -92.790268 -0.057810571 -15.63885 -0.058835346 -15.632942 -32.075302 -106.52155
77932000 -31.651571 -93.672279 -0.058561683 -15.840068 -0.059385352 -15.82895 -31.97504 -106.51881
78931000 -31.58238 -94.448906 -0.057737645 -16.033712 -0.05798712 -16.028246 -31.870241 -106.37469
79930000 -31.455091 -95.304939 -0.060419951 -16.226767 -0.061440352 -16.225361 -31.769053 -106.71513
80929000 -31.335484 -96.13694 -0.062472288 -16.421036 -0.062726766 -16.418545 -31.66876 -107.07555
81928000 -31.271069 -97.043388 -0.062260102 -16.613102 -0.062674239 -16.605791 -31.548677 -107.20705
82927000 -31.172329 -97.761215 -0.063650779 -16.813967 -0.063962072 -16.811584 -31.449734 -107.50726
83926000 -31.06242 -98.560883 -0.065380357 -17.009523 -0.065025084 -17.008657 -31.33131 -107.79348
84925000 -30.950974 -99.010925 -0.065741703 -17.211113 -0.065021142 -17.204733 -31.237024 -107.91212
85924000 -30.871992 -99.481476 -0.067241542 -17.409819 -0.06693738 -17.404797 -31.148546 -107.90856
86923000 -30.763622 -99.941612 -0.067069352 -17.606731 -0.066821188 -17.600323 -31.05131 -107.80949
87922000 -30.659504 -100.4018 -0.067018084 -17.811029 -0.066437148 -17.801441 -30.96109 -107.97076
88921000 -30.592745 -100.76302 -0.068028212 -18.010515 -0.067839414 -18.008722 -30.874226 -107.9152
89920000 -30.492826 -101.24504 -0.068917319 -18.208647 -0.068420544 -18.202339 -30.81665 -108.12443
90919000 -30.388937 -101.62392 -0.069501221 -18.405119 -0.069465712 -18.400782 -30.730896 -108.29941
91918000 -30.292625 -101.97138 -0.070260674 -18.600681 -0.069662467 -18.596558 -30.66239 -108.35111
92917000 -30.220045 -102.36534 -0.071149714 -18.803764 -0.070647418 -18.798534 -30.596067 -108.4781
93916000 -30.123053 -102.73693 -0.070761874 -18.993301 -0.070417732 -18.99173 -30.510496 -109.08839
94915000 -30.051985 -103.3549 -0.072173961 -19.196363 -0.071497858 -19.191139 -30.442125 -109.00063
95914000 -29.993551 -103.56924 -0.073019698 -19.391108 -0.071959198 -19.386721 -30.362589 -109.20026
96913000 -29.912022 -103.8725 -0.074024893 -19.591896 -0.073271103 -19.590963 -30.287693 -109.58829
97912000 -29.843866 -104.34274 -0.075451218 -19.783478 -0.073853746 -19.788063 -30.212044 -109.83111
98911000 -29.732889 -104.52956 -0.075703822 -19.987862 -0.075001359 -19.98551 -30.177288 -110.07481
99910000 -29.662674 -104.62418 -0.076593451 -20.185818 -0.075186774 -20.183973 -30.061682 -110.36314
100909000 -29.567337 -104.96299 -0.076336846 -20.39567 -0.074311383 -20.389162 -29.975674 -110.53689
101908000 -29.493212 -105.18183 -0.077104606 -20.597176 -0.076411664 -20.591745 -29.861567 -110.37561
102907000 -29.359392 -105.24814 -0.077175751 -20.796513 -0.075626902 -20.794727 -29.787775 -110.32201
103906000 -29.259291 -105.27263 -0.077859588 -20.996706 -0.075352177 -20.995092 -29.643242 -110.24545
104905000 -29.113413 -105.2177 -0.078039594 -21.200678 -0.075663514 -21.199194 -29.509043 -109.97306
105904000 -28.971075 -105.31432 -0.078575164 -21.401129 -0.076342113 -21.391964 -29.393484 -109.80996
106903000 -28.865295 -105.42653 -0.078413852 -21.608028 -0.076758385 -21.598755 -29.261921 -109.70218
107902000 -28.699156 -105.80968 -0.07899534 -21.801004 -0.077629521 -21.791199 -29.123318 -109.64784
108901000 -28.600622 -106.05463 -0.080647439 -22.005161 -0.07857912 -21.997038 -28.992355 -109.60021
109900000 -28.467833 -106.52971 -0.081301495 -22.208321 -0.08010634 -22.196259 -28.847692 -109.71944
110899000 -28.34783 -107.18909 -0.083159231 -22.403435 -0.08078827 -22.394041 -28.723988 -109.98022
111898000 -28.271866 -107.89691 -0.083991535 -22.605999 -0.081666805 -22.597904 -28.600502 -110.14523
112897000 -28.139011 -108.4482 -0.085715771 -22.802973 -0.082582988 -22.792337 -28.46833 -110.29944
113896000 -28.034365 -109.03006 -0.086366624 -23.000828 -0.084485084 -22.992537 -28.361774 -110.51376
114895000 -27.940813 -109.72458 -0.087031052 -23.202911 -0.085229471 -23.187199 -28.247782 -110.59521
115894000 -27.810621 -110.08302 -0.088729016 -23.401606 -0.086436078 -23.388483 -28.180178 -110.83867
116893000 -27.729757 -110.66065 -0.088767588 -23.595699 -0.086736321 -23.579937 -28.050066 -110.92255
117892000 -27.651384 -111.15209 -0.088875651 -23.795835 -0.087150954 -23.778664 -27.97616 -111.16661
118891000 -27.587049 -111.60336 -0.089868672 -23.996462 -0.08732976 -23.979361 -27.884195 -111.31583
119890000 -27.5033 -112.00574 -0.090326414 -24.199146 -0.088301554 -24.179682 -27.862654 -111.48332
120889000 -27.446272 -112.51884 -0.091539718 -24.395054 -0.088246346 -24.382423 -27.794004 -111.45036
121888000 -27.414639 -112.85659 -0.091528617 -24.590889 -0.089240015 -24.580667 -27.737011 -111.73219
122887000 -27.368374 -113.01328 -0.092558473 -24.794756 -0.089748167 -24.784294 -27.695665 -111.78588
123886000 -27.314192 -113.48266 -0.093030252 -24.995327 -0.090470985 -24.980875 -27.678152 -111.97548
124885000 -27.279009 -114.01245 -0.093511075 -25.194532 -0.090532042 -25.180731 -27.646231 -112.03773
125884000 -27.227613 -114.16491 -0.094310708 -25.39253 -0.090853192 -25.377266 -27.618097 -112.22885
126883000 -27.206387 -114.56161 -0.094371557 -25.596479 -0.091932863 -25.582397 -27.576939 -112.27469
127882000 -27.147139 -114.85358 -0.094950683 -25.79829 -0.092562437 -25.777643 -27.533361 -112.459
128881000 -27.122705 -115.17484 -0.094868928 -25.9979 -0.091794848 -25.977966 -27.492538 -112.56184
129880000 -27.069006 -115.51302 -0.095727831 -26.198353 -0.092721634 -26.176823 -27.451014 -112.54319
130879000 -27.010614 -115.66866 -0.095441513 -26.395645 -0.093054578 -26.380091 -27.36595 -112.5677
131878000 -26.943304 -115.86575 -0.095873646 -26.597546 -0.093182586 -26.576965 -27.306156 -112.49383
132877000 -26.870699 -115.94558 -0.095622778 -26.801268 -0.093674794 -26.779846 -27.222763 -112.47674
133876000 -26.786528 -116.08799 -0.095609277 -27.001078 -0.09353435 -26.983747 -27.133875 -112.42873
134875000 -26.691929 -116.21812 -0.095980823 -27.201956 -0.094030835 -27.181747 -27.021976 -112.24698
135874000 -26.606956 -116.22633 -0.09569978 -27.399023 -0.094500393 -27.381819 -26.924374 -112.24003
136873000 -26.50013 -116.17804 -0.096420683 -27.600521 -0.093499698 -27.580961 -26.837185 -112.24791
137872000 -26.415491 -116.32711 -0.096819036 -27.803566 -0.094787441 -27.7885 -26.736794 -112.16792
138871000 -26.34474 -116.53702 -0.097409077 -28.002113 -0.094526052 -27.987169 -26.632843 -112.33704
139870000 -26.247375 -116.74866 -0.098342091 -28.202869 -0.095773086 -28.188696 -26.551697 -112.51422
140869000 -26.159512 -117.23819 -0.099781193 -28.398396 -0.097319603 -28.38006 -26.441101 -112.67802
141868000 -26.059816 -117.70773 -0.099441372 -28.59042 -0.097717769 -28.573492 -26.37693 -113.0033
142867000 -25.984852 -118.00019 -0.098280132 -28.789999 -0.096573405 -28.772398 -26.295958 -113.21471
143866000 -25.918297 -118.48163 -0.09969908 -28.986261 -0.098106436 -28.969564 -26.229477 -113.69623
144865000 -25.865316 -118.99818 -0.10160843 -29.183548 -0.099044107 -29.167381 -26.168623 -114.0173
145864000 -25.805635 -119.32768 -0.10183579 -29.383415 -0.10049058 -29.374205 -26.139008 -114.29694
146863000 -25.758354 -119.74453 -0.10261178 -29.585104 -0.10070147 -29.569672 -26.088314 -114.5651
147862000 -25.719128 -120.09053 -0.10356209 -29.78376 -0.10148945 -29.76754 -26.047411 -114.93394
148861000 -25.68997 -120.6291 -0.10339481 -29.976782 -0.10173006 -29.962784 -26.028347 -115.1925
149860000 -25.677248 -120.81049 -0.10422596 -30.176588 -0.10208357 -30.169022 -25.996515 -115.36875
150859000 -25.652235 -121.21665 -0.1044593 -30.378544 -0.10275757 -30.363207 -25.992542 -115.63064
151858000 -25.631868 -121.53367 -0.10489153 -30.578806 -0.10313051 -30.561716 -25.983093 -115.91257
152857000 -25.619835 -121.83921 -0.10473508 -30.773346 -0.10283788 -30.758224 -25.963482 -116.06879
153856000 -25.612068 -122.08254 -0.10488623 -30.970346 -0.1020417 -30.960316 -25.97999 -116.36121
154855000 -25.607159 -122.24825 -0.10520341 -31.17284 -0.10234807 -31.156868 -25.966705 -116.5707
155854000 -25.620716 -122.51689 -0.10554899 -31.37027 -0.10317452 -31.355944 -25.961294 -116.86977
156853000 -25.603161 -123.18167 -0.10402552 -31.558718 -0.10288214 -31.55047 -25.953434 -117.17363
157852000 -25.6073 -123.41856 -0.10452559 -31.760647 -0.10461734 -31.748024 -25.947191 -117.51048
158851000 -25.603693 -123.65565 -0.10574181 -31.958534 -0.10465897 -31.947311 -25.928703 -117.75632
159850000 -25.59166 -123.76888 -0.10588796 -32.154732 -0.10410241 -32.147755 -25.928192 -117.91394
160849000 -25.570269 -123.8855 -0.10612801 -32.35368 -0.10548931 -32.347523 -25.895006 -118.21219
161848000 -25.550079 -123.9895 -0.10686657 -32.553032 -0.10506656 -32.547077 -25.858471 -118.32565
162847000 -25.507956 -124.15524 -0.10686259 -32.752869 -0.10599698 -32.747604 -25.825764 -118.56474
163846000 -25.46394 -124.41687 -0.10706238 -32.955391 -0.10509441 -32.94128 -25.74724 -118.55217
164845000 -25.404062 -124.43237 -0.10716585 -33.154743 -0.10583571 -33.14352 -25.678692 -118.65073
165844000 -25.347483 -124.48499 -0.10679653 -33.34721 -0.10586648 -33.344193 -25.604788 -118.81019
166843000 -25.284151 -124.55033 -0.10696792 -33.546043 -0.10589671 -33.543816 -25.526972 -118.96114
167842000 -25.229383 -124.68655 -0.10742322 -33.74831 -0.10618903 -33.741806 -25.447742 -118.89305
168841000 -25.142855 -124.89515 -0.10756811 -33.944588 -0.10734469 -33.939377 -25.371422 -118.96309
169840000 -25.08316 -125.16838 -0.1076976 -34.143326 -0.10695333 -34.137989 -25.279352 -119.15868
170839000 -25.01952 -125.43017 -0.10945676 -34.3367 -0.10782073 -34.335213 -25.195776 -119.34432
171838000 -24.963469 -125.84702 -0.10887967 -34.540073 -0.1086323 -34.53125 -25.134468 -119.58366
172837000 -24.895605 -126.19443 -0.11069878 -34.733829 -0.11009127 -34.729362 -25.065334 -119.82055
173836000 -24.827074 -126.64297 -0.11149655 -34.932835 -0.11037457 -34.930775 -25.021641 -120.03267
174835000 -24.775488 -127.09184 -0.11215314 -35.12719 -0.11148221 -35.126625 -24.976223 -120.37423
175834000 -24.721371 -127.47777 -0.11278167 -35.32571 -0.11237255 -35.325077 -24.914246 -120.67329
176833000 -24.674999 -127.84679 -0.11369009 -35.522224 -0.11249103 -35.522152 -24.861559 -120.86723
177832000 -24.631731 -128.34738 -0.11412909 -35.71941 -0.11354022 -35.721951 -24.841707 -121.03004
178831000 -24.592051 -128.71573 -0.11452056 -35.915836 -0.11363668 -35.915119 -24.801846 -121.30954
179830000 -24.554619 -129.1295 -0.11464442 -36.1134 -0.11440203 -36.109188 -24.781513 -121.41988
180829000 -24.51582 -129.36028 -0.11547799 -36.311615 -0.11410411 -36.307281 -24.740662 -121.60371
181828000 -24.49169 -129.71506 -0.11586746 -36.508591 -0.11455033 -36.506008 -24.727617 -121.70997
182827000 -24.46748 -130.08569 -0.11512764 -36.699673 -0.11464229 -36.69957 -24.715199 -121.8129
183826000 -24.425472 -130.41724 -0.11652232 -36.901054 -0.11511648 -36.897812 -24.704222 -121.93807
184825000 -24.430021 -130.73166 -0.11661459 -37.0942 -0.11637395 -37.097229 -24.693455 -122.03516
185824000 -24.40349 -131.08908 -0.1161522 -37.292297 -0.11605649 -37.294174 -24.68676 -122.05689
186823000 -24.387814 -131.43388 -0.11664942 -37.49387 -0.1162099 -37.49231 -24.68082 -122.06184
187822000 -24.368799 -131.7762 -0.11732754 -37.686691 -0.11668133 -37.686871 -24.647951 -122.14639
188821000 -24.349012 -132.01125 -0.11760067 -37.879284 -0.1163806 -37.890118 -24.634787 -122.23692
189820000 -24.330271 -132.27597 -0.11800097 -38.082645 -0.1172052 -38.08279 -24.620049 -122.38691
190819000 -24.305344 -132.52711 -0.11895359 -38.280807 -0.1183896 -38.281975 -24.587584 -122.33626
191818000 -24.265451 -132.67966 -0.12041949 -38.475761 -0.1197188 -38.47546 -24.555033 -122.24868
192817000 -24.192337 -132.93808 -0.1203487 -38.661129 -0.12000327 -38.66227 -24.481085 -122.30864
193816000 -24.158499 -133.30081 -0.11960731 -38.858379 -0.11872771 -38.85424 -24.426884 -122.58612
194815000 -24.102926 -133.76924 -0.11904697 -39.053959 -0.11876363 -39.052944 -24.365362 -122.70429
195814000 -24.050652 -133.97098 -0.12004638 -39.249699 -0.1196286 -39.253887 -24.307369 -122.78743
196813000 -23.995491 -134.34584 -0.11963259 -39.443222 -0.11927232 -39.445473 -24.231731 -122.97363
197812000 -23.938375 -134.56322 -0.11920421 -39.645668 -0.1195972 -39.639515 -24.158211 -123.08094
198811000 -23.884838 -134.72845 -0.11948864 -39.840393 -0.11847658 -39.841732 -24.095217 -123.25172
199810000 -23.812469 -135.08002 -0.12047538 -40.028667 -0.1188884 -40.033722 -24.011614 -123.34099
200809000 -23.759375 -135.37057 -0.12079316 -40.23 -0.11927073 -40.230759 -23.935387 -123.53207
201808000 -23.698242 -135.61049 -0.12062389 -40.4328 -0.11997826 -40.432621 -23.864071 -123.62823
202807000 -23.642292 -135.96541 -0.12212018 -40.631599 -0.12038702 -40.632687 -23.807915 -123.82671
203806000 -23.589514 -136.41902 -0.12266068 -40.830101 -0.12125631 -40.833981 -23.745659 -124.01297
