!Keysight Technologies,E5080B,MY59205177,A.15.75.32
!Date: Friday, February 23, 2024 03:33:39
!Correction: S11(Cdelta 2-Port  ) 
!S21(Cdelta 2-Port  ) 
!S12(Cdelta 2-Port  ) 
!S22(Cdelta 2-Port  ) 
!S2P File: Measurements: S11, S21, S12, S22:
# Hz S  dB   R 50
10000000 -46.106838 -2.3087504 -0.015554224 -2.0414965 -0.018479908 -2.1001189 -45.974857 -157.94289
10999000 -45.231895 -4.4905944 -0.016432397 -2.2657943 -0.017939217 -2.3196726 -45.838131 -151.56433
11998000 -44.347668 -7.337522 -0.016821656 -2.4916782 -0.017879693 -2.531723 -45.979786 -147.33449
12997000 -43.533798 -13.197307 -0.016110208 -2.6702476 -0.017970929 -2.7029099 -45.706741 -141.58156
13996000 -43.24147 -16.946474 -0.015118062 -2.8493969 -0.018523581 -2.8689198 -45.436989 -136.26289
14995000 -42.900963 -21.328934 -0.017481763 -3.0606446 -0.018041631 -3.0827415 -45.150852 -132.71048
15994000 -42.725525 -25.705992 -0.018072303 -3.2769048 -0.020223314 -3.3013113 -45.072472 -129.57283
16993000 -42.679237 -30.267696 -0.017366886 -3.475965 -0.019272869 -3.4851198 -44.27655 -128.97841
17992000 -42.70866 -35.665649 -0.017752072 -3.6760283 -0.020330723 -3.6776395 -43.64312 -129.32835
18991000 -42.950859 -40.904068 -0.018748458 -3.8870957 -0.020716431 -3.8824656 -42.983608 -128.30493
19990000 -42.767315 -46.592678 -0.021593047 -4.09899 -0.023205236 -4.0947142 -42.384037 -128.98659
20989000 -42.583466 -50.153805 -0.023214344 -4.3021631 -0.024781054 -4.2930207 -41.808636 -128.38264
21988000 -42.41032 -55.385418 -0.024012854 -4.4999347 -0.025979048 -4.4842205 -41.512424 -127.41267
22987000 -42.053539 -59.822643 -0.025657449 -4.6993685 -0.026671279 -4.685843 -41.27562 -126.92511
23986000 -41.997177 -64.168724 -0.025539493 -4.8891172 -0.02609936 -4.8926086 -41.170895 -126.92444
24985000 -41.59901 -66.863106 -0.026155612 -5.1018462 -0.026131913 -5.0971122 -40.98106 -124.37856
25984000 -41.27282 -69.135033 -0.026788747 -5.3103881 -0.026799945 -5.3074689 -40.64999 -122.88849
26983000 -40.969887 -71.130592 -0.027453234 -5.5073867 -0.027020043 -5.521564 -40.529999 -122.43543
27982000 -40.808083 -71.792206 -0.029220574 -5.7037878 -0.029032679 -5.7371535 -40.233429 -120.91158
28981000 -40.744896 -73.619896 -0.027170079 -5.9009461 -0.028784078 -5.9275346 -40.02964 -120.09843
29980000 -40.32774 -74.832382 -0.02718154 -6.1015086 -0.02926201 -6.1077352 -39.748165 -118.9708
30979000 -39.970295 -73.638855 -0.024386654 -6.452631 -0.023519624 -6.4415803 -39.245777 -119.32523
31978000 -39.753792 -74.594818 -0.023817638 -6.6448412 -0.025547305 -6.635509 -39.009369 -118.67532
32977000 -39.571537 -76.229256 -0.023786664 -6.8601632 -0.026192071 -6.8536358 -38.790447 -118.80203
33976000 -39.411606 -77.26368 -0.025058586 -7.0582709 -0.026291553 -7.054832 -38.478455 -118.309
34975000 -39.078194 -78.026474 -0.024983604 -7.2601676 -0.027407385 -7.2577286 -38.2323 -117.76276
35974000 -38.904202 -78.462677 -0.024098493 -7.4539785 -0.026709827 -7.4571776 -37.981747 -116.92072
36973000 -38.666771 -79.393532 -0.023652881 -7.6534715 -0.027087767 -7.6554723 -37.715431 -116.05124
37972000 -38.504047 -79.09169 -0.024646459 -7.8659873 -0.027157575 -7.8739157 -37.501381 -115.29422
38971000 -38.181431 -78.566269 -0.025907695 -8.0670128 -0.027465738 -8.0756836 -37.348301 -113.65268
39970000 -37.83337 -78.901619 -0.024297887 -8.263978 -0.026259782 -8.2727146 -37.076733 -113.11803
40969000 -37.554085 -78.576477 -0.024303354 -8.4536343 -0.02614936 -8.4700842 -36.828217 -111.60199
41968000 -37.199783 -78.374451 -0.024334591 -8.6575842 -0.026892671 -8.6786232 -36.659504 -110.38696
42967000 -36.939648 -78.606071 -0.024957307 -8.8700342 -0.026854904 -8.8909388 -36.43779 -108.54652
43966000 -36.650314 -79.281471 -0.025382223 -9.0721874 -0.027460529 -9.0895481 -36.184929 -107.78977
44965000 -36.411274 -80.022972 -0.025512412 -9.2779598 -0.028662909 -9.2974396 -35.969543 -107.61569
45964000 -36.174675 -81.050583 -0.026715556 -9.4752817 -0.02929198 -9.4955759 -35.748913 -107.35712
46963000 -35.979736 -82.972923 -0.027314911 -9.67066 -0.030313175 -9.6932898 -35.569 -107.49551
47962000 -35.818443 -84.359505 -0.028805446 -9.8720961 -0.031087704 -9.8899384 -35.35907 -107.62981
48961000 -35.599808 -85.776321 -0.030704463 -10.069763 -0.03248043 -10.090035 -35.11763 -107.65437
49960000 -35.365875 -87.074066 -0.031540599 -10.270108 -0.034035876 -10.295283 -34.991852 -107.87986
50959000 -35.157661 -88.356422 -0.032437135 -10.482285 -0.035102289 -10.494805 -34.808807 -108.11584
51958000 -34.945755 -89.45031 -0.034375314 -10.682385 -0.036709059 -10.693638 -34.631397 -108.50052
52957000 -34.731106 -90.456352 -0.035899598 -10.8823 -0.038038302 -10.890251 -34.471027 -108.19409
53956000 -34.5686 -91.132172 -0.036751352 -11.082935 -0.038187414 -11.09001 -34.341793 -108.14674
54955000 -34.394142 -91.6138 -0.038037781 -11.286508 -0.03940139 -11.28396 -34.18895 -108.14367
55954000 -34.229389 -92.438187 -0.039716434 -11.485863 -0.039665751 -11.485384 -34.07975 -107.77998
56953000 -34.114319 -92.439018 -0.039092641 -11.681211 -0.038170181 -11.672826 -34.01487 -108.06482
57952000 -33.9422 -93.001953 -0.039558388 -11.888011 -0.040339269 -11.874058 -33.900486 -108.09357
58951000 -33.810844 -93.400536 -0.040285446 -12.088212 -0.04137953 -12.066961 -33.752239 -108.13643
59950000 -33.688396 -93.779221 -0.041193724 -12.292696 -0.041402005 -12.267653 -33.67556 -108.4461
60949000 -33.581394 -94.273506 -0.041243374 -12.487094 -0.041604288 -12.466296 -33.582558 -108.6541
61948000 -33.509914 -94.645981 -0.042973984 -12.688588 -0.041925237 -12.672014 -33.497807 -108.82979
62947000 -33.421486 -94.750832 -0.042074222 -12.902096 -0.042025603 -12.880474 -33.367973 -109.05666
63946000 -33.341621 -95.495331 -0.043049015 -13.096793 -0.043286931 -13.080339 -33.265385 -109.21837
64945000 -33.240124 -95.722473 -0.044178315 -13.302641 -0.043786857 -13.281448 -33.14975 -109.70159
65944000 -33.135468 -96.027237 -0.044677559 -13.502184 -0.044714697 -13.48538 -33.04438 -110.07025
66943000 -32.99065 -96.342499 -0.04253323 -13.701147 -0.042657658 -13.686381 -32.949406 -110.36644
67942000 -32.93988 -96.334808 -0.044607989 -13.899488 -0.044642251 -13.888617 -32.821419 -110.65688
68941000 -32.821522 -96.427742 -0.043772738 -14.091581 -0.043709982 -14.082066 -32.725929 -110.60032
69940000 -32.736504 -96.393524 -0.044351436 -14.293928 -0.044841807 -14.288644 -32.562054 -110.93463
70939000 -32.626602 -96.353119 -0.044155564 -14.489145 -0.043924399 -14.487245 -32.448006 -110.8298
71938000 -32.484722 -95.936951 -0.044649314 -14.688603 -0.044196621 -14.680634 -32.308983 -110.68032
72937000 -32.324745 -95.771255 -0.043714166 -14.883816 -0.044388048 -14.878904 -32.174053 -110.40808
73936000 -32.191505 -95.396889 -0.043263402 -15.083857 -0.043790519 -15.07697 -32.056282 -110.17223
74935000 -32.063049 -95.58812 -0.042551003 -15.280933 -0.041955296 -15.275546 -31.902098 -109.82784
75934000 -31.937464 -95.879494 -0.043667622 -15.488615 -0.042471275 -15.483766 -31.806931 -109.787
76933000 -31.796043 -96.221001 -0.044639897 -15.681015 -0.043351509 -15.676298 -31.635748 -110.13809
77932000 -31.706541 -96.9981 -0.045477673 -15.879623 -0.045535743 -15.875064 -31.535231 -110.08492
78931000 -31.629375 -97.72316 -0.043735083 -16.079792 -0.044541299 -16.075836 -31.43169 -109.96298
79930000 -31.506151 -98.548424 -0.04669866 -16.276993 -0.047007427 -16.272984 -31.325541 -110.2011
80929000 -31.403173 -99.335724 -0.048503429 -16.46913 -0.048655782 -16.467308 -31.233986 -110.4131
81928000 -31.292051 -100.07806 -0.048753425 -16.661617 -0.04906705 -16.659744 -31.109844 -110.48493
82927000 -31.188877 -100.805 -0.050156802 -16.859503 -0.05015916 -16.857393 -30.997753 -110.76401
83926000 -31.082384 -101.53182 -0.051867127 -17.058216 -0.051413942 -17.062176 -30.874678 -110.87733
84925000 -30.974548 -101.94181 -0.051934715 -17.260601 -0.05196039 -17.253328 -30.785164 -110.93614
85924000 -30.883196 -102.31155 -0.053293262 -17.460831 -0.052498784 -17.461346 -30.691681 -110.92219
86923000 -30.769186 -102.81487 -0.053033572 -17.659168 -0.053411976 -17.654533 -30.605701 -110.7878
87922000 -30.664783 -103.17621 -0.053540912 -17.865755 -0.052798267 -17.853745 -30.517513 -110.84619
88921000 -30.592041 -103.44676 -0.054708596 -18.060108 -0.053742189 -18.062197 -30.423145 -110.79197
89920000 -30.482868 -103.95905 -0.055296879 -18.261627 -0.054268483 -18.252659 -30.368765 -110.91068
90919000 -30.39031 -104.23756 -0.056152184 -18.455378 -0.054854609 -18.452072 -30.277472 -111.08898
91918000 -30.294981 -104.55549 -0.056547116 -18.659302 -0.056026053 -18.653999 -30.215794 -111.14297
92917000 -30.194239 -104.90729 -0.057579465 -18.858486 -0.056678772 -18.854753 -30.152113 -111.1812
93916000 -30.110231 -105.25677 -0.056788135 -19.049067 -0.056752991 -19.047863 -30.067432 -111.77465
94915000 -30.032061 -105.87241 -0.058964182 -19.252882 -0.057353355 -19.246351 -30.003683 -111.65398
95914000 -29.963345 -106.0376 -0.059673503 -19.446745 -0.058235038 -19.445179 -29.915625 -111.93013
96913000 -29.889231 -106.2433 -0.060838897 -19.647104 -0.059223965 -19.645729 -29.847908 -112.2655
97912000 -29.811119 -106.6955 -0.061711837 -19.842398 -0.060023349 -19.844542 -29.765873 -112.53806
98911000 -29.701084 -106.84231 -0.062632747 -20.043591 -0.060947578 -20.044363 -29.725805 -112.77595
99910000 -29.629103 -107.03577 -0.062618561 -20.241598 -0.061088551 -20.244114 -29.619854 -113.01931
100909000 -29.541113 -107.26988 -0.062531374 -20.451252 -0.060866199 -20.448812 -29.537039 -113.26013
101908000 -29.450634 -107.52215 -0.063797623 -20.65246 -0.061779842 -20.652163 -29.43033 -113.0847
102907000 -29.323858 -107.4757 -0.064531118 -20.856789 -0.062240936 -20.852919 -29.356163 -113.02993
103906000 -29.226353 -107.50193 -0.064527437 -21.061533 -0.061031584 -21.053959 -29.207754 -113.00336
104905000 -29.07799 -107.43376 -0.06566339 -21.25861 -0.062494084 -21.257658 -29.082804 -112.68139
105904000 -28.944826 -107.48922 -0.065003797 -21.462612 -0.062521398 -21.455683 -28.975216 -112.54305
106903000 -28.824745 -107.57899 -0.065353028 -21.666178 -0.062593356 -21.662409 -28.844564 -112.43747
107902000 -28.661074 -107.91716 -0.065777704 -21.86833 -0.063850686 -21.860674 -28.710121 -112.38321
108901000 -28.548452 -108.16743 -0.06644503 -22.071777 -0.064844832 -22.062334 -28.582857 -112.33643
109900000 -28.426039 -108.63277 -0.068278804 -22.271612 -0.065880731 -22.261881 -28.427382 -112.41763
110899000 -28.31105 -109.21367 -0.069423363 -22.470028 -0.066374324 -22.460794 -28.303001 -112.67245
111898000 -28.211021 -109.89502 -0.070660837 -22.668949 -0.067696385 -22.660883 -28.188107 -112.78985
112897000 -28.085442 -110.44083 -0.072011836 -22.870918 -0.068460517 -22.855062 -28.053133 -112.97551
113896000 -27.987249 -111.01165 -0.072882548 -23.068605 -0.06983345 -23.060003 -27.94784 -113.12009
114895000 -27.881502 -111.6829 -0.07394959 -23.268215 -0.071378909 -23.253738 -27.837467 -113.16537
115894000 -27.760185 -111.95557 -0.07502111 -23.468456 -0.07185971 -23.455502 -27.769424 -113.37302
116893000 -27.683342 -112.47915 -0.076258861 -23.666668 -0.073045492 -23.651072 -27.639048 -113.40585
117892000 -27.603989 -112.96841 -0.076149009 -23.863991 -0.073413007 -23.85158 -27.56424 -113.64027
118891000 -27.544041 -113.37457 -0.0774303 -24.064037 -0.073933266 -24.052073 -27.473688 -113.75072
119890000 -27.458609 -113.75618 -0.077707261 -24.264215 -0.07479962 -24.246971 -27.45927 -113.8784
120889000 -27.408442 -114.22485 -0.078587286 -24.465448 -0.074290581 -24.448868 -27.384226 -113.77359
121888000 -27.366005 -114.55429 -0.079423465 -24.660946 -0.076038629 -24.64883 -27.32716 -114.08173
122887000 -27.323921 -114.76316 -0.079284795 -24.865709 -0.076777883 -24.85038 -27.279924 -114.07122
123886000 -27.270729 -115.15523 -0.080151692 -25.06859 -0.07669805 -25.049543 -27.265514 -114.22643
124885000 -27.236774 -115.64918 -0.080951251 -25.270071 -0.076962322 -25.250881 -27.235416 -114.22639
125884000 -27.185802 -115.88475 -0.081796587 -25.462694 -0.07684955 -25.446388 -27.208067 -114.43595
126883000 -27.169029 -116.23106 -0.081456587 -25.670147 -0.077879354 -25.654871 -27.163881 -114.41659
127882000 -27.117243 -116.56834 -0.081826396 -25.869431 -0.078721717 -25.850353 -27.124931 -114.56828
128881000 -27.085297 -116.81737 -0.082005769 -26.070646 -0.07869035 -26.054363 -27.089417 -114.61814
129880000 -27.027905 -117.18604 -0.082886666 -26.273283 -0.078467093 -26.254318 -27.042738 -114.65022
130879000 -26.97327 -117.35648 -0.082723349 -26.471266 -0.079467759 -26.455566 -26.977226 -114.66101
131878000 -26.906595 -117.59317 -0.082739182 -26.67593 -0.079576902 -26.655634 -26.917715 -114.53742
132877000 -26.841085 -117.62843 -0.082420476 -26.879229 -0.079840563 -26.857121 -26.836609 -114.49548
133876000 -26.75494 -117.80994 -0.082545526 -27.077164 -0.079886965 -27.057201 -26.747259 -114.38216
134875000 -26.65778 -117.94209 -0.083136804 -27.2756 -0.080486052 -27.25491 -26.651102 -114.21899
135874000 -26.575943 -117.96352 -0.08316081 -27.483479 -0.080668539 -27.461594 -26.548176 -114.17904
136873000 -26.465199 -117.87441 -0.082978487 -27.679852 -0.080079444 -27.662262 -26.46941 -114.13877
137872000 -26.391243 -118.00999 -0.083679073 -27.880928 -0.080338381 -27.870008 -26.366879 -114.09867
138871000 -26.31196 -118.20685 -0.084603861 -28.077951 -0.081375085 -28.06451 -26.267069 -114.19988
139870000 -26.212622 -118.52138 -0.084481388 -28.278934 -0.082106538 -28.262043 -26.184706 -114.40561
140869000 -26.133665 -119.08496 -0.084940679 -28.481464 -0.082512811 -28.461626 -26.087059 -114.61797
141868000 -26.050177 -119.45361 -0.086042903 -28.676922 -0.083877265 -28.66531 -26.039021 -114.85985
142867000 -25.977333 -119.669 -0.08487574 -28.876822 -0.083206199 -28.858997 -25.959276 -114.99969
143866000 -25.904371 -120.13967 -0.086987212 -29.073639 -0.084325664 -29.056767 -25.882111 -115.43211
144865000 -25.846197 -120.63726 -0.088617787 -29.273849 -0.085536771 -29.257036 -25.827969 -115.71889
145864000 -25.789932 -120.96148 -0.089316905 -29.472622 -0.086956307 -29.461775 -25.796064 -115.9854
146863000 -25.748901 -121.31607 -0.089582473 -29.671741 -0.087108165 -29.65996 -25.749172 -116.25713
147862000 -25.70352 -121.66582 -0.091255262 -29.873274 -0.088026822 -29.857229 -25.714869 -116.58532
148861000 -25.676249 -122.07777 -0.091638334 -30.067572 -0.089104988 -30.053568 -25.692087 -116.71507
149860000 -25.63843 -122.28129 -0.093181789 -30.261967 -0.090468876 -30.250587 -25.642578 -116.85608
150859000 -25.61842 -122.74588 -0.092089385 -30.455811 -0.089701653 -30.441395 -25.624372 -117.19563
151858000 -25.604441 -123.09046 -0.091877073 -30.657042 -0.089636378 -30.644911 -25.613937 -117.50641
152857000 -25.596729 -123.40916 -0.092351422 -30.856112 -0.089567408 -30.846081 -25.597656 -117.69549
153856000 -25.58729 -123.63644 -0.091750167 -31.058647 -0.088949099 -31.039055 -25.617125 -117.98584
154855000 -25.58691 -123.78156 -0.092578568 -31.256678 -0.088877499 -31.245483 -25.606815 -118.24123
155854000 -25.606194 -124.04133 -0.092766851 -31.457199 -0.089621849 -31.441465 -25.597717 -118.50735
156853000 -25.590139 -124.73076 -0.090265624 -31.644377 -0.089051619 -31.637125 -25.593788 -118.84515
157852000 -25.595055 -124.94962 -0.091375813 -31.848227 -0.090515919 -31.83667 -25.58322 -119.1734
158851000 -25.599188 -125.14916 -0.092760243 -32.048351 -0.090145104 -32.036453 -25.569796 -119.44808
159850000 -25.582537 -125.29758 -0.093025222 -32.245041 -0.091260023 -32.238102 -25.563662 -119.62049
160849000 -25.570087 -125.34824 -0.09304136 -32.447704 -0.091509581 -32.441738 -25.535442 -119.95425
161848000 -25.551533 -125.44607 -0.093493879 -32.643959 -0.092112124 -32.640617 -25.497702 -120.0209
162847000 -25.51252 -125.60976 -0.093681939 -32.844692 -0.092390291 -32.841698 -25.471781 -120.27896
163846000 -25.476494 -125.82555 -0.093499169 -33.048637 -0.092472002 -33.03809 -25.397068 -120.26513
164845000 -25.415268 -125.79359 -0.0943451 -33.24501 -0.092441328 -33.23912 -25.333412 -120.3997
165844000 -25.36282 -125.81323 -0.09435568 -33.443123 -0.092780337 -33.435932 -25.253729 -120.54279
166843000 -25.299671 -125.88481 -0.093829274 -33.644855 -0.093025751 -33.637814 -25.18819 -120.6861
167842000 -25.246017 -126.02076 -0.094474204 -33.840416 -0.093173854 -33.836292 -25.110888 -120.62211
168841000 -25.169731 -126.18366 -0.095292278 -34.043484 -0.093407921 -34.03614 -25.03314 -120.6944
169840000 -25.101919 -126.39484 -0.094943017 -34.23653 -0.094300129 -34.239124 -24.949516 -120.90707
170839000 -25.037579 -126.60728 -0.095803782 -34.437023 -0.094567329 -34.434978 -24.869196 -121.05016
171838000 -24.981865 -127.00924 -0.095700309 -34.636127 -0.095560059 -34.63205 -24.807379 -121.25957
172837000 -24.914175 -127.35515 -0.097561039 -34.834652 -0.095774405 -34.829426 -24.740381 -121.491
173836000 -24.845627 -127.76776 -0.098400347 -35.035259 -0.096639842 -35.031445 -24.698824 -121.69666
174835000 -24.789486 -128.15335 -0.099341519 -35.230022 -0.097903095 -35.229984 -24.651707 -122.01848
175834000 -24.736473 -128.53378 -0.099867538 -35.432831 -0.098676272 -35.424976 -24.588453 -122.28905
176833000 -24.68791 -128.86168 -0.10094389 -35.630817 -0.099605843 -35.627464 -24.538429 -122.38624
177832000 -24.643353 -129.27347 -0.10153052 -35.832478 -0.10017534 -35.828171 -24.525709 -122.52552
178831000 -24.606663 -129.54436 -0.10357746 -36.024258 -0.10240214 -36.023151 -24.482256 -122.60702
179830000 -24.530216 -129.90334 -0.10433892 -36.213791 -0.10251955 -36.210003 -24.413549 -122.65801
180829000 -24.480175 -130.2625 -0.10327075 -36.405132 -0.10256116 -36.403534 -24.371428 -122.9884
181828000 -24.457539 -130.71661 -0.10281031 -36.603249 -0.10174119 -36.599262 -24.358944 -123.17976
182827000 -24.434057 -131.07913 -0.10207853 -36.795116 -0.10205574 -36.80098 -24.346222 -123.30167
183826000 -24.390278 -131.37456 -0.10352815 -37.000835 -0.10115108 -36.997818 -24.330704 -123.43133
184825000 -24.395636 -131.763 -0.10313316 -37.197212 -0.10252246 -37.189667 -24.317204 -123.5629
185824000 -24.365896 -132.11716 -0.10334417 -37.390068 -0.1023425 -37.395676 -24.306028 -123.65228
186823000 -24.347109 -132.45538 -0.10333861 -37.592823 -0.1025601 -37.587402 -24.306999 -123.67603
187822000 -24.323275 -132.80211 -0.10419679 -37.788898 -0.10310189 -37.786922 -24.270512 -123.72004
188821000 -24.298969 -133.04358 -0.10415278 -37.98354 -0.10327525 -37.989719 -24.246149 -123.90149
189820000 -24.281279 -133.3611 -0.10382084 -38.18486 -0.10321613 -38.180191 -24.230576 -124.07084
190819000 -24.249292 -133.65778 -0.10503474 -38.378643 -0.10366548 -38.377747 -24.194 -124.11475
191818000 -24.215969 -133.95369 -0.10537367 -38.579826 -0.10433786 -38.578819 -24.165092 -124.12759
192817000 -24.171104 -134.22485 -0.10569566 -38.773251 -0.10411143 -38.776062 -24.122618 -124.22832
193816000 -24.141199 -134.50177 -0.10558214 -38.971828 -0.10402074 -38.970325 -24.068192 -124.36085
194815000 -24.079268 -134.88902 -0.10588557 -39.16647 -0.10531108 -39.168549 -24.003704 -124.44929
195814000 -24.024054 -135.07471 -0.10672278 -39.367218 -0.10543732 -39.364735 -23.947706 -124.54214
196813000 -23.967993 -135.39215 -0.10580415 -39.558277 -0.10565057 -39.559338 -23.869949 -124.70226
197812000 -23.912283 -135.60439 -0.10694033 -39.759243 -0.1054405 -39.753498 -23.797672 -124.8
198811000 -23.858582 -135.7533 -0.10638665 -39.954025 -0.10577894 -39.956257 -23.73007 -124.93887
199810000 -23.786173 -136.10568 -0.10677849 -40.148327 -0.10553174 -40.14167 -23.654303 -125.07047
200809000 -23.731672 -136.38078 -0.10694829 -40.345345 -0.10649834 -40.347511 -23.574732 -125.23925
201808000 -23.672998 -136.59091 -0.10773952 -40.544949 -0.10689257 -40.549538 -23.506874 -125.29932
202807000 -23.618334 -136.90167 -0.10856249 -40.746067 -0.10726031 -40.751339 -23.453545 -125.49809
