!Keysight Technologies,E5080B,MY59205177,A.15.75.32
!Date: Friday, February 23, 2024 02:55:25
!Correction: S11(Cdelta 2-Port  ) 
!S21(Cdelta 2-Port  ) 
!S12(Cdelta 2-Port  ) 
!S22(Cdelta 2-Port  ) 
!S2P File: Measurements: S11, S21, S12, S22:
# Hz S  dB   R 50
10000000 -43.849693 -3.6095548 -0.029577881 -2.0421977 -0.0330691 -2.0966132 -48.553627 -148.80724
10999000 -43.173225 -5.3361659 -0.030174499 -2.2583315 -0.033350032 -2.310991 -48.248486 -140.5253
11998000 -42.375526 -7.7050433 -0.030542575 -2.4821165 -0.032324992 -2.5245233 -48.331444 -134.83131
12997000 -41.789043 -12.324061 -0.029715754 -2.6620274 -0.032430876 -2.696034 -47.658836 -128.31761
13996000 -41.606083 -15.461758 -0.029008184 -2.8393872 -0.032246236 -2.8629336 -47.122887 -122.56645
14995000 -41.271557 -19.085777 -0.031162011 -3.0511043 -0.032016747 -3.0728638 -46.724854 -119.23247
15994000 -41.193779 -22.776144 -0.031979457 -3.2651212 -0.03448464 -3.2911017 -46.430355 -115.44582
16993000 -41.172703 -26.630009 -0.031326268 -3.4650018 -0.033288732 -3.4733927 -45.55291 -116.84493
17992000 -41.273113 -31.026489 -0.032135662 -3.6640294 -0.034392796 -3.6691492 -44.942139 -118.17121
18991000 -41.530327 -35.26828 -0.032810356 -3.8746071 -0.034754183 -3.8709652 -44.203861 -117.78468
19990000 -41.397877 -40.244839 -0.03527531 -4.0855684 -0.037313446 -4.0810738 -43.505543 -119.09033
20989000 -41.312359 -43.424969 -0.037073772 -4.2871408 -0.039507709 -4.2758193 -42.892063 -119.35532
21988000 -41.237774 -47.583721 -0.038436033 -4.4852638 -0.03963754 -4.4701061 -42.637398 -118.38285
22987000 -41.057827 -52.399216 -0.039452851 -4.6784573 -0.040775359 -4.6742911 -42.336472 -118.43343
23986000 -41.100788 -55.894596 -0.039264515 -4.8735375 -0.039906356 -4.8747525 -42.254704 -118.51982
24985000 -40.787537 -58.325089 -0.040463377 -5.0823464 -0.03980238 -5.0799894 -41.952919 -115.90549
25984000 -40.608707 -60.843231 -0.041283358 -5.2891359 -0.04046024 -5.2919812 -41.598969 -114.64613
26983000 -40.273689 -62.587307 -0.0425165 -5.4889603 -0.041520655 -5.5037436 -41.43441 -113.70228
27982000 -40.170376 -63.447559 -0.043467335 -5.688468 -0.043435961 -5.7238441 -41.1105 -112.51366
28981000 -40.150646 -64.969559 -0.040946513 -5.8857579 -0.043015551 -5.9086704 -40.901623 -111.68649
29980000 -39.776672 -66.760323 -0.041208096 -6.0757775 -0.043896683 -6.0844998 -40.581806 -111.27573
30979000 -39.40984 -65.854591 -0.039034393 -6.4327388 -0.038171224 -6.4242563 -40.050888 -111.98161
31978000 -39.244144 -67.119102 -0.037933849 -6.6275768 -0.039093424 -6.6191258 -39.773922 -111.32887
32977000 -39.085178 -68.6315 -0.03784794 -6.8363924 -0.03986508 -6.8348951 -39.548569 -111.4373
33976000 -38.935455 -69.751129 -0.039081149 -7.034966 -0.040678941 -7.0306463 -39.206104 -111.06113
34975000 -38.656113 -70.759987 -0.038941931 -7.2370424 -0.040855318 -7.2338338 -38.954563 -110.84325
35974000 -38.487213 -71.349144 -0.038338099 -7.4288125 -0.040701151 -7.4332781 -38.667923 -110.13197
36973000 -38.243938 -72.312248 -0.038572624 -7.6328115 -0.041803703 -7.6343093 -38.368671 -109.40102
37972000 -38.071423 -72.307671 -0.038254268 -7.8397632 -0.040862113 -7.8486857 -38.128593 -108.83121
38971000 -37.753456 -72.212799 -0.038983982 -8.040659 -0.041337192 -8.0526028 -37.912815 -107.28241
39970000 -37.440792 -72.644218 -0.036786072 -8.2318554 -0.041020729 -8.2496824 -37.634697 -106.76299
40969000 -37.154884 -72.536461 -0.03740222 -8.4315472 -0.040344231 -8.4493628 -37.358524 -105.56573
41968000 -36.816605 -72.81517 -0.03798895 -8.6356964 -0.04112212 -8.6529989 -37.142231 -104.31599
42967000 -36.561184 -73.046623 -0.037415277 -8.8487453 -0.041939091 -8.8651266 -36.923061 -102.56077
43966000 -36.291962 -73.909653 -0.038453531 -9.0435848 -0.042761181 -9.0609684 -36.611576 -101.9099
44965000 -36.068501 -74.776451 -0.038846336 -9.2491217 -0.042124931 -9.2665844 -36.39613 -101.98819
45964000 -35.846485 -76.033516 -0.040559005 -9.4475021 -0.044453952 -9.4652605 -36.146118 -101.77322
46963000 -35.681885 -77.98764 -0.040575467 -9.6426353 -0.044050962 -9.6636744 -35.982899 -102.258
47962000 -35.547626 -79.570854 -0.041331705 -9.845027 -0.045121409 -9.8612947 -35.755409 -102.44012
48961000 -35.338402 -81.019257 -0.04413569 -10.039417 -0.04688732 -10.060429 -35.522011 -102.68661
49960000 -35.139755 -82.402992 -0.045531299 -10.238676 -0.048001129 -10.262021 -35.399155 -102.94286
50959000 -34.939796 -83.849144 -0.04598413 -10.456059 -0.049372058 -10.460846 -35.223148 -103.35498
51958000 -34.755871 -85.001778 -0.047675278 -10.65183 -0.049901489 -10.661215 -35.054508 -103.94239
52957000 -34.55022 -86.068893 -0.049422067 -10.85123 -0.051403202 -10.856693 -34.870739 -103.7541
53956000 -34.390648 -86.856598 -0.050792661 -11.049854 -0.052905437 -11.051973 -34.748508 -103.79053
54955000 -34.230267 -87.501442 -0.051764436 -11.256358 -0.053108517 -11.245981 -34.607899 -103.81523
55954000 -34.086555 -88.333 -0.052399483 -11.45076 -0.053461507 -11.448093 -34.482075 -103.62223
56953000 -33.970852 -88.411423 -0.051983967 -11.651919 -0.052242808 -11.641633 -34.417286 -103.86285
57952000 -33.824455 -89.106392 -0.053760797 -11.847404 -0.053492166 -11.836798 -34.310944 -103.95606
58951000 -33.700462 -89.464249 -0.054319333 -12.050525 -0.05486903 -12.032631 -34.152237 -104.17213
59950000 -33.58831 -89.875412 -0.055381827 -12.255099 -0.055375535 -12.228421 -34.101234 -104.50167
60949000 -33.467964 -90.480606 -0.0554028 -12.456434 -0.055298191 -12.433657 -33.999836 -104.74921
61948000 -33.417824 -90.754616 -0.056404192 -12.649678 -0.055290848 -12.634069 -33.923767 -104.85867
62947000 -33.320713 -91.04599 -0.055604685 -12.863666 -0.056375608 -12.84037 -33.775131 -105.14059
63946000 -33.266094 -91.722015 -0.056888059 -13.061373 -0.05696097 -13.039899 -33.662815 -105.33686
64945000 -33.158966 -91.94693 -0.057318207 -13.263118 -0.057341289 -13.246208 -33.553986 -105.86627
65944000 -33.063992 -92.227539 -0.05848087 -13.461305 -0.057695411 -13.445867 -33.474056 -106.25745
66943000 -32.921097 -92.630875 -0.05645192 -13.664404 -0.056671951 -13.645688 -33.366699 -106.54806
67942000 -32.863976 -92.615158 -0.057923898 -13.859242 -0.058190439 -13.846636 -33.2402 -106.93308
68941000 -32.755074 -92.722809 -0.057372503 -14.054663 -0.057902124 -14.04477 -33.143467 -106.89568
69940000 -32.656651 -92.758553 -0.057501823 -14.252072 -0.058375139 -14.241608 -32.998009 -107.21844
70939000 -32.556179 -92.712791 -0.058210377 -14.447483 -0.05851708 -14.443504 -32.874126 -107.15587
71938000 -32.406002 -92.351639 -0.057941213 -14.640048 -0.058146626 -14.63589 -32.730473 -106.94447
72937000 -32.243103 -92.177811 -0.058255766 -14.842662 -0.057870906 -14.835341 -32.582947 -106.66185
73936000 -32.111679 -91.906311 -0.056930285 -15.044111 -0.05672624 -15.034121 -32.471096 -106.5716
74935000 -31.98027 -92.149109 -0.056423075 -15.237312 -0.056576751 -15.231528 -32.315426 -106.19494
75934000 -31.864983 -92.451042 -0.056714438 -15.445542 -0.055676527 -15.439604 -32.237545 -106.18835
76933000 -31.740215 -92.823082 -0.057528839 -15.64122 -0.057320043 -15.631206 -32.06839 -106.55579
77932000 -31.644495 -93.704819 -0.058682375 -15.833637 -0.059225801 -15.826877 -31.964489 -106.52025
78931000 -31.578625 -94.417542 -0.057778567 -16.036049 -0.058960769 -16.031059 -31.873951 -106.4557
79930000 -31.459414 -95.238258 -0.061086189 -16.225872 -0.061264973 -16.225571 -31.762743 -106.73449
80929000 -31.336369 -96.187553 -0.062000927 -16.422226 -0.063126765 -16.417078 -31.668293 -107.13751
81928000 -31.265343 -97.005104 -0.061832353 -16.613476 -0.062989399 -16.609392 -31.535656 -107.23409
82927000 -31.181839 -97.765953 -0.064088427 -16.815155 -0.063808918 -16.813618 -31.449856 -107.62171
83926000 -31.057938 -98.5326 -0.064660385 -17.01022 -0.065542497 -17.010473 -31.330368 -107.83737
84925000 -30.953789 -99.040596 -0.066020288 -17.207752 -0.065850243 -17.202353 -31.233669 -107.94273
85924000 -30.872198 -99.487709 -0.066340685 -17.409151 -0.066665836 -17.403965 -31.13537 -107.888
86923000 -30.765728 -100.0344 -0.067459755 -17.607698 -0.067013882 -17.600113 -31.035847 -107.83691
87922000 -30.656351 -100.45798 -0.067369051 -17.812588 -0.066796742 -17.801561 -30.953699 -107.94152
88921000 -30.588942 -100.75276 -0.068121821 -18.010818 -0.06850706 -18.005182 -30.862185 -108.00744
89920000 -30.485649 -101.30173 -0.068318248 -18.208174 -0.068241723 -18.201279 -30.80522 -108.12916
90919000 -30.390108 -101.59876 -0.069710337 -18.408287 -0.068453677 -18.400255 -30.727016 -108.34304
91918000 -30.298214 -102.01215 -0.069875538 -18.604309 -0.069705606 -18.601597 -30.655027 -108.34653
92917000 -30.207308 -102.37072 -0.071291022 -18.800898 -0.070647158 -18.799391 -30.590776 -108.49315
93916000 -30.120266 -102.73199 -0.07019648 -18.999634 -0.070617951 -18.991533 -30.507256 -109.10576
94915000 -30.06362 -103.4017 -0.072453223 -19.197149 -0.071857341 -19.190004 -30.442888 -109.00994
95914000 -29.987711 -103.63293 -0.072893336 -19.394285 -0.072608784 -19.388597 -30.353477 -109.23175
96913000 -29.902449 -103.88654 -0.074299008 -19.59149 -0.073668912 -19.588034 -30.294689 -109.644
97912000 -29.826733 -104.37639 -0.075553678 -19.78632 -0.073590457 -19.787304 -30.207111 -109.88179
98911000 -29.733896 -104.52557 -0.07622198 -19.990688 -0.074900754 -19.985481 -30.16358 -110.07446
99910000 -29.668243 -104.67675 -0.076850861 -20.188648 -0.075314514 -20.184708 -30.064026 -110.373
100909000 -29.577223 -104.95857 -0.076280467 -20.397219 -0.074058071 -20.385876 -29.974642 -110.64725
101908000 -29.488384 -105.20037 -0.077226341 -20.593801 -0.076485164 -20.591749 -29.863314 -110.35081
102907000 -29.351015 -105.23756 -0.077374697 -20.795738 -0.076106861 -20.793341 -29.789734 -110.34632
103906000 -29.255169 -105.33387 -0.078487128 -21.000334 -0.074944474 -20.996189 -29.637022 -110.24474
104905000 -29.110329 -105.21195 -0.078786038 -21.198145 -0.076001748 -21.194841 -29.503546 -109.95181
105904000 -28.981752 -105.32651 -0.078744389 -21.398518 -0.07622119 -21.393629 -29.393492 -109.81212
106903000 -28.86462 -105.4419 -0.078757308 -21.603083 -0.077179968 -21.59705 -29.262465 -109.72515
107902000 -28.700974 -105.80319 -0.079215989 -21.804695 -0.077281676 -21.794441 -29.123871 -109.6909
108901000 -28.59292 -106.0074 -0.080914587 -22.007452 -0.078775227 -21.998137 -28.992346 -109.59372
109900000 -28.467569 -106.52396 -0.081051201 -22.207569 -0.079854272 -22.196796 -28.843899 -109.73806
110899000 -28.348413 -107.18597 -0.083006717 -22.402382 -0.080117941 -22.393227 -28.715397 -110.02255
111898000 -28.271292 -107.91399 -0.08402954 -22.604881 -0.08159031 -22.597061 -28.598125 -110.18911
112897000 -28.138702 -108.47845 -0.085672468 -22.80419 -0.082562409 -22.791735 -28.46995 -110.39767
113896000 -28.037804 -109.06448 -0.086307742 -23.005747 -0.084024526 -22.990063 -28.359205 -110.5084
114895000 -27.9417 -109.73379 -0.087102622 -23.200235 -0.085347481 -23.188778 -28.247574 -110.61884
115894000 -27.810614 -110.09278 -0.088723466 -23.399035 -0.086645216 -23.390394 -28.178232 -110.80691
116893000 -27.72839 -110.66998 -0.089525655 -23.596094 -0.087391824 -23.58143 -28.046366 -110.94125
117892000 -27.648046 -111.18796 -0.08896099 -23.797628 -0.087798588 -23.780872 -27.971262 -111.18273
118891000 -27.597731 -111.62572 -0.090047851 -23.993092 -0.088282533 -23.98093 -27.880268 -111.36528
119890000 -27.505688 -112.00949 -0.090515129 -24.194723 -0.088658474 -24.17868 -27.872534 -111.47205
120889000 -27.449606 -112.51302 -0.092083573 -24.393499 -0.088582382 -24.380507 -27.789274 -111.47108
121888000 -27.411392 -112.90311 -0.091767088 -24.591694 -0.089899324 -24.575689 -27.731506 -111.77732
122887000 -27.376526 -113.08796 -0.092376806 -24.793045 -0.090294696 -24.782698 -27.68894 -111.81987
123886000 -27.319283 -113.49595 -0.093204536 -24.99567 -0.09021911 -24.975479 -27.673395 -111.99184
124885000 -27.275932 -113.98804 -0.093507633 -25.192972 -0.090866409 -25.180645 -27.644524 -112.07674
125884000 -27.230732 -114.19501 -0.09433452 -25.392061 -0.091209263 -25.379538 -27.615751 -112.25343
126883000 -27.208963 -114.59015 -0.094276853 -25.594463 -0.092040472 -25.580324 -27.572546 -112.25899
127882000 -27.156452 -114.88191 -0.095036939 -25.792997 -0.092550538 -25.779369 -27.525579 -112.47531
128881000 -27.12418 -115.19426 -0.094848029 -25.995245 -0.092109218 -25.979555 -27.486036 -112.5581
129880000 -27.072865 -115.52215 -0.09559764 -26.196804 -0.092647061 -26.177485 -27.447687 -112.53448
130879000 -27.011587 -115.67996 -0.09542352 -26.396484 -0.093331218 -26.379971 -27.367508 -112.58321
131878000 -26.941214 -115.88819 -0.096086152 -26.600298 -0.093931906 -26.580256 -27.309965 -112.48963
132877000 -26.871674 -115.94722 -0.0956892 -26.797009 -0.093809165 -26.780758 -27.217617 -112.46345
133876000 -26.786953 -116.16158 -0.096415125 -26.999786 -0.093724258 -26.980129 -27.129429 -112.42205
134875000 -26.69408 -116.26422 -0.096483149 -27.202288 -0.095003337 -27.183264 -27.020561 -112.2772
135874000 -26.610102 -116.25648 -0.096773773 -27.398127 -0.094393246 -27.380199 -26.921146 -112.23677
136873000 -26.498508 -116.16882 -0.097291544 -27.603762 -0.094678178 -27.583857 -26.834538 -112.26148
137872000 -26.421621 -116.30922 -0.097005382 -27.803942 -0.095093824 -27.787764 -26.732319 -112.17489
138871000 -26.347712 -116.4921 -0.097557865 -28.000256 -0.094094053 -27.985174 -26.631145 -112.35328
139870000 -26.24794 -116.75983 -0.097973257 -28.201813 -0.096183017 -28.183502 -26.551588 -112.54485
140869000 -26.155272 -117.22689 -0.10053536 -28.396439 -0.098255508 -28.378391 -26.442736 -112.66794
141868000 -26.059107 -117.72247 -0.10041694 -28.586637 -0.098041043 -28.576904 -26.375509 -113.00985
142867000 -25.982149 -117.95061 -0.098795697 -28.786901 -0.096966736 -28.773565 -26.296597 -113.18347
143866000 -25.919081 -118.49096 -0.1003984 -28.984529 -0.098703809 -28.970135 -26.22578 -113.70079
144865000 -25.862497 -119.02031 -0.10161849 -29.184788 -0.099794172 -29.169849 -26.167892 -114.04997
145864000 -25.803225 -119.32796 -0.10194258 -29.38456 -0.10101834 -29.370752 -26.135426 -114.32874
146863000 -25.758139 -119.72506 -0.10313158 -29.583319 -0.10084082 -29.568098 -26.085707 -114.64048
147862000 -25.718464 -120.11451 -0.1036729 -29.782333 -0.10074279 -29.767891 -26.04405 -114.9808
148861000 -25.688637 -120.63979 -0.10424002 -29.977776 -0.10256434 -29.962698 -26.022785 -115.22589
149860000 -25.673384 -120.81658 -0.10474409 -30.174763 -0.1019561 -30.168192 -25.994362 -115.39198
150859000 -25.656126 -121.20084 -0.10427184 -30.376171 -0.10325988 -30.363272 -25.990541 -115.63781
151858000 -25.631969 -121.53868 -0.10560495 -30.57748 -0.10282144 -30.559513 -25.973261 -115.98132
152857000 -25.619595 -121.87042 -0.10525008 -30.772451 -0.10313555 -30.759499 -25.958685 -116.07854
153856000 -25.614294 -122.07166 -0.10483956 -30.971859 -0.10226644 -30.958527 -25.975388 -116.36003
154855000 -25.60795 -122.26197 -0.10560097 -31.169897 -0.1027785 -31.155468 -25.966618 -116.59645
155854000 -25.617043 -122.51633 -0.10587417 -31.371603 -0.10379777 -31.354994 -25.96027 -116.83059
156853000 -25.600571 -123.22514 -0.10386697 -31.5567 -0.10279281 -31.5476 -25.953663 -117.17905
157852000 -25.613497 -123.45164 -0.10515673 -31.754751 -0.104725 -31.746292 -25.94627 -117.51596
158851000 -25.602917 -123.68487 -0.10541743 -31.955904 -0.10466745 -31.946365 -25.93096 -117.74931
159850000 -25.586637 -123.76329 -0.10621317 -32.152523 -0.10446619 -32.14521 -25.924902 -117.96004
160849000 -25.567724 -123.89893 -0.1061938 -32.352169 -0.10554819 -32.3465 -25.894526 -118.25047
161848000 -25.548792 -124.00621 -0.10652222 -32.552025 -0.10557206 -32.544899 -25.850702 -118.31264
162847000 -25.509193 -124.19378 -0.10685755 -32.750828 -0.10617842 -32.746586 -25.823984 -118.60143
163846000 -25.464994 -124.42152 -0.10649409 -32.952934 -0.10619991 -32.944336 -25.747648 -118.56237
164845000 -25.399874 -124.42791 -0.10720459 -33.149334 -0.10645351 -33.141628 -25.677481 -118.68459
165844000 -25.344803 -124.47818 -0.10778411 -33.350964 -0.10686578 -33.342358 -25.595684 -118.80354
166843000 -25.286833 -124.58002 -0.10710907 -33.545025 -0.10666786 -33.545509 -25.524153 -118.96561
167842000 -25.225838 -124.7255 -0.10805691 -33.74963 -0.10656679 -33.738312 -25.446568 -118.90575
168841000 -25.149473 -124.90234 -0.10826816 -33.944378 -0.10685755 -33.94038 -25.371222 -118.97908
169840000 -25.083254 -125.15583 -0.10847358 -34.138977 -0.10764188 -34.13274 -25.277639 -119.18913
170839000 -25.021915 -125.4444 -0.10948994 -34.337589 -0.1077037 -34.334888 -25.194126 -119.35966
171838000 -24.964136 -125.84442 -0.10885419 -34.539783 -0.10928447 -34.532784 -25.131292 -119.59947
172837000 -24.898386 -126.21375 -0.11027607 -34.734032 -0.11005197 -34.728138 -25.064461 -119.84531
173836000 -24.82609 -126.6468 -0.11136216 -34.93148 -0.11125805 -34.927574 -25.016338 -120.07468
174835000 -24.778341 -127.0929 -0.11181793 -35.126122 -0.11127187 -35.125484 -24.973242 -120.42822
175834000 -24.723812 -127.48581 -0.11277582 -35.325184 -0.11272801 -35.323418 -24.913496 -120.71822
176833000 -24.672773 -127.86388 -0.11327266 -35.525425 -0.1126855 -35.520645 -24.858219 -120.8933
177832000 -24.630003 -128.33044 -0.11368292 -35.717304 -0.11332101 -35.720097 -24.835028 -121.05587
178831000 -24.591351 -128.7282 -0.1145179 -35.917461 -0.11403953 -35.908978 -24.798786 -121.29405
179830000 -24.554338 -129.1553 -0.11553967 -36.115185 -0.11379825 -36.113338 -24.773821 -121.41119
180829000 -24.517616 -129.36385 -0.11560879 -36.308395 -0.11548225 -36.308525 -24.745317 -121.59595
181828000 -24.489809 -129.77968 -0.11577521 -36.509216 -0.1149352 -36.507011 -24.72311 -121.75008
182827000 -24.465454 -130.0932 -0.11502264 -36.70042 -0.11543971 -36.700214 -24.7152 -121.83137
183826000 -24.428558 -130.41266 -0.11689592 -36.900475 -0.11599295 -36.895203 -24.701866 -121.96299
184825000 -24.434029 -130.76793 -0.11661672 -37.091606 -0.11618464 -37.099285 -24.687283 -122.08399
185824000 -24.402418 -131.1131 -0.11617082 -37.292416 -0.11615912 -37.293774 -24.682724 -122.10843
186823000 -24.387518 -131.48303 -0.11697703 -37.491249 -0.11635029 -37.486954 -24.682789 -122.11098
187822000 -24.365284 -131.77811 -0.11701905 -37.687576 -0.11708926 -37.689415 -24.645569 -122.1406
188821000 -24.344952 -132.04193 -0.11747807 -37.880257 -0.11723765 -37.883995 -24.632406 -122.25513
189820000 -24.333887 -132.28513 -0.11833081 -38.082802 -0.11753923 -38.081688 -24.618498 -122.40668
190819000 -24.301861 -132.52003 -0.11837364 -38.281574 -0.11833985 -38.281189 -24.587177 -122.37165
191818000 -24.265621 -132.69058 -0.12025342 -38.477333 -0.11975313 -38.474987 -24.552517 -122.26449
192817000 -24.196226 -132.95387 -0.12009375 -38.662655 -0.12032475 -38.663364 -24.482693 -122.34704
193816000 -24.160265 -133.32475 -0.119693 -38.856106 -0.11901025 -38.854534 -24.423292 -122.58582
194815000 -24.099859 -133.77483 -0.1197385 -39.0467 -0.12016427 -39.052273 -24.361822 -122.71214
195814000 -24.046152 -133.98459 -0.1210021 -39.249821 -0.11925875 -39.251244 -24.308004 -122.81432
196813000 -23.993673 -134.33073 -0.1195988 -39.44426 -0.11927684 -39.443523 -24.230833 -122.96877
197812000 -23.93786 -134.53893 -0.12035828 -39.640537 -0.12027604 -39.639278 -24.159998 -123.10326
198811000 -23.883945 -134.73618 -0.11950514 -39.837368 -0.11980156 -39.842289 -24.089502 -123.2766
199810000 -23.811211 -135.09999 -0.11962008 -40.031467 -0.11946522 -40.031582 -24.012953 -123.36661
200809000 -23.757915 -135.39427 -0.12098587 -40.233154 -0.11901876 -40.233723 -23.933506 -123.55172
201808000 -23.699789 -135.62218 -0.12112322 -40.429516 -0.12078677 -40.431759 -23.866167 -123.63383
202807000 -23.64039 -135.99437 -0.12121478 -40.629086 -0.12119136 -40.634136 -23.804342 -123.87439
203806000 -23.588749 -136.42207 -0.12325744 -40.830624 -0.12171125 -40.832153 -23.742186 -124.0117
