!Keysight Technologies,E5080B,MY59205177,A.15.75.32
!Date: Friday, February 23, 2024 02:55:31
!Correction: S11(Cdelta 2-Port  ) 
!S21(Cdelta 2-Port  ) 
!S12(Cdelta 2-Port  ) 
!S22(Cdelta 2-Port  ) 
!S2P File: Measurements: S11, S21, S12, S22:
# Hz S  dB   R 50
10000000 -43.825153 -3.703732 -0.029411864 -2.0421655 -0.032585274 -2.0955513 -48.503891 -149.09706
10999000 -43.20557 -5.4426513 -0.031050421 -2.2605488 -0.033175003 -2.3123085 -48.22316 -140.61258
11998000 -42.421227 -7.5066333 -0.030881219 -2.4840314 -0.032251712 -2.526088 -48.316319 -134.93719
12997000 -41.844162 -12.27953 -0.030373393 -2.6610587 -0.031705912 -2.6962204 -47.613449 -128.6806
13996000 -41.596752 -15.684279 -0.029680308 -2.8411853 -0.031639419 -2.8638229 -47.215683 -122.91486
14995000 -41.269455 -19.033329 -0.03147541 -3.0510805 -0.031645417 -3.0758336 -46.709278 -119.33157
15994000 -41.153568 -22.875841 -0.032668732 -3.2698932 -0.033824295 -3.2918515 -46.501598 -115.69705
16993000 -41.154732 -26.630466 -0.031842031 -3.463068 -0.033737421 -3.4764166 -45.498692 -116.38173
17992000 -41.256233 -31.213783 -0.03255241 -3.6642399 -0.034338526 -3.6659462 -44.882717 -117.51372
18991000 -41.51577 -35.377113 -0.033099879 -3.8739185 -0.035120819 -3.8705013 -44.198589 -117.66598
19990000 -41.395557 -40.088234 -0.035240863 -4.0826387 -0.037157055 -4.0791936 -43.478321 -119.26357
20989000 -41.324589 -43.225151 -0.037433293 -4.2875323 -0.038773466 -4.277668 -42.912754 -119.2817
21988000 -41.242176 -47.67432 -0.038139366 -4.4800735 -0.039525211 -4.4759173 -42.588966 -118.59532
22987000 -41.09111 -51.932758 -0.039830595 -4.6796765 -0.04089608 -4.6740637 -42.343048 -118.48175
23986000 -41.12289 -55.676323 -0.039275486 -4.8773155 -0.038838241 -4.8724217 -42.207172 -118.2935
24985000 -40.792294 -58.278759 -0.040185641 -5.0784235 -0.039248582 -5.0834866 -41.958515 -115.88194
25984000 -40.602444 -60.638973 -0.040956967 -5.2885284 -0.040328555 -5.289094 -41.593723 -114.86171
26983000 -40.276222 -62.787949 -0.042012013 -5.4898109 -0.041224819 -5.5052109 -41.439064 -114.02796
27982000 -40.183418 -63.728863 -0.043684356 -5.6854677 -0.043571923 -5.7194619 -41.132423 -112.31505
28981000 -40.191586 -64.979042 -0.04073564 -5.8876381 -0.042872027 -5.9074559 -40.884762 -111.87715
29980000 -39.746281 -66.725792 -0.041429967 -6.0766168 -0.043444328 -6.0868063 -40.555126 -111.12389
30979000 -39.402119 -65.927032 -0.038760409 -6.4298458 -0.037247393 -6.422833 -40.02755 -111.96323
31978000 -39.239849 -67.025772 -0.038032558 -6.6257448 -0.038713917 -6.6195655 -39.755299 -111.4127
32977000 -39.074013 -68.686455 -0.0380968 -6.8342357 -0.039248321 -6.8308434 -39.532597 -111.5373
33976000 -38.945454 -69.896835 -0.038563222 -7.0389261 -0.039670717 -7.0320487 -39.192516 -111.08721
34975000 -38.650074 -70.8909 -0.038504459 -7.2361245 -0.04056162 -7.2368946 -38.972404 -110.96484
35974000 -38.46933 -71.561615 -0.038259491 -7.4297919 -0.040360693 -7.4338498 -38.666061 -110.16805
36973000 -38.247528 -72.439934 -0.038292136 -7.6315327 -0.0406387 -7.6331906 -38.345264 -109.36337
37972000 -38.078026 -72.397469 -0.038771637 -7.8401785 -0.041327786 -7.8461585 -38.105553 -108.78906
38971000 -37.729446 -72.222458 -0.038825702 -8.0407391 -0.041048165 -8.0512047 -37.893723 -107.29804
39970000 -37.434242 -72.749374 -0.037566978 -8.2320976 -0.040015038 -8.2499008 -37.618519 -106.85812
40969000 -37.146271 -72.659668 -0.037213452 -8.4305 -0.038881075 -8.4470882 -37.332298 -105.49333
41968000 -36.810638 -72.875633 -0.038267065 -8.6365385 -0.040197399 -8.6498241 -37.136982 -104.57547
42967000 -36.556946 -73.0439 -0.037508752 -8.8429441 -0.040034894 -8.8655443 -36.892979 -102.7831
43966000 -36.284203 -73.967087 -0.038338359 -9.0430393 -0.041928634 -9.0590868 -36.609814 -102.12759
44965000 -36.062267 -74.873161 -0.039479498 -9.2492485 -0.041284144 -9.2621231 -36.389645 -102.15974
45964000 -35.849346 -76.028999 -0.041213062 -9.4453382 -0.043027055 -9.4632816 -36.145496 -101.81618
46963000 -35.678825 -78.09095 -0.041066457 -9.6371679 -0.042873334 -9.6647959 -35.979588 -102.29723
47962000 -35.543957 -79.613762 -0.042044684 -9.8456678 -0.044075806 -9.8611832 -35.766319 -102.4099
48961000 -35.34586 -80.967079 -0.044595174 -10.039 -0.045698456 -10.060191 -35.528706 -102.77638
49960000 -35.141121 -82.487816 -0.045815654 -10.237178 -0.046826873 -10.26122 -35.390896 -102.96849
50959000 -34.943829 -83.799477 -0.04613613 -10.451038 -0.047757979 -10.460157 -35.207882 -103.42681
51958000 -34.76088 -84.986259 -0.048068393 -10.648792 -0.049715318 -10.661004 -35.042572 -104.02314
52957000 -34.550213 -86.120811 -0.049541198 -10.851722 -0.050262336 -10.856792 -34.875973 -103.81314
53956000 -34.406921 -86.911354 -0.049932912 -11.053181 -0.051672228 -11.051635 -34.753712 -103.88354
54955000 -34.238201 -87.414375 -0.051783036 -11.249481 -0.05278543 -11.253619 -34.580849 -103.87794
55954000 -34.08849 -88.333748 -0.052291017 -11.451372 -0.051943101 -11.449272 -34.476189 -103.68651
56953000 -33.962856 -88.398537 -0.051356055 -11.654078 -0.051451664 -11.640221 -34.414883 -103.90089
57952000 -33.819176 -89.091995 -0.053389437 -11.850128 -0.053099871 -11.836431 -34.305836 -103.99957
58951000 -33.708393 -89.440956 -0.054331914 -12.053526 -0.053749789 -12.032212 -34.152737 -104.17102
59950000 -33.584732 -89.852478 -0.054609243 -12.252543 -0.054269794 -12.230292 -34.078701 -104.41307
60949000 -33.476143 -90.523552 -0.055527076 -12.453361 -0.054873485 -12.43401 -33.991852 -104.72083
61948000 -33.420593 -90.788528 -0.055659223 -12.651399 -0.05481188 -12.633647 -33.904354 -104.76643
62947000 -33.330257 -91.037979 -0.055924837 -12.863371 -0.055885505 -12.843499 -33.76469 -105.08195
63946000 -33.254002 -91.776367 -0.05744018 -13.063316 -0.057032835 -13.043488 -33.663403 -105.27164
64945000 -33.153675 -91.91832 -0.057614353 -13.264889 -0.057360437 -13.241662 -33.559948 -105.78291
65944000 -33.051193 -92.249542 -0.058317944 -13.460074 -0.057553496 -13.443715 -33.469875 -106.24578
66943000 -32.924095 -92.757347 -0.05697225 -13.664865 -0.056128584 -13.646134 -33.375751 -106.52694
67942000 -32.866417 -92.612808 -0.058332898 -13.859169 -0.058117244 -13.848566 -33.253185 -106.90435
68941000 -32.756599 -92.760933 -0.058281999 -14.052347 -0.057477687 -14.043631 -33.140186 -106.86284
69940000 -32.646973 -92.792175 -0.057338931 -14.253001 -0.058196999 -14.242428 -33.000771 -107.25689
70939000 -32.552532 -92.723648 -0.058352049 -14.448019 -0.057384044 -14.439703 -32.8563 -107.08447
71938000 -32.411041 -92.396118 -0.057987384 -14.642305 -0.058459882 -14.635132 -32.735531 -107.0434
72937000 -32.250721 -92.248009 -0.057165027 -14.840955 -0.057036247 -14.834526 -32.584042 -106.68597
73936000 -32.113705 -91.895523 -0.057159256 -15.038661 -0.056288283 -15.035099 -32.469933 -106.52192
74935000 -31.984116 -92.114716 -0.056995593 -15.235876 -0.055535205 -15.230988 -32.314255 -106.20987
75934000 -31.866524 -92.456245 -0.05712175 -15.447953 -0.0555491 -15.438876 -32.242851 -106.15921
76933000 -31.732628 -92.824379 -0.058037754 -15.637098 -0.057204634 -15.631124 -32.055199 -106.56335
77932000 -31.636755 -93.635109 -0.059804726 -15.831663 -0.058773946 -15.828354 -31.956707 -106.57158
78931000 -31.576019 -94.40538 -0.058131147 -16.033009 -0.057882972 -16.030087 -31.865023 -106.47577
79930000 -31.463142 -95.241325 -0.06017768 -16.225393 -0.060082931 -16.221657 -31.769783 -106.82372
80929000 -31.349409 -96.211235 -0.061223757 -16.420059 -0.061749384 -16.416348 -31.67127 -107.18996
81928000 -31.27136 -97.020752 -0.061471071 -16.611986 -0.061996464 -16.611084 -31.537954 -107.23929
82927000 -31.176807 -97.799286 -0.063204505 -16.808989 -0.063217379 -16.809608 -31.436974 -107.60842
83926000 -31.067766 -98.524025 -0.065097868 -17.007219 -0.064648561 -17.009613 -31.321812 -107.81437
84925000 -30.961584 -99.037064 -0.066473424 -17.208994 -0.065340415 -17.202955 -31.226982 -107.96895
85924000 -30.873566 -99.49688 -0.066729188 -17.408707 -0.066420592 -17.406929 -31.14608 -107.95594
86923000 -30.764343 -100.1049 -0.067882538 -17.606712 -0.066678979 -17.599758 -31.046656 -107.80079
87922000 -30.657598 -100.41762 -0.066641912 -17.811596 -0.066093877 -17.80588 -30.952515 -107.94155
88921000 -30.59193 -100.79408 -0.067200005 -18.009274 -0.06693764 -18.00626 -30.857264 -107.9775
89920000 -30.490818 -101.29724 -0.068899438 -18.206976 -0.067976668 -18.200722 -30.80802 -108.18108
90919000 -30.39431 -101.64825 -0.0698829 -18.407722 -0.068279065 -18.402012 -30.717606 -108.29186
91918000 -30.302027 -102.04415 -0.070087567 -18.604414 -0.0686922 -18.598499 -30.653702 -108.36201
92917000 -30.214041 -102.37292 -0.070738979 -18.801325 -0.069789253 -18.797009 -30.592251 -108.4813
93916000 -30.127579 -102.7574 -0.07063584 -18.991385 -0.070097037 -18.989668 -30.500172 -109.09518
94915000 -30.057325 -103.46998 -0.07239031 -19.197823 -0.071125768 -19.189327 -30.438044 -109.00333
95914000 -29.985733 -103.64324 -0.073433802 -19.39118 -0.071663387 -19.387964 -30.351257 -109.29752
96913000 -29.904261 -103.93815 -0.074513361 -19.589684 -0.073156588 -19.588274 -30.286667 -109.67065
97912000 -29.826609 -104.36053 -0.074889161 -19.785992 -0.073395893 -19.786018 -30.21171 -109.87419
98911000 -29.725563 -104.57764 -0.075453319 -19.988886 -0.074544966 -19.982977 -30.169264 -110.12993
99910000 -29.660069 -104.71514 -0.076740995 -20.186228 -0.074326135 -20.185547 -30.058891 -110.40839
100909000 -29.569038 -104.98085 -0.076101586 -20.393877 -0.074594207 -20.387712 -29.968182 -110.61388
101908000 -29.489275 -105.26809 -0.078077808 -20.59437 -0.075146742 -20.59403 -29.858677 -110.35466
102907000 -29.3517 -105.2454 -0.077995315 -20.794493 -0.075249456 -20.794411 -29.783554 -110.34258
103906000 -29.260956 -105.29098 -0.078071482 -20.998491 -0.075231545 -20.99605 -29.630684 -110.32696
104905000 -29.112141 -105.24085 -0.078087561 -21.195787 -0.076078936 -21.197742 -29.504503 -109.98578
105904000 -28.96771 -105.38129 -0.078533515 -21.396828 -0.075214162 -21.391481 -29.38722 -109.8959
106903000 -28.8589 -105.46049 -0.079069413 -21.60358 -0.076670907 -21.597391 -29.265032 -109.73273
107902000 -28.701914 -105.84057 -0.079868242 -21.80298 -0.076389007 -21.794888 -29.123016 -109.69585
108901000 -28.590014 -106.08776 -0.080753982 -22.002399 -0.078077279 -21.99733 -28.984867 -109.65015
109900000 -28.465473 -106.59505 -0.080919862 -22.207111 -0.079110272 -22.195341 -28.841951 -109.75637
110899000 -28.350866 -107.251 -0.083152898 -22.400564 -0.079176441 -22.392506 -28.708694 -110.06001
111898000 -28.265167 -107.9213 -0.08372578 -22.604303 -0.081003465 -22.597212 -28.593454 -110.21929
112897000 -28.14179 -108.48409 -0.085370712 -22.802208 -0.082219183 -22.793678 -28.463512 -110.44033
113896000 -28.04026 -109.09159 -0.086206347 -23.004885 -0.083360299 -22.989456 -28.356421 -110.56266
114895000 -27.938681 -109.75788 -0.087126918 -23.199406 -0.08481925 -23.187304 -28.242004 -110.66044
115894000 -27.8062 -110.11137 -0.08843708 -23.399782 -0.085930161 -23.385899 -28.168568 -110.88318
116893000 -27.728979 -110.72279 -0.089184262 -23.595894 -0.086491525 -23.579634 -28.035942 -110.97832
117892000 -27.653028 -111.21378 -0.089799955 -23.793697 -0.087261349 -23.778057 -27.969603 -111.18768
118891000 -27.592722 -111.64636 -0.089525394 -23.992928 -0.087730177 -23.978275 -27.882202 -111.33533
119890000 -27.499567 -112.02975 -0.090318486 -24.192736 -0.088562302 -24.181803 -27.866652 -111.53191
120889000 -27.45466 -112.50871 -0.091370523 -24.399675 -0.087608673 -24.376961 -27.788174 -111.48678
121888000 -27.413456 -112.87603 -0.091496624 -24.588123 -0.088833377 -24.578819 -27.736027 -111.77501
122887000 -27.367325 -113.10135 -0.093014911 -24.793919 -0.089431055 -24.778467 -27.678097 -111.82746
123886000 -27.310259 -113.50409 -0.092993751 -24.996643 -0.089469634 -24.978388 -27.671728 -112.03543
124885000 -27.280972 -114.05857 -0.093372747 -25.192919 -0.090511426 -25.177874 -27.63344 -112.048
125884000 -27.225731 -114.22403 -0.094263621 -25.390615 -0.090594947 -25.378035 -27.60644 -112.24576
126883000 -27.20435 -114.59548 -0.094179764 -25.596642 -0.091375016 -25.578827 -27.565027 -112.29729
127882000 -27.150341 -114.89871 -0.095218718 -25.796909 -0.091993675 -25.777016 -27.524385 -112.47384
128881000 -27.125496 -115.25805 -0.095305502 -25.994579 -0.092282146 -25.977905 -27.489504 -112.5994
129880000 -27.06595 -115.56343 -0.095816746 -26.19619 -0.092000812 -26.17749 -27.433775 -112.56259
130879000 -27.005617 -115.71378 -0.095866233 -26.395679 -0.092587821 -26.379366 -27.369022 -112.63429
131878000 -26.940096 -115.8616 -0.096329108 -26.597469 -0.093127571 -26.578011 -27.3009 -112.51694
132877000 -26.870678 -116.01022 -0.09562251 -26.799328 -0.093724526 -26.7801 -27.217308 -112.53818
133876000 -26.783266 -116.14632 -0.096051484 -26.999018 -0.093013592 -26.982162 -27.124123 -112.41315
134875000 -26.691675 -116.25755 -0.095982678 -27.200657 -0.094137967 -27.186686 -27.01738 -112.27979
135874000 -26.609503 -116.26987 -0.096638784 -27.397329 -0.093744628 -27.384722 -26.916754 -112.26542
136873000 -26.495878 -116.21214 -0.096650161 -27.599581 -0.093028925 -27.582325 -26.830036 -112.26804
137872000 -26.417795 -116.32237 -0.097150713 -27.803467 -0.095028736 -27.785063 -26.727694 -112.2029
138871000 -26.344566 -116.53004 -0.097405635 -27.9998 -0.094561771 -27.989468 -26.632933 -112.36444
139870000 -26.246822 -116.8104 -0.098096907 -28.2041 -0.095924191 -28.183064 -26.552322 -112.54352
140869000 -26.154951 -117.24925 -0.10034197 -28.396143 -0.096599609 -28.378035 -26.441626 -112.66695
141868000 -26.057426 -117.75925 -0.1002972 -28.588312 -0.097603664 -28.573063 -26.368988 -113.04922
142867000 -25.98395 -118.02853 -0.098178454 -28.788733 -0.096478648 -28.772303 -26.29768 -113.2417
143866000 -25.91976 -118.4883 -0.10070067 -28.984715 -0.097031057 -28.967861 -26.21818 -113.71426
144865000 -25.857761 -119.02693 -0.10149103 -29.183275 -0.099076681 -29.168528 -26.160984 -114.08912
145864000 -25.806553 -119.3695 -0.10173748 -29.382174 -0.099700935 -29.371794 -26.131096 -114.30581
146863000 -25.758896 -119.78992 -0.10292349 -29.583656 -0.099821188 -29.571264 -26.085075 -114.63046
147862000 -25.721008 -120.11388 -0.1037869 -29.779556 -0.10106073 -29.76993 -26.043745 -114.99166
148861000 -25.685131 -120.63102 -0.10418832 -29.977819 -0.10178597 -29.963217 -26.026205 -115.20887
149860000 -25.675135 -120.86324 -0.1051212 -30.176764 -0.10199718 -30.164335 -25.995173 -115.38236
150859000 -25.655893 -121.24348 -0.10561397 -30.376535 -0.10200089 -30.362541 -25.982546 -115.684
151858000 -25.641386 -121.53854 -0.10509308 -30.572884 -0.10169773 -30.563208 -25.968174 -115.96185
152857000 -25.62141 -121.88879 -0.10556994 -30.772932 -0.1028673 -30.759874 -25.95513 -116.10709
153856000 -25.612423 -122.10131 -0.10499522 -30.971323 -0.10178783 -30.955227 -25.976736 -116.38999
154855000 -25.608892 -122.24431 -0.10549673 -31.1677 -0.10237669 -31.157217 -25.965187 -116.5997
155854000 -25.619242 -122.52184 -0.10576037 -31.37471 -0.10302766 -31.353546 -25.956724 -116.88295
156853000 -25.6012 -123.26042 -0.10405839 -31.55504 -0.10217553 -31.548904 -25.951414 -117.15481
157852000 -25.611998 -123.43166 -0.10476637 -31.755545 -0.10323071 -31.749643 -25.942913 -117.50981
158851000 -25.601093 -123.71183 -0.10568187 -31.957039 -0.10387652 -31.945858 -25.930861 -117.79263
159850000 -25.590527 -123.78404 -0.10608716 -32.154568 -0.10401385 -32.14629 -25.922104 -117.91805
160849000 -25.571432 -123.91906 -0.10603359 -32.352245 -0.10455688 -32.347221 -25.897938 -118.19492
161848000 -25.550432 -124.02852 -0.10655352 -32.551083 -0.10473084 -32.544247 -25.853971 -118.28941
162847000 -25.506769 -124.21576 -0.10712127 -32.749657 -0.10545536 -32.748135 -25.825724 -118.60822
163846000 -25.465025 -124.4349 -0.10678486 -32.951229 -0.10474436 -32.94072 -25.74658 -118.54053
164845000 -25.402248 -124.44958 -0.10725208 -33.149452 -0.10597708 -33.141808 -25.680206 -118.66763
165844000 -25.347162 -124.49721 -0.10695041 -33.353291 -0.10625428 -33.342995 -25.599358 -118.84696
166843000 -25.286535 -124.59525 -0.10696049 -33.543648 -0.10597762 -33.544384 -25.523306 -118.9924
167842000 -25.228588 -124.75929 -0.10740094 -33.744492 -0.10645138 -33.737549 -25.447535 -118.91939
168841000 -25.146358 -124.92935 -0.10778941 -33.945076 -0.10616966 -33.940083 -25.367943 -118.99731
169840000 -25.081812 -125.18585 -0.10839237 -34.14024 -0.10691592 -34.138073 -25.280182 -119.18259
170839000 -25.025393 -125.46925 -0.10880481 -34.33646 -0.10721998 -34.332767 -25.194857 -119.36195
171838000 -24.967129 -125.88607 -0.10919926 -34.536232 -0.10804417 -34.53043 -25.129385 -119.63039
172837000 -24.898832 -126.23164 -0.11093406 -34.732445 -0.1089025 -34.72646 -25.059563 -119.84659
173836000 -24.831652 -126.66279 -0.11187955 -34.932102 -0.10997339 -34.929585 -25.020464 -120.1164
174835000 -24.775658 -127.09932 -0.11203148 -35.126717 -0.11097921 -35.127434 -24.974234 -120.42517
175834000 -24.72341 -127.50783 -0.11245385 -35.325928 -0.11212499 -35.320457 -24.913277 -120.72176
176833000 -24.676285 -127.87349 -0.11355112 -35.521702 -0.11236512 -35.522682 -24.855392 -120.8846
177832000 -24.627424 -128.35156 -0.1135575 -35.71595 -0.11247138 -35.718777 -24.837147 -121.05023
178831000 -24.58848 -128.75082 -0.11400764 -35.918365 -0.11316054 -35.911354 -24.796465 -121.29314
179830000 -24.552895 -129.18742 -0.11517177 -36.113907 -0.1128449 -36.112656 -24.769499 -121.42596
180829000 -24.509899 -129.39497 -0.11525682 -36.311916 -0.11396831 -36.311253 -24.737968 -121.63977
181828000 -24.488045 -129.74152 -0.11474329 -36.508556 -0.11400764 -36.506329 -24.722563 -121.72141
182827000 -24.463678 -130.1028 -0.11615752 -36.702457 -0.11429891 -36.698917 -24.71208 -121.8356
183826000 -24.426847 -130.42729 -0.11705787 -36.898781 -0.11477572 -36.89624 -24.699667 -121.96294
184825000 -24.429428 -130.74564 -0.11613413 -37.094414 -0.11428031 -37.096863 -24.679474 -122.0509
185824000 -24.401423 -131.08389 -0.11624314 -37.284939 -0.11535465 -37.293495 -24.682829 -122.0963
186823000 -24.393801 -131.44489 -0.11604293 -37.487206 -0.11548118 -37.487801 -24.678934 -122.0873
187822000 -24.367649 -131.78647 -0.11715414 -37.687927 -0.11565292 -37.684578 -24.641825 -122.15456
188821000 -24.344496 -132.02646 -0.11682333 -37.883511 -0.11593658 -37.885201 -24.629044 -122.24242
189820000 -24.332689 -132.28635 -0.11736796 -38.080883 -0.11620644 -38.082714 -24.619507 -122.40878
190819000 -24.300968 -132.51984 -0.11836805 -38.28138 -0.11711346 -38.281857 -24.584684 -122.34065
191818000 -24.264948 -132.68222 -0.11966692 -38.476479 -0.11884104 -38.476078 -24.550728 -122.25713
192817000 -24.193193 -132.97781 -0.1203825 -38.658665 -0.11931888 -38.663128 -24.479836 -122.31947
193816000 -24.157867 -133.3195 -0.11897939 -38.856224 -0.11770228 -38.854836 -24.42347 -122.57941
194815000 -24.098598 -133.78647 -0.11977814 -39.049114 -0.11876496 -39.052261 -24.359337 -122.70401
195814000 -24.050978 -133.99391 -0.1196749 -39.248203 -0.118043 -39.249744 -24.308422 -122.82503
196813000 -23.997711 -134.35164 -0.11954239 -39.44051 -0.11784271 -39.447567 -24.223978 -123.00141
197812000 -23.939613 -134.59595 -0.11908741 -39.641014 -0.11842418 -39.64045 -24.156845 -123.12874
198811000 -23.887592 -134.76224 -0.11940403 -39.839489 -0.11846647 -39.838692 -24.088707 -123.27433
199810000 -23.811398 -135.0891 -0.11999795 -40.030937 -0.11816855 -40.029808 -24.007996 -123.37794
200809000 -23.757504 -135.40773 -0.11980689 -40.232418 -0.11818158 -40.225838 -23.928045 -123.56232
201808000 -23.703568 -135.64172 -0.12123075 -40.432415 -0.11937635 -40.433876 -23.861698 -123.64896
202807000 -23.642599 -136.0157 -0.12136278 -40.631191 -0.11979304 -40.634251 -23.807671 -123.87827
203806000 -23.589176 -136.45535 -0.12304866 -40.831829 -0.12067233 -40.832153 -23.74341 -124.0045
