!Keysight Technologies,E5080B,MY59205177,A.15.75.32
!Date: Friday, February 23, 2024 03:33:45
!Correction: S11(Cdelta 2-Port  ) 
!S21(Cdelta 2-Port  ) 
!S12(Cdelta 2-Port  ) 
!S22(Cdelta 2-Port  ) 
!S2P File: Measurements: S11, S21, S12, S22:
# Hz S  dB   R 50
10000000 -46.004272 -2.3923218 -0.014454938 -2.044704 -0.018753918 -2.0977023 -45.891926 -157.58858
10999000 -45.277546 -4.412322 -0.016166069 -2.2650127 -0.018874811 -2.3210855 -45.922943 -151.83388
11998000 -44.323017 -7.4223409 -0.015854551 -2.4896481 -0.018117273 -2.5322921 -46.084274 -147.14851
12997000 -43.606354 -13.193402 -0.015491096 -2.669641 -0.017366627 -2.7009542 -45.700542 -141.58379
13996000 -43.292255 -16.897778 -0.01446299 -2.8496084 -0.017618734 -2.8727221 -45.469131 -136.31604
14995000 -42.909222 -21.460217 -0.016707318 -3.0569808 -0.017766887 -3.0832007 -45.141579 -132.9314
15994000 -42.729813 -25.704117 -0.018400619 -3.2800317 -0.020726314 -3.3020494 -45.015297 -129.50462
16993000 -42.678616 -30.206129 -0.017365068 -3.4780529 -0.019047186 -3.4863412 -44.223545 -129.18187
17992000 -42.717079 -35.680252 -0.017197177 -3.6733809 -0.019793183 -3.6818516 -43.631893 -129.39185
18991000 -42.986935 -40.71072 -0.018278701 -3.886055 -0.020677935 -3.8849804 -43.051224 -128.11568
19990000 -42.77549 -46.621117 -0.020997604 -4.0963268 -0.023298403 -4.0939841 -42.336025 -129.03426
20989000 -42.570274 -49.845661 -0.023221631 -4.3004861 -0.024743043 -4.2890778 -41.838272 -128.09506
21988000 -42.403358 -55.056339 -0.024063352 -4.4960413 -0.025799105 -4.4829664 -41.553879 -127.5986
22987000 -42.065437 -60.03952 -0.024998182 -4.6974525 -0.026644453 -4.6881623 -41.299526 -127.26891
23986000 -41.97506 -64.021126 -0.024642294 -4.8895345 -0.025145546 -4.8940001 -41.175922 -126.96214
24985000 -41.64809 -66.864311 -0.02569104 -5.0980096 -0.026264468 -5.097785 -40.967979 -124.46759
25984000 -41.251297 -68.994736 -0.02706771 -5.3043919 -0.027005976 -5.3063226 -40.64119 -122.92216
26983000 -40.958321 -70.983749 -0.027793983 -5.503108 -0.027388109 -5.5216217 -40.503765 -122.43697
27982000 -40.757813 -71.791763 -0.02830724 -5.7028351 -0.028998541 -5.7377253 -40.270309 -120.66532
28981000 -40.784664 -73.44426 -0.027064063 -5.9042954 -0.028473997 -5.9288688 -40.001781 -119.92968
29980000 -40.33366 -74.861908 -0.026439222 -6.0999079 -0.0294606 -6.1047106 -39.756542 -119.11929
30979000 -39.953972 -73.517937 -0.023879325 -6.4535189 -0.02392878 -6.441092 -39.271729 -119.47822
31978000 -39.745129 -74.538734 -0.02374476 -6.6471004 -0.024640992 -6.634553 -39.000172 -118.66623
32977000 -39.547501 -76.134476 -0.023282269 -6.8578005 -0.02541451 -6.8519077 -38.755699 -118.86058
33976000 -39.375473 -77.203568 -0.024066215 -7.0586081 -0.025701977 -7.0550303 -38.465919 -118.12186
34975000 -39.125362 -78.046181 -0.024465792 -7.2578702 -0.027271667 -7.2595367 -38.242805 -117.92248
35974000 -38.879047 -78.707924 -0.024056064 -7.4554939 -0.026287127 -7.4576068 -37.994183 -116.91682
36973000 -38.652031 -79.328003 -0.024020143 -7.6528239 -0.026899705 -7.6566796 -37.735714 -115.92136
37972000 -38.511513 -79.088158 -0.023728622 -7.8612514 -0.02709558 -7.8722482 -37.507988 -115.28274
38971000 -38.165134 -78.534187 -0.024654789 -8.0651388 -0.027271409 -8.0781403 -37.337772 -113.70448
39970000 -37.830196 -79.006203 -0.023326771 -8.2607918 -0.026547827 -8.2743816 -37.071941 -113.09676
40969000 -37.559677 -78.492935 -0.024140922 -8.4584436 -0.026255615 -8.4742241 -36.835957 -111.68446
41968000 -37.217579 -78.466278 -0.02431611 -8.6580296 -0.026675446 -8.6789885 -36.637993 -110.44955
42967000 -36.939945 -78.610001 -0.023373097 -8.874094 -0.027258644 -8.8904886 -36.433956 -108.50703
43966000 -36.628304 -79.202629 -0.02383846 -9.0760965 -0.028799191 -9.0887394 -36.165886 -107.89297
44965000 -36.398075 -79.950073 -0.02444783 -9.2773781 -0.02810193 -9.29216 -35.960251 -107.60708
45964000 -36.178825 -80.982697 -0.02635536 -9.4793978 -0.029680308 -9.4979973 -35.744873 -107.28046
46963000 -35.978344 -82.942566 -0.026423855 -9.6713238 -0.030066587 -9.694809 -35.567146 -107.46889
47962000 -35.82299 -84.440376 -0.027756207 -9.8728228 -0.031685576 -9.8888807 -35.351006 -107.52991
48961000 -35.599602 -85.689186 -0.029756935 -10.069096 -0.033664897 -10.089406 -35.12579 -107.71227
49960000 -35.376617 -87.075684 -0.031654544 -10.269638 -0.034273297 -10.292989 -34.979851 -107.7441
50959000 -35.148399 -88.356857 -0.032093413 -10.482908 -0.035181101 -10.493093 -34.805977 -108.05027
51958000 -34.945332 -89.391861 -0.033713941 -10.679585 -0.036660764 -10.691892 -34.644585 -108.47253
52957000 -34.725666 -90.419968 -0.034940757 -10.886654 -0.03724974 -10.887521 -34.471462 -108.24385
53956000 -34.552776 -91.110229 -0.036994666 -11.084453 -0.038536061 -11.085382 -34.335831 -108.09958
54955000 -34.389511 -91.561729 -0.037877969 -11.28135 -0.039972194 -11.282497 -34.191101 -108.15783
55954000 -34.231281 -92.407471 -0.039171003 -11.485398 -0.040075127 -11.477886 -34.084194 -107.85292
56953000 -34.103691 -92.499084 -0.038339145 -11.685274 -0.03882492 -11.676407 -34.010342 -108.06369
57952000 -33.932545 -92.901924 -0.038801674 -11.884598 -0.039976113 -11.87378 -33.917141 -108.10498
58951000 -33.822163 -93.338387 -0.040090282 -12.090864 -0.041631989 -12.069644 -33.748589 -108.19673
59950000 -33.688438 -93.690811 -0.040384993 -12.289157 -0.041679557 -12.266274 -33.67593 -108.44243
60949000 -33.574497 -94.277023 -0.041163146 -12.491365 -0.041623365 -12.469697 -33.591717 -108.70396
61948000 -33.510273 -94.581566 -0.041788019 -12.690659 -0.041591741 -12.673905 -33.500858 -108.81459
62947000 -33.413319 -94.865013 -0.042174593 -12.903816 -0.042660013 -12.880178 -33.365974 -109.03753
63946000 -33.344528 -95.523743 -0.043084834 -13.102201 -0.043697692 -13.079071 -33.258572 -109.19183
64945000 -33.23502 -95.706284 -0.043643042 -13.304688 -0.044459183 -13.285055 -33.136372 -109.69583
65944000 -33.141201 -96.033859 -0.044612959 -13.50262 -0.044587068 -13.484243 -33.046066 -110.08526
66943000 -32.996548 -96.453545 -0.0427421 -13.702559 -0.043080911 -13.687778 -32.940666 -110.34306
67942000 -32.935108 -96.268105 -0.044176746 -13.898191 -0.044804145 -13.888555 -32.810566 -110.60955
68941000 -32.82576 -96.452415 -0.043956302 -14.093642 -0.043986633 -14.080351 -32.711987 -110.64548
69940000 -32.716717 -96.423714 -0.044200283 -14.292391 -0.044558823 -14.281404 -32.558784 -110.94453
70939000 -32.623009 -96.402321 -0.044019323 -14.493438 -0.044546008 -14.486026 -32.434158 -110.83897
71938000 -32.483646 -95.957253 -0.044429105 -14.687035 -0.04486404 -14.680667 -32.310364 -110.65356
72937000 -32.313896 -95.725113 -0.043703444 -14.882654 -0.044270366 -14.877228 -32.157822 -110.36108
73936000 -32.188694 -95.396332 -0.043209802 -15.08385 -0.043751296 -15.077497 -32.042721 -110.19016
74935000 -32.048794 -95.64537 -0.042503428 -15.279331 -0.042206481 -15.276739 -31.897486 -109.84993
75934000 -31.928328 -95.833321 -0.042591523 -15.490535 -0.043424718 -15.485808 -31.81624 -109.79751
76933000 -31.805773 -96.208252 -0.044397201 -15.683223 -0.044506256 -15.677217 -31.636936 -110.10503
77932000 -31.703154 -96.976517 -0.045299537 -15.879862 -0.045675173 -15.873737 -31.543463 -110.06536
78931000 -31.619028 -97.770317 -0.043428119 -16.079491 -0.045429543 -16.077118 -31.439322 -109.8817
79930000 -31.514442 -98.570503 -0.046342559 -16.274099 -0.047331657 -16.273495 -31.335808 -110.21383
80929000 -31.402164 -99.388321 -0.048244551 -16.468834 -0.048524894 -16.468533 -31.242882 -110.48561
81928000 -31.294127 -100.13184 -0.048315223 -16.663668 -0.049429659 -16.658907 -31.114134 -110.46818
82927000 -31.20476 -100.84005 -0.049237747 -16.86067 -0.050785065 -16.858009 -31.005768 -110.7497
83926000 -31.079664 -101.50893 -0.05137701 -17.059931 -0.051953316 -17.060358 -30.889347 -110.92171
84925000 -30.981293 -101.90958 -0.05243171 -17.260311 -0.051823117 -17.25211 -30.789608 -110.94322
85924000 -30.879858 -102.33678 -0.052749008 -17.455994 -0.053373978 -17.453194 -30.706596 -110.92715
86923000 -30.766453 -102.81589 -0.0528077 -17.656404 -0.053846236 -17.652863 -30.606228 -110.86129
87922000 -30.663748 -103.14626 -0.052607778 -17.863266 -0.052518696 -17.852854 -30.522125 -110.81043
88921000 -30.596472 -103.50208 -0.054710694 -18.062347 -0.054319333 -18.059509 -30.428324 -110.81351
89920000 -30.484428 -103.99651 -0.055492468 -18.264097 -0.054931946 -18.255119 -30.363022 -110.96007
90919000 -30.388948 -104.22178 -0.055665776 -18.45912 -0.05627491 -18.451857 -30.287994 -111.11956
91918000 -30.292141 -104.56977 -0.056812789 -18.657343 -0.055943716 -18.653538 -30.217609 -111.13781
92917000 -30.198816 -104.88768 -0.05750287 -18.856064 -0.056930546 -18.853645 -30.146046 -111.29022
93916000 -30.10681 -105.24206 -0.057515986 -19.052383 -0.05733788 -19.044712 -30.05831 -111.83216
94915000 -30.036158 -105.86516 -0.058365956 -19.253542 -0.058214836 -19.247473 -30.006058 -111.73099
95914000 -29.963884 -106.05657 -0.059525225 -19.448868 -0.058890972 -19.444452 -29.9086 -111.99418
96913000 -29.877098 -106.28695 -0.060612619 -19.647303 -0.060266659 -19.644424 -29.838139 -112.3496
97912000 -29.805288 -106.74469 -0.062164519 -19.841621 -0.059775069 -19.843548 -29.767256 -112.53092
98911000 -29.693619 -106.86127 -0.06205922 -20.046461 -0.06132431 -20.04491 -29.725466 -112.73846
99910000 -29.620777 -107.01297 -0.062739111 -20.246483 -0.061318271 -20.244202 -29.615843 -113.0615
100909000 -29.540806 -107.26615 -0.062340461 -20.457106 -0.061119005 -20.446388 -29.521505 -113.22475
101908000 -29.452061 -107.50809 -0.063721702 -20.655163 -0.062386416 -20.64933 -29.424191 -113.02748
102907000 -29.313639 -107.54137 -0.063479513 -20.851597 -0.062053181 -20.853481 -29.344448 -113.05271
103906000 -29.221136 -107.59145 -0.063958131 -21.064291 -0.061990164 -21.055906 -29.205555 -112.98328
104905000 -29.083361 -107.43661 -0.064928122 -21.258894 -0.062382214 -21.257629 -29.076885 -112.66926
105904000 -28.936897 -107.55125 -0.065063708 -21.462042 -0.062084168 -21.457314 -28.972984 -112.529
106903000 -28.826866 -107.63933 -0.064955451 -21.665764 -0.062746987 -21.659697 -28.843348 -112.4173
107902000 -28.66193 -107.9287 -0.066249475 -21.864878 -0.062849149 -21.863983 -28.707308 -112.36751
108901000 -28.555746 -108.19613 -0.06706199 -22.067646 -0.064338796 -22.062166 -28.576746 -112.29436
109900000 -28.422321 -108.61115 -0.067568079 -22.270655 -0.065865487 -22.26366 -28.434799 -112.39537
110899000 -28.30669 -109.2487 -0.068752952 -22.468115 -0.067025185 -22.460749 -28.305752 -112.70666
111898000 -28.220705 -109.87228 -0.07071688 -22.667498 -0.067561239 -22.66217 -28.181231 -112.81217
112897000 -28.09074 -110.43317 -0.071624704 -22.864532 -0.068717182 -22.857849 -28.051224 -112.97083
113896000 -27.989088 -110.98908 -0.072586939 -23.068436 -0.070393793 -23.057081 -27.95051 -113.09798
114895000 -27.886652 -111.63204 -0.073928259 -23.266747 -0.071469173 -23.253431 -27.837603 -113.18707
115894000 -27.763729 -111.99574 -0.074849658 -23.469772 -0.072382681 -23.46068 -27.768196 -113.37788
116893000 -27.681131 -112.46381 -0.075735696 -23.666916 -0.073974341 -23.652369 -27.638041 -113.4034
117892000 -27.604223 -112.94391 -0.075418025 -23.859953 -0.073678397 -23.849518 -27.570789 -113.62251
118891000 -27.550892 -113.40567 -0.076273613 -24.062269 -0.074474916 -24.043661 -27.476048 -113.74559
119890000 -27.458872 -113.73092 -0.076688297 -24.264797 -0.075327419 -24.248175 -27.464916 -113.8818
120889000 -27.402849 -114.21799 -0.079018801 -24.465717 -0.0753664 -24.44952 -27.384556 -113.81622
121888000 -27.364347 -114.56354 -0.078385383 -24.661945 -0.075398803 -24.649769 -27.327145 -114.06338
122887000 -27.326551 -114.74835 -0.078927331 -24.864906 -0.076195106 -24.852659 -27.280159 -114.09499
123886000 -27.269468 -115.1808 -0.080175161 -25.068295 -0.076981291 -25.051764 -27.266638 -114.23843
124885000 -27.238659 -115.64009 -0.079469077 -25.265011 -0.077043213 -25.253368 -27.23122 -114.28276
125884000 -27.182905 -115.86882 -0.080920391 -25.465893 -0.077364422 -25.450621 -27.200663 -114.45775
126883000 -27.162497 -116.2289 -0.081593744 -25.667692 -0.078214854 -25.654293 -27.159853 -114.4453
127882000 -27.114128 -116.54269 -0.081456058 -25.866524 -0.078680336 -25.848003 -27.122379 -114.61182
128881000 -27.089293 -116.84977 -0.08149536 -26.070227 -0.078950264 -26.051666 -27.081646 -114.66258
129880000 -27.0275 -117.18146 -0.082366653 -26.272224 -0.078764156 -26.252081 -27.044788 -114.65742
130879000 -26.969406 -117.39563 -0.082097307 -26.471571 -0.079309046 -26.452206 -26.968775 -114.66758
131878000 -26.902464 -117.59922 -0.082771368 -26.672989 -0.080149055 -26.658676 -26.910191 -114.51701
132877000 -26.838743 -117.64697 -0.082556605 -26.876223 -0.080135345 -26.856653 -26.830694 -114.51198
133876000 -26.75737 -117.81971 -0.082786404 -27.07723 -0.080029875 -27.058901 -26.740517 -114.38824
134875000 -26.657618 -117.92287 -0.082756065 -27.275808 -0.080898501 -27.261328 -26.643051 -114.23416
135874000 -26.575676 -117.95279 -0.082551591 -27.476488 -0.081256397 -27.459641 -26.549578 -114.19427
136873000 -26.468479 -117.87295 -0.083375342 -27.680618 -0.080271669 -27.65831 -26.464031 -114.16647
137872000 -26.386189 -118.03585 -0.083208837 -27.879292 -0.080090515 -27.867607 -26.366407 -114.10196
138871000 -26.316957 -118.20899 -0.08377856 -28.082047 -0.081268787 -28.06669 -26.272358 -114.20435
139870000 -26.217159 -118.53094 -0.083614156 -28.285727 -0.081895508 -28.266325 -26.188511 -114.4067
140869000 -26.137159 -119.07166 -0.085243464 -28.479939 -0.082378529 -28.459555 -26.091328 -114.59562
141868000 -26.05196 -119.45152 -0.086048186 -28.674875 -0.083876997 -28.660734 -26.03952 -114.86852
142867000 -25.975895 -119.67181 -0.084515966 -28.875116 -0.083299607 -28.858601 -25.961905 -114.94347
143866000 -25.903198 -120.1192 -0.086896099 -29.072605 -0.084683843 -29.057156 -25.887772 -115.43481
144865000 -25.848667 -120.6935 -0.088087842 -29.270565 -0.086262852 -29.255487 -25.829554 -115.73863
145864000 -25.789543 -120.95415 -0.088709727 -29.472561 -0.087150164 -29.459419 -25.803005 -115.95989
146863000 -25.743252 -121.33193 -0.089639813 -29.67515 -0.08781787 -29.659168 -25.746023 -116.27023
147862000 -25.703526 -121.65534 -0.090703584 -29.86488 -0.088693082 -29.857845 -25.714647 -116.55289
148861000 -25.674547 -122.09888 -0.091562189 -30.067904 -0.089410707 -30.050192 -25.69227 -116.75835
149860000 -25.639315 -122.23692 -0.093072832 -30.262766 -0.090427376 -30.251137 -25.640591 -116.84286
150859000 -25.614906 -122.74372 -0.092051573 -30.46122 -0.090450637 -30.442646 -25.627266 -117.20423
151858000 -25.602226 -123.09955 -0.091269538 -30.659773 -0.089628719 -30.64378 -25.612713 -117.53316
152857000 -25.591558 -123.40306 -0.091499269 -30.860601 -0.089640871 -30.846313 -25.596098 -117.72349
153856000 -25.586309 -123.60233 -0.091670588 -31.059788 -0.089479677 -31.041206 -25.614902 -118.0405
154855000 -25.585917 -123.78918 -0.091721609 -31.258327 -0.089668617 -31.243567 -25.604362 -118.24235
155854000 -25.605694 -124.05904 -0.092222914 -31.455032 -0.089473866 -31.446175 -25.595541 -118.51884
156853000 -25.586 -124.73117 -0.090040453 -31.645393 -0.089631356 -31.63858 -25.588413 -118.87035
157852000 -25.595238 -124.95521 -0.09122248 -31.845491 -0.09065257 -31.834894 -25.577114 -119.19955
158851000 -25.59548 -125.18326 -0.091758624 -32.043499 -0.091167234 -32.038105 -25.567177 -119.44827
159850000 -25.584484 -125.30792 -0.092379451 -32.24577 -0.091188118 -32.23753 -25.564203 -119.66096
160849000 -25.568153 -125.38129 -0.092960164 -32.44379 -0.092151523 -32.439003 -25.534245 -119.92023
161848000 -25.553617 -125.4578 -0.093385972 -32.645756 -0.091266893 -32.638229 -25.494528 -120.05607
162847000 -25.5152 -125.63615 -0.093549423 -32.843861 -0.092585176 -32.8386 -25.465578 -120.30541
163846000 -25.473124 -125.82793 -0.093610525 -33.047993 -0.092387915 -33.038147 -25.392065 -120.28915
164845000 -25.41732 -125.78859 -0.09447182 -33.245197 -0.09205845 -33.238167 -25.32967 -120.40388
165844000 -25.363991 -125.86348 -0.09355101 -33.448032 -0.093699135 -33.4347 -25.251286 -120.5082
166843000 -25.299086 -125.90133 -0.093201891 -33.639626 -0.092602104 -33.636829 -25.181009 -120.69285
167842000 -25.243908 -126.01032 -0.093854398 -33.844173 -0.093427226 -33.838757 -25.112734 -120.63792
168841000 -25.164759 -126.19265 -0.094352506 -34.041111 -0.093237065 -34.036022 -25.03244 -120.70485
169840000 -25.100185 -126.40044 -0.093494937 -34.240112 -0.093782187 -34.233543 -24.951397 -120.86525
170839000 -25.042391 -126.65334 -0.095367156 -34.437874 -0.094578966 -34.434158 -24.866203 -121.03736
171838000 -24.982672 -127.04523 -0.09555953 -34.639397 -0.095531479 -34.634041 -24.80501 -121.28327
172837000 -24.908703 -127.36825 -0.096937887 -34.83334 -0.096812949 -34.827873 -24.738644 -121.47932
173836000 -24.844208 -127.7722 -0.098353215 -35.035751 -0.097454086 -35.031872 -24.699451 -121.66669
174835000 -24.788807 -128.16658 -0.098774776 -35.230328 -0.098305024 -35.230225 -24.657473 -121.99745
175834000 -24.740326 -128.5377 -0.099801324 -35.428093 -0.098519504 -35.426418 -24.590668 -122.26869
176833000 -24.690182 -128.87999 -0.10091289 -35.629745 -0.099620149 -35.62952 -24.541504 -122.40186
177832000 -24.645306 -129.29387 -0.1015549 -35.82827 -0.10091978 -35.829231 -24.521675 -122.5303
178831000 -24.595192 -129.51584 -0.1030547 -36.028027 -0.10265764 -36.020859 -24.48126 -122.58056
179830000 -24.524708 -129.92372 -0.10417771 -36.206158 -0.10358012 -36.210667 -24.423189 -122.68267
180829000 -24.479481 -130.29008 -0.10290255 -36.401516 -0.10335372 -36.404346 -24.378574 -122.97906
181828000 -24.452715 -130.72786 -0.1026025 -36.602566 -0.10209364 -36.598953 -24.359943 -123.22395
182827000 -24.431089 -131.05507 -0.10189276 -36.798325 -0.10211935 -36.799732 -24.347368 -123.31061
183826000 -24.387024 -131.40141 -0.10285855 -37.001369 -0.10187713 -36.996059 -24.334417 -123.47242
184825000 -24.393517 -131.75026 -0.1027512 -37.192596 -0.10276101 -37.19783 -24.319918 -123.60584
185824000 -24.367228 -132.11801 -0.10283735 -37.390717 -0.10310931 -37.390499 -24.314434 -123.64597
186823000 -24.345366 -132.46629 -0.10307909 -37.591873 -0.10301229 -37.588688 -24.305923 -123.66394
187822000 -24.325026 -132.80115 -0.10367529 -37.785492 -0.10388712 -37.786545 -24.264698 -123.76102
188821000 -24.301472 -133.06096 -0.10385398 -37.979729 -0.10367555 -37.987011 -24.244667 -123.88799
189820000 -24.279844 -133.36632 -0.10396878 -38.182941 -0.10356607 -38.183105 -24.227274 -124.07882
190819000 -24.250641 -133.675 -0.10466242 -38.379955 -0.10432328 -38.376034 -24.189489 -124.11398
191818000 -24.216614 -133.9612 -0.10437657 -38.579285 -0.10449456 -38.578873 -24.159689 -124.15922
192817000 -24.168974 -134.24857 -0.10561476 -38.774803 -0.10509892 -38.773663 -24.119474 -124.21629
193816000 -24.13842 -134.49454 -0.10572908 -38.970177 -0.10504535 -38.968185 -24.065645 -124.38523
194815000 -24.079714 -134.85794 -0.10547393 -39.166897 -0.10569805 -39.165176 -23.999748 -124.44393
195814000 -24.024986 -135.08093 -0.1065888 -39.363796 -0.10575083 -39.36705 -23.945848 -124.53861
196813000 -23.971785 -135.38925 -0.10558903 -39.56218 -0.10526255 -39.559814 -23.8657 -124.70204
197812000 -23.916832 -135.6463 -0.10627206 -39.7584 -0.10641026 -39.752743 -23.797802 -124.79893
198811000 -23.85837 -135.79243 -0.10644263 -39.953747 -0.10594048 -39.956814 -23.727257 -124.94909
199810000 -23.787395 -136.13657 -0.10682519 -40.146381 -0.10583783 -40.146713 -23.649469 -125.05302
200809000 -23.731838 -136.40376 -0.10707936 -40.346294 -0.10645006 -40.347763 -23.578035 -125.22339
201808000 -23.675344 -136.59848 -0.10830001 -40.543495 -0.10766602 -40.550556 -23.507389 -125.30421
202807000 -23.616278 -136.92749 -0.10876076 -40.744724 -0.10739404 -40.749039 -23.451328 -125.50156
