!Keysight Technologies,E5080B,MY59205177,A.15.75.32
!Date: Friday, February 23, 2024 02:55:38
!Correction: S11(Cdelta 2-Port  ) 
!S21(Cdelta 2-Port  ) 
!S12(Cdelta 2-Port  ) 
!S22(Cdelta 2-Port  ) 
!S2P File: Measurements: S11, S21, S12, S22:
# Hz S  dB   R 50
10000000 -43.899841 -3.4952433 -0.029472848 -2.0396423 -0.032375067 -2.0980098 -48.552246 -148.95642
10999000 -43.203926 -5.3339314 -0.030450031 -2.2547214 -0.032115843 -2.3113401 -48.229786 -140.54961
11998000 -42.420071 -7.8877425 -0.031091094 -2.4832287 -0.031466547 -2.5243816 -48.284008 -135.00343
12997000 -41.800682 -12.213411 -0.029873183 -2.6624968 -0.031382587 -2.6939909 -47.636604 -128.23468
13996000 -41.594589 -15.444214 -0.029938344 -2.8378525 -0.032045431 -2.8640273 -47.210953 -122.75794
14995000 -41.301174 -19.380203 -0.032260578 -3.0479755 -0.031400841 -3.0743551 -46.693569 -119.02812
15994000 -41.178337 -22.866528 -0.032850262 -3.2663236 -0.033662289 -3.2891252 -46.475147 -115.56046
16993000 -41.194439 -26.650122 -0.031965896 -3.466011 -0.032941032 -3.4758456 -45.516087 -116.86978
17992000 -41.248142 -31.120609 -0.032800708 -3.6615469 -0.033633072 -3.6667354 -44.926624 -117.84602
18991000 -41.524624 -35.501637 -0.033384204 -3.8713846 -0.034530301 -3.8701606 -44.133926 -117.42285
19990000 -41.457565 -40.388302 -0.035880283 -4.0797429 -0.037012938 -4.0762787 -43.526749 -119.22744
20989000 -41.366467 -43.273201 -0.037495695 -4.2841206 -0.038655937 -4.2756557 -42.936996 -119.24404
21988000 -41.223946 -47.614952 -0.038788617 -4.4806828 -0.039209399 -4.473175 -42.640633 -118.75381
22987000 -41.074951 -52.155018 -0.039196599 -4.6769609 -0.039609328 -4.6722012 -42.395561 -118.35769
23986000 -41.129951 -55.767921 -0.039335825 -4.8766952 -0.039101522 -4.8738384 -42.238365 -118.73046
24985000 -40.790737 -58.704636 -0.039751962 -5.0860114 -0.039424639 -5.0832248 -41.937222 -115.89229
25984000 -40.605751 -60.807049 -0.041744374 -5.2883129 -0.040035155 -5.287035 -41.608734 -114.70551
26983000 -40.302689 -62.708549 -0.04263518 -5.4867067 -0.041167852 -5.5051484 -41.468201 -114.13439
27982000 -40.214005 -63.707615 -0.043332163 -5.6860075 -0.042554926 -5.7215886 -41.119846 -112.61643
28981000 -40.168667 -65.208282 -0.04205906 -5.8848782 -0.042133555 -5.9091687 -40.88509 -111.82204
29980000 -39.798859 -66.813171 -0.041922886 -6.0750456 -0.042796735 -6.084466 -40.52433 -111.07554
30979000 -39.432415 -65.94957 -0.038863312 -6.4324803 -0.037368279 -6.4198546 -40.030426 -112.01322
31978000 -39.227867 -67.254929 -0.037893374 -6.6244345 -0.038515948 -6.6166167 -39.751762 -111.47784
32977000 -39.075481 -68.708099 -0.037296999 -6.8365684 -0.039387025 -6.834239 -39.52779 -111.53467
33976000 -38.942928 -69.774857 -0.038705297 -7.0362639 -0.039525993 -7.0270548 -39.191818 -111.18271
34975000 -38.660366 -70.885277 -0.038406521 -7.2346244 -0.040478271 -7.2361178 -38.96508 -111.01228
35974000 -38.462196 -71.703964 -0.03774114 -7.432035 -0.040308438 -7.4318151 -38.644894 -110.23601
36973000 -38.234158 -72.550888 -0.038363952 -7.6307583 -0.041117154 -7.6341467 -38.336765 -109.4753
37972000 -38.075317 -72.48336 -0.03774767 -7.8416209 -0.04118745 -7.8472257 -38.095009 -108.90974
38971000 -37.741745 -72.189316 -0.038713396 -8.0389795 -0.041618399 -8.0495052 -37.89114 -107.37993
39970000 -37.435081 -72.884682 -0.037090741 -8.2387838 -0.039429866 -8.2509499 -37.612263 -106.95161
40969000 -37.168079 -72.678131 -0.03730901 -8.430521 -0.039685607 -8.4447861 -37.330227 -105.62418
41968000 -36.795547 -72.899475 -0.038337316 -8.6380138 -0.040052399 -8.6470566 -37.111248 -104.43643
42967000 -36.544605 -73.092941 -0.038502891 -8.8485012 -0.040459719 -8.8613157 -36.894634 -102.63795
43966000 -36.257061 -74.08548 -0.038960475 -9.0441284 -0.041942228 -9.0665178 -36.610355 -102.13908
44965000 -36.072258 -74.938477 -0.039394859 -9.2465601 -0.042212494 -9.2656374 -36.37188 -102.04235
45964000 -35.851646 -76.105789 -0.040591929 -9.4460278 -0.043661609 -9.4632998 -36.135098 -101.89262
46963000 -35.690399 -78.096901 -0.040989108 -9.6398258 -0.043332946 -9.6617155 -35.962597 -102.33588
47962000 -35.532948 -79.566261 -0.042029265 -9.8425236 -0.044877116 -9.8609066 -35.764164 -102.47608
48961000 -35.349819 -81.117859 -0.044824023 -10.038643 -0.045981251 -10.063241 -35.52039 -102.78952
49960000 -35.144371 -82.45665 -0.045999829 -10.238543 -0.047639683 -10.260772 -35.396824 -102.9993
50959000 -34.943638 -83.851265 -0.046477042 -10.449598 -0.048505262 -10.461058 -35.204548 -103.39239
51958000 -34.759708 -85.016388 -0.047969457 -10.650813 -0.049621843 -10.660623 -35.041386 -104.02982
52957000 -34.556252 -86.24453 -0.050217032 -10.852988 -0.050709639 -10.857219 -34.879169 -103.82248
53956000 -34.396091 -86.901779 -0.050832734 -11.051812 -0.051821545 -11.051507 -34.736652 -103.87775
54955000 -34.245899 -87.470467 -0.052067276 -11.252526 -0.053026762 -11.252269 -34.581081 -103.91813
55954000 -34.087746 -88.431458 -0.052657038 -11.451754 -0.053468321 -11.450495 -34.47213 -103.66422
56953000 -33.981449 -88.490364 -0.052422013 -11.647011 -0.051882058 -11.639033 -34.39819 -103.97192
57952000 -33.820923 -89.157654 -0.053186607 -11.847744 -0.052923255 -11.834063 -34.296909 -104.13081
58951000 -33.699501 -89.562569 -0.054485518 -12.051911 -0.0538541 -12.033038 -34.157921 -104.23937
59950000 -33.581787 -89.979691 -0.055017669 -12.250194 -0.055528127 -12.225278 -34.084309 -104.52772
60949000 -33.479359 -90.500931 -0.055628285 -12.453493 -0.055340402 -12.429622 -33.986759 -104.85637
61948000 -33.415733 -90.800964 -0.055865318 -12.653478 -0.054862738 -12.635262 -33.892517 -104.87015
62947000 -33.328831 -91.104553 -0.055903073 -12.865139 -0.056092922 -12.841979 -33.758423 -105.19661
63946000 -33.267361 -91.758224 -0.056784987 -13.061195 -0.056911927 -13.040225 -33.653988 -105.38588
64945000 -33.161095 -91.968666 -0.057646617 -13.265289 -0.057323191 -13.245205 -33.550903 -105.88002
65944000 -33.057198 -92.324623 -0.058399275 -13.462839 -0.058274392 -13.444402 -33.458298 -106.39535
66943000 -32.925877 -92.760208 -0.05627989 -13.66452 -0.056209613 -13.645052 -33.363819 -106.68076
67942000 -32.863117 -92.723099 -0.058145054 -13.85674 -0.058081564 -13.848517 -33.230988 -106.86589
68941000 -32.758522 -92.847916 -0.058194373 -14.052179 -0.057634816 -14.041445 -33.129219 -106.90785
69940000 -32.652531 -92.843849 -0.057538021 -14.250002 -0.058490578 -14.241495 -32.98497 -107.22541
70939000 -32.547798 -92.789742 -0.058222972 -14.445893 -0.058062676 -14.440152 -32.855499 -107.07967
71938000 -32.414589 -92.389153 -0.057813194 -14.641504 -0.058451224 -14.635977 -32.71973 -107.00696
72937000 -32.256966 -92.195374 -0.057303783 -14.840994 -0.05755166 -14.834973 -32.581623 -106.69354
73936000 -32.113636 -91.960991 -0.057315059 -15.040828 -0.056775808 -15.030373 -32.46402 -106.55077
74935000 -31.989611 -92.195343 -0.056095019 -15.239442 -0.056530073 -15.230579 -32.303925 -106.24557
75934000 -31.861383 -92.50145 -0.057234272 -15.445799 -0.055775903 -15.437399 -32.224449 -106.14217
76933000 -31.736151 -92.865822 -0.058846366 -15.637305 -0.057346798 -15.631542 -32.053406 -106.57143
77932000 -31.63925 -93.674469 -0.060072429 -15.834456 -0.059193261 -15.827386 -31.943487 -106.61354
78931000 -31.570013 -94.494286 -0.058130886 -16.031532 -0.057700917 -16.026999 -31.851381 -106.45321
79930000 -31.472187 -95.284279 -0.060921326 -16.224699 -0.061125569 -16.224485 -31.758247 -106.79322
80929000 -31.343655 -96.260941 -0.062344924 -16.42017 -0.062414516 -16.417595 -31.653709 -107.21098
81928000 -31.270498 -97.13903 -0.062148239 -16.610125 -0.062094145 -16.609198 -31.538469 -107.27969
82927000 -31.169769 -97.841423 -0.064388976 -16.811617 -0.063221581 -16.809172 -31.4319 -107.62281
83926000 -31.057106 -98.513535 -0.064760752 -17.00729 -0.064220838 -17.009979 -31.332146 -107.88901
84925000 -30.953495 -99.070984 -0.066177458 -17.209532 -0.064999074 -17.202105 -31.227102 -108.01546
85924000 -30.87108 -99.497131 -0.067219459 -17.408237 -0.066246323 -17.406393 -31.134066 -107.95878
86923000 -30.765985 -100.10028 -0.066590391 -17.604628 -0.066303097 -17.596375 -31.043262 -107.91179
87922000 -30.665766 -100.49599 -0.066776499 -17.810869 -0.06555222 -17.804356 -30.947735 -108.01458
88921000 -30.594122 -100.82449 -0.067632757 -18.008783 -0.066946059 -18.006453 -30.859356 -107.99519
89920000 -30.499596 -101.38663 -0.067948274 -18.211248 -0.06729833 -18.202343 -30.801182 -108.14483
90919000 -30.395145 -101.70067 -0.069973655 -18.403784 -0.068275124 -18.398882 -30.714521 -108.42089
91918000 -30.295357 -102.08926 -0.070785023 -18.604088 -0.068071857 -18.602266 -30.646086 -108.42931
92917000 -30.220337 -102.48141 -0.071321018 -18.799732 -0.070287772 -18.793989 -30.588715 -108.54227
93916000 -30.120926 -102.77255 -0.070790812 -18.996962 -0.070281453 -18.990816 -30.503036 -109.17642
94915000 -30.054884 -103.46996 -0.072763823 -19.195925 -0.070520341 -19.191582 -30.44183 -108.99601
95914000 -29.993479 -103.6563 -0.07327769 -19.389334 -0.071632072 -19.386869 -30.347353 -109.31248
96913000 -29.898155 -103.89922 -0.074568138 -19.591747 -0.072650373 -19.588158 -30.278187 -109.63396
97912000 -29.838734 -104.40738 -0.075480975 -19.787392 -0.073020488 -19.787407 -30.207708 -109.92303
98911000 -29.730473 -104.52959 -0.075702503 -19.988567 -0.073866121 -19.983086 -30.159008 -110.14105
99910000 -29.666056 -104.74027 -0.076650359 -20.185539 -0.074778549 -20.185432 -30.050098 -110.44457
100909000 -29.57169 -105.00395 -0.076133728 -20.394203 -0.073303483 -20.387539 -29.974726 -110.64095
101908000 -29.480902 -105.23692 -0.07686878 -20.592636 -0.07556843 -20.588173 -29.856901 -110.40771
102907000 -29.357174 -105.26639 -0.077553362 -20.790308 -0.075135149 -20.79178 -29.782375 -110.37916
103906000 -29.261473 -105.32741 -0.077595264 -21.000641 -0.074778818 -20.990675 -29.626074 -110.32787
104905000 -29.114468 -105.25149 -0.078707486 -21.197372 -0.075335845 -21.197378 -29.502733 -109.99009
105904000 -28.970573 -105.38405 -0.07851401 -21.399349 -0.074739575 -21.392857 -29.390749 -109.87897
106903000 -28.871393 -105.47668 -0.078288391 -21.60445 -0.075730421 -21.599319 -29.261168 -109.7342
107902000 -28.70196 -105.85002 -0.079399213 -21.801861 -0.07650651 -21.796482 -29.117908 -109.70226
108901000 -28.599318 -106.07903 -0.079873778 -22.006077 -0.07770858 -21.994658 -28.991022 -109.70629
109900000 -28.473078 -106.59366 -0.081105009 -22.205935 -0.078961067 -22.195345 -28.836895 -109.74151
110899000 -28.353922 -107.25383 -0.082240023 -22.401707 -0.079387873 -22.39366 -28.715284 -110.04881
111898000 -28.265753 -107.92885 -0.084091038 -22.602867 -0.080458105 -22.596331 -28.595055 -110.20405
112897000 -28.14246 -108.55299 -0.085356191 -22.803822 -0.082008936 -22.790607 -28.4666 -110.4101
113896000 -28.039335 -109.08963 -0.086178355 -23.00354 -0.083135746 -22.990192 -28.350254 -110.59162
114895000 -27.945557 -109.79038 -0.087462611 -23.19902 -0.084363148 -23.185419 -28.241049 -110.67253
115894000 -27.809889 -110.11849 -0.088148601 -23.401588 -0.085801579 -23.388062 -28.173286 -110.85637
116893000 -27.726957 -110.7289 -0.088574722 -23.597139 -0.086654194 -23.57859 -28.042343 -111.02885
117892000 -27.651222 -111.24886 -0.0896414 -23.793161 -0.087102361 -23.783291 -27.971216 -111.23692
118891000 -27.593424 -111.64074 -0.089925751 -23.991869 -0.086732097 -23.979362 -27.876282 -111.37239
119890000 -27.502583 -112.03246 -0.090412043 -24.192455 -0.088271171 -24.181597 -27.865435 -111.56827
120889000 -27.452913 -112.57613 -0.091701515 -24.389357 -0.087745763 -24.376659 -27.789494 -111.52244
121888000 -27.416128 -112.90401 -0.091469921 -24.588091 -0.088272758 -24.575525 -27.728985 -111.78608
122887000 -27.373066 -113.12257 -0.092541814 -24.78933 -0.089687914 -24.779552 -27.682344 -111.84526
123886000 -27.314539 -113.52206 -0.093020201 -24.996441 -0.090135589 -24.975952 -27.663582 -112.01272
124885000 -27.278154 -114.02007 -0.093510278 -25.192444 -0.089950591 -25.180483 -27.6367 -112.12329
125884000 -27.22533 -114.21093 -0.094106756 -25.390055 -0.091082111 -25.376316 -27.601414 -112.28948
126883000 -27.202448 -114.62182 -0.094483197 -25.594349 -0.091464639 -25.5832 -27.567743 -112.29951
127882000 -27.149591 -114.92047 -0.094828449 -25.795511 -0.091374755 -25.77676 -27.521227 -112.50428
128881000 -27.123806 -115.25237 -0.094573408 -25.994297 -0.091833182 -25.976738 -27.480293 -112.63168
129880000 -27.064478 -115.60446 -0.096022636 -26.196686 -0.091877073 -26.177294 -27.440233 -112.59138
130879000 -26.999964 -115.6876 -0.095214486 -26.39669 -0.092830054 -26.377079 -27.36344 -112.63862
131878000 -26.93219 -115.92685 -0.095754296 -26.597853 -0.09320242 -26.577734 -27.299522 -112.53674
132877000 -26.868719 -116.00582 -0.095364511 -26.798529 -0.093206912 -26.780109 -27.213558 -112.53003
133876000 -26.78406 -116.17628 -0.095525928 -27.00046 -0.092981324 -26.979574 -27.126026 -112.47258
134875000 -26.689676 -116.26815 -0.096324347 -27.203569 -0.094341397 -27.17885 -27.014496 -112.31383
135874000 -26.604471 -116.28423 -0.096196517 -27.397022 -0.093473516 -27.382767 -26.917213 -112.26322
136873000 -26.492275 -116.23796 -0.097041652 -27.598263 -0.093578517 -27.581871 -26.829041 -112.2896
137872000 -26.414358 -116.3504 -0.096714213 -27.799316 -0.09399274 -27.786383 -26.722322 -112.24099
138871000 -26.341522 -116.54894 -0.096821152 -28.004284 -0.094055697 -27.987137 -26.626997 -112.39928
139870000 -26.23871 -116.78348 -0.098383665 -28.202272 -0.095436223 -28.187023 -26.541893 -112.57689
140869000 -26.161705 -117.23411 -0.1002572 -28.398663 -0.09662766 -28.375097 -26.438969 -112.69804
141868000 -26.06522 -117.78108 -0.099837348 -28.592766 -0.09718433 -28.573036 -26.37022 -113.06866
142867000 -25.992277 -118.03541 -0.098482169 -28.788069 -0.095735773 -28.769382 -26.284554 -113.21939
143866000 -25.914026 -118.50119 -0.10036979 -28.982077 -0.09730716 -28.967455 -26.21784 -113.76273
144865000 -25.863516 -119.04454 -0.10165056 -29.183954 -0.098328322 -29.167299 -26.162683 -114.06931
145864000 -25.80674 -119.37719 -0.10187528 -29.380779 -0.099787548 -29.370811 -26.122864 -114.33419
146863000 -25.761173 -119.79995 -0.10303668 -29.581556 -0.10024369 -29.572147 -26.077129 -114.64126
147862000 -25.718996 -120.15575 -0.10390939 -29.777046 -0.10012766 -29.764742 -26.043556 -114.9997
148861000 -25.693913 -120.67657 -0.1040226 -29.977882 -0.10136014 -29.962305 -26.019125 -115.26201
149860000 -25.67186 -120.86922 -0.10432619 -30.17902 -0.10154324 -30.165756 -25.993227 -115.41431
150859000 -25.652414 -121.26643 -0.10494563 -30.376755 -0.10160524 -30.360048 -25.983891 -115.68276
151858000 -25.638355 -121.57416 -0.10443491 -30.574423 -0.10145845 -30.558611 -25.974569 -115.95334
152857000 -25.619854 -121.88213 -0.10542141 -30.767099 -0.10182227 -30.760252 -25.957607 -116.11588
153856000 -25.612986 -122.12108 -0.10529198 -30.972828 -0.10194471 -30.958834 -25.967033 -116.38327
154855000 -25.605621 -122.29491 -0.10537367 -31.170778 -0.10165638 -31.157589 -25.961315 -116.60573
155854000 -25.619911 -122.54126 -0.10598371 -31.371435 -0.10240001 -31.354797 -25.952044 -116.86444
156853000 -25.606014 -123.25238 -0.10386617 -31.556011 -0.10136703 -31.548874 -25.947063 -117.19624
157852000 -25.605158 -123.48243 -0.10552061 -31.756582 -0.10305868 -31.746655 -25.939043 -117.56293
158851000 -25.605022 -123.68687 -0.10599406 -31.953541 -0.1035255 -31.94664 -25.920578 -117.8074
159850000 -25.5842 -123.84285 -0.10634235 -32.154816 -0.10329805 -32.144707 -25.923069 -117.96341
160849000 -25.57198 -123.93911 -0.10646199 -32.351673 -0.10451896 -32.344765 -25.887821 -118.24574
161848000 -25.550205 -124.05222 -0.10708891 -32.552082 -0.1047478 -32.542603 -25.850979 -118.35045
162847000 -25.50676 -124.21942 -0.1064161 -32.752743 -0.10501564 -32.745953 -25.823013 -118.57538
163846000 -25.46472 -124.47378 -0.10732425 -32.953671 -0.10498727 -32.944176 -25.74721 -118.61739
164845000 -25.405293 -124.46021 -0.10717965 -33.148609 -0.10510661 -33.142208 -25.680496 -118.7184
165844000 -25.349073 -124.5116 -0.10786265 -33.348652 -0.10632697 -33.339268 -25.596565 -118.80886
166843000 -25.287411 -124.61702 -0.10733672 -33.547729 -0.10562351 -33.538815 -25.52405 -118.9922
167842000 -25.228127 -124.74483 -0.10727782 -33.74852 -0.10600547 -33.73843 -25.443504 -118.93268
168841000 -25.149548 -124.92745 -0.10730037 -33.943069 -0.10648905 -33.93774 -25.366554 -119.01487
169840000 -25.083218 -125.21581 -0.10814024 -34.136238 -0.10690053 -34.136353 -25.278055 -119.18739
170839000 -25.022186 -125.47653 -0.10872333 -34.333862 -0.10698622 -34.331955 -25.194128 -119.41782
171838000 -24.970137 -125.87753 -0.10909361 -34.53632 -0.10837803 -34.530094 -25.127127 -119.63029
172837000 -24.895365 -126.25221 -0.11049964 -34.730206 -0.10930279 -34.72723 -25.06012 -119.87476
173836000 -24.827478 -126.67905 -0.1114259 -34.932964 -0.11026225 -34.928566 -25.014793 -120.10717
174835000 -24.778658 -127.09255 -0.11153506 -35.125713 -0.1106879 -35.123615 -24.970543 -120.43941
175834000 -24.730379 -127.50455 -0.11279044 -35.325676 -0.11152842 -35.321575 -24.907223 -120.72527
176833000 -24.67528 -127.878 -0.11340923 -35.522907 -0.111666 -35.518314 -24.856535 -120.89502
177832000 -24.634661 -128.37892 -0.1138126 -35.713585 -0.11234839 -35.718811 -24.835747 -121.09372
178831000 -24.587549 -128.77525 -0.11455219 -35.916283 -0.11295728 -35.90921 -24.793007 -121.27673
179830000 -24.552324 -129.18913 -0.11525789 -36.110432 -0.11371454 -36.115486 -24.773031 -121.4743
180829000 -24.51642 -129.3855 -0.11564495 -36.308128 -0.11308189 -36.30724 -24.737041 -121.6213
181828000 -24.487087 -129.79086 -0.11559071 -36.507198 -0.11430662 -36.501373 -24.724518 -121.75813
182827000 -24.467834 -130.13585 -0.11570556 -36.703194 -0.11463113 -36.703781 -24.709509 -121.84444
183826000 -24.428001 -130.4406 -0.11688422 -36.897793 -0.11458515 -36.89397 -24.700388 -121.96106
184825000 -24.430843 -130.76466 -0.11690629 -37.092285 -0.11491553 -37.093094 -24.682793 -122.08907
185824000 -24.404749 -131.10811 -0.1162793 -37.287457 -0.1148015 -37.291679 -24.677877 -122.12775
186823000 -24.388229 -131.49884 -0.11674143 -37.490757 -0.11482569 -37.492023 -24.677664 -122.10773
187822000 -24.363125 -131.79883 -0.1172576 -37.687298 -0.11553489 -37.684177 -24.640434 -122.18806
188821000 -24.34853 -132.04706 -0.11650025 -37.881905 -0.11632662 -37.882797 -24.627914 -122.27499
189820000 -24.330975 -132.29843 -0.11721025 -38.079666 -0.11621708 -38.081646 -24.619978 -122.43559
190819000 -24.301773 -132.53008 -0.11802491 -38.281216 -0.11714005 -38.278431 -24.585041 -122.38503
191818000 -24.260384 -132.6933 -0.11986277 -38.475018 -0.1183473 -38.475628 -24.546658 -122.26489
192817000 -24.19265 -132.98775 -0.11999927 -38.660213 -0.11884211 -38.659641 -24.47291 -122.35433
193816000 -24.156496 -133.35515 -0.11914754 -38.852879 -0.11783872 -38.853554 -24.414551 -122.60201
194815000 -24.099592 -133.78233 -0.11934496 -39.051533 -0.11827229 -39.050915 -24.354603 -122.73866
195814000 -24.047388 -133.98643 -0.11970497 -39.248959 -0.11851888 -39.248386 -24.302038 -122.83258
196813000 -23.994104 -134.32498 -0.11940536 -39.440926 -0.11776318 -39.443874 -24.22261 -122.99357
197812000 -23.935658 -134.60587 -0.11972546 -39.639961 -0.11794033 -39.637897 -24.154339 -123.10607
198811000 -23.886887 -134.78094 -0.118861 -39.836685 -0.11803661 -39.83857 -24.080729 -123.31019
199810000 -23.812857 -135.1344 -0.11965787 -40.03191 -0.11844254 -40.029381 -24.005463 -123.38972
200809000 -23.756699 -135.43562 -0.11982977 -40.228767 -0.11823718 -40.231674 -23.927929 -123.58162
201808000 -23.699015 -135.65524 -0.12047432 -40.427082 -0.12011664 -40.42902 -23.855881 -123.64861
202807000 -23.641762 -135.97948 -0.12136332 -40.626881 -0.12055363 -40.628983 -23.800236 -123.87365
203806000 -23.591835 -136.44818 -0.12285453 -40.829121 -0.1207394 -40.830051 -23.739965 -124.04765
