!Keysight Technologies,E5080B,MY59205177,A.15.75.32
!Date: Friday, February 23, 2024 03:33:51
!Correction: S11(Cdelta 2-Port  ) 
!S21(Cdelta 2-Port  ) 
!S12(Cdelta 2-Port  ) 
!S22(Cdelta 2-Port  ) 
!S2P File: Measurements: S11, S21, S12, S22:
# Hz S  dB   R 50
10000000 -46.092869 -2.7252679 -0.015116503 -2.0436943 -0.018446112 -2.0966656 -45.923607 -157.69588
10999000 -45.312447 -4.4499226 -0.016518146 -2.2646935 -0.01846067 -2.3194506 -45.893734 -151.76326
11998000 -44.334019 -7.82199 -0.016758511 -2.4897833 -0.018066065 -2.5313532 -46.090794 -147.55974
12997000 -43.616169 -13.178824 -0.01585507 -2.6698446 -0.017761689 -2.7022049 -45.647282 -141.50418
13996000 -43.31926 -17.06278 -0.015570591 -2.8500834 -0.018200455 -2.8679683 -45.428734 -136.22665
14995000 -42.898949 -21.089037 -0.017625231 -3.059638 -0.018118054 -3.0840878 -45.168915 -133.08922
15994000 -42.730919 -25.982937 -0.018791355 -3.2807536 -0.020472465 -3.301111 -45.058743 -129.42657
16993000 -42.633659 -30.296135 -0.018609371 -3.4756958 -0.019962212 -3.4843795 -44.249107 -129.16064
17992000 -42.722607 -35.642727 -0.018326532 -3.6769748 -0.020025926 -3.6783898 -43.616833 -128.94885
18991000 -42.974514 -40.961094 -0.019021705 -3.8848939 -0.021412246 -3.8852959 -42.999649 -128.18916
19990000 -42.793343 -46.946663 -0.021185411 -4.0952554 -0.024213286 -4.094811 -42.346073 -128.9593
20989000 -42.638248 -49.914928 -0.023571417 -4.2996716 -0.025216104 -4.2905245 -41.788288 -128.20215
21988000 -42.410229 -55.230995 -0.024366349 -4.4934244 -0.025494445 -4.4839873 -41.539036 -127.76788
22987000 -42.075642 -60.346073 -0.025814209 -4.6948018 -0.027668413 -4.6860247 -41.295521 -127.14947
23986000 -42.020733 -64.230881 -0.024225781 -4.8908491 -0.026371507 -4.8897471 -41.166836 -126.91023
24985000 -41.625134 -67.01973 -0.025777493 -5.0968199 -0.026341558 -5.0971727 -40.953789 -124.64861
25984000 -41.249882 -69.167824 -0.02738837 -5.3013835 -0.02684683 -5.3042879 -40.609104 -122.78762
26983000 -40.969879 -70.994888 -0.028079784 -5.5020828 -0.02810167 -5.5226221 -40.521881 -122.15814
27982000 -40.818565 -71.937721 -0.029266439 -5.7055073 -0.029326903 -5.7390242 -40.242313 -120.82692
28981000 -40.748447 -73.106285 -0.027311523 -5.900846 -0.029055091 -5.926517 -40.024792 -119.84991
29980000 -40.344204 -74.603218 -0.027078388 -6.0969524 -0.029910194 -6.1033082 -39.766075 -119.04581
30979000 -39.943981 -73.850807 -0.024955224 -6.4529309 -0.024389258 -6.4471703 -39.238712 -119.51099
31978000 -39.756783 -74.67231 -0.024159664 -6.6461387 -0.02500391 -6.6386986 -38.99992 -118.70915
32977000 -39.560253 -76.350639 -0.024321577 -6.8582091 -0.025886342 -6.8553925 -38.777611 -118.74516
33976000 -39.416229 -77.248085 -0.02523407 -7.0609126 -0.026708525 -7.0520253 -38.468967 -118.1586
34975000 -39.09993 -78.242737 -0.025260366 -7.2570076 -0.027417285 -7.2588196 -38.273594 -117.95924
35974000 -38.908524 -78.689163 -0.023722636 -7.4555101 -0.027594168 -7.458601 -37.989902 -116.88653
36973000 -38.654125 -79.372902 -0.024986466 -7.6521378 -0.028133195 -7.6582823 -37.723698 -115.9409
37972000 -38.497089 -79.106567 -0.024500154 -7.8661499 -0.027984688 -7.8707576 -37.510983 -115.27054
38971000 -38.164997 -78.532791 -0.025606152 -8.0628281 -0.028587604 -8.0763578 -37.324112 -113.62685
39970000 -37.841896 -78.937286 -0.023443367 -8.2584915 -0.02718701 -8.2799034 -37.068573 -113.23851
40969000 -37.551617 -78.520096 -0.024367912 -8.4514894 -0.027569158 -8.4736261 -36.83358 -111.66734
41968000 -37.206181 -78.486633 -0.024471778 -8.6612139 -0.027161222 -8.6761332 -36.637901 -110.43057
42967000 -36.932846 -78.331078 -0.023940753 -8.8734217 -0.027424319 -8.8896713 -36.456249 -108.51283
43966000 -36.638397 -79.145821 -0.02491487 -9.0734577 -0.028468264 -9.0878487 -36.162418 -107.80966
44965000 -36.405647 -79.985092 -0.025397064 -9.2733269 -0.028966749 -9.2934904 -35.956703 -107.51283
45964000 -36.18605 -81.054886 -0.026558245 -9.4790907 -0.029703505 -9.4990025 -35.727428 -107.27679
46963000 -35.982372 -83.04303 -0.026774941 -9.671546 -0.030051468 -9.6937284 -35.569088 -107.54978
47962000 -35.836403 -84.344849 -0.02816941 -9.8738346 -0.031151582 -9.8934212 -35.351845 -107.54533
48961000 -35.606857 -85.77858 -0.030716196 -10.071409 -0.032604571 -10.091618 -35.10849 -107.77646
49960000 -35.375675 -87.040573 -0.031718429 -10.271392 -0.033778116 -10.29215 -34.981007 -107.80833
50959000 -35.144493 -88.31813 -0.032150526 -10.484304 -0.035486702 -10.495198 -34.81535 -108.02495
51958000 -34.934601 -89.434784 -0.034188762 -10.682805 -0.03678111 -10.691337 -34.630066 -108.44322
52957000 -34.728447 -90.462914 -0.036117546 -10.880608 -0.037888415 -10.890172 -34.468517 -108.2644
53956000 -34.555264 -91.127998 -0.036740907 -11.083669 -0.038557213 -11.086057 -34.322906 -108.17673
54955000 -34.389339 -91.58931 -0.037576899 -11.28485 -0.039168652 -11.283121 -34.180344 -108.18795
55954000 -34.220371 -92.368858 -0.039341573 -11.488682 -0.039991263 -11.481709 -34.076283 -107.88443
56953000 -34.116245 -92.489716 -0.039388329 -11.687265 -0.03919477 -11.673096 -33.998177 -108.10146
57952000 -33.942371 -93.01503 -0.039778348 -11.882132 -0.040632691 -11.873274 -33.910954 -108.12659
58951000 -33.814968 -93.34639 -0.041230831 -12.087395 -0.040884584 -12.065824 -33.742867 -108.1795
59950000 -33.698029 -93.800758 -0.04178201 -12.292727 -0.041537121 -12.266271 -33.677593 -108.51197
60949000 -33.562454 -94.299995 -0.041470215 -12.489141 -0.042216152 -12.464855 -33.582371 -108.73756
61948000 -33.520222 -94.596291 -0.042189755 -12.687157 -0.042219289 -12.673037 -33.490715 -108.80794
62947000 -33.42099 -94.778366 -0.041920792 -12.902368 -0.043211896 -12.881047 -33.358948 -109.08906
63946000 -33.343372 -95.593636 -0.043106794 -13.100158 -0.043735869 -13.080037 -33.243225 -109.19607
64945000 -33.241177 -95.67865 -0.043689847 -13.299814 -0.044583406 -13.282883 -33.139778 -109.69997
65944000 -33.13625 -96.032616 -0.044635192 -13.500655 -0.044386741 -13.486969 -33.052097 -110.11158
66943000 -32.980705 -96.425446 -0.042746019 -13.704576 -0.042944442 -13.684765 -32.940289 -110.34169
67942000 -32.937504 -96.358002 -0.0448405 -13.897419 -0.044878162 -13.888407 -32.823566 -110.67816
68941000 -32.826729 -96.445602 -0.044610344 -14.092591 -0.044428322 -14.08188 -32.710827 -110.59147
69940000 -32.728729 -96.428215 -0.04394035 -14.291015 -0.044859853 -14.286324 -32.558163 -110.93195
70939000 -32.622196 -96.380241 -0.043690111 -14.490545 -0.044651404 -14.485203 -32.438515 -110.787
71938000 -32.478233 -95.923531 -0.044522993 -14.685825 -0.044646174 -14.677749 -32.307259 -110.73055
72937000 -32.325523 -95.75869 -0.043348633 -14.883291 -0.04391551 -14.881558 -32.174332 -110.35518
73936000 -32.189342 -95.358109 -0.043684356 -15.086493 -0.043607224 -15.077472 -32.049171 -110.16135
74935000 -32.057926 -95.629387 -0.043087184 -15.281988 -0.042232361 -15.273704 -31.892042 -109.88414
75934000 -31.92934 -95.898125 -0.043539762 -15.486373 -0.04211735 -15.487913 -31.799328 -109.77397
76933000 -31.805712 -96.229683 -0.044115029 -15.680482 -0.043791827 -15.678248 -31.635443 -110.08617
77932000 -31.689991 -96.925423 -0.045514293 -15.878507 -0.045658693 -15.871799 -31.530308 -110.04439
78931000 -31.623196 -97.75972 -0.04429521 -16.078234 -0.045290645 -16.075399 -31.44022 -109.91578
79930000 -31.503279 -98.573013 -0.04685121 -16.272018 -0.047262568 -16.269999 -31.338802 -110.20806
80929000 -31.39336 -99.346733 -0.047706682 -16.469477 -0.048824891 -16.470585 -31.242836 -110.45209
81928000 -31.297138 -100.09399 -0.04873798 -16.661154 -0.049554549 -16.656282 -31.109137 -110.43251
82927000 -31.20075 -100.77551 -0.049916416 -16.86109 -0.050654113 -16.859682 -31.007879 -110.73827
83926000 -31.077902 -101.44239 -0.051637124 -17.056793 -0.051275901 -17.05937 -30.879354 -110.93852
84925000 -30.978441 -101.95459 -0.052765775 -17.25461 -0.051730905 -17.254868 -30.787634 -111.03044
85924000 -30.885677 -102.37723 -0.053137343 -17.460154 -0.05363657 -17.453974 -30.710075 -110.93086
86923000 -30.774958 -102.79022 -0.053458098 -17.655569 -0.053490859 -17.651886 -30.609463 -110.79302
87922000 -30.666645 -103.20888 -0.052905701 -17.863882 -0.052848838 -17.849737 -30.519402 -110.81494
88921000 -30.588766 -103.48972 -0.054872435 -18.061123 -0.053904682 -18.056936 -30.418047 -110.81809
89920000 -30.486712 -103.98555 -0.055662107 -18.263578 -0.055918284 -18.254511 -30.360546 -111.03144
90919000 -30.377428 -104.23868 -0.055915661 -18.45863 -0.055319164 -18.451912 -30.275808 -111.12818
91918000 -30.288794 -104.55534 -0.056581996 -18.657179 -0.055828344 -18.655672 -30.211636 -111.16512
92917000 -30.197304 -104.86687 -0.057758629 -18.859913 -0.0567168 -18.854053 -30.149076 -111.25517
93916000 -30.107931 -105.30475 -0.057829458 -19.052168 -0.057139847 -19.04557 -30.051359 -111.80728
94915000 -30.035501 -105.83608 -0.059036866 -19.251627 -0.058216412 -19.248447 -30.004599 -111.72402
95914000 -29.967337 -106.04035 -0.059932802 -19.446209 -0.059062056 -19.444807 -29.914021 -111.94241
96913000 -29.878912 -106.26778 -0.061197765 -19.649689 -0.060135685 -19.644651 -29.847591 -112.24123
97912000 -29.806402 -106.74364 -0.062217563 -19.841909 -0.060446724 -19.844397 -29.766201 -112.54811
98911000 -29.700285 -106.8792 -0.062230956 -20.044533 -0.061694507 -20.043608 -29.72559 -112.75498
99910000 -29.632389 -107.04449 -0.063265443 -20.243143 -0.061935544 -20.243118 -29.617599 -113.06073
100909000 -29.542387 -107.27313 -0.062372759 -20.453146 -0.061054949 -20.443985 -29.533295 -113.27494
101908000 -29.452284 -107.5444 -0.063902177 -20.654892 -0.06265559 -20.650999 -29.417112 -113.0245
102907000 -29.319326 -107.47974 -0.064043246 -20.851315 -0.063739039 -20.852242 -29.348652 -113.04015
103906000 -29.218636 -107.57966 -0.064469635 -21.061897 -0.061984122 -21.056503 -29.205746 -113.00061
104905000 -29.074692 -107.41745 -0.065647878 -21.256733 -0.063291974 -21.25523 -29.070982 -112.64732
105904000 -28.942001 -107.49494 -0.065192468 -21.463165 -0.063383639 -21.452766 -28.965122 -112.52446
106903000 -28.819902 -107.59966 -0.065285228 -21.665581 -0.063306153 -21.660872 -28.841936 -112.44176
107902000 -28.660568 -107.94093 -0.066389836 -21.868088 -0.064148329 -21.858017 -28.706335 -112.36308
108901000 -28.552151 -108.1471 -0.067263365 -22.06608 -0.065297581 -22.061834 -28.577936 -112.34786
109900000 -28.427315 -108.62204 -0.067700587 -22.273008 -0.066688441 -22.258667 -28.423512 -112.41989
110899000 -28.300766 -109.23299 -0.069524892 -22.468142 -0.067600943 -22.458229 -28.298948 -112.62222
111898000 -28.212433 -109.89306 -0.070505604 -22.665829 -0.068123661 -22.662386 -28.184332 -112.78113
112897000 -28.087276 -110.39143 -0.072569035 -22.867973 -0.069336563 -22.855743 -28.048002 -112.96082
113896000 -27.98621 -111.03323 -0.073195025 -23.065985 -0.07053113 -23.057304 -27.938747 -113.10035
114895000 -27.880739 -111.66454 -0.0741634 -23.266815 -0.07247217 -23.252111 -27.832485 -113.18254
115894000 -27.762905 -111.99596 -0.07544595 -23.466879 -0.073046021 -23.455616 -27.764395 -113.40256
116893000 -27.684153 -112.47968 -0.076480687 -23.664907 -0.074095987 -23.649096 -27.640583 -113.41769
117892000 -27.59384 -112.99557 -0.076161653 -23.860273 -0.074108891 -23.851538 -27.562756 -113.60297
118891000 -27.543388 -113.42845 -0.077159151 -24.063049 -0.074524686 -24.049402 -27.471718 -113.72886
119890000 -27.454245 -113.72958 -0.077578135 -24.263027 -0.075551569 -24.248331 -27.45933 -113.89007
120889000 -27.400261 -114.25629 -0.078951582 -24.467924 -0.076220401 -24.453056 -27.380672 -113.83138
121888000 -27.368441 -114.57497 -0.079019062 -24.66058 -0.076407447 -24.646568 -27.329357 -114.07452
122887000 -27.327099 -114.78066 -0.07941661 -24.863363 -0.076618217 -24.848425 -27.272051 -114.11691
123886000 -27.27178 -115.20589 -0.080579929 -25.06484 -0.077205263 -25.047575 -27.264944 -114.29383
124885000 -27.23983 -115.74467 -0.081070192 -25.262625 -0.077686444 -25.250244 -27.228666 -114.28994
125884000 -27.185263 -115.84705 -0.080813587 -25.466024 -0.077271931 -25.450775 -27.203815 -114.44885
126883000 -27.165518 -116.27964 -0.081612736 -25.667892 -0.078619711 -25.653709 -27.167826 -114.44446
127882000 -27.114756 -116.53912 -0.081931904 -25.86581 -0.078842714 -25.85092 -27.123346 -114.62455
128881000 -27.080811 -116.85532 -0.082287773 -26.068058 -0.078831904 -26.053114 -27.087439 -114.70281
129880000 -27.030998 -117.21251 -0.08307638 -26.269297 -0.07900773 -26.254131 -27.048086 -114.64029
130879000 -26.963993 -117.34389 -0.082629159 -26.469172 -0.079807073 -26.454483 -26.971144 -114.64069
131878000 -26.900858 -117.57468 -0.083436824 -26.673622 -0.079774119 -26.656532 -26.909719 -114.52841
132877000 -26.835608 -117.61066 -0.082983233 -26.877226 -0.080867119 -26.858055 -26.826946 -114.50378
133876000 -26.752003 -117.80738 -0.083025716 -27.07777 -0.080401145 -27.059502 -26.747526 -114.39283
134875000 -26.653385 -117.95562 -0.082948938 -27.276047 -0.080489747 -27.257193 -26.639259 -114.24966
135874000 -26.578878 -117.94294 -0.083694644 -27.475641 -0.080962323 -27.462927 -26.548204 -114.16525
136873000 -26.466421 -117.88194 -0.084023468 -27.681623 -0.080647707 -27.664402 -26.465736 -114.14235
137872000 -26.387743 -118.01923 -0.083506487 -27.886936 -0.081388004 -27.867918 -26.361277 -114.07874
138871000 -26.309687 -118.22776 -0.084165722 -28.081928 -0.081000037 -28.067472 -26.266315 -114.20728
139870000 -26.21096 -118.52438 -0.084665097 -28.28175 -0.082447119 -28.264442 -26.189814 -114.3664
140869000 -26.135395 -119.05627 -0.085789695 -28.482164 -0.083127037 -28.461082 -26.087988 -114.57286
141868000 -26.053747 -119.45038 -0.086586595 -28.675219 -0.08503069 -28.661909 -26.040754 -114.86642
142867000 -25.974972 -119.63866 -0.085177206 -28.874054 -0.083616264 -28.856945 -25.957684 -114.97211
143866000 -25.90008 -120.17655 -0.086679809 -29.07165 -0.084920615 -29.056278 -25.885708 -115.44953
144865000 -25.849537 -120.65946 -0.088455833 -29.26993 -0.086558335 -29.256075 -25.827068 -115.70719
145864000 -25.789389 -120.98277 -0.088700742 -29.471537 -0.088111348 -29.458675 -25.796814 -115.96314
146863000 -25.740124 -121.34673 -0.089310035 -29.672735 -0.087885499 -29.65769 -25.746267 -116.2823
147862000 -25.708683 -121.70091 -0.091167763 -29.8699 -0.089148588 -29.857349 -25.711794 -116.61055
148861000 -25.672415 -122.09924 -0.091333508 -30.067242 -0.090049967 -30.053928 -25.690212 -116.74745
149860000 -25.639782 -122.28943 -0.092851475 -30.264612 -0.09107101 -30.247002 -25.641237 -116.83696
150859000 -25.618309 -122.72945 -0.0923969 -30.458519 -0.090728693 -30.44075 -25.624929 -117.169
151858000 -25.60466 -123.09185 -0.091231473 -30.660269 -0.090304211 -30.646229 -25.614115 -117.55296
152857000 -25.596224 -123.42369 -0.092408277 -30.857758 -0.090862446 -30.842443 -25.603544 -117.7108
153856000 -25.588139 -123.63129 -0.091574349 -31.057671 -0.08965382 -31.043848 -25.613888 -118.03432
154855000 -25.587137 -123.81025 -0.092182457 -31.258255 -0.090009794 -31.247864 -25.603338 -118.27628
155854000 -25.604128 -124.06187 -0.092797525 -31.459787 -0.090733983 -31.444551 -25.595428 -118.55998
156853000 -25.586399 -124.77016 -0.090552397 -31.642956 -0.089801013 -31.634523 -25.588465 -118.83719
157852000 -25.594563 -124.96232 -0.091523066 -31.844542 -0.09149874 -31.834938 -25.578291 -119.19172
158851000 -25.594051 -125.19778 -0.092194885 -32.045029 -0.091875486 -32.034733 -25.567654 -119.48459
159850000 -25.585217 -125.30396 -0.092561908 -32.246025 -0.091685124 -32.236351 -25.564821 -119.64121
160849000 -25.570011 -125.38785 -0.092752308 -32.44363 -0.092759714 -32.439434 -25.535706 -119.94072
161848000 -25.548847 -125.46954 -0.093457907 -32.645222 -0.092391618 -32.637688 -25.49811 -120.08099
162847000 -25.503763 -125.63099 -0.09413559 -32.841686 -0.092727445 -32.834839 -25.465925 -120.2832
163846000 -25.472145 -125.82009 -0.093908891 -33.042557 -0.093246587 -33.036373 -25.391459 -120.29221
164845000 -25.41057 -125.85094 -0.094259657 -33.243591 -0.093199775 -33.237469 -25.325788 -120.41666
165844000 -25.360794 -125.86424 -0.093753882 -33.443214 -0.093490176 -33.4394 -25.248011 -120.52352
166843000 -25.296755 -125.9129 -0.09411072 -33.63887 -0.093663156 -33.637878 -25.181086 -120.70707
167842000 -25.242281 -126.00918 -0.094317064 -33.844543 -0.093977928 -33.837429 -25.110056 -120.61072
168841000 -25.161758 -126.12973 -0.095110498 -34.040157 -0.094139293 -34.03931 -25.034542 -120.69463
169840000 -25.100702 -126.3746 -0.095016569 -34.236515 -0.094121568 -34.234276 -24.949007 -120.86575
170839000 -25.041613 -126.62702 -0.096366167 -34.432659 -0.094702251 -34.437767 -24.86849 -121.0724
171838000 -24.978254 -127.02007 -0.095713541 -34.639057 -0.095242262 -34.627769 -24.802914 -121.30278
172837000 -24.913248 -127.36332 -0.097504914 -34.835827 -0.096889175 -34.828575 -24.734528 -121.48022
173836000 -24.844107 -127.74545 -0.098562405 -35.032326 -0.097453028 -35.029839 -24.694353 -121.73058
174835000 -24.791121 -128.17632 -0.098932609 -35.227917 -0.098468661 -35.230743 -24.649158 -122.01959
175834000 -24.741398 -128.55255 -0.099739343 -35.429264 -0.09937913 -35.427299 -24.589632 -122.27356
176833000 -24.689486 -128.8735 -0.10054092 -35.630188 -0.10021852 -35.626995 -24.543163 -122.43591
177832000 -24.642174 -129.30273 -0.10158934 -35.830128 -0.09982834 -35.827015 -24.524715 -122.52716
178831000 -24.601925 -129.5307 -0.10391575 -36.024673 -0.10269634 -36.019447 -24.480011 -122.62362
179830000 -24.525753 -129.92693 -0.10502784 -36.207245 -0.10256036 -36.209412 -24.417103 -122.69392
180829000 -24.47789 -130.29103 -0.10371002 -36.40379 -0.10245726 -36.402702 -24.372467 -123.01026
181828000 -24.457365 -130.71875 -0.10299797 -36.600716 -0.10166275 -36.598297 -24.355673 -123.21149
182827000 -24.433681 -131.09753 -0.10305974 -36.798172 -0.10290043 -36.798195 -24.345476 -123.35467
183826000 -24.393238 -131.43205 -0.10387439 -36.998638 -0.10304569 -36.995277 -24.337929 -123.50362
184825000 -24.394386 -131.77988 -0.10375032 -37.196655 -0.10268626 -37.194714 -24.315178 -123.59747
185824000 -24.362822 -132.12932 -0.10355678 -37.390205 -0.1035255 -37.386692 -24.309738 -123.66522
186823000 -24.346142 -132.50337 -0.10400616 -37.592594 -0.10261629 -37.588837 -24.302206 -123.68578
187822000 -24.327112 -132.8277 -0.10395394 -37.784828 -0.10372672 -37.782562 -24.263891 -123.75414
188821000 -24.300592 -133.06931 -0.10430922 -37.982819 -0.10378054 -37.986221 -24.246441 -123.89853
189820000 -24.283012 -133.38805 -0.10440786 -38.182709 -0.10386114 -38.181118 -24.229832 -124.10073
190819000 -24.248842 -133.69164 -0.10484301 -38.380627 -0.10459347 -38.37735 -24.190811 -124.13053
191818000 -24.216661 -133.9633 -0.10530047 -38.576065 -0.10480031 -38.575577 -24.163568 -124.17658
192817000 -24.170681 -134.24698 -0.105745 -38.773548 -0.10531639 -38.775963 -24.116699 -124.26312
193816000 -24.139656 -134.49498 -0.10603783 -38.968582 -0.10476425 -38.971066 -24.0669 -124.38258
194815000 -24.081295 -134.87289 -0.10582669 -39.163624 -0.10582191 -39.168457 -24.002171 -124.45162
195814000 -24.027222 -135.08192 -0.10665593 -39.361256 -0.1055657 -39.36385 -23.946396 -124.56503
196813000 -23.96641 -135.41869 -0.10638055 -39.557442 -0.10527952 -39.560223 -23.862301 -124.70154
197812000 -23.911627 -135.62061 -0.10680767 -39.753521 -0.10650736 -39.752182 -23.79475 -124.76625
198811000 -23.858097 -135.76611 -0.10628559 -39.955963 -0.1059556 -39.952896 -23.729191 -124.96725
199810000 -23.792017 -136.12881 -0.1070499 -40.145367 -0.10619964 -40.145912 -23.65192 -125.04881
200809000 -23.726381 -136.39597 -0.10777986 -40.345314 -0.106384 -40.346268 -23.570705 -125.20554
201808000 -23.674267 -136.60583 -0.10839342 -40.548283 -0.1077788 -40.545662 -23.506187 -125.29665
202807000 -23.614956 -136.92778 -0.10886268 -40.745178 -0.10778411 -40.747715 -23.450258 -125.48994
