!Keysight Technologies,E5080B,MY59205177,A.15.75.32
!Date: Friday, February 23, 2024 02:55:45
!Correction: S11(Cdelta 2-Port  ) 
!S21(Cdelta 2-Port  ) 
!S12(Cdelta 2-Port  ) 
!S22(Cdelta 2-Port  ) 
!S2P File: Measurements: S11, S21, S12, S22:
# Hz S  dB   R 50
10000000 -43.892956 -3.8041735 -0.030121325 -2.0419073 -0.033113182 -2.0976498 -48.522343 -148.8425
10999000 -43.190823 -5.4123278 -0.030859319 -2.2601769 -0.032664299 -2.3131845 -48.195759 -140.59245
11998000 -42.492256 -7.8246202 -0.031276729 -2.4833863 -0.032129925 -2.5266821 -48.289402 -134.99059
12997000 -41.83289 -12.386452 -0.030836117 -2.6598563 -0.032164607 -2.6904812 -47.556709 -128.43201
13996000 -41.625023 -15.464113 -0.030230803 -2.8409142 -0.031913221 -2.8604763 -47.189888 -122.90501
14995000 -41.279484 -19.110491 -0.031704608 -3.0489576 -0.032403752 -3.0767014 -46.737209 -119.25433
15994000 -41.197147 -22.778198 -0.033237346 -3.2673714 -0.035003647 -3.2909524 -46.45256 -115.45007
16993000 -41.188789 -26.807011 -0.032453567 -3.4646702 -0.034048136 -3.4736555 -45.466057 -116.73274
17992000 -41.317387 -31.303099 -0.032077506 -3.6608896 -0.033992305 -3.6645234 -44.899731 -117.89135
18991000 -41.582195 -35.382862 -0.033156745 -3.8760386 -0.034673553 -3.8707161 -44.202934 -117.46011
19990000 -41.448139 -40.528091 -0.036646929 -4.083323 -0.037171677 -4.0799203 -43.51643 -119.53703
20989000 -41.35165 -43.50367 -0.038121086 -4.2847147 -0.038644183 -4.2758217 -42.853283 -119.47153
21988000 -41.255405 -47.896526 -0.038955253 -4.4774776 -0.039453112 -4.4706955 -42.616844 -118.51608
22987000 -41.076435 -52.133991 -0.039718263 -4.6807618 -0.040980745 -4.6717663 -42.357418 -118.41541
23986000 -41.111725 -55.836239 -0.039773643 -4.8765841 -0.04011092 -4.8771062 -42.201977 -118.32424
24985000 -40.80455 -58.657467 -0.0407717 -5.0819321 -0.040511712 -5.0803957 -41.919437 -116.01885
25984000 -40.586082 -60.698711 -0.041446954 -5.29145 -0.040292241 -5.2899418 -41.553444 -115.03387
26983000 -40.306778 -62.727623 -0.041846827 -5.4864001 -0.042091474 -5.502326 -41.452293 -113.87318
27982000 -40.158489 -63.713329 -0.043234643 -5.6865268 -0.043351248 -5.7222033 -41.104004 -112.50816
28981000 -40.154076 -64.892105 -0.040934496 -5.8851652 -0.043047447 -5.9085379 -40.857361 -111.7638
29980000 -39.762611 -66.821922 -0.041566651 -6.0799971 -0.043250591 -6.0821552 -40.51936 -111.17117
30979000 -39.430542 -65.960518 -0.039703369 -6.4317479 -0.03778971 -6.4221501 -40.014442 -112.1607
31978000 -39.23658 -67.246819 -0.038464502 -6.6247706 -0.03903988 -6.6182141 -39.74144 -111.54585
32977000 -39.078999 -68.847214 -0.038085829 -6.8375673 -0.040262192 -6.8265929 -39.51429 -111.7037
33976000 -38.948555 -69.854729 -0.038808465 -7.0363669 -0.040205237 -7.029973 -39.178417 -111.35597
34975000 -38.64748 -70.918236 -0.038938798 -7.2392211 -0.041315243 -7.2361169 -38.931786 -111.06049
35974000 -38.493084 -71.705925 -0.038108028 -7.43292 -0.040150631 -7.4345918 -38.636608 -110.31596
36973000 -38.246918 -72.696411 -0.038356118 -7.6300063 -0.04186251 -7.6355367 -38.333614 -109.62546
37972000 -38.073566 -72.485428 -0.03783384 -7.8367448 -0.040908363 -7.8438058 -38.079094 -108.93669
38971000 -37.766075 -72.246605 -0.03965478 -8.0413427 -0.040926915 -8.0522881 -37.900581 -107.29559
39970000 -37.441452 -72.743141 -0.037504833 -8.2347059 -0.040597677 -8.2486467 -37.609699 -106.95106
40969000 -37.153446 -72.719696 -0.037662283 -8.4271269 -0.039518941 -8.4487848 -37.3298 -105.65337
41968000 -36.83532 -72.936142 -0.038021069 -8.6375513 -0.040334042 -8.6526356 -37.125328 -104.56841
42967000 -36.552811 -73.215309 -0.03809445 -8.8447933 -0.040577296 -8.8610916 -36.885487 -102.6663
43966000 -36.295349 -74.097191 -0.038011666 -9.0435009 -0.041931771 -9.0656452 -36.589912 -102.17682
44965000 -36.077393 -75.002113 -0.039919682 -9.2448721 -0.041567698 -9.2702332 -36.373363 -102.00484
45964000 -35.855316 -76.136223 -0.041301914 -9.44769 -0.043480933 -9.4659576 -36.141708 -101.91475
46963000 -35.68367 -78.058746 -0.040882494 -9.641057 -0.043386023 -9.6651869 -35.964512 -102.27958
47962000 -35.539433 -79.554062 -0.042369068 -9.8452425 -0.045102578 -9.859663 -35.769489 -102.56622
48961000 -35.348335 -81.099541 -0.044360589 -10.039222 -0.04685121 -10.05976 -35.529011 -102.8552
49960000 -35.128662 -82.509415 -0.045583617 -10.237309 -0.047927842 -10.260544 -35.386864 -103.06756
50959000 -34.943508 -83.986641 -0.046079095 -10.451888 -0.048759446 -10.459804 -35.215656 -103.38554
51958000 -34.753326 -85.074471 -0.048360769 -10.651453 -0.050601475 -10.660637 -35.030476 -104.09641
52957000 -34.540821 -86.278 -0.049297702 -10.852122 -0.051272757 -10.855962 -34.869934 -103.90659
53956000 -34.393337 -87.045334 -0.051072385 -11.053269 -0.051594164 -11.052514 -34.732544 -103.92121
54955000 -34.220497 -87.485138 -0.051708378 -11.252062 -0.052920636 -11.246484 -34.584492 -103.94139
55954000 -34.077579 -88.431091 -0.052718349 -11.451103 -0.053421672 -11.448656 -34.473194 -103.73148
56953000 -33.962791 -88.5513 -0.052461054 -11.651405 -0.052317739 -11.639079 -34.407696 -103.94886
57952000 -33.81535 -89.17012 -0.053188179 -11.847515 -0.052743766 -11.841558 -34.293846 -104.09221
58951000 -33.697189 -89.555435 -0.054588534 -12.051272 -0.054972056 -12.029265 -34.145039 -104.30698
59950000 -33.57888 -89.987808 -0.055329915 -12.254861 -0.054920409 -12.228394 -34.079506 -104.52293
60949000 -33.460091 -90.512077 -0.055641394 -12.455016 -0.055675481 -12.427181 -33.988892 -104.79048
61948000 -33.410416 -90.863129 -0.056093182 -12.651381 -0.05519909 -12.632558 -33.897354 -104.94878
62947000 -33.337944 -91.035637 -0.056177884 -12.864811 -0.056233212 -12.842898 -33.757603 -105.27254
63946000 -33.26614 -91.886116 -0.056981169 -13.060363 -0.05699743 -13.041765 -33.655102 -105.39308
64945000 -33.167683 -91.97876 -0.057786435 -13.262092 -0.058018077 -13.244479 -33.54417 -105.91117
65944000 -33.058212 -92.332352 -0.058584508 -13.461422 -0.058026209 -13.447439 -33.4487 -106.381
66943000 -32.926777 -92.748032 -0.056674313 -13.662474 -0.056521941 -13.645639 -33.345707 -106.61884
67942000 -32.873631 -92.658638 -0.058651678 -13.857534 -0.058473002 -13.846577 -33.238842 -106.93449
68941000 -32.758949 -92.854187 -0.058752693 -14.05053 -0.057136178 -14.042022 -33.127136 -106.92472
69940000 -32.657757 -92.84156 -0.05848743 -14.252052 -0.057849921 -14.244371 -32.973488 -107.29552
70939000 -32.559422 -92.769737 -0.058624391 -14.444038 -0.057937801 -14.439621 -32.852112 -107.18353
71938000 -32.40424 -92.430954 -0.058659025 -14.640815 -0.05827754 -14.63492 -32.718277 -107.01192
72937000 -32.233761 -92.293465 -0.057991058 -14.84467 -0.05724214 -14.831626 -32.569939 -106.76143
73936000 -32.105076 -91.937973 -0.057480834 -15.039165 -0.056667756 -15.03293 -32.461788 -106.50964
74935000 -31.986378 -92.282608 -0.0574129 -15.238863 -0.056229804 -15.230431 -32.3069 -106.26969
75934000 -31.86351 -92.527977 -0.056968316 -15.446564 -0.056008223 -15.44176 -32.217888 -106.25033
76933000 -31.73649 -92.943886 -0.058304824 -15.637389 -0.056660675 -15.632869 -32.05204 -106.64073
77932000 -31.636766 -93.764275 -0.058998033 -15.832397 -0.059015874 -15.828057 -31.958492 -106.63115
78931000 -31.573296 -94.544594 -0.058148727 -16.034124 -0.058322404 -16.028322 -31.858587 -106.50511
79930000 -31.46302 -95.371613 -0.060476646 -16.223375 -0.060565107 -16.223612 -31.760695 -106.8205
80929000 -31.338425 -96.199394 -0.062185265 -16.420589 -0.062160581 -16.415318 -31.655731 -107.20945
81928000 -31.257681 -97.143616 -0.061913751 -16.611805 -0.062594406 -16.610786 -31.535118 -107.26522
82927000 -31.169483 -97.892052 -0.063935012 -16.812178 -0.063918985 -16.809183 -31.42807 -107.60509
83926000 -31.058447 -98.621063 -0.06539008 -17.007977 -0.064639628 -17.008242 -31.315397 -107.89274
84925000 -30.954372 -99.1064 -0.065855235 -17.205933 -0.065065026 -17.20293 -31.221819 -108.00939
85924000 -30.861181 -99.523849 -0.066968404 -17.407583 -0.066283122 -17.406017 -31.142511 -107.9505
86923000 -30.760992 -100.10249 -0.067510501 -17.602806 -0.066184558 -17.597633 -31.038507 -107.95456
87922000 -30.661594 -100.51844 -0.067213677 -17.810532 -0.066005573 -17.8008 -30.952087 -108.0172
88921000 -30.591959 -100.83273 -0.068959661 -18.009151 -0.067682184 -18.003439 -30.85734 -108.01132
89920000 -30.493801 -101.34937 -0.068769783 -18.209179 -0.06822411 -18.198687 -30.803509 -108.20623
90919000 -30.392899 -101.72329 -0.069654576 -18.406748 -0.068587795 -18.400383 -30.711687 -108.43031
91918000 -30.30476 -102.12572 -0.070433781 -18.605761 -0.068748482 -18.597202 -30.650417 -108.45457
92917000 -30.216547 -102.45092 -0.071505226 -18.799314 -0.070572697 -18.798033 -30.580435 -108.57758
93916000 -30.130157 -102.86443 -0.071152873 -18.995714 -0.070246994 -18.989565 -30.497231 -109.18342
94915000 -30.059078 -103.52535 -0.072152376 -19.19451 -0.071157612 -19.191824 -30.432716 -109.13943
95914000 -29.997726 -103.67568 -0.073624946 -19.389725 -0.072392419 -19.387306 -30.347416 -109.40594
96913000 -29.914703 -103.91026 -0.074679531 -19.590458 -0.07318344 -19.587809 -30.277176 -109.7177
97912000 -29.831896 -104.40196 -0.075423293 -19.785923 -0.073098145 -19.786205 -30.205715 -109.93654
98911000 -29.73189 -104.62565 -0.076296538 -19.985767 -0.074054912 -19.982498 -30.165049 -110.10961
99910000 -29.66843 -104.75146 -0.076863773 -20.187529 -0.075190984 -20.182417 -30.056044 -110.47195
100909000 -29.581455 -105.00174 -0.07636635 -20.394407 -0.074329026 -20.385796 -29.977034 -110.60872
101908000 -29.495457 -105.27892 -0.077890947 -20.592854 -0.07550969 -20.589384 -29.849953 -110.4026
102907000 -29.359106 -105.27197 -0.077544138 -20.790573 -0.074819371 -20.78793 -29.779266 -110.37096
103906000 -29.266438 -105.37267 -0.078440472 -20.999752 -0.074485451 -20.994112 -29.63279 -110.32862
104905000 -29.116161 -105.23483 -0.07904885 -21.196543 -0.075534977 -21.192091 -29.501719 -110.01444
105904000 -28.973886 -105.40253 -0.079237342 -21.398941 -0.075596347 -21.387148 -29.391882 -109.90067
106903000 -28.869144 -105.50251 -0.078637898 -21.600138 -0.075951435 -21.600033 -29.265949 -109.73961
107902000 -28.704271 -105.85196 -0.080195203 -21.800539 -0.076997362 -21.792423 -29.121086 -109.73958
108901000 -28.596237 -106.14902 -0.080397449 -22.003994 -0.077661671 -21.995853 -28.990191 -109.67725
109900000 -28.471483 -106.64716 -0.080970503 -22.204618 -0.078980312 -22.196968 -28.839077 -109.80078
110899000 -28.353489 -107.30182 -0.082467958 -22.402897 -0.079251841 -22.394245 -28.717772 -110.09476
111898000 -28.263468 -107.95319 -0.083860904 -22.603689 -0.080680408 -22.597364 -28.593328 -110.21976
112897000 -28.143799 -108.52248 -0.085114375 -22.804075 -0.08155629 -22.791019 -28.458702 -110.40745
113896000 -28.037941 -109.15778 -0.086237237 -23.001534 -0.08278878 -22.994141 -28.355232 -110.62202
114895000 -27.939566 -109.78667 -0.08784429 -23.200926 -0.084525734 -23.187782 -28.240871 -110.68662
115894000 -27.809322 -110.15919 -0.089279115 -23.39868 -0.086249918 -23.388464 -28.176882 -110.86335
116893000 -27.72332 -110.74628 -0.088926114 -23.59683 -0.086373754 -23.581261 -28.043201 -111.02463
117892000 -27.645128 -111.27105 -0.089504257 -23.791059 -0.086540118 -23.78157 -27.971872 -111.23881
118891000 -27.592548 -111.65141 -0.089786217 -23.994356 -0.086868107 -23.980242 -27.870941 -111.42575
119890000 -27.503017 -112.0696 -0.091144763 -24.195215 -0.087573811 -24.182638 -27.863218 -111.60777
120889000 -27.450298 -112.56019 -0.091312625 -24.390417 -0.087957345 -24.377764 -27.791796 -111.53659
121888000 -27.409201 -112.93546 -0.091310248 -24.58942 -0.088716067 -24.577135 -27.731808 -111.84954
122887000 -27.365229 -113.11366 -0.092607655 -24.795111 -0.089747109 -24.779562 -27.678574 -111.87389
123886000 -27.311586 -113.52531 -0.093629569 -24.994942 -0.089399613 -24.978939 -27.670204 -112.02229
124885000 -27.274452 -114.06868 -0.094191402 -25.192997 -0.089695312 -25.175161 -27.636625 -112.13477
125884000 -27.224827 -114.26506 -0.094987467 -25.389969 -0.090458035 -25.375481 -27.600891 -112.29333
126883000 -27.200943 -114.62997 -0.094980322 -25.594057 -0.09097109 -25.577408 -27.561247 -112.34998
127882000 -27.151424 -114.91846 -0.094868928 -25.792624 -0.091414407 -25.775248 -27.516222 -112.54516
128881000 -27.120129 -115.24519 -0.095423251 -25.995058 -0.09113472 -25.976225 -27.476175 -112.62207
129880000 -27.06456 -115.5628 -0.096071333 -26.194555 -0.091283284 -26.176727 -27.437841 -112.58438
130879000 -27.006693 -115.73515 -0.095805369 -26.3948 -0.092240103 -26.378044 -27.355804 -112.66732
131878000 -26.938244 -115.96738 -0.095755354 -26.596375 -0.09273988 -26.574459 -27.296366 -112.59434
132877000 -26.869642 -116.03726 -0.095943771 -26.799728 -0.092931338 -26.777159 -27.208344 -112.57423
133876000 -26.780741 -116.18566 -0.096316673 -27.000439 -0.092128254 -26.981033 -27.117304 -112.46169
134875000 -26.683069 -116.29389 -0.096187249 -27.201345 -0.092871577 -27.179747 -27.013121 -112.32117
135874000 -26.603127 -116.30445 -0.096238859 -27.397581 -0.093406864 -27.383125 -26.911768 -112.3097
136873000 -26.491461 -116.26479 -0.096997969 -27.598812 -0.093456849 -27.582977 -26.829882 -112.31136
137872000 -26.409592 -116.38161 -0.096787535 -27.801138 -0.093189195 -27.784935 -26.719078 -112.25989
138871000 -26.336334 -116.55672 -0.097778663 -28.002081 -0.093659192 -27.987158 -26.621389 -112.39557
139870000 -26.237871 -116.81187 -0.09824571 -28.20245 -0.095276132 -28.182604 -26.536804 -112.59279
140869000 -26.154083 -117.28713 -0.10018806 -28.394304 -0.096436299 -28.375696 -26.434395 -112.71178
141868000 -26.056459 -117.78668 -0.10026912 -28.588352 -0.097501211 -28.571999 -26.363073 -113.05099
142867000 -25.981808 -118.03955 -0.099422038 -28.782997 -0.095884763 -28.771374 -26.290251 -113.2257
143866000 -25.908985 -118.50394 -0.10004952 -28.982338 -0.097347662 -28.966557 -26.215397 -113.78412
144865000 -25.856165 -119.08463 -0.10217368 -29.182447 -0.09850309 -29.165956 -26.153954 -114.05644
145864000 -25.802813 -119.38746 -0.10237139 -29.38026 -0.099636838 -29.369835 -26.13096 -114.34861
146863000 -25.757338 -119.77813 -0.10352285 -29.586161 -0.10028183 -29.567261 -26.073456 -114.6675
147862000 -25.717747 -120.18681 -0.10399158 -29.776258 -0.10063682 -29.766924 -26.035564 -115.05063
148861000 -25.685612 -120.68459 -0.10396109 -29.978371 -0.10143592 -29.959993 -26.016403 -115.27329
149860000 -25.674585 -120.87655 -0.10446248 -30.175991 -0.10132305 -30.161497 -25.983425 -115.41563
150859000 -25.653934 -121.24976 -0.10495173 -30.371683 -0.10158219 -30.363842 -25.977514 -115.69148
151858000 -25.632755 -121.57611 -0.10537712 -30.577087 -0.10254022 -30.560469 -25.9674 -115.99454
152857000 -25.618475 -121.92719 -0.10531108 -30.768961 -0.10205336 -30.762903 -25.951437 -116.13114
153856000 -25.610546 -122.12764 -0.10498913 -30.975492 -0.10229559 -30.951027 -25.97077 -116.42371
154855000 -25.607645 -122.28334 -0.10568558 -31.168554 -0.10262477 -31.156328 -25.963223 -116.6462
155854000 -25.616911 -122.57688 -0.10579194 -31.369158 -0.10233746 -31.352989 -25.951429 -116.88146
156853000 -25.60314 -123.26746 -0.10367662 -31.557058 -0.1023584 -31.546322 -25.951797 -117.19476
157852000 -25.608887 -123.47404 -0.10479766 -31.754745 -0.10374979 -31.745237 -25.938976 -117.52937
158851000 -25.602018 -123.73729 -0.10546968 -31.953653 -0.10372619 -31.944294 -25.918633 -117.7698
159850000 -25.590157 -123.81883 -0.10641716 -32.152931 -0.10396083 -32.14291 -25.919262 -117.94659
160849000 -25.571461 -123.94654 -0.10615375 -32.354122 -0.1047197 -32.343658 -25.892143 -118.23335
161848000 -25.5504 -124.0472 -0.10693237 -32.551941 -0.10494457 -32.544346 -25.849674 -118.36961
162847000 -25.506302 -124.23241 -0.10650577 -32.750015 -0.10532805 -32.743782 -25.821211 -118.59692
163846000 -25.471573 -124.47468 -0.10742906 -32.948456 -0.1052713 -32.942566 -25.743862 -118.58687
164845000 -25.402349 -124.493 -0.10811105 -33.142395 -0.10499894 -33.141968 -25.674116 -118.69842
165844000 -25.348213 -124.51919 -0.10737732 -33.345295 -0.10598823 -33.338207 -25.590836 -118.84792
166843000 -25.285316 -124.62878 -0.10739616 -33.546459 -0.10631689 -33.54026 -25.520428 -118.98293
167842000 -25.226049 -124.77268 -0.10724969 -33.742722 -0.10612165 -33.736713 -25.44488 -118.93323
168841000 -25.151995 -124.96503 -0.10821348 -33.942623 -0.10705229 -33.940628 -25.368395 -119.02885
169840000 -25.084011 -125.21749 -0.10876925 -34.140724 -0.10698278 -34.133041 -25.27527 -119.21228
170839000 -25.021582 -125.506 -0.10889958 -34.332527 -0.10692388 -34.329929 -25.190113 -119.3895
171838000 -24.970047 -125.8911 -0.10940472 -34.537029 -0.10821296 -34.529697 -25.125561 -119.62578
172837000 -24.897667 -126.27648 -0.11091653 -34.73101 -0.10915626 -34.724483 -25.05916 -119.85936
173836000 -24.835421 -126.69518 -0.11196561 -34.933708 -0.11077314 -34.92778 -25.017344 -120.09426
174835000 -24.775242 -127.14026 -0.11201023 -35.126507 -0.11116723 -35.12595 -24.969852 -120.438
175834000 -24.727959 -127.53445 -0.11266239 -35.325771 -0.11228012 -35.320286 -24.906385 -120.73211
176833000 -24.678417 -127.90321 -0.11395715 -35.521465 -0.11225089 -35.519703 -24.85306 -120.90051
177832000 -24.630945 -128.38695 -0.11376662 -35.718159 -0.11300245 -35.714878 -24.834881 -121.10277
178831000 -24.589865 -128.77286 -0.1138126 -35.914963 -0.11295542 -35.915825 -24.796736 -121.32376
179830000 -24.55661 -129.20113 -0.11461146 -36.110844 -0.11425878 -36.113285 -24.776312 -121.47882
180829000 -24.517834 -129.3996 -0.11547587 -36.307491 -0.11460163 -36.311069 -24.739628 -121.61954
181828000 -24.488802 -129.80013 -0.11586613 -36.507145 -0.11477838 -36.503773 -24.723738 -121.74973
182827000 -24.467505 -130.11732 -0.11490622 -36.702423 -0.11492509 -36.702133 -24.712994 -121.85888
183826000 -24.425819 -130.46625 -0.11682811 -36.899666 -0.11524407 -36.89695 -24.699015 -121.99835
184825000 -24.428806 -130.78194 -0.11619475 -37.090744 -0.11554658 -37.094196 -24.680628 -122.11361
185824000 -24.398317 -131.14618 -0.11635481 -37.287064 -0.11487034 -37.295422 -24.676374 -122.1395
186823000 -24.391523 -131.47505 -0.11719563 -37.487198 -0.11597115 -37.485394 -24.677021 -122.15845
187822000 -24.37109 -131.79485 -0.11734589 -37.682209 -0.11621176 -37.682888 -24.641218 -122.20256
188821000 -24.348261 -132.07661 -0.11713234 -37.879173 -0.11652551 -37.881985 -24.62772 -122.26926
189820000 -24.332325 -132.29861 -0.11747674 -38.081654 -0.1166909 -38.080372 -24.61474 -122.46531
190819000 -24.303596 -132.55132 -0.11849255 -38.281033 -0.11751903 -38.27898 -24.583317 -122.41881
191818000 -24.266935 -132.72285 -0.11969087 -38.47554 -0.11896449 -38.474476 -24.545963 -122.30477
192817000 -24.196526 -133.01544 -0.12035295 -38.658497 -0.11937156 -38.660179 -24.471947 -122.33752
193816000 -24.160244 -133.34689 -0.11963153 -38.853519 -0.11802731 -38.850555 -24.417549 -122.62796
194815000 -24.102076 -133.78139 -0.11951578 -39.051941 -0.11888787 -39.052193 -24.35478 -122.75332
195814000 -24.049908 -134.02403 -0.12044717 -39.244946 -0.11911082 -39.249393 -24.300022 -122.84863
196813000 -23.992426 -134.35645 -0.11975526 -39.439922 -0.11870696 -39.445549 -24.221607 -123.00598
197812000 -23.935993 -134.59579 -0.11949237 -39.641098 -0.11929813 -39.634296 -24.152729 -123.13605
198811000 -23.882429 -134.75789 -0.12008709 -39.836285 -0.1187075 -39.834084 -24.080898 -123.29327
199810000 -23.815067 -135.13635 -0.11947347 -40.02877 -0.11839253 -40.03117 -24.003458 -123.37539
200809000 -23.755291 -135.40115 -0.12052169 -40.227077 -0.11882083 -40.231068 -23.92741 -123.58791
201808000 -23.696196 -135.63632 -0.12079928 -40.426826 -0.11981646 -40.426659 -23.857553 -123.67812
202807000 -23.642672 -136.02318 -0.12179723 -40.627407 -0.12010386 -40.629219 -23.802727 -123.89585
203806000 -23.587507 -136.50349 -0.12306304 -40.827721 -0.12072556 -40.831184 -23.74267 -124.0416
