!Keysight Technologies,E5080B,MY59205177,A.15.75.32
!Date: Friday, February 23, 2024 03:33:57
!Correction: S11(Cdelta 2-Port  ) 
!S21(Cdelta 2-Port  ) 
!S12(Cdelta 2-Port  ) 
!S22(Cdelta 2-Port  ) 
!S2P File: Measurements: S11, S21, S12, S22:
# Hz S  dB   R 50
10000000 -46.071712 -2.5310805 -0.015434204 -2.0442655 -0.018301576 -2.1006474 -45.961697 -157.35095
10999000 -45.248219 -4.461319 -0.01616529 -2.2655842 -0.018087121 -2.3183162 -45.921936 -151.64581
11998000 -44.347919 -7.3693967 -0.01691287 -2.4863513 -0.017710485 -2.533792 -46.050343 -147.42865
12997000 -43.550259 -13.049077 -0.015880272 -2.6692967 -0.018019017 -2.7058463 -45.721691 -141.6424
13996000 -43.264015 -16.944744 -0.015036237 -2.8504593 -0.018272202 -2.8736186 -45.495937 -136.43008
14995000 -42.907402 -21.351875 -0.017209653 -3.0563183 -0.017978987 -3.0857863 -45.182076 -133.18639
15994000 -42.746704 -25.380119 -0.018321073 -3.2812879 -0.020159597 -3.2992501 -45.016785 -129.94049
16993000 -42.662827 -30.005787 -0.017523868 -3.4745245 -0.019381816 -3.4867268 -44.219452 -128.974
17992000 -42.757828 -35.379238 -0.017922841 -3.6756775 -0.019584894 -3.678457 -43.662109 -129.37024
18991000 -42.991184 -41.128338 -0.019552389 -3.8864989 -0.021151595 -3.8843503 -43.005165 -128.31262
19990000 -42.75407 -46.873917 -0.02132562 -4.0953059 -0.023173485 -4.0922804 -42.342155 -129.10789
20989000 -42.596352 -50.100719 -0.02354539 -4.297215 -0.025391335 -4.2879801 -41.791641 -128.04167
21988000 -42.439861 -55.240955 -0.024191942 -4.4946361 -0.025590528 -4.4885364 -41.559761 -127.70375
22987000 -42.119602 -59.772747 -0.025360871 -4.697197 -0.026593404 -4.6868339 -41.272709 -127.04909
23986000 -42.034485 -64.250427 -0.025545221 -4.8900886 -0.02566448 -4.8885503 -41.161057 -127.10105
24985000 -41.614254 -66.914719 -0.026703056 -5.1022215 -0.02622905 -5.0974212 -40.979069 -124.56077
25984000 -41.248241 -69.081589 -0.026989305 -5.3025413 -0.026504332 -5.308495 -40.634567 -123.07742
26983000 -40.981022 -71.045357 -0.028437519 -5.5031071 -0.026900746 -5.5234137 -40.505497 -122.42062
27982000 -40.768436 -71.927116 -0.029221876 -5.704627 -0.028580569 -5.7410054 -40.258099 -120.57519
28981000 -40.7411 -73.710129 -0.027423276 -5.9020815 -0.02829734 -5.9264846 -40.012554 -120.05961
29980000 -40.368835 -74.760551 -0.027439166 -6.093832 -0.029122846 -6.1061869 -39.790138 -119.13806
30979000 -39.966969 -73.710258 -0.025403572 -6.4508128 -0.023178689 -6.4445877 -39.260944 -119.56338
31978000 -39.754719 -74.773674 -0.023393657 -6.6496091 -0.025394199 -6.6344328 -38.994106 -118.7697
32977000 -39.560127 -76.231308 -0.023552157 -6.859447 -0.025180435 -6.8564353 -38.755943 -118.71777
33976000 -39.387608 -77.314133 -0.024416331 -7.0581326 -0.025614485 -7.0543356 -38.467949 -118.20167
34975000 -39.097805 -78.152382 -0.024769859 -7.2582202 -0.026864801 -7.2566485 -38.273697 -117.79175
35974000 -38.891632 -78.606369 -0.024434814 -7.455317 -0.026492871 -7.4569812 -37.979324 -117.01748
36973000 -38.640198 -79.356117 -0.02447308 -7.6521144 -0.027830977 -7.6559525 -37.699722 -116.08877
37972000 -38.497494 -79.143692 -0.024536079 -7.8626766 -0.027233377 -7.8705211 -37.503536 -115.18878
38971000 -38.166183 -78.59523 -0.025485333 -8.0657215 -0.027424579 -8.0786715 -37.336823 -113.72363
39970000 -37.836227 -78.889992 -0.023107123 -8.2571793 -0.026742123 -8.2743196 -37.058681 -113.05829
40969000 -37.537746 -78.613579 -0.024549877 -8.4561749 -0.026292074 -8.4755678 -36.838772 -111.73145
41968000 -37.206516 -78.47451 -0.024235673 -8.6640635 -0.02588556 -8.6800995 -36.630726 -110.47203
42967000 -36.940624 -78.587837 -0.023954028 -8.8730841 -0.02700259 -8.8941336 -36.445961 -108.51518
43966000 -36.630516 -79.233452 -0.024768557 -9.0758295 -0.028584737 -9.0883112 -36.157623 -107.82879
44965000 -36.409878 -79.929398 -0.025263753 -9.2790337 -0.028331732 -9.2910633 -35.963783 -107.64997
45964000 -36.180984 -81.014549 -0.027305271 -9.4736681 -0.030547267 -9.4928036 -35.73243 -107.17787
46963000 -35.977341 -83.009262 -0.02693643 -9.6716194 -0.029883608 -9.689847 -35.547348 -107.61287
47962000 -35.820763 -84.357239 -0.028160812 -9.8730383 -0.03226136 -9.8896141 -35.348766 -107.51778
48961000 -35.603172 -85.748077 -0.030242013 -10.069747 -0.032781668 -10.091745 -35.12608 -107.71632
49960000 -35.373623 -87.079788 -0.031679839 -10.270535 -0.033601243 -10.293663 -34.979954 -107.7942
50959000 -35.146297 -88.385941 -0.032286655 -10.482836 -0.035094202 -10.49231 -34.797428 -107.99141
51958000 -34.93861 -89.432205 -0.03412693 -10.682392 -0.036558691 -10.69526 -34.633671 -108.53225
52957000 -34.723507 -90.356659 -0.035763353 -10.883313 -0.037749235 -10.889162 -34.471584 -108.2446
53956000 -34.561184 -91.140526 -0.036806434 -11.082666 -0.038388763 -11.089049 -34.322601 -108.21874
54955000 -34.393726 -91.617966 -0.038361341 -11.282614 -0.039073575 -11.280671 -34.182758 -108.23145
55954000 -34.218842 -92.45285 -0.039296381 -11.488266 -0.039753791 -11.483992 -34.076736 -107.85005
56953000 -34.105877 -92.489929 -0.038382757 -11.683342 -0.03893958 -11.673825 -33.994385 -107.99597
57952000 -33.931091 -93.087509 -0.0401522 -11.881511 -0.039700758 -11.873851 -33.90237 -108.13783
58951000 -33.813545 -93.36367 -0.040607605 -12.092345 -0.040907055 -12.063206 -33.754662 -108.25784
59950000 -33.686684 -93.724655 -0.04156404 -12.28454 -0.041188497 -12.26612 -33.68663 -108.48724
60949000 -33.573589 -94.305565 -0.041832976 -12.487617 -0.04136385 -12.465963 -33.592449 -108.73109
61948000 -33.509052 -94.618835 -0.042505782 -12.691794 -0.041436501 -12.671692 -33.490646 -108.75141
62947000 -33.420444 -94.871689 -0.042477027 -12.900478 -0.042673867 -12.880475 -33.351295 -109.10539
63946000 -33.34523 -95.646896 -0.043841247 -13.101214 -0.043998402 -13.083853 -33.239922 -109.22601
64945000 -33.236629 -95.762054 -0.044417337 -13.301702 -0.043898251 -13.281666 -33.129429 -109.68285
65944000 -33.135052 -96.038857 -0.044889931 -13.503334 -0.044103786 -13.484026 -33.040295 -110.18204
66943000 -32.990673 -96.427002 -0.043054245 -13.702826 -0.042875424 -13.688112 -32.938511 -110.39663
67942000 -32.938026 -96.409126 -0.044634927 -13.898956 -0.044275071 -13.886286 -32.810944 -110.69463
68941000 -32.822945 -96.396667 -0.044688281 -14.093707 -0.043733776 -14.081967 -32.700966 -110.67666
69940000 -32.729115 -96.390167 -0.044749219 -14.29343 -0.044469643 -14.284277 -32.563221 -110.95972
70939000 -32.619572 -96.441414 -0.044172037 -14.488011 -0.043949503 -14.485188 -32.436245 -110.84963
71938000 -32.476204 -95.955971 -0.043844908 -14.683263 -0.044370525 -14.677585 -32.296421 -110.73264
72937000 -32.312046 -95.825325 -0.043729592 -14.886456 -0.043548655 -14.882554 -32.16679 -110.40981
73936000 -32.180767 -95.414215 -0.043779537 -15.08225 -0.04359781 -15.071395 -32.037556 -110.14466
74935000 -32.050293 -95.683594 -0.04317686 -15.278191 -0.042334303 -15.275761 -31.89229 -109.84914
75934000 -31.926054 -95.85511 -0.043526165 -15.485117 -0.042724058 -15.485535 -31.808569 -109.77119
76933000 -31.809343 -96.270332 -0.04426435 -15.684961 -0.044163149 -15.678184 -31.634178 -110.09364
77932000 -31.699034 -96.984238 -0.045206156 -15.882306 -0.045455698 -15.871979 -31.537245 -110.06375
78931000 -31.626432 -97.722733 -0.044781391 -16.078644 -0.043891191 -16.076664 -31.432384 -109.87761
79930000 -31.49811 -98.617142 -0.046760935 -16.26911 -0.04690171 -16.269493 -31.332623 -110.25012
80929000 -31.391487 -99.369576 -0.048967827 -16.469307 -0.048182778 -16.468506 -31.240555 -110.53651
81928000 -31.29039 -100.1353 -0.048993748 -16.662079 -0.049301106 -16.658264 -31.109146 -110.48302
82927000 -31.18252 -100.8655 -0.050500907 -16.860666 -0.050650973 -16.858557 -30.996868 -110.72297
83926000 -31.081709 -101.56485 -0.05228499 -17.05748 -0.050827757 -17.057114 -30.881592 -110.90739
84925000 -30.970335 -101.9912 -0.052571096 -17.261383 -0.051619049 -17.252506 -30.781076 -111.00896
85924000 -30.879629 -102.31841 -0.053076547 -17.456944 -0.052760273 -17.458389 -30.699928 -110.9516
86923000 -30.773102 -102.83961 -0.054015025 -17.659424 -0.052958895 -17.64924 -30.601614 -110.77362
87922000 -30.661245 -103.18676 -0.053277802 -17.86405 -0.052764729 -17.854401 -30.520931 -110.82291
88921000 -30.58909 -103.46243 -0.054350264 -18.062666 -0.054175958 -18.055548 -30.415979 -110.856
89920000 -30.485775 -103.99201 -0.054925915 -18.25952 -0.054158658 -18.252483 -30.362528 -110.94334
90919000 -30.381878 -104.23907 -0.056385837 -18.459318 -0.05540647 -18.45187 -30.28474 -111.17208
91918000 -30.288279 -104.58952 -0.05717919 -18.661264 -0.055371862 -18.654247 -30.210136 -111.17609
92917000 -30.195911 -104.87959 -0.057840738 -18.860487 -0.056977496 -18.854441 -30.141897 -111.23752
93916000 -30.108982 -105.21614 -0.057470869 -19.050007 -0.057015263 -19.046812 -30.047766 -111.84937
94915000 -30.02825 -105.87206 -0.058981761 -19.250786 -0.057571858 -19.243839 -29.998064 -111.73745
95914000 -29.973082 -106.06179 -0.060063507 -19.445507 -0.058721207 -19.441414 -29.899734 -111.95158
96913000 -29.879177 -106.26823 -0.060534395 -19.645998 -0.05978268 -19.645296 -29.846996 -112.29696
97912000 -29.799314 -106.70836 -0.06213117 -19.8423 -0.059890285 -19.843002 -29.765127 -112.55316
98911000 -29.694469 -106.91223 -0.06256105 -20.044909 -0.060840473 -20.042927 -29.720127 -112.77592
99910000 -29.629036 -107.03329 -0.063281469 -20.243998 -0.061257359 -20.242268 -29.6178 -113.09527
100909000 -29.546328 -107.31619 -0.062265094 -20.453197 -0.060575344 -20.444597 -29.521954 -113.26493
101908000 -29.445356 -107.50246 -0.063640535 -20.6551 -0.062225178 -20.649733 -29.426003 -113.00291
102907000 -29.313835 -107.50087 -0.064275481 -20.853123 -0.06246835 -20.848324 -29.344521 -113.0346
103906000 -29.225294 -107.55651 -0.064330913 -21.055401 -0.062022984 -21.053234 -29.200279 -112.95763
104905000 -29.077789 -107.44983 -0.06529443 -21.258169 -0.062357266 -21.255262 -29.081158 -112.65094
105904000 -28.936666 -107.52267 -0.065171972 -21.461819 -0.062918484 -21.452646 -28.959368 -112.54022
106903000 -28.814762 -107.63199 -0.066113591 -21.663961 -0.062872261 -21.65974 -28.837448 -112.45488
107902000 -28.657955 -107.94022 -0.066772297 -21.868444 -0.063377596 -21.857544 -28.70462 -112.41351
108901000 -28.553495 -108.16814 -0.067133233 -22.067961 -0.065350927 -22.062401 -28.574745 -112.30345
109900000 -28.424389 -108.61662 -0.067969836 -22.265493 -0.066095456 -22.259947 -28.431225 -112.44741
110899000 -28.301079 -109.26115 -0.06898281 -22.465794 -0.067086965 -22.457602 -28.29937 -112.67437
111898000 -28.208055 -109.93063 -0.071014993 -22.666876 -0.068058185 -22.661486 -28.179857 -112.78869
112897000 -28.082966 -110.41881 -0.071986832 -22.864809 -0.068902858 -22.857082 -28.050041 -112.99462
113896000 -27.981379 -110.99107 -0.073106043 -23.070276 -0.070694774 -23.057953 -27.942909 -113.09598
114895000 -27.881268 -111.63609 -0.073872179 -23.266287 -0.071531542 -23.253134 -27.832104 -113.19769
115894000 -27.75375 -111.95988 -0.075343221 -23.467964 -0.072728023 -23.456701 -27.762539 -113.39075
116893000 -27.678129 -112.45943 -0.075538136 -23.666519 -0.073743165 -23.644203 -27.639391 -113.41986
117892000 -27.597782 -112.95116 -0.075707771 -23.861826 -0.074353255 -23.845551 -27.569372 -113.61877
118891000 -27.538416 -113.39719 -0.076395065 -24.061676 -0.074245289 -24.051132 -27.463709 -113.72076
119890000 -27.45373 -113.74564 -0.07721369 -24.264297 -0.07548862 -24.249743 -27.452667 -113.87684
120889000 -27.403078 -114.23206 -0.07842914 -24.461124 -0.075027429 -24.450369 -27.379501 -113.82227
121888000 -27.361324 -114.53815 -0.078639477 -24.66091 -0.076024666 -24.646091 -27.325615 -114.10797
122887000 -27.321581 -114.77249 -0.079508886 -24.865017 -0.076623224 -24.852736 -27.27137 -114.11739
123886000 -27.270084 -115.17641 -0.080475509 -25.06259 -0.077285364 -25.045589 -27.265848 -114.25626
124885000 -27.23432 -115.66051 -0.080494754 -25.265942 -0.076870628 -25.24745 -27.236938 -114.29207
125884000 -27.185139 -115.85206 -0.081053838 -25.463942 -0.07711567 -25.448301 -27.201319 -114.49138
126883000 -27.162521 -116.26727 -0.081165664 -25.665327 -0.078537732 -25.653593 -27.159462 -114.43284
127882000 -27.115309 -116.54272 -0.081753589 -25.871183 -0.078449696 -25.849165 -27.12245 -114.58853
128881000 -27.080589 -116.89544 -0.082294106 -26.069962 -0.078685604 -26.050695 -27.084318 -114.70409
129880000 -27.030788 -117.17596 -0.082705669 -26.270838 -0.07915087 -26.250593 -27.044437 -114.61105
130879000 -26.971819 -117.35938 -0.082682982 -26.46966 -0.079931259 -26.454926 -26.971764 -114.6555
131878000 -26.904715 -117.57309 -0.08260119 -26.67482 -0.079679199 -26.653191 -26.912531 -114.55885
132877000 -26.837246 -117.67692 -0.082929149 -26.874928 -0.080145888 -26.855356 -26.833445 -114.50503
133876000 -26.754089 -117.83718 -0.083096169 -27.073671 -0.080028288 -27.057106 -26.742414 -114.40012
134875000 -26.65427 -117.94256 -0.083038643 -27.272459 -0.081203647 -27.258348 -26.638569 -114.26581
135874000 -26.576294 -117.99831 -0.083069518 -27.479158 -0.080615796 -27.460512 -26.545599 -114.20211
136873000 -26.466455 -117.89225 -0.084092088 -27.677784 -0.080241874 -27.66114 -26.464975 -114.15068
137872000 -26.381491 -118.05167 -0.083609402 -27.882698 -0.080759257 -27.862881 -26.363735 -114.07018
138871000 -26.310066 -118.25552 -0.08402954 -28.082754 -0.08091116 -28.064447 -26.26955 -114.23869
139870000 -26.209799 -118.56059 -0.084658504 -28.278809 -0.082018696 -28.262274 -26.188377 -114.42149
140869000 -26.130352 -119.07658 -0.085546799 -28.476946 -0.082164049 -28.46047 -26.086046 -114.62716
141868000 -26.05032 -119.49569 -0.0865454 -28.67798 -0.084143028 -28.659994 -26.034613 -114.85236
142867000 -25.973995 -119.68906 -0.084577993 -28.874247 -0.083545543 -28.856987 -25.959141 -114.97793
143866000 -25.902576 -120.1346 -0.087063007 -29.069466 -0.084643453 -29.054846 -25.881977 -115.44888
144865000 -25.839966 -120.687 -0.088151507 -29.270578 -0.085802108 -29.253107 -25.830769 -115.74554
145864000 -25.788116 -120.96474 -0.088867456 -29.470505 -0.086754546 -29.460535 -25.796328 -115.98753
146863000 -25.742577 -121.36364 -0.089593835 -29.668562 -0.087431446 -29.655596 -25.744352 -116.29749
147862000 -25.706652 -121.6955 -0.091178864 -29.867775 -0.088205129 -29.856888 -25.715754 -116.60237
148861000 -25.670872 -122.12687 -0.092021167 -30.066118 -0.089347817 -30.052908 -25.691128 -116.73786
149860000 -25.641825 -122.27531 -0.093326725 -30.256277 -0.089825861 -30.242315 -25.641876 -116.86743
150859000 -25.611973 -122.76092 -0.092528328 -30.455746 -0.090102293 -30.440586 -25.61968 -117.23648
151858000 -25.60104 -123.07725 -0.091492131 -30.658998 -0.089486547 -30.648163 -25.608789 -117.57745
152857000 -25.590397 -123.42345 -0.092058979 -30.856276 -0.089679986 -30.841251 -25.59465 -117.72972
153856000 -25.58219 -123.64066 -0.092022493 -31.061853 -0.089235254 -31.044729 -25.606291 -118.05866
154855000 -25.582012 -123.80406 -0.092649698 -31.257662 -0.089525126 -31.241129 -25.597744 -118.29388
155854000 -25.603781 -124.03605 -0.093359523 -31.458008 -0.09009172 -31.438713 -25.592056 -118.55054
156853000 -25.584652 -124.75484 -0.090957604 -31.648352 -0.089112386 -31.637894 -25.585546 -118.87546
157852000 -25.592932 -124.96671 -0.092109218 -31.844501 -0.09098959 -31.833237 -25.578402 -119.20893
158851000 -25.590736 -125.1637 -0.092217095 -32.043411 -0.090998314 -32.0345 -25.563812 -119.47916
159850000 -25.580645 -125.27758 -0.092961222 -32.241592 -0.091001488 -32.234135 -25.56275 -119.6892
160849000 -25.567398 -125.37335 -0.092946947 -32.443016 -0.092073254 -32.435493 -25.531443 -119.96878
161848000 -25.548 -125.48564 -0.093453147 -32.643814 -0.091951631 -32.635574 -25.490372 -120.05975
162847000 -25.505775 -125.6424 -0.093854137 -32.840721 -0.092816301 -32.835163 -25.463831 -120.31808
163846000 -25.467983 -125.85118 -0.09353964 -33.045818 -0.092424929 -33.035645 -25.383556 -120.32916
164845000 -25.411787 -125.80943 -0.094117068 -33.240246 -0.092279501 -33.239185 -25.326157 -120.4082
165844000 -25.360373 -125.85252 -0.094037451 -33.442673 -0.093265101 -33.436836 -25.247988 -120.54922
166843000 -25.297575 -125.90701 -0.093774252 -33.639503 -0.093064368 -33.635155 -25.183283 -120.70772
167842000 -25.240679 -126.03382 -0.094314411 -33.842888 -0.093241297 -33.834229 -25.099962 -120.63124
168841000 -25.165953 -126.18774 -0.094894595 -34.037525 -0.094205424 -34.038048 -25.03138 -120.7066
169840000 -25.095793 -126.40736 -0.094714686 -34.235229 -0.094615474 -34.234623 -24.946955 -120.90343
170839000 -25.035299 -126.62502 -0.095577523 -34.435062 -0.094824485 -34.429398 -24.859766 -121.05599
171838000 -24.980679 -127.05142 -0.096035339 -34.637394 -0.095937952 -34.631256 -24.79813 -121.2841
172837000 -24.906479 -127.3694 -0.097390018 -34.832016 -0.096453503 -34.827717 -24.735867 -121.50665
173836000 -24.838718 -127.77596 -0.098273516 -35.029663 -0.098049246 -35.027828 -24.694586 -121.72224
174835000 -24.786722 -128.19127 -0.098720491 -35.226696 -0.098299198 -35.226669 -24.651854 -122.00662
175834000 -24.738209 -128.57207 -0.10042224 -35.426987 -0.099177584 -35.42561 -24.589216 -122.29653
176833000 -24.685266 -128.91452 -0.10050145 -35.62991 -0.099441633 -35.62368 -24.53956 -122.41727
177832000 -24.639214 -129.29698 -0.10124885 -35.824852 -0.10069299 -35.830036 -24.519567 -122.55369
178831000 -24.59853 -129.54675 -0.10388924 -36.023453 -0.10305311 -36.023125 -24.477282 -122.62608
179830000 -24.520044 -129.94489 -0.10435323 -36.209145 -0.10356898 -36.20953 -24.41324 -122.71733
180829000 -24.474205 -130.27759 -0.10285431 -36.399097 -0.10242705 -36.399654 -24.374599 -123.01077
181828000 -24.452942 -130.70937 -0.10378213 -36.602142 -0.10188004 -36.598324 -24.353584 -123.20876
182827000 -24.42897 -131.11452 -0.10276896 -36.798141 -0.10198711 -36.797886 -24.342184 -123.30836
183826000 -24.390886 -131.40692 -0.10409525 -36.9981 -0.10232104 -36.994659 -24.333693 -123.47932
184825000 -24.390036 -131.75548 -0.10360742 -37.19693 -0.10275465 -37.193085 -24.316608 -123.59349
185824000 -24.363506 -132.1311 -0.10365806 -37.389755 -0.10345339 -37.388901 -24.309757 -123.68182
186823000 -24.346375 -132.48271 -0.10370286 -37.590706 -0.10308545 -37.588505 -24.301588 -123.67331
187822000 -24.325926 -132.832 -0.10461787 -37.786396 -0.10300752 -37.78495 -24.265842 -123.77943
188821000 -24.300936 -133.05757 -0.10360079 -37.978146 -0.10306769 -37.983429 -24.242844 -123.86668
189820000 -24.282032 -133.40112 -0.10459825 -38.180264 -0.10403877 -38.180782 -24.226965 -124.09571
190819000 -24.248541 -133.6904 -0.10466189 -38.376671 -0.1043193 -38.376732 -24.185732 -124.13723
191818000 -24.215998 -133.96999 -0.10460408 -38.576717 -0.10440892 -38.577095 -24.161165 -124.1634
192817000 -24.173403 -134.25995 -0.10537262 -38.775005 -0.10514691 -38.775242 -24.114193 -124.25787
193816000 -24.139311 -134.52055 -0.10468841 -38.968666 -0.10498488 -38.968384 -24.066841 -124.40302
194815000 -24.078651 -134.90581 -0.10602987 -39.163624 -0.10566568 -39.168564 -23.999252 -124.45035
195814000 -24.024847 -135.09657 -0.10597204 -39.36132 -0.10561132 -39.363159 -23.942041 -124.56543
196813000 -23.96867 -135.45259 -0.10627577 -39.558674 -0.10519359 -39.558277 -23.862562 -124.70124
197812000 -23.911711 -135.63757 -0.10615613 -39.75214 -0.10645006 -39.749249 -23.793489 -124.7999
198811000 -23.8598 -135.811 -0.10666654 -39.951672 -0.1053933 -39.955093 -23.725183 -124.98494
199810000 -23.789034 -136.14928 -0.1067647 -40.146423 -0.10584658 -40.145195 -23.650869 -125.0812
200809000 -23.729454 -136.38013 -0.10763843 -40.342335 -0.10590706 -40.348648 -23.571705 -125.2132
201808000 -23.674034 -136.6109 -0.10772387 -40.547668 -0.10699657 -40.544262 -23.503574 -125.3171
202807000 -23.613829 -136.95511 -0.1082119 -40.744751 -0.10791838 -40.749081 -23.45282 -125.48054
