!Keysight Technologies,E5080B,MY59205177,A.15.75.32
!Date: Friday, February 23, 2024 03:34:04
!Correction: S11(Cdelta 2-Port  ) 
!S21(Cdelta 2-Port  ) 
!S12(Cdelta 2-Port  ) 
!S22(Cdelta 2-Port  ) 
!S2P File: Measurements: S11, S21, S12, S22:
# Hz S  dB   R 50
10000000 -46.082005 -2.4672246 -0.01466506 -2.0446029 -0.018471848 -2.0997195 -45.915478 -158.03139
10999000 -45.225891 -4.4973335 -0.016068377 -2.2662625 -0.018641608 -2.3200178 -45.918114 -151.65672
11998000 -44.338554 -7.380167 -0.016532958 -2.4905989 -0.018524101 -2.5296166 -46.113888 -146.90396
12997000 -43.569252 -13.091195 -0.015401731 -2.6689534 -0.017528025 -2.6998875 -45.636391 -141.65504
13996000 -43.31234 -16.95273 -0.014291836 -2.8462059 -0.018200455 -2.8721917 -45.461632 -136.33713
14995000 -42.934525 -21.122107 -0.017135585 -3.0618196 -0.017527506 -3.0852113 -45.182598 -133.05959
15994000 -42.778957 -25.906862 -0.017781442 -3.2794623 -0.020309916 -3.2995591 -44.96981 -129.65312
16993000 -42.678089 -30.684298 -0.017653042 -3.4727383 -0.019369854 -3.4850478 -44.192345 -128.92088
17992000 -42.748821 -35.512302 -0.018064506 -3.6733539 -0.020399123 -3.6744664 -43.632904 -129.19714
18991000 -42.999996 -41.078014 -0.018587014 -3.885421 -0.02096509 -3.8815475 -43.044601 -127.96307
19990000 -42.753361 -46.801098 -0.021079801 -4.0930071 -0.022966076 -4.0894723 -42.353794 -128.85866
20989000 -42.58963 -50.073067 -0.023123778 -4.3020244 -0.024767516 -4.2897215 -41.806309 -128.3409
21988000 -42.379578 -55.587891 -0.02380098 -4.4967208 -0.025654064 -4.4827623 -41.572887 -127.82724
22987000 -42.037872 -60.417236 -0.025069 -4.6983275 -0.026482195 -4.6860604 -41.293053 -127.04641
23986000 -41.998505 -64.507378 -0.024852127 -4.8925333 -0.025054159 -4.8871317 -41.187084 -126.75517
24985000 -41.601303 -66.900383 -0.025739213 -5.09868 -0.026233999 -5.0933037 -41.020267 -124.49032
25984000 -41.260338 -69.232811 -0.026512144 -5.3052835 -0.026064202 -5.3083525 -40.607681 -123.10661
26983000 -40.917343 -71.043472 -0.027962804 -5.5019536 -0.027327154 -5.5249658 -40.502014 -122.22542
27982000 -40.807457 -71.814987 -0.029075939 -5.7025404 -0.028575096 -5.7411304 -40.248978 -120.63207
28981000 -40.786346 -73.396217 -0.027127881 -5.8994031 -0.028750723 -5.9236445 -40.018513 -119.99773
29980000 -40.324722 -74.814064 -0.026880689 -6.0981288 -0.029786909 -6.1018105 -39.722614 -119.09978
30979000 -39.945869 -73.627449 -0.024933876 -6.4479065 -0.024018582 -6.443861 -39.233631 -119.46597
31978000 -39.749523 -74.679535 -0.023578444 -6.6448593 -0.025328325 -6.6365938 -39.00169 -118.73139
32977000 -39.564552 -76.130196 -0.023949604 -6.8554111 -0.025411123 -6.8533831 -38.776775 -118.79385
33976000 -39.359192 -77.261086 -0.024666766 -7.0610342 -0.025686873 -7.052206 -38.468586 -118.17154
34975000 -39.080757 -78.203201 -0.024584239 -7.2579741 -0.026856467 -7.2557287 -38.221134 -117.90495
35974000 -38.900124 -78.800217 -0.023807228 -7.4519815 -0.026279835 -7.4561601 -37.978909 -116.94353
36973000 -38.675774 -79.390854 -0.024180228 -7.6530895 -0.027403999 -7.6593819 -37.704361 -115.91032
37972000 -38.504234 -79.042877 -0.023412136 -7.8612909 -0.027153147 -7.8725796 -37.483913 -115.37125
38971000 -38.173397 -78.529495 -0.024504319 -8.0658922 -0.02756968 -8.0741577 -37.323105 -113.64731
39970000 -37.85664 -78.929924 -0.02280057 -8.2644911 -0.025858218 -8.2764292 -37.053715 -113.11398
40969000 -37.554031 -78.744644 -0.023847831 -8.4526129 -0.026197799 -8.4761591 -36.840775 -111.71548
41968000 -37.209476 -78.490166 -0.023815295 -8.6632643 -0.026955444 -8.6749287 -36.638611 -110.40107
42967000 -36.951271 -78.64772 -0.023193784 -8.8742514 -0.026773117 -8.8875151 -36.459446 -108.77442
43966000 -36.663181 -79.289932 -0.024806827 -9.0735798 -0.027860938 -9.0928946 -36.179054 -107.88649
44965000 -36.414635 -79.970345 -0.025084881 -9.2756786 -0.027939357 -9.2920685 -35.962921 -107.68183
45964000 -36.183395 -81.013359 -0.026373591 -9.4777098 -0.029444961 -9.4944382 -35.732616 -107.32532
46963000 -35.967056 -83.033386 -0.026951797 -9.6683512 -0.029642256 -9.6913013 -35.536434 -107.52277
47962000 -35.827034 -84.498077 -0.028110789 -9.8724747 -0.0310061 -9.8894997 -35.344433 -107.59652
48961000 -35.603214 -85.749115 -0.030086396 -10.068153 -0.032762107 -10.092492 -35.126427 -107.73859
49960000 -35.361855 -87.1325 -0.031676449 -10.268057 -0.033633333 -10.292283 -34.977272 -107.75476
50959000 -35.155216 -88.384613 -0.032250147 -10.481696 -0.03513778 -10.493839 -34.81356 -108.02879
51958000 -34.927074 -89.482887 -0.03402622 -10.68078 -0.036301047 -10.691901 -34.625004 -108.44232
52957000 -34.716633 -90.44117 -0.035265915 -10.882213 -0.037399869 -10.889896 -34.470699 -108.15388
53956000 -34.545074 -91.178917 -0.036316708 -11.08261 -0.038709216 -11.08492 -34.34132 -108.1741
54955000 -34.382069 -91.599998 -0.036908772 -11.282843 -0.039082192 -11.282138 -34.189636 -108.1891
55954000 -34.212814 -92.455421 -0.038539454 -11.486032 -0.039468002 -11.486136 -34.082706 -107.81879
56953000 -34.094082 -92.518188 -0.038122915 -11.682633 -0.037834622 -11.672303 -34.013908 -108.00226
57952000 -33.936127 -93.066719 -0.039582942 -11.876661 -0.039685607 -11.872803 -33.914154 -108.13616
58951000 -33.80904 -93.382393 -0.039653737 -12.084964 -0.040793128 -12.066593 -33.756477 -108.23304
59950000 -33.680477 -93.689453 -0.04054359 -12.285134 -0.041474134 -12.266463 -33.680241 -108.5151
60949000 -33.573048 -94.323219 -0.041017331 -12.490489 -0.041936737 -12.465795 -33.57547 -108.79207
61948000 -33.518013 -94.565231 -0.041947193 -12.688828 -0.04225719 -12.67347 -33.499527 -108.89954
62947000 -33.417763 -94.817223 -0.041895181 -12.900967 -0.041923147 -12.881066 -33.355423 -109.11848
63946000 -33.345112 -95.540916 -0.04290941 -13.101993 -0.043591797 -13.080359 -33.249096 -109.25276
64945000 -33.230915 -95.728203 -0.043435961 -13.302353 -0.04378555 -13.28319 -33.1404 -109.66711
65944000 -33.127899 -96.054047 -0.044087049 -13.502569 -0.044171516 -13.484462 -33.02808 -110.17266
66943000 -32.988613 -96.396172 -0.0419336 -13.703326 -0.042662367 -13.68622 -32.932301 -110.42485
67942000 -32.935772 -96.352684 -0.044390924 -13.898454 -0.044058025 -13.887251 -32.799137 -110.65765
68941000 -32.81955 -96.464149 -0.044054884 -14.092829 -0.04374842 -14.083842 -32.707649 -110.6819
69940000 -32.721462 -96.427162 -0.044066653 -14.293559 -0.043932505 -14.283411 -32.561466 -110.95889
70939000 -32.614964 -96.385284 -0.044166286 -14.488503 -0.044303317 -14.480957 -32.418587 -110.80999
71938000 -32.471012 -95.945557 -0.044133075 -14.683181 -0.044566147 -14.679205 -32.299862 -110.68501
72937000 -32.310562 -95.83667 -0.043463152 -14.883099 -0.042888757 -14.879238 -32.160873 -110.36128
73936000 -32.185635 -95.453384 -0.043531395 -15.082895 -0.043319874 -15.072783 -32.044315 -110.22321
74935000 -32.058926 -95.657585 -0.042599365 -15.27849 -0.041767113 -15.275546 -31.884466 -109.86108
75934000 -31.924797 -95.905708 -0.042735562 -15.489196 -0.042482514 -15.48122 -31.801311 -109.75769
76933000 -31.794445 -96.253517 -0.043906096 -15.683076 -0.043903742 -15.675665 -31.626379 -110.1181
77932000 -31.697727 -97.074776 -0.044934396 -15.87793 -0.04557969 -15.872221 -31.534561 -110.09791
78931000 -31.612986 -97.735207 -0.04402246 -16.077963 -0.044660822 -16.071688 -31.426258 -109.91859
79930000 -31.505438 -98.62883 -0.046240259 -16.273518 -0.046899881 -16.271114 -31.330383 -110.21168
80929000 -31.388279 -99.442429 -0.048252139 -16.469961 -0.048099019 -16.466839 -31.234522 -110.5117
81928000 -31.287529 -100.1177 -0.048555784 -16.660797 -0.049161561 -16.657484 -31.111282 -110.4383
82927000 -31.196838 -100.85038 -0.049940769 -16.861475 -0.050571881 -16.859594 -30.998295 -110.70998
83926000 -31.077272 -101.56663 -0.051142581 -17.055933 -0.051203609 -17.055756 -30.885979 -110.88824
84925000 -30.96504 -101.95545 -0.052137226 -17.259151 -0.051077098 -17.253723 -30.789282 -111.00626
85924000 -30.876295 -102.33373 -0.05243459 -17.458202 -0.052381404 -17.45484 -30.703064 -110.94553
86923000 -30.768892 -102.85952 -0.052521054 -17.657804 -0.053441588 -17.648571 -30.597658 -110.85102
87922000 -30.655279 -103.17598 -0.052764729 -17.862194 -0.052787524 -17.851776 -30.506157 -110.8279
88921000 -30.582621 -103.4725 -0.054191682 -18.06076 -0.053542748 -18.057585 -30.414761 -110.80095
89920000 -30.48848 -103.96839 -0.054810308 -18.261372 -0.054613177 -18.255878 -30.363293 -110.9775
90919000 -30.385586 -104.25857 -0.055269349 -18.452278 -0.054405045 -18.453815 -30.275188 -111.07467
91918000 -30.284819 -104.57841 -0.056249209 -18.658525 -0.055334631 -18.650763 -30.211702 -111.1446
92917000 -30.193176 -104.92812 -0.057195716 -18.859501 -0.057278864 -18.85297 -30.140203 -111.32016
93916000 -30.103342 -105.20673 -0.056784727 -19.046562 -0.056785248 -19.045473 -30.053785 -111.8779
94915000 -30.029976 -105.86195 -0.058325026 -19.251719 -0.05717421 -19.247503 -29.991817 -111.74535
95914000 -29.962772 -106.03539 -0.059234459 -19.445223 -0.059020337 -19.442165 -29.895704 -111.97823
96913000 -29.886967 -106.28412 -0.060763557 -19.644089 -0.059114803 -19.643475 -29.835016 -112.27689
97912000 -29.805677 -106.72509 -0.061678752 -19.840317 -0.059505019 -19.844673 -29.76124 -112.56071
98911000 -29.694036 -106.90568 -0.062314201 -20.043688 -0.061113231 -20.041679 -29.718002 -112.80185
99910000 -29.630545 -107.02807 -0.062783755 -20.244789 -0.06239403 -20.240911 -29.614893 -113.05634
100909000 -29.539528 -107.28178 -0.062269032 -20.455118 -0.061137907 -20.445375 -29.520166 -113.30376
101908000 -29.45063 -107.49586 -0.063298538 -20.652164 -0.062315252 -20.6492 -29.420589 -113.0454
102907000 -29.314053 -107.52024 -0.063784227 -20.848372 -0.061911389 -20.849562 -29.34169 -113.02824
103906000 -29.221563 -107.54272 -0.064785451 -21.056746 -0.062129069 -21.052977 -29.199404 -112.94755
104905000 -29.074678 -107.49685 -0.064742625 -21.255266 -0.061956815 -21.257025 -29.070105 -112.6685
105904000 -28.933954 -107.56232 -0.064524285 -21.463701 -0.062593877 -21.45359 -28.963139 -112.60718
106903000 -28.821859 -107.64805 -0.065124147 -21.665085 -0.062967338 -21.660446 -28.840965 -112.41396
107902000 -28.659113 -107.95422 -0.066037111 -21.866014 -0.063625038 -21.858295 -28.703737 -112.37812
108901000 -28.55431 -108.21523 -0.066970244 -22.065653 -0.064032733 -22.058825 -28.572607 -112.3413
109900000 -28.420444 -108.61303 -0.067799717 -22.267252 -0.06559059 -22.262791 -28.420275 -112.42873
110899000 -28.296503 -109.25245 -0.068925738 -22.463001 -0.066708416 -22.455769 -28.298817 -112.65375
111898000 -28.215048 -109.91731 -0.070452727 -22.666666 -0.067750812 -22.662615 -28.18421 -112.81107
112897000 -28.084455 -110.46492 -0.072128423 -22.866734 -0.069207422 -22.852583 -28.048536 -112.96394
113896000 -27.975689 -111.00223 -0.072861485 -23.066301 -0.07003469 -23.055603 -27.937279 -113.10962
114895000 -27.87525 -111.66039 -0.073264264 -23.265871 -0.071446277 -23.252714 -27.829203 -113.2346
115894000 -27.759829 -112.04208 -0.074744314 -23.468916 -0.072496384 -23.454863 -27.766474 -113.37781
116893000 -27.681782 -112.48647 -0.075624533 -23.663403 -0.073011532 -23.647696 -27.645189 -113.40302
117892000 -27.595144 -112.99166 -0.075552888 -23.856819 -0.073825046 -23.850092 -27.562002 -113.65839
118891000 -27.543015 -113.39063 -0.07645487 -24.059668 -0.073488832 -24.049149 -27.471256 -113.73679
119890000 -27.450388 -113.76732 -0.077018179 -24.263121 -0.07550811 -24.249811 -27.457729 -113.89647
120889000 -27.400873 -114.2407 -0.077789225 -24.461443 -0.074239761 -24.450869 -27.37846 -113.82555
121888000 -27.358568 -114.57132 -0.078431778 -24.660975 -0.075502574 -24.647345 -27.321745 -114.07632
122887000 -27.321648 -114.73537 -0.079014055 -24.860836 -0.07643801 -24.849854 -27.275408 -114.10878
123886000 -27.276772 -115.16169 -0.079739839 -25.06555 -0.076657735 -25.051233 -27.263258 -114.25839
124885000 -27.231989 -115.67258 -0.079911746 -25.262844 -0.077935226 -25.253901 -27.229603 -114.30044
125884000 -27.18833 -115.87814 -0.080488689 -25.463192 -0.077744685 -25.448509 -27.199369 -114.47984
126883000 -27.16651 -116.26519 -0.081001356 -25.666933 -0.078230411 -25.653551 -27.163296 -114.47568
127882000 -27.120453 -116.56308 -0.080515325 -25.864086 -0.078654237 -25.849405 -27.124605 -114.58333
128881000 -27.088478 -116.88881 -0.080928303 -26.06772 -0.078684554 -26.051794 -27.080297 -114.68289
129880000 -27.031586 -117.17564 -0.082343176 -26.269396 -0.078412004 -26.250874 -27.047451 -114.64757
130879000 -26.96814 -117.39817 -0.082040325 -26.47007 -0.079301141 -26.45079 -26.968443 -114.65776
131878000 -26.910124 -117.58125 -0.08189366 -26.673325 -0.080174893 -26.655565 -26.908922 -114.53397
132877000 -26.838587 -117.65559 -0.081664167 -26.870623 -0.080324143 -26.857208 -26.831091 -114.5226
133876000 -26.74983 -117.83035 -0.082380898 -27.075878 -0.080117151 -27.053804 -26.743557 -114.42204
134875000 -26.6626 -117.99264 -0.082749732 -27.276632 -0.080758996 -27.258232 -26.645098 -114.2447
135874000 -26.578218 -118.00775 -0.082380109 -27.476631 -0.080232382 -27.461149 -26.546534 -114.20599
136873000 -26.465874 -117.89738 -0.083130993 -27.675604 -0.080120578 -27.661186 -26.464003 -114.16027
137872000 -26.386339 -118.0549 -0.083099067 -27.87409 -0.080410369 -27.865101 -26.361643 -114.10172
138871000 -26.31559 -118.26023 -0.083489075 -28.080528 -0.080581516 -28.063477 -26.265453 -114.25877
139870000 -26.213266 -118.56437 -0.083516516 -28.281216 -0.081956178 -28.264059 -26.191248 -114.44198
140869000 -26.13201 -119.0827 -0.085679866 -28.476318 -0.082548693 -28.457035 -26.087791 -114.62222
141868000 -26.052431 -119.48154 -0.085227892 -28.675901 -0.083827384 -28.657572 -26.037601 -114.90092
142867000 -25.974056 -119.69839 -0.084930122 -28.87401 -0.082847618 -28.857143 -25.962444 -115.0002
143866000 -25.900553 -120.16318 -0.086559132 -29.070717 -0.08490108 -29.054054 -25.887285 -115.44444
144865000 -25.840546 -120.6904 -0.08781787 -29.269608 -0.08628609 -29.252144 -25.830799 -115.74718
145864000 -25.786922 -121.00634 -0.088120066 -29.470432 -0.087131143 -29.458088 -25.79394 -116.00855
146863000 -25.735737 -121.32811 -0.089128241 -29.668901 -0.087266631 -29.657867 -25.744463 -116.30001
147862000 -25.69886 -121.685 -0.090231262 -29.870979 -0.087845877 -29.85598 -25.713116 -116.59227
148861000 -25.664335 -122.13005 -0.091339067 -30.067484 -0.089833789 -30.05102 -25.690201 -116.7552
149860000 -25.636135 -122.2897 -0.091769464 -30.258921 -0.089444801 -30.245443 -25.642948 -116.84843
150859000 -25.613651 -122.75787 -0.091340125 -30.456343 -0.089924432 -30.444704 -25.618841 -117.19794
151858000 -25.601408 -123.11314 -0.091536015 -30.65801 -0.089191131 -30.639748 -25.60885 -117.54112
152857000 -25.587568 -123.39908 -0.092039414 -30.852985 -0.090198755 -30.844284 -25.587181 -117.716
153856000 -25.581047 -123.62119 -0.091469921 -31.055628 -0.089366056 -31.041584 -25.606485 -118.05977
154855000 -25.580418 -123.82355 -0.091823138 -31.252268 -0.089306861 -31.24332 -25.600859 -118.28022
155854000 -25.602383 -124.05656 -0.092123233 -31.458794 -0.08981476 -31.437199 -25.586748 -118.56013
156853000 -25.58345 -124.74361 -0.090017192 -31.642426 -0.089280441 -31.634575 -25.589743 -118.90469
157852000 -25.591183 -124.95204 -0.090892583 -31.846424 -0.090943329 -31.836527 -25.577971 -119.21172
158851000 -25.591892 -125.19404 -0.091513813 -32.044449 -0.090780765 -32.033081 -25.561365 -119.46606
159850000 -25.580544 -125.27699 -0.092177965 -32.240681 -0.091235965 -32.231819 -25.561939 -119.65948
160849000 -25.562782 -125.37334 -0.092586234 -32.440166 -0.091927305 -32.438602 -25.531977 -119.94624
161848000 -25.552746 -125.4353 -0.093105093 -32.643131 -0.091826312 -32.634796 -25.48735 -120.06943
162847000 -25.509073 -125.64469 -0.092830583 -32.842556 -0.092758127 -32.837746 -25.463795 -120.3112
163846000 -25.465336 -125.85535 -0.092785627 -33.044693 -0.092574075 -33.035065 -25.39094 -120.34046
164845000 -25.409395 -125.81036 -0.093642525 -33.240665 -0.092726916 -33.233852 -25.324375 -120.4343
165844000 -25.355648 -125.84254 -0.093789592 -33.441013 -0.09312281 -33.436028 -25.246864 -120.53807
166843000 -25.294914 -125.90544 -0.093862332 -33.642433 -0.092809953 -33.631817 -25.177849 -120.72589
167842000 -25.238792 -126.03068 -0.094623409 -33.843178 -0.092367284 -33.831711 -25.104025 -120.6778
168841000 -25.155624 -126.16407 -0.094447218 -34.03989 -0.094073951 -34.036888 -25.029203 -120.72353
169840000 -25.096272 -126.42648 -0.094570503 -34.237568 -0.094645105 -34.23312 -24.94582 -120.89682
170839000 -25.030798 -126.66946 -0.095734976 -34.432873 -0.09451177 -34.430286 -24.861242 -121.06702
171838000 -24.975033 -127.04688 -0.095420875 -34.637718 -0.095816746 -34.628513 -24.800207 -121.29108
172837000 -24.905319 -127.3613 -0.097190946 -34.832005 -0.096437886 -34.828018 -24.732883 -121.46627
173836000 -24.840496 -127.76987 -0.09828914 -35.032669 -0.097511269 -35.029499 -24.690851 -121.73035
174835000 -24.78771 -128.20653 -0.097999997 -35.225979 -0.098177396 -35.228493 -24.644344 -122.0257
175834000 -24.735533 -128.55255 -0.099271066 -35.428661 -0.098865874 -35.425362 -24.586731 -122.31822
176833000 -24.68384 -128.89822 -0.10036422 -35.628807 -0.099564262 -35.625614 -24.536671 -122.43751
177832000 -24.64403 -129.2982 -0.10136677 -35.826324 -0.10041747 -35.829365 -24.52153 -122.55732
178831000 -24.594515 -129.53479 -0.10275677 -36.024738 -0.10243659 -36.022274 -24.479301 -122.61804
179830000 -24.523561 -129.93213 -0.10449748 -36.208103 -0.10377152 -36.207569 -24.41259 -122.70947
180829000 -24.470324 -130.30667 -0.10324079 -36.403488 -0.10185461 -36.399551 -24.373316 -123.01865
181828000 -24.451849 -130.72757 -0.10245197 -36.600975 -0.10180744 -36.599449 -24.354292 -123.24112
182827000 -24.429609 -131.08937 -0.10234383 -36.796474 -0.10224444 -36.798725 -24.341082 -123.35128
183826000 -24.38336 -131.41811 -0.10350164 -36.997688 -0.1020963 -36.993153 -24.328295 -123.48241
184825000 -24.390591 -131.74895 -0.10286385 -37.18969 -0.10273556 -37.196453 -24.309753 -123.59847
185824000 -24.360373 -132.13171 -0.1031618 -37.391426 -0.10279176 -37.390896 -24.306808 -123.6561
186823000 -24.345457 -132.50206 -0.10380387 -37.592571 -0.10229321 -37.589577 -24.299089 -123.67932
187822000 -24.32255 -132.82262 -0.10378955 -37.781963 -0.10299586 -37.783813 -24.260521 -123.75919
188821000 -24.300617 -133.08437 -0.103385 -37.97739 -0.10316524 -37.983379 -24.240446 -123.875
189820000 -24.279646 -133.38445 -0.10354751 -38.180012 -0.10370047 -38.1805 -24.226686 -124.06237
190819000 -24.247126 -133.68443 -0.10462211 -38.378143 -0.10428218 -38.374966 -24.188414 -124.12978
191818000 -24.214842 -133.99298 -0.10447177 -38.575516 -0.10415146 -38.577065 -24.158581 -124.14716
192817000 -24.169924 -134.25911 -0.10532381 -38.771015 -0.10446301 -38.771954 -24.114542 -124.25858
193816000 -24.137716 -134.52667 -0.10521614 -38.969742 -0.10371267 -38.967888 -24.067875 -124.39925
194815000 -24.078217 -134.9068 -0.1054352 -39.162498 -0.1050236 -39.168118 -23.999737 -124.46053
195814000 -24.025137 -135.10127 -0.10631423 -39.362175 -0.10599088 -39.360664 -23.939857 -124.52543
196813000 -23.968803 -135.43738 -0.1053925 -39.555405 -0.10529994 -39.558449 -23.865456 -124.68533
197812000 -23.910002 -135.65009 -0.10656864 -39.754288 -0.10531479 -39.752628 -23.794573 -124.78333
198811000 -23.855761 -135.80501 -0.10589353 -39.951374 -0.10509308 -39.952312 -23.726051 -124.94867
199810000 -23.785679 -136.20427 -0.10599698 -40.143898 -0.10587974 -40.141426 -23.647095 -125.06506
200809000 -23.729393 -136.42418 -0.10689735 -40.344402 -0.1061052 -40.343048 -23.573366 -125.23467
201808000 -23.674141 -136.59966 -0.10827081 -40.542515 -0.10746037 -40.547054 -23.505018 -125.29299
202807000 -23.612457 -136.95197 -0.10834592 -40.741333 -0.1077719 -40.747902 -23.448391 -125.47514
