!Keysight Technologies,E5080B,MY59205177,A.15.75.32
!Date: Friday, February 23, 2024 02:55:52
!Correction: S11(Cdelta 2-Port  ) 
!S21(Cdelta 2-Port  ) 
!S12(Cdelta 2-Port  ) 
!S22(Cdelta 2-Port  ) 
!S2P File: Measurements: S11, S21, S12, S22:
# Hz S  dB   R 50
10000000 -43.86496 -3.7900281 -0.029720185 -2.0422297 -0.033731159 -2.0997133 -48.486431 -148.78781
10999000 -43.209492 -5.4726753 -0.030498518 -2.25791 -0.032999199 -2.3159652 -48.185131 -140.79086
11998000 -42.491295 -7.6675677 -0.030602533 -2.4848385 -0.032061078 -2.5259647 -48.345943 -135.03012
12997000 -41.839817 -12.172045 -0.029923227 -2.665062 -0.032395668 -2.6955605 -47.553764 -128.72737
13996000 -41.593071 -15.609412 -0.028790593 -2.8391428 -0.032047778 -2.8598032 -47.139133 -123.32744
14995000 -41.284531 -19.196884 -0.031589616 -3.0471048 -0.032841917 -3.0780945 -46.703682 -119.65725
15994000 -41.170227 -22.902397 -0.032335687 -3.2684424 -0.034682948 -3.2916551 -46.429592 -115.85294
16993000 -41.17429 -26.682747 -0.032179993 -3.4661343 -0.034109708 -3.4752221 -45.532742 -117.12868
17992000 -41.267529 -31.230459 -0.032285612 -3.6626279 -0.034864038 -3.6664982 -44.924793 -117.71761
18991000 -41.579571 -35.389053 -0.033255342 -3.8750019 -0.034700431 -3.8708467 -44.131485 -117.94731
19990000 -41.432018 -40.431015 -0.035392486 -4.0800443 -0.038038302 -4.0771489 -43.498413 -119.19165
20989000 -41.380955 -43.098122 -0.037295695 -4.2858891 -0.038693808 -4.2747045 -42.93137 -119.59268
21988000 -41.296638 -48.108746 -0.03781556 -4.4837184 -0.03939721 -4.4703112 -42.586479 -118.97714
22987000 -41.107578 -52.12632 -0.039558124 -4.677875 -0.040535491 -4.6734471 -42.332714 -118.73537
23986000 -41.151524 -55.974243 -0.038670823 -4.8746462 -0.039424378 -4.8774238 -42.17548 -118.62183
24985000 -40.819069 -58.889584 -0.039688218 -5.0813546 -0.039959129 -5.079206 -41.919167 -116.1829
25984000 -40.586376 -60.733013 -0.040801749 -5.286335 -0.040852703 -5.2915764 -41.551064 -114.80786
26983000 -40.330975 -62.644985 -0.042313389 -5.4886436 -0.041774429 -5.5053582 -41.45533 -114.06698
27982000 -40.195301 -63.590004 -0.043201175 -5.686739 -0.04293346 -5.7189708 -41.107986 -112.52217
28981000 -40.168159 -65.236641 -0.041126039 -5.8858905 -0.043545254 -5.9123764 -40.852119 -111.91444
29980000 -39.79327 -67.09127 -0.041481715 -6.0777159 -0.043994479 -6.0868011 -40.509819 -111.30443
30979000 -39.435795 -66.148827 -0.038260013 -6.4311237 -0.039049804 -6.4203691 -40.022854 -112.18808
31978000 -39.22937 -67.228615 -0.03793855 -6.6269693 -0.039815966 -6.6151266 -39.727859 -111.74113
32977000 -39.081635 -68.919601 -0.037998874 -6.8368225 -0.03975144 -6.8310561 -39.502445 -111.72017
33976000 -38.937962 -70.000771 -0.038498189 -7.0342798 -0.039930131 -7.0315151 -39.191521 -111.41975
34975000 -38.651459 -71.112068 -0.038414881 -7.2376451 -0.041028306 -7.2357378 -38.927586 -111.09344
35974000 -38.480896 -71.80394 -0.037322849 -7.4324832 -0.040694095 -7.4309554 -38.632771 -110.44962
36973000 -38.242481 -72.594666 -0.038012452 -7.6308403 -0.041995808 -7.6325264 -38.32008 -109.59025
37972000 -38.059605 -72.499107 -0.037853424 -7.8384218 -0.042399392 -7.8461237 -38.084167 -108.98405
38971000 -37.769909 -72.320793 -0.03872123 -8.0414543 -0.041737054 -8.0505342 -37.88076 -107.43667
39970000 -37.432133 -72.743042 -0.03773905 -8.2328863 -0.040630337 -8.2516146 -37.603909 -107.03468
40969000 -37.161686 -72.7407 -0.037851073 -8.4269619 -0.041116633 -8.4463186 -37.333057 -105.63528
41968000 -36.817734 -72.934921 -0.037427548 -8.6328688 -0.040815338 -8.6495562 -37.113995 -104.51552
42967000 -36.548409 -73.210884 -0.037570372 -8.8406925 -0.041177519 -8.8611565 -36.893532 -102.75906
43966000 -36.27792 -74.001312 -0.038867231 -9.045372 -0.041539732 -9.066555 -36.573059 -102.20854
44965000 -36.063293 -74.944153 -0.039501961 -9.2458191 -0.042982612 -9.2683001 -36.394268 -102.05946
45964000 -35.859848 -76.033737 -0.040789992 -9.4470606 -0.044333912 -9.468442 -36.138607 -101.94609
46963000 -35.679935 -78.022545 -0.04040511 -9.6430779 -0.044182237 -9.6638813 -35.956657 -102.33814
47962000 -35.546555 -79.597794 -0.042123884 -9.8424911 -0.046038806 -9.859787 -35.750668 -102.44059
48961000 -35.359463 -81.129234 -0.044225387 -10.040035 -0.046824779 -10.06166 -35.513454 -102.86665
49960000 -35.134651 -82.597588 -0.045631226 -10.236671 -0.048434846 -10.259579 -35.393772 -103.08335
50959000 -34.929409 -83.934708 -0.046477303 -10.451125 -0.049163654 -10.458796 -35.208538 -103.51604
51958000 -34.740845 -85.103447 -0.048038557 -10.649287 -0.050590213 -10.659344 -35.037735 -104.04302
52957000 -34.562485 -86.167435 -0.049457151 -10.84872 -0.051664893 -10.85291 -34.869862 -103.93559
53956000 -34.399414 -86.968941 -0.050380703 -11.051388 -0.052146658 -11.054399 -34.730465 -103.86341
54955000 -34.242119 -87.585167 -0.051351864 -11.253363 -0.053535149 -11.247581 -34.576225 -103.98024
55954000 -34.076622 -88.515617 -0.052444808 -11.451069 -0.053864844 -11.448072 -34.47192 -103.71085
56953000 -33.972466 -88.645706 -0.051974013 -11.652921 -0.052689005 -11.638584 -34.381977 -104.03419
57952000 -33.817318 -89.177887 -0.053514969 -11.847579 -0.054120127 -11.836193 -34.294899 -104.182
58951000 -33.696182 -89.605156 -0.053955268 -12.052545 -0.055419054 -12.031129 -34.14278 -104.24157
59950000 -33.591267 -90.046509 -0.054798249 -12.251485 -0.055289276 -12.227502 -34.082386 -104.55127
60949000 -33.476864 -90.51783 -0.054990143 -12.448498 -0.055846173 -12.427319 -33.982243 -104.78771
61948000 -33.417702 -90.896248 -0.055869512 -12.651629 -0.055460218 -12.632751 -33.901974 -104.92403
62947000 -33.330029 -91.188057 -0.055357181 -12.862398 -0.056224298 -12.83929 -33.75267 -105.27696
63946000 -33.264626 -91.891548 -0.057135388 -13.059383 -0.0581461 -13.03893 -33.652554 -105.4719
64945000 -33.156761 -92.072266 -0.057060637 -13.261431 -0.058230579 -13.24318 -33.54324 -105.90395
65944000 -33.060455 -92.363495 -0.057834443 -13.459378 -0.058247894 -13.443374 -33.452271 -106.36034
66943000 -32.92667 -92.810905 -0.055598393 -13.661516 -0.057370931 -13.644198 -33.344883 -106.73191
67942000 -32.870079 -92.803841 -0.058320567 -13.856948 -0.058870506 -13.84734 -33.226685 -106.98478
68941000 -32.762428 -92.839188 -0.057158209 -14.050134 -0.057721116 -14.040375 -33.12822 -106.91558
69940000 -32.652164 -92.895073 -0.058214575 -14.246941 -0.058946602 -14.240982 -32.978325 -107.26479
70939000 -32.554585 -92.842239 -0.058233988 -14.448215 -0.05808891 -14.43845 -32.849365 -107.21628
71938000 -32.407822 -92.441666 -0.05783103 -14.643079 -0.058931384 -14.63366 -32.718468 -107.03861
72937000 -32.248783 -92.239883 -0.057312436 -14.84216 -0.058162104 -14.834012 -32.566097 -106.78529
73936000 -32.114098 -92.049637 -0.057314273 -15.039041 -0.057347324 -15.030662 -32.444721 -106.53878
74935000 -31.981884 -92.247856 -0.056510139 -15.234503 -0.056754041 -15.22985 -32.306492 -106.32486
75934000 -31.856833 -92.563232 -0.057621434 -15.443974 -0.057041492 -15.437554 -32.223763 -106.1311
76933000 -31.74135 -92.970291 -0.057672586 -15.63826 -0.058236614 -15.629728 -32.047665 -106.60741
77932000 -31.633896 -93.712807 -0.058897007 -15.832356 -0.05942104 -15.82757 -31.943419 -106.6364
78931000 -31.575533 -94.543961 -0.057845198 -16.034365 -0.058444403 -16.026318 -31.860252 -106.53949
79930000 -31.463301 -95.358109 -0.060520221 -16.22349 -0.060783245 -16.222572 -31.753788 -106.84441
80929000 -31.336658 -96.237534 -0.062230695 -16.417337 -0.062350437 -16.415182 -31.650942 -107.21423
81928000 -31.261992 -97.098793 -0.061797958 -16.608807 -0.062806338 -16.606777 -31.529932 -107.26635
82927000 -31.164881 -97.919861 -0.063685976 -16.809357 -0.064356923 -16.806492 -31.437628 -107.64377
83926000 -31.05909 -98.665741 -0.064525858 -17.007814 -0.064998806 -17.008461 -31.316847 -107.87176
84925000 -30.950962 -99.045959 -0.06632176 -17.205173 -0.065602414 -17.204609 -31.214014 -108.02075
85924000 -30.866875 -99.598022 -0.066464745 -17.406219 -0.067118511 -17.403036 -31.134567 -107.98735
86923000 -30.767151 -100.13269 -0.067300171 -17.605299 -0.067052789 -17.59796 -31.034426 -107.9731
87922000 -30.660196 -100.54903 -0.066650063 -17.809822 -0.066809364 -17.801113 -30.943033 -108.0093
88921000 -30.594908 -100.83406 -0.068649858 -18.005293 -0.067612246 -18.003471 -30.85833 -108.0631
89920000 -30.49898 -101.44125 -0.068050034 -18.209047 -0.068542033 -18.197468 -30.798779 -108.29782
90919000 -30.401117 -101.70791 -0.069135353 -18.403406 -0.069332883 -18.397213 -30.716433 -108.45616
91918000 -30.304543 -102.07602 -0.069990762 -18.603443 -0.068776354 -18.599258 -30.647598 -108.4146
92917000 -30.213385 -102.48582 -0.070992365 -18.800617 -0.070500344 -18.798611 -30.585262 -108.5566
93916000 -30.128832 -102.855 -0.0703125 -18.993031 -0.071028151 -18.991142 -30.499849 -109.21045
94915000 -30.058325 -103.49275 -0.071977094 -19.195482 -0.071573384 -19.189684 -30.432325 -109.12315
95914000 -29.993055 -103.71874 -0.073283479 -19.389725 -0.072816208 -19.384146 -30.351269 -109.36457
96913000 -29.918343 -103.95222 -0.074015945 -19.589247 -0.07337115 -19.58478 -30.281437 -109.73563
97912000 -29.838114 -104.48883 -0.075303979 -19.783792 -0.074034639 -19.784826 -30.198137 -109.9898
98911000 -29.726957 -104.64042 -0.0755895 -19.986624 -0.07495711 -19.983736 -30.164196 -110.19166
99910000 -29.666113 -104.72683 -0.075856335 -20.184776 -0.0750219 -20.184658 -30.054018 -110.50572
100909000 -29.588558 -105.0425 -0.075055875 -20.391439 -0.074419349 -20.385773 -29.969452 -110.6872
101908000 -29.494211 -105.32436 -0.076042846 -20.594007 -0.075968027 -20.591696 -29.859409 -110.44679
102907000 -29.358812 -105.27721 -0.076522052 -20.789736 -0.076417193 -20.791773 -29.782328 -110.39478
103906000 -29.265814 -105.39211 -0.077154145 -20.996916 -0.075344279 -20.988098 -29.6266 -110.338
104905000 -29.122864 -105.32874 -0.077625565 -21.194361 -0.076135047 -21.194777 -29.500761 -110.04296
105904000 -28.978807 -105.41528 -0.077702783 -21.398796 -0.07588347 -21.390045 -29.38765 -109.88042
106903000 -28.873423 -105.52049 -0.078224875 -21.600443 -0.075683273 -21.596886 -29.259373 -109.82185
107902000 -28.706715 -105.88733 -0.078576744 -21.804485 -0.077160992 -21.794018 -29.123581 -109.76438
108901000 -28.602407 -106.16572 -0.07923945 -22.005199 -0.078252017 -21.995653 -28.989826 -109.68851
109900000 -28.467234 -106.64415 -0.081037223 -22.203684 -0.079799958 -22.193628 -28.833941 -109.82039
110899000 -28.35556 -107.29881 -0.081953272 -22.399818 -0.080243722 -22.393167 -28.715477 -110.09751
111898000 -28.266464 -107.97044 -0.083260551 -22.599804 -0.081646763 -22.598913 -28.59688 -110.26713
112897000 -28.137907 -108.5028 -0.085199639 -22.802887 -0.082702242 -22.790607 -28.466408 -110.43497
113896000 -28.039244 -109.13168 -0.086097822 -23.001581 -0.08413168 -22.992434 -28.351952 -110.63128
114895000 -27.938747 -109.78864 -0.086897679 -23.199131 -0.085038878 -23.184137 -28.239981 -110.74216
115894000 -27.814703 -110.17046 -0.088015199 -23.400385 -0.086305633 -23.386112 -28.16967 -110.90813
116893000 -27.733994 -110.75863 -0.088569701 -23.595266 -0.087047689 -23.577696 -28.041492 -111.06363
117892000 -27.655293 -111.28282 -0.08884526 -23.789549 -0.086967401 -23.77603 -27.974707 -111.25815
118891000 -27.592951 -111.66528 -0.089662015 -23.991343 -0.087007016 -23.979198 -27.8696 -111.41578
119890000 -27.504087 -112.0864 -0.090238929 -24.194191 -0.088021271 -24.174679 -27.861879 -111.55846
120889000 -27.448412 -112.6061 -0.091657892 -24.397964 -0.089197733 -24.375391 -27.786158 -111.59238
121888000 -27.412424 -112.91765 -0.091771848 -24.589001 -0.089821368 -24.575397 -27.732082 -111.88048
122887000 -27.368288 -113.13547 -0.091742501 -24.791397 -0.090413101 -24.777916 -27.677317 -111.92686
123886000 -27.316908 -113.56107 -0.092488132 -24.994665 -0.090752222 -24.978056 -27.662579 -112.10168
124885000 -27.281296 -114.04677 -0.093180999 -25.193441 -0.090807468 -25.175285 -27.63216 -112.16187
125884000 -27.22566 -114.2555 -0.094224997 -25.388994 -0.090416804 -25.375528 -27.602657 -112.3149
126883000 -27.201796 -114.634 -0.094139554 -25.595324 -0.091751754 -25.579447 -27.558788 -112.33509
127882000 -27.157091 -114.92707 -0.09465225 -25.791105 -0.09283746 -25.773357 -27.509052 -112.5555
128881000 -27.12232 -115.25874 -0.094656482 -25.995771 -0.092477821 -25.973894 -27.476231 -112.68101
129880000 -27.061541 -115.58638 -0.095693961 -26.195601 -0.092319958 -26.176039 -27.433846 -112.62725
130879000 -27.005245 -115.76213 -0.094971851 -26.391603 -0.093522973 -26.376829 -27.356199 -112.68918
131878000 -26.937004 -115.9419 -0.095514543 -26.592388 -0.093887992 -26.57534 -27.29203 -112.55447
132877000 -26.870655 -116.01376 -0.095628336 -26.800047 -0.093658395 -26.780552 -27.208988 -112.57067
133876000 -26.781965 -116.18681 -0.096259236 -26.999414 -0.0935243 -26.978176 -27.112995 -112.4874
134875000 -26.685904 -116.28594 -0.096277766 -27.195719 -0.094810195 -27.182487 -27.008085 -112.32811
135874000 -26.603455 -116.35275 -0.095374569 -27.394577 -0.094391398 -27.380493 -26.910269 -112.3515
136873000 -26.487526 -116.29951 -0.096037194 -27.597746 -0.093989305 -27.579767 -26.822584 -112.31571
137872000 -26.409779 -116.37999 -0.096464887 -27.802563 -0.09482237 -27.781624 -26.717266 -112.22614
138871000 -26.336193 -116.57562 -0.097142503 -28.001774 -0.094751991 -27.984644 -26.619923 -112.43156
139870000 -26.237545 -116.82751 -0.097824201 -28.20113 -0.09565638 -28.184153 -26.538685 -112.63242
140869000 -26.157488 -117.31635 -0.099588633 -28.399019 -0.097374931 -28.376928 -26.431351 -112.69965
141868000 -26.057432 -117.8041 -0.0999282 -28.58885 -0.097978815 -28.57353 -26.364923 -113.06936
142867000 -25.98847 -118.0806 -0.097973526 -28.787233 -0.096993737 -28.766951 -26.285309 -113.24975
143866000 -25.914261 -118.56181 -0.10042171 -28.982542 -0.097688913 -28.9673 -26.214994 -113.75913
144865000 -25.857248 -119.06018 -0.10118473 -29.180359 -0.099770859 -29.166462 -26.157202 -114.07941
145864000 -25.801537 -119.40495 -0.10159571 -29.381603 -0.10097833 -29.368242 -26.124912 -114.34858
146863000 -25.757658 -119.80349 -0.10244799 -29.57917 -0.1006045 -29.566814 -26.072416 -114.69011
147862000 -25.72019 -120.22565 -0.10355864 -29.778095 -0.10124647 -29.761709 -26.038357 -114.9978
148861000 -25.687874 -120.71794 -0.10377736 -29.974669 -0.10239153 -29.960386 -26.013474 -115.26044
149860000 -25.671135 -120.89274 -0.10340912 -30.175438 -0.10204117 -30.16151 -25.987663 -115.45718
150859000 -25.6569 -121.26701 -0.10352683 -30.373743 -0.10234541 -30.358149 -25.976982 -115.68087
151858000 -25.636629 -121.61026 -0.10361882 -30.5744 -0.10234807 -30.555336 -25.971581 -115.97443
152857000 -25.620676 -121.92624 -0.10475947 -30.76655 -0.10276366 -30.760799 -25.948959 -116.13552
153856000 -25.61174 -122.12508 -0.10463908 -30.973167 -0.10206025 -30.951714 -25.968317 -116.44145
154855000 -25.6052 -122.30437 -0.10463881 -31.165327 -0.10256407 -31.158453 -25.958172 -116.64855
155854000 -25.621508 -122.5779 -0.10505807 -31.363171 -0.10315225 -31.354324 -25.948542 -116.92287
156853000 -25.602522 -123.29845 -0.10331661 -31.553671 -0.10214188 -31.546503 -25.94619 -117.21239
157852000 -25.60342 -123.50852 -0.10425778 -31.755434 -0.1043368 -31.743992 -25.940336 -117.562
158851000 -25.60523 -123.74821 -0.10513445 -31.955023 -0.10454044 -31.943367 -25.919847 -117.82632
159850000 -25.58914 -123.84802 -0.10570706 -32.153088 -0.10491487 -32.143105 -25.914515 -117.99198
160849000 -25.567738 -123.98936 -0.10579327 -32.349586 -0.1055885 -32.342896 -25.894178 -118.2622
161848000 -25.557581 -124.07317 -0.10667767 -32.548595 -0.10496154 -32.542606 -25.848885 -118.34591
162847000 -25.505438 -124.27394 -0.10608239 -32.74976 -0.10507876 -32.742672 -25.81814 -118.63396
163846000 -25.470654 -124.48114 -0.10621131 -32.949333 -0.1050061 -32.943474 -25.742939 -118.61621
164845000 -25.408251 -124.50433 -0.10702205 -33.148201 -0.10619327 -33.140121 -25.671782 -118.68653
165844000 -25.35244 -124.53638 -0.10731046 -33.345863 -0.10620017 -33.33823 -25.590736 -118.84123
166843000 -25.288967 -124.64474 -0.10675807 -33.545166 -0.10610892 -33.541538 -25.524343 -119.01646
167842000 -25.231636 -124.78272 -0.10698251 -33.746502 -0.10763975 -33.737125 -25.440325 -118.91367
168841000 -25.150064 -124.96118 -0.10740757 -33.940353 -0.10751344 -33.935623 -25.362301 -119.003
169840000 -25.083748 -125.21929 -0.10786 -34.136669 -0.10778039 -34.136406 -25.273094 -119.20963
170839000 -25.028534 -125.50878 -0.10851763 -34.334145 -0.10796615 -34.328163 -25.19261 -119.38525
171838000 -24.967634 -125.90235 -0.10888312 -34.534962 -0.10882552 -34.526512 -25.126007 -119.64563
172837000 -24.897863 -126.30327 -0.10998825 -34.728062 -0.10966834 -34.72596 -25.05612 -119.88982
173836000 -24.823362 -126.7081 -0.11095531 -34.927242 -0.11130639 -34.923862 -25.014578 -120.0775
174835000 -24.781662 -127.1468 -0.11135685 -35.12442 -0.11123522 -35.125175 -24.968885 -120.45662
175834000 -24.72764 -127.53658 -0.11233006 -35.32235 -0.11217599 -35.320091 -24.907797 -120.74979
176833000 -24.674164 -127.92379 -0.11338159 -35.519978 -0.11237255 -35.519451 -24.853098 -120.94176
177832000 -24.630249 -128.41678 -0.11399755 -35.716091 -0.11311112 -35.715942 -24.83276 -121.0632
178831000 -24.589909 -128.79749 -0.1138583 -35.914669 -0.11345839 -35.91214 -24.79513 -121.36745
179830000 -24.556097 -129.22418 -0.11477067 -36.106194 -0.11410916 -36.109344 -24.771406 -121.48886
180829000 -24.517267 -129.42963 -0.11518665 -36.308548 -0.11438236 -36.306122 -24.736244 -121.66251
181828000 -24.48941 -129.79053 -0.11462422 -36.503384 -0.1136962 -36.502941 -24.718679 -121.75896
182827000 -24.46841 -130.1405 -0.11509415 -36.699177 -0.11537246 -36.697094 -24.703844 -121.88757
183826000 -24.422346 -130.44724 -0.11619554 -36.901131 -0.11560347 -36.895882 -24.696712 -121.98987
184825000 -24.43177 -130.75658 -0.11560347 -37.09124 -0.11580153 -37.093494 -24.68269 -122.09526
185824000 -24.407011 -131.16238 -0.11550245 -37.28772 -0.11635108 -37.287304 -24.680891 -122.16896
186823000 -24.389708 -131.49281 -0.11643537 -37.490803 -0.1163112 -37.486794 -24.675104 -122.15217
187822000 -24.370001 -131.83884 -0.11658481 -37.685654 -0.11653668 -37.682758 -24.638138 -122.20416
188821000 -24.346464 -132.04778 -0.11640559 -37.880016 -0.11639947 -37.880093 -24.620941 -122.29537
189820000 -24.332874 -132.32468 -0.11642633 -38.080673 -0.11696772 -38.077087 -24.614187 -122.47805
190819000 -24.30702 -132.55515 -0.11780787 -38.276646 -0.11801054 -38.276718 -24.580786 -122.42059
191818000 -24.268494 -132.73315 -0.11931942 -38.474651 -0.11947693 -38.472271 -24.545588 -122.32567
192817000 -24.195015 -132.99002 -0.11996122 -38.658401 -0.11993674 -38.659065 -24.474339 -122.35658
193816000 -24.160805 -133.36403 -0.11871096 -38.849773 -0.11828718 -38.850365 -24.415577 -122.65894
194815000 -24.105038 -133.81593 -0.11921618 -39.046726 -0.11926062 -39.047836 -24.350464 -122.74841
195814000 -24.049601 -134.04013 -0.11964936 -39.243816 -0.11844493 -39.24691 -24.296755 -122.87419
196813000 -23.997545 -134.37231 -0.11906613 -39.440327 -0.11881445 -39.444984 -24.221674 -123.02632
197812000 -23.939156 -134.59581 -0.11898684 -39.638126 -0.11898684 -39.638309 -24.152889 -123.13648
198811000 -23.882151 -134.78183 -0.11891314 -39.834305 -0.11880434 -39.839901 -24.080893 -123.29993
199810000 -23.816956 -135.16263 -0.11929813 -40.030876 -0.11874261 -40.032063 -24.004217 -123.43162
200809000 -23.756544 -135.43536 -0.12029175 -40.22578 -0.11913051 -40.228161 -23.924261 -123.60011
201808000 -23.700178 -135.651 -0.12026779 -40.42831 -0.12014458 -40.431736 -23.856791 -123.65755
202807000 -23.639444 -136.02237 -0.12119775 -40.629921 -0.12141895 -40.633793 -23.803535 -123.89074
203806000 -23.591293 -136.45923 -0.12288941 -40.83094 -0.12163272 -40.829597 -23.735302 -124.05785
