!Keysight Technologies,E5080B,MY59205177,A.15.75.32
!Date: Friday, February 23, 2024 03:34:10
!Correction: S11(Cdelta 2-Port  ) 
!S21(Cdelta 2-Port  ) 
!S12(Cdelta 2-Port  ) 
!S22(Cdelta 2-Port  ) 
!S2P File: Measurements: S11, S21, S12, S22:
# Hz S  dB   R 50
10000000 -46.116432 -2.7035253 -0.014438576 -2.0465879 -0.017973788 -2.1012137 -45.963299 -157.86798
10999000 -45.28117 -4.4172492 -0.015399133 -2.2660418 -0.018020576 -2.3179767 -45.873596 -151.66681
11998000 -44.331276 -7.4621115 -0.016814381 -2.4922404 -0.0180918 -2.530304 -46.039612 -147.64531
12997000 -43.611626 -13.255461 -0.015549808 -2.6672223 -0.017511131 -2.7021003 -45.612682 -141.77025
13996000 -43.256832 -17.043739 -0.014735188 -2.8469884 -0.017627312 -2.8717551 -45.433239 -136.40009
14995000 -42.912975 -21.287788 -0.017597681 -3.0618145 -0.016839588 -3.0831213 -45.188442 -132.93527
15994000 -42.739841 -25.633257 -0.018659806 -3.2830322 -0.020251401 -3.2994239 -45.03793 -129.51634
16993000 -42.706318 -30.472572 -0.01708127 -3.4761426 -0.01927729 -3.4848192 -44.226883 -129.22496
17992000 -42.695683 -35.707584 -0.017936358 -3.6762815 -0.020292232 -3.6767912 -43.622108 -128.95895
18991000 -42.957516 -40.77729 -0.018932007 -3.8872464 -0.020445418 -3.8816047 -42.999901 -128.1521
19990000 -42.720924 -46.939453 -0.021620363 -4.0927043 -0.023017341 -4.0887809 -42.30772 -128.9817
20989000 -42.557541 -50.219498 -0.02353524 -4.3030095 -0.025090089 -4.288291 -41.81744 -128.1418
21988000 -42.402893 -55.336823 -0.023870476 -4.4957004 -0.026169933 -4.4838948 -41.506111 -127.55798
22987000 -42.072208 -60.021294 -0.025567614 -4.6936097 -0.02696378 -4.6890583 -41.272972 -126.94475
23986000 -42.0107 -64.16787 -0.024535038 -4.8885679 -0.025205169 -4.8898158 -41.145294 -126.95598
24985000 -41.599674 -67.13903 -0.026032953 -5.098927 -0.026265251 -5.0979176 -40.927216 -124.59545
25984000 -41.259857 -69.007286 -0.026736915 -5.3037338 -0.026464485 -5.3056788 -40.620995 -122.85161
26983000 -40.905205 -70.897568 -0.027999539 -5.5032902 -0.026593143 -5.521687 -40.509705 -122.14624
27982000 -40.782059 -71.962708 -0.029420985 -5.704648 -0.029264355 -5.7387433 -40.25214 -120.65304
28981000 -40.772701 -73.577835 -0.02675098 -5.9044642 -0.028494321 -5.9247141 -40.017467 -119.92602
29980000 -40.309914 -74.689827 -0.026598092 -6.0981579 -0.028918019 -6.1059542 -39.727425 -119.09229
30979000 -39.962891 -73.633987 -0.024733411 -6.4515524 -0.024220316 -6.4420815 -39.245708 -119.47637
31978000 -39.752319 -74.825417 -0.02415706 -6.6438785 -0.025446536 -6.6347623 -38.999039 -118.78773
32977000 -39.553062 -76.234421 -0.02384731 -6.857245 -0.025236152 -6.8514104 -38.752544 -118.81626
33976000 -39.383965 -77.313828 -0.024298407 -7.0563827 -0.026056912 -7.0514398 -38.469963 -118.24687
34975000 -39.081974 -78.057632 -0.024587363 -7.2578111 -0.026230093 -7.2545385 -38.257137 -117.84063
35974000 -38.908344 -78.619812 -0.023504788 -7.4546199 -0.026404582 -7.4574628 -37.982788 -116.96296
36973000 -38.647884 -79.461769 -0.024529571 -7.6543326 -0.027532687 -7.6544614 -37.699177 -116.1198
37972000 -38.499599 -79.238129 -0.024048775 -7.8655 -0.026668414 -7.8747239 -37.495403 -115.38183
38971000 -38.169468 -78.598686 -0.025191631 -8.0636816 -0.02671764 -8.0743027 -37.328648 -113.71709
39970000 -37.830227 -78.803818 -0.023132626 -8.2639685 -0.026487663 -8.2739773 -37.06086 -113.13882
40969000 -37.55653 -78.441879 -0.023850434 -8.4548969 -0.026381403 -8.4736814 -36.842331 -111.66768
41968000 -37.19276 -78.497307 -0.023641951 -8.6603756 -0.026108474 -8.6760931 -36.6357 -110.4842
42967000 -36.949902 -78.637077 -0.024182571 -8.8705568 -0.026716338 -8.8940411 -36.43988 -108.49187
43966000 -36.645802 -79.33062 -0.024997924 -9.0730314 -0.02731465 -9.0936565 -36.17149 -107.94048
44965000 -36.422302 -80.067238 -0.026029307 -9.276825 -0.027917212 -9.2953405 -35.981007 -107.53966
45964000 -36.184658 -81.013664 -0.026909342 -9.4733515 -0.029049879 -9.4951878 -35.726963 -107.27598
46963000 -35.995907 -83.070831 -0.026912728 -9.6674824 -0.0299042 -9.6928864 -35.569679 -107.48927
47962000 -35.82497 -84.418922 -0.028240539 -9.869771 -0.031464461 -9.8889561 -35.349354 -107.61064
48961000 -35.594685 -85.830757 -0.030488873 -10.068662 -0.032567538 -10.089389 -35.126678 -107.71861
49960000 -35.379936 -87.081726 -0.031684794 -10.269691 -0.03375829 -10.292967 -34.981266 -107.81213
50959000 -35.150555 -88.458412 -0.032369066 -10.482372 -0.034801412 -10.492742 -34.799583 -108.10155
51958000 -34.949692 -89.403465 -0.034322347 -10.681605 -0.036055684 -10.691216 -34.632904 -108.4836
52957000 -34.720268 -90.437065 -0.035618499 -10.880146 -0.036817923 -10.891934 -34.466251 -108.26077
53956000 -34.550377 -91.108192 -0.036614556 -11.084846 -0.038155816 -11.086194 -34.328735 -108.18881
54955000 -34.385197 -91.611664 -0.037155751 -11.285348 -0.039178837 -11.283363 -34.178268 -108.14684
55954000 -34.201374 -92.409866 -0.038715746 -11.485048 -0.039530698 -11.482938 -34.07962 -107.8865
56953000 -34.098499 -92.457634 -0.038345411 -11.684165 -0.038522739 -11.67149 -34.008495 -107.92336
57952000 -33.933105 -93.076385 -0.039836865 -11.882114 -0.039207831 -11.870088 -33.897221 -108.11516
58951000 -33.801472 -93.355659 -0.040129993 -12.089677 -0.040957488 -12.06482 -33.74601 -108.11974
59950000 -33.68074 -93.787636 -0.041247293 -12.287383 -0.041299038 -12.260199 -33.674843 -108.50848
60949000 -33.562504 -94.387123 -0.041671455 -12.49021 -0.042190015 -12.465062 -33.575371 -108.7476
61948000 -33.508224 -94.628342 -0.041960262 -12.686504 -0.041450877 -12.66871 -33.490925 -108.83132
62947000 -33.416672 -94.757088 -0.041860417 -12.896568 -0.042516761 -12.878542 -33.355446 -109.05285
63946000 -33.332142 -95.540787 -0.042666808 -13.09764 -0.043395173 -13.079578 -33.244602 -109.17352
64945000 -33.23122 -95.724678 -0.043612715 -13.301852 -0.044200283 -13.281665 -33.126659 -109.69762
65944000 -33.12912 -96.085083 -0.044739284 -13.498348 -0.044183284 -13.482691 -33.040825 -110.1871
66943000 -32.979595 -96.429176 -0.042299535 -13.701261 -0.042510748 -13.68502 -32.937599 -110.37947
67942000 -32.912823 -96.32299 -0.044647746 -13.897958 -0.044113461 -13.885519 -32.814651 -110.72369
68941000 -32.809982 -96.499268 -0.044383865 -14.090215 -0.043125093 -14.081413 -32.708652 -110.66635
69940000 -32.715214 -96.44899 -0.044683576 -14.289013 -0.044469643 -14.281009 -32.563725 -110.99255
70939000 -32.617401 -96.40052 -0.044718098 -14.493874 -0.044271935 -14.47887 -32.424377 -110.79406
71938000 -32.467377 -95.943802 -0.043634154 -14.687737 -0.044253629 -14.678945 -32.295361 -110.75349
72937000 -32.314075 -95.742172 -0.043214507 -14.885984 -0.043904528 -14.875372 -32.152004 -110.44951
73936000 -32.178799 -95.418755 -0.043768816 -15.080749 -0.043350987 -15.073879 -32.043568 -110.21957
74935000 -32.055969 -95.610664 -0.043143395 -15.277407 -0.042433109 -15.273049 -31.888931 -109.82718
75934000 -31.923677 -95.9076 -0.043158296 -15.487822 -0.042734254 -15.484973 -31.793495 -109.80235
76933000 -31.799356 -96.247765 -0.04413778 -15.681847 -0.043840725 -15.673029 -31.631546 -110.09813
77932000 -31.693266 -97.004196 -0.045803618 -15.879633 -0.044961337 -15.872772 -31.536242 -110.10072
78931000 -31.622385 -97.844429 -0.044287886 -16.077574 -0.044832654 -16.073483 -31.418169 -109.88674
79930000 -31.51351 -98.636665 -0.046169359 -16.27183 -0.046867434 -16.269924 -31.322151 -110.24091
80929000 -31.385834 -99.405663 -0.047887798 -16.469202 -0.048770964 -16.466772 -31.229858 -110.5132
81928000 -31.284073 -100.14338 -0.048192725 -16.65938 -0.048792955 -16.655796 -31.096319 -110.50028
82927000 -31.187914 -100.87996 -0.049889181 -16.860748 -0.050004922 -16.856142 -30.997812 -110.77721
83926000 -31.066761 -101.58527 -0.051517673 -17.053198 -0.050931998 -17.05777 -30.877426 -110.96913
84925000 -30.969324 -102.02283 -0.052266911 -17.256075 -0.051044095 -17.250149 -30.776192 -110.96574
85924000 -30.866171 -102.42166 -0.052843336 -17.460121 -0.052661754 -17.45348 -30.69586 -110.92849
86923000 -30.775967 -102.89712 -0.052720971 -17.656199 -0.05199628 -17.649544 -30.594248 -110.83678
87922000 -30.659512 -103.23605 -0.053255528 -17.861166 -0.052002043 -17.852106 -30.508129 -110.80303
88921000 -30.578697 -103.49164 -0.054793529 -18.062069 -0.053578388 -18.054655 -30.418625 -110.80572
89920000 -30.479786 -103.97177 -0.054833114 -18.259888 -0.054500461 -18.25256 -30.358809 -110.97829
90919000 -30.386887 -104.2499 -0.055242084 -18.456211 -0.054819744 -18.453638 -30.271412 -111.09568
91918000 -30.277922 -104.62299 -0.056956775 -18.656904 -0.055752303 -18.64978 -30.206524 -111.17968
92917000 -30.197838 -104.86066 -0.058010206 -18.856546 -0.056340206 -18.84952 -30.142714 -111.23877
93916000 -30.105762 -105.22568 -0.056800198 -19.049696 -0.056415208 -19.04566 -30.044188 -111.81617
94915000 -30.027418 -105.84291 -0.058534134 -19.251066 -0.057349421 -19.246542 -29.994736 -111.75653
95914000 -29.965837 -106.06923 -0.059906557 -19.443577 -0.058154233 -19.444017 -29.899343 -112.01737
96913000 -29.878023 -106.28681 -0.060614455 -19.645615 -0.059065994 -19.644936 -29.836073 -112.35574
97912000 -29.79598 -106.75736 -0.061291754 -19.840704 -0.059461981 -19.842745 -29.760355 -112.53589
98911000 -29.693783 -106.90052 -0.062139835 -20.045794 -0.060816057 -20.039948 -29.717968 -112.76624
99910000 -29.62512 -107.03544 -0.062867537 -20.241629 -0.061791919 -20.24024 -29.613031 -113.05637
100909000 -29.533051 -107.31149 -0.062176861 -20.451736 -0.06058532 -20.442532 -29.522346 -113.26224
101908000 -29.445307 -107.46807 -0.06358248 -20.651667 -0.062573656 -20.649652 -29.421421 -113.03194
102907000 -29.31274 -107.53316 -0.06374009 -20.851059 -0.062318139 -20.849001 -29.34363 -113.03659
103906000 -29.214462 -107.59315 -0.064512461 -21.060389 -0.061138697 -21.051985 -29.203899 -112.99422
104905000 -29.074293 -107.47206 -0.06386067 -21.259884 -0.062100187 -21.257582 -29.077572 -112.70968
105904000 -28.926855 -107.59921 -0.064021967 -21.459229 -0.062109113 -21.456284 -28.962915 -112.57898
106903000 -28.821877 -107.59034 -0.064495124 -21.661829 -0.062917963 -21.664537 -28.834831 -112.44164
107902000 -28.660227 -107.98606 -0.065794788 -21.864355 -0.063622937 -21.859024 -28.698988 -112.39067
108901000 -28.545429 -108.18098 -0.06705647 -22.06971 -0.064690597 -22.0585 -28.566002 -112.32343
109900000 -28.416611 -108.65431 -0.067251012 -22.265856 -0.065441586 -22.258816 -28.419632 -112.43487
110899000 -28.297388 -109.2749 -0.06851048 -22.465424 -0.066942111 -22.459328 -28.296305 -112.71251
111898000 -28.208773 -109.9272 -0.06983529 -22.666462 -0.0674963 -22.664223 -28.178642 -112.81636
112897000 -28.082729 -110.45016 -0.072315827 -22.867315 -0.068901539 -22.85738 -28.045042 -112.94333
113896000 -27.98262 -111.01696 -0.073028907 -23.067686 -0.069671407 -23.056705 -27.936068 -113.1188
114895000 -27.875463 -111.66125 -0.073664702 -23.264732 -0.070965789 -23.2514 -27.828547 -113.18042
115894000 -27.746376 -112.01147 -0.074516788 -23.466629 -0.072597988 -23.454788 -27.756166 -113.35777
116893000 -27.674469 -112.5171 -0.075572908 -23.663908 -0.074131534 -23.647633 -27.629961 -113.44433
117892000 -27.592937 -112.96544 -0.075658247 -23.863548 -0.073027067 -23.846588 -27.563765 -113.64961
118891000 -27.53392 -113.39823 -0.076666959 -24.061832 -0.073292956 -24.045773 -27.467791 -113.74391
119890000 -27.452154 -113.73548 -0.077095643 -24.262016 -0.074651882 -24.248531 -27.454161 -113.86408
120889000 -27.394487 -114.2646 -0.07784193 -24.466738 -0.074928671 -24.447649 -27.378159 -113.82838
121888000 -27.359268 -114.5699 -0.077981874 -24.657915 -0.075476766 -24.64887 -27.321192 -114.11972
122887000 -27.319429 -114.73419 -0.079490691 -24.862196 -0.076447234 -24.851353 -27.268114 -114.09457
123886000 -27.270327 -115.19867 -0.079740636 -25.062374 -0.076337896 -25.048 -27.259785 -114.25731
124885000 -27.23703 -115.70428 -0.080124266 -25.265364 -0.076961793 -25.250074 -27.229832 -114.33382
125884000 -27.18655 -115.87269 -0.080935158 -25.46487 -0.077358626 -25.445393 -27.199718 -114.45248
126883000 -27.162128 -116.28162 -0.081206545 -25.664898 -0.077689081 -25.650709 -27.158768 -114.4879
127882000 -27.114937 -116.55019 -0.081697144 -25.865307 -0.078575425 -25.848022 -27.118782 -114.63305
128881000 -27.084826 -116.89824 -0.081818216 -26.069269 -0.078535102 -26.050184 -27.078121 -114.69624
129880000 -27.030163 -117.24168 -0.082261659 -26.270308 -0.079030663 -26.247847 -27.039394 -114.67589
130879000 -26.96837 -117.38577 -0.081644386 -26.468739 -0.079522595 -26.452311 -26.972616 -114.65594
131878000 -26.904701 -117.59613 -0.082557395 -26.672031 -0.079556867 -26.65103 -26.906996 -114.54861
132877000 -26.840124 -117.63952 -0.082094401 -26.875341 -0.07996475 -26.856785 -26.8255 -114.54411
133876000 -26.753906 -117.82825 -0.082540773 -27.076899 -0.079061769 -27.057449 -26.743748 -114.38611
134875000 -26.658012 -117.97028 -0.082064599 -27.273865 -0.080342866 -27.25654 -26.647169 -114.25511
135874000 -26.581446 -117.99853 -0.082941808 -27.477623 -0.08006072 -27.459784 -26.549465 -114.18257
136873000 -26.467854 -117.9341 -0.082972944 -27.6824 -0.080374248 -27.660391 -26.463968 -114.15253
137872000 -26.387529 -118.04187 -0.082976639 -27.880341 -0.080403253 -27.864901 -26.362659 -114.09223
138871000 -26.314646 -118.241 -0.083818674 -28.079674 -0.080774553 -28.062843 -26.267006 -114.23142
139870000 -26.207779 -118.53451 -0.084408015 -28.275919 -0.081626184 -28.26399 -26.187807 -114.38931
140869000 -26.131937 -119.09885 -0.085120976 -28.477024 -0.081886269 -28.460873 -26.092211 -114.65092
141868000 -26.055227 -119.47277 -0.086158819 -28.680815 -0.083149202 -28.661329 -26.04011 -114.85601
142867000 -25.97299 -119.68059 -0.084437579 -28.87122 -0.082857646 -28.856518 -25.955534 -115.02137
143866000 -25.89279 -120.20491 -0.086653665 -29.068224 -0.084198184 -29.05335 -25.883099 -115.44164
144865000 -25.844461 -120.66943 -0.088088371 -29.268396 -0.085891083 -29.253847 -25.82469 -115.76311
145864000 -25.781803 -120.99239 -0.088512108 -29.469961 -0.086625673 -29.458941 -25.791512 -116.00178
146863000 -25.737614 -121.34438 -0.089660428 -29.668774 -0.08776927 -29.656227 -25.74745 -116.29609
147862000 -25.701115 -121.70487 -0.09030474 -29.868898 -0.087948896 -29.856588 -25.711681 -116.63215
148861000 -25.666574 -122.09344 -0.091026865 -30.070765 -0.089555256 -30.052774 -25.688698 -116.76986
149860000 -25.636833 -122.29592 -0.092460632 -30.258793 -0.089390889 -30.247448 -25.641579 -116.85957
150859000 -25.615038 -122.77205 -0.092372574 -30.455845 -0.089468054 -30.439165 -25.616102 -117.19822
151858000 -25.603275 -123.13733 -0.091630667 -30.6563 -0.089574806 -30.640413 -25.608473 -117.59474
152857000 -25.586157 -123.41453 -0.092477821 -30.85582 -0.089620262 -30.844574 -25.590717 -117.73592
153856000 -25.583944 -123.64481 -0.091588892 -31.056301 -0.088422813 -31.040525 -25.610748 -118.06287
154855000 -25.580318 -123.81565 -0.091154277 -31.252609 -0.089124545 -31.242176 -25.597166 -118.28164
155854000 -25.592548 -124.05132 -0.092671916 -31.454613 -0.089774057 -31.446539 -25.587858 -118.59277
156853000 -25.580652 -124.71861 -0.089705884 -31.642477 -0.089127712 -31.632618 -25.584604 -118.86205
157852000 -25.586142 -124.97962 -0.091375284 -31.846144 -0.08991307 -31.837824 -25.570353 -119.20473
158851000 -25.589327 -125.19261 -0.091628022 -32.04248 -0.090587549 -32.031471 -25.554775 -119.4424
159850000 -25.580149 -125.33019 -0.09231282 -32.242676 -0.090334341 -32.234634 -25.557125 -119.65949
160849000 -25.559631 -125.36377 -0.092358828 -32.443005 -0.091682486 -32.435661 -25.528791 -119.97008
161848000 -25.547745 -125.45296 -0.093270123 -32.642776 -0.091722138 -32.633781 -25.487165 -120.06255
162847000 -25.504715 -125.64384 -0.092831641 -32.841427 -0.091947138 -32.836746 -25.463324 -120.35181
163846000 -25.463568 -125.85771 -0.093315355 -33.043243 -0.091878131 -33.035221 -25.380398 -120.31072
164845000 -25.409668 -125.84505 -0.093888789 -33.242916 -0.092234552 -33.235672 -25.322439 -120.43841
165844000 -25.349821 -125.86614 -0.093196869 -33.44062 -0.092539169 -33.432343 -25.244244 -120.57519
166843000 -25.293745 -125.91961 -0.093597829 -33.6395 -0.092425987 -33.637756 -25.177763 -120.73253
167842000 -25.236736 -126.04173 -0.094255157 -33.839108 -0.093216702 -33.835812 -25.103127 -120.65881
168841000 -25.157291 -126.18004 -0.094527639 -34.041946 -0.093180202 -34.035347 -25.025515 -120.72726
169840000 -25.092772 -126.41927 -0.095340431 -34.235909 -0.093617402 -34.234863 -24.94273 -120.89613
170839000 -25.032852 -126.65595 -0.09592022 -34.430767 -0.094529495 -34.428616 -24.858469 -121.07654
171838000 -24.973782 -127.05933 -0.09529122 -34.63509 -0.09470278 -34.629246 -24.795122 -121.31593
172837000 -24.907179 -127.36593 -0.096829355 -34.832035 -0.09593001 -34.827839 -24.732384 -121.53809
173836000 -24.839495 -127.80704 -0.098127089 -35.034 -0.09665069 -35.026989 -24.685642 -121.74183
174835000 -24.786654 -128.20889 -0.098614834 -35.229431 -0.097594924 -35.226597 -24.640972 -122.04333
175834000 -24.73443 -128.56238 -0.10001985 -35.426102 -0.098727114 -35.424618 -24.587547 -122.32336
176833000 -24.685005 -128.91789 -0.10062014 -35.629002 -0.098996699 -35.624222 -24.538288 -122.40859
177832000 -24.642553 -129.30382 -0.10199082 -35.826359 -0.10013799 -35.82365 -24.518381 -122.54272
178831000 -24.59409 -129.54607 -0.10303403 -36.022667 -0.10171416 -36.018642 -24.47649 -122.62232
179830000 -24.524172 -129.93707 -0.10436384 -36.20496 -0.10318591 -36.207161 -24.412018 -122.69424
180829000 -24.475851 -130.30141 -0.10314006 -36.399014 -0.10221025 -36.397781 -24.367245 -123.03437
181828000 -24.450375 -130.71873 -0.10252459 -36.601921 -0.10112617 -36.60062 -24.351749 -123.22157
182827000 -24.426058 -131.12036 -0.10220654 -36.797886 -0.10100244 -36.798939 -24.343193 -123.34532
183826000 -24.390451 -131.45172 -0.10389454 -36.99263 -0.10216096 -36.992218 -24.332706 -123.48549
184825000 -24.388357 -131.77405 -0.10257255 -37.192654 -0.10212068 -37.192822 -24.310001 -123.60573
185824000 -24.36693 -132.1375 -0.10360318 -37.384956 -0.10290971 -37.391281 -24.307219 -123.67922
186823000 -24.343412 -132.50516 -0.10395446 -37.591221 -0.10242307 -37.587646 -24.296967 -123.69007
187822000 -24.318026 -132.84038 -0.1040576 -37.784145 -0.10324079 -37.780918 -24.262424 -123.76151
188821000 -24.297125 -133.12524 -0.10372116 -37.980114 -0.10294602 -37.983536 -24.243248 -123.89693
189820000 -24.274372 -133.40912 -0.10427528 -38.182137 -0.10272655 -38.180378 -24.222878 -124.11332
190819000 -24.24374 -133.69257 -0.10497215 -38.377079 -0.10399264 -38.375015 -24.184685 -124.1303
191818000 -24.214941 -133.99371 -0.10455025 -38.574726 -0.10385663 -38.576862 -24.157293 -124.16196
192817000 -24.167789 -134.26251 -0.10478254 -38.770454 -0.10479023 -38.775326 -24.110468 -124.26603
193816000 -24.135441 -134.51265 -0.10498753 -38.968781 -0.10399211 -38.968292 -24.060806 -124.41628
194815000 -24.075691 -134.90901 -0.10538375 -39.163231 -0.10457253 -39.164814 -23.995316 -124.4674
195814000 -24.022499 -135.10809 -0.10609459 -39.360405 -0.10513259 -39.36517 -23.939531 -124.53648
196813000 -23.966234 -135.45964 -0.10596674 -39.552444 -0.10490426 -39.55611 -23.862181 -124.70808
197812000 -23.912323 -135.65952 -0.10659756 -39.756371 -0.10513923 -39.750553 -23.793638 -124.80814
198811000 -23.854872 -135.80759 -0.10592138 -39.949276 -0.10511589 -39.946831 -23.72311 -124.97383
199810000 -23.786808 -136.17136 -0.106913 -40.143452 -0.10575879 -40.142738 -23.645508 -125.05108
200809000 -23.729204 -136.43285 -0.10649728 -40.341438 -0.10559168 -40.340237 -23.568354 -125.23634
201808000 -23.670668 -136.63133 -0.10762277 -40.54163 -0.10609566 -40.544636 -23.499636 -125.29661
202807000 -23.617916 -136.97234 -0.10818323 -40.745419 -0.10742269 -40.746178 -23.451424 -125.49511
