!Keysight Technologies,E5080B,MY59205177,A.15.75.32
!Date: Friday, February 23, 2024 02:55:58
!Correction: S11(Cdelta 2-Port  ) 
!S21(Cdelta 2-Port  ) 
!S12(Cdelta 2-Port  ) 
!S22(Cdelta 2-Port  ) 
!S2P File: Measurements: S11, S21, S12, S22:
# Hz S  dB   R 50
10000000 -43.869179 -3.8450353 -0.029458513 -2.0421729 -0.032366198 -2.0973458 -48.559807 -148.86046
10999000 -43.211864 -5.4398351 -0.030474536 -2.2609665 -0.032265794 -2.3128588 -48.142838 -141.03967
11998000 -42.473415 -7.7835822 -0.030791538 -2.4836841 -0.031667061 -2.5263219 -48.252331 -135.51639
12997000 -41.836323 -12.223202 -0.030574117 -2.6602235 -0.031544767 -2.6956196 -47.559181 -128.28027
13996000 -41.649799 -15.457283 -0.029125452 -2.8398509 -0.030403631 -2.864357 -47.130249 -122.92584
14995000 -41.300285 -19.304718 -0.031764325 -3.0507224 -0.031420916 -3.0727746 -46.650845 -119.86482
15994000 -41.183788 -22.929045 -0.032715678 -3.2684438 -0.03409823 -3.2896664 -46.404053 -115.89524
16993000 -41.191563 -26.64674 -0.031417787 -3.4656181 -0.032883126 -3.4706814 -45.488052 -117.0302
17992000 -41.313541 -31.15959 -0.032529984 -3.6639249 -0.032860696 -3.6676507 -44.888828 -118.18457
18991000 -41.595978 -35.390347 -0.033087362 -3.8764486 -0.034267295 -3.8699763 -44.166744 -117.74436
19990000 -41.477592 -40.38158 -0.035552729 -4.0804548 -0.03635978 -4.0773897 -43.469337 -119.41213
20989000 -41.38575 -43.347679 -0.036946367 -4.2865582 -0.038148765 -4.2751679 -42.889866 -119.70737
21988000 -41.315063 -47.884945 -0.038251657 -4.4802556 -0.039063647 -4.4675117 -42.576405 -118.79169
22987000 -41.099186 -52.377064 -0.039394598 -4.6805081 -0.040662218 -4.6711321 -42.365414 -118.65249
23986000 -41.172153 -56.101982 -0.038889956 -4.8762188 -0.039563872 -4.8723736 -42.206139 -118.56155
24985000 -40.795204 -58.654522 -0.039993614 -5.0847545 -0.039685085 -5.0782423 -41.919235 -116.05642
25984000 -40.593243 -60.893978 -0.04114015 -5.2878442 -0.040094983 -5.2908049 -41.592262 -115.16681
26983000 -40.293407 -62.849297 -0.041683216 -5.4894185 -0.040582001 -5.5037899 -41.432453 -113.98019
27982000 -40.161938 -63.839428 -0.043583691 -5.6866126 -0.041934907 -5.7221584 -41.09716 -112.62966
28981000 -40.18161 -65.246666 -0.041497394 -5.8842154 -0.042666025 -5.9062095 -40.853317 -112.00272
29980000 -39.811615 -66.982071 -0.041331444 -6.0787859 -0.04305372 -6.081728 -40.485535 -111.34163
30979000 -39.4226 -66.191422 -0.038923126 -6.4284511 -0.037598833 -6.4220929 -40.019543 -112.22369
31978000 -39.237526 -67.384949 -0.038310416 -6.6259851 -0.038292136 -6.6186037 -39.712925 -111.72039
32977000 -39.097675 -68.988953 -0.038774248 -6.8328762 -0.038810033 -6.8303714 -39.475349 -111.91303
33976000 -38.918293 -70.165009 -0.038672913 -7.0340104 -0.039425161 -7.0277081 -39.156143 -111.48256
34975000 -38.643974 -71.107056 -0.038947154 -7.2341199 -0.04009838 -7.2360082 -38.914761 -111.24375
35974000 -38.460239 -71.894157 -0.038315117 -7.4294958 -0.039912105 -7.4306388 -38.638237 -110.43783
36973000 -38.259346 -72.677528 -0.038502891 -7.6276054 -0.040854797 -7.6344986 -38.30867 -109.70766
37972000 -38.078838 -72.632858 -0.03879619 -7.8390875 -0.040400408 -7.8493347 -38.07552 -109.13736
38971000 -37.754128 -72.3713 -0.039425422 -8.043931 -0.04095174 -8.0466814 -37.876511 -107.55663
39970000 -37.434017 -72.914162 -0.038098626 -8.2330265 -0.039239962 -8.2487755 -37.588917 -107.01141
40969000 -37.143852 -72.883728 -0.037943512 -8.4272423 -0.039507188 -8.446661 -37.314304 -105.73239
41968000 -36.815456 -72.950417 -0.037732523 -8.6297569 -0.039669149 -8.6513081 -37.109985 -104.63654
42967000 -36.541683 -73.276924 -0.037417889 -8.8475971 -0.0405415 -8.8628702 -36.884121 -102.81843
43966000 -36.290028 -74.054489 -0.037830442 -9.0445738 -0.041626502 -9.0602531 -36.596996 -102.17841
44965000 -36.069572 -74.938545 -0.039275486 -9.2459888 -0.041611604 -9.2709742 -36.378658 -102.12881
45964000 -35.860138 -76.227844 -0.040408507 -9.4399538 -0.042847972 -9.4692593 -36.138321 -102.0106
46963000 -35.694706 -78.18232 -0.040611263 -9.6392527 -0.043319091 -9.6591492 -35.947197 -102.39416
47962000 -35.529655 -79.7509 -0.042179819 -9.8427296 -0.044184852 -9.8605423 -35.744774 -102.58703
48961000 -35.361698 -81.068695 -0.044044163 -10.038537 -0.045975495 -10.056995 -35.517738 -102.84079
49960000 -35.144196 -82.621689 -0.045018092 -10.236259 -0.047062378 -10.259907 -35.388844 -103.12519
50959000 -34.938927 -83.953423 -0.045885239 -10.450022 -0.048189059 -10.463386 -35.19989 -103.48812
51958000 -34.751194 -85.024338 -0.048160791 -10.648616 -0.049479667 -10.658033 -35.037693 -104.06344
52957000 -34.550529 -86.351479 -0.048859969 -10.851326 -0.050695758 -10.856072 -34.872925 -103.93684
53956000 -34.410671 -87.044228 -0.050538357 -11.050701 -0.05154518 -11.056248 -34.734955 -103.98784
54955000 -34.235798 -87.599991 -0.051259924 -11.249555 -0.052577909 -11.246387 -34.580208 -104.07647
55954000 -34.0919 -88.504242 -0.05293164 -11.4489 -0.052541491 -11.447662 -34.474964 -103.76257
56953000 -33.977322 -88.612946 -0.052077495 -11.645371 -0.052084569 -11.636617 -34.394661 -103.96638
57952000 -33.802708 -89.21479 -0.053586513 -11.847172 -0.053026497 -11.842117 -34.299053 -104.18757
58951000 -33.699238 -89.576889 -0.054378834 -12.04683 -0.053425077 -12.034492 -34.134224 -104.28705
59950000 -33.576298 -90.008446 -0.054093394 -12.252406 -0.053886335 -12.229349 -34.083599 -104.62891
60949000 -33.475464 -90.631088 -0.055004563 -12.450445 -0.05473743 -12.431728 -33.982784 -104.89792
61948000 -33.426807 -90.995071 -0.056148514 -12.65196 -0.054266911 -12.634355 -33.892845 -105.00483
62947000 -33.341728 -91.190201 -0.05587659 -12.85816 -0.055147178 -12.842219 -33.759804 -105.28233
63946000 -33.263317 -91.924835 -0.056544494 -13.061734 -0.056143794 -13.042497 -33.642887 -105.52944
64945000 -33.146152 -92.146927 -0.056953102 -13.26083 -0.056803346 -13.245651 -33.539837 -105.92703
65944000 -33.063496 -92.382629 -0.058291446 -13.458757 -0.0571527 -13.442763 -33.44453 -106.36775
66943000 -32.924911 -92.82637 -0.05592379 -13.658674 -0.056202795 -13.64416 -33.345623 -106.68628
67942000 -32.865135 -92.840881 -0.058229793 -13.855538 -0.057513624 -13.847755 -33.232986 -107.09798
68941000 -32.751614 -92.925285 -0.057768859 -14.047674 -0.056084268 -14.042109 -33.117931 -106.95731
69940000 -32.657784 -92.870583 -0.058312695 -14.250404 -0.058108587 -14.239789 -32.972202 -107.29961
70939000 -32.550327 -92.884987 -0.05783182 -14.445784 -0.057410013 -14.437938 -32.842865 -107.15417
71938000 -32.400406 -92.574898 -0.058286197 -14.642565 -0.05750864 -14.634374 -32.714882 -107.10356
72937000 -32.241352 -92.275803 -0.05696753 -14.840236 -0.057403192 -14.833928 -32.57029 -106.82481
73936000 -32.100727 -91.990143 -0.056573343 -15.036486 -0.057045687 -15.028052 -32.451263 -106.64864
74935000 -31.97344 -92.314819 -0.056891993 -15.234459 -0.055377632 -15.232307 -32.302204 -106.29509
75934000 -31.86684 -92.556465 -0.057134341 -15.446013 -0.055775903 -15.437874 -32.217903 -106.22535
76933000 -31.732538 -92.891045 -0.058625177 -15.637073 -0.056841373 -15.628902 -32.04422 -106.64053
77932000 -31.639669 -93.754539 -0.060078993 -15.833738 -0.058673978 -15.825219 -31.945366 -106.71095
78931000 -31.57836 -94.488983 -0.057872742 -16.034033 -0.057198863 -16.028875 -31.860184 -106.54945
79930000 -31.469736 -95.32328 -0.060200252 -16.224585 -0.060030438 -16.223572 -31.759954 -106.86923
80929000 -31.345373 -96.223175 -0.0622475 -16.418186 -0.061160747 -16.417301 -31.648373 -107.25401
81928000 -31.263504 -97.105621 -0.061820537 -16.61204 -0.061510455 -16.60862 -31.53212 -107.38721
82927000 -31.171528 -97.877403 -0.06393186 -16.811317 -0.062505901 -16.806707 -31.429508 -107.6609
83926000 -31.063469 -98.662971 -0.065398753 -17.007595 -0.063957341 -17.006512 -31.311287 -107.88396
84925000 -30.958807 -99.136871 -0.066471316 -17.208065 -0.064245798 -17.200752 -31.220074 -108.03215
85924000 -30.866245 -99.538872 -0.066699483 -17.410807 -0.065417148 -17.404423 -31.129753 -108.02521
86923000 -30.762854 -100.20442 -0.066764675 -17.602177 -0.066659525 -17.596428 -31.038649 -107.97426
87922000 -30.656155 -100.56324 -0.067285188 -17.812735 -0.065931715 -17.800997 -30.947369 -108.04546
88921000 -30.592831 -100.85793 -0.068529151 -18.00577 -0.066714205 -18.003895 -30.847919 -108.05184
89920000 -30.490929 -101.44367 -0.068763994 -18.205645 -0.067340136 -18.199047 -30.799349 -108.26215
90919000 -30.388533 -101.77283 -0.069058031 -18.399893 -0.067820489 -18.397423 -30.71636 -108.46872
91918000 -30.29534 -102.14038 -0.07019306 -18.605089 -0.068449996 -18.602684 -30.63813 -108.45747
92917000 -30.216942 -102.52657 -0.07089027 -18.800327 -0.069082752 -18.798103 -30.580673 -108.61415
93916000 -30.133589 -102.89085 -0.071008153 -18.992891 -0.069569871 -18.989616 -30.496517 -109.25587
94915000 -30.05282 -103.51846 -0.072770931 -19.192928 -0.070712402 -19.1856 -30.438032 -109.12547
95914000 -30.000105 -103.74892 -0.073733158 -19.389681 -0.071131825 -19.386297 -30.349398 -109.42413
96913000 -29.916964 -103.97879 -0.07446675 -19.58889 -0.072395839 -19.586611 -30.282043 -109.74984
97912000 -29.837038 -104.45512 -0.075689331 -19.78269 -0.072422162 -19.784319 -30.198689 -109.98853
98911000 -29.739819 -104.67358 -0.075978041 -19.984682 -0.073533587 -19.984636 -30.165939 -110.19935
99910000 -29.666739 -104.79292 -0.076283626 -20.184069 -0.074642926 -20.182808 -30.051285 -110.50857
100909000 -29.582584 -105.02555 -0.075481772 -20.392357 -0.07358361 -20.387079 -29.960833 -110.75325
101908000 -29.491409 -105.32656 -0.07678473 -20.591486 -0.075335585 -20.589983 -29.841793 -110.46201
102907000 -29.365034 -105.30793 -0.076936759 -20.793755 -0.07528396 -20.793734 -29.773903 -110.4518
103906000 -29.25853 -105.38721 -0.077492751 -20.989918 -0.074501514 -20.991247 -29.627996 -110.38023
104905000 -29.118633 -105.31415 -0.078664787 -21.195356 -0.075087219 -21.194485 -29.503582 -110.06927
105904000 -28.979872 -105.43674 -0.078480013 -21.396095 -0.074670315 -21.392603 -29.38442 -109.91952
106903000 -28.867861 -105.50951 -0.07827732 -21.60457 -0.075516798 -21.595036 -29.259352 -109.78069
107902000 -28.705261 -105.85739 -0.079195425 -21.797419 -0.076043636 -21.794489 -29.116388 -109.73993
108901000 -28.595995 -106.119 -0.080462851 -22.001686 -0.077569962 -21.995478 -28.983315 -109.73653
109900000 -28.468758 -106.6388 -0.080445707 -22.199133 -0.078327402 -22.195038 -28.840736 -109.86929
110899000 -28.361303 -107.22059 -0.082549743 -22.402107 -0.079349644 -22.391804 -28.715237 -110.16394
111898000 -28.268568 -107.97432 -0.083470337 -22.60074 -0.079986103 -22.595675 -28.589035 -110.27964
112897000 -28.136278 -108.56461 -0.084653482 -22.797512 -0.081375346 -22.789043 -28.462881 -110.483
113896000 -28.042433 -109.15269 -0.086003825 -23.000553 -0.082450546 -22.986965 -28.351109 -110.64159
114895000 -27.94055 -109.79069 -0.08726003 -23.199003 -0.083834775 -23.186064 -28.238321 -110.72619
115894000 -27.811613 -110.19244 -0.088814877 -23.398067 -0.085292302 -23.387167 -28.165306 -110.92382
116893000 -27.730904 -110.77904 -0.088964954 -23.595428 -0.085414007 -23.578339 -28.042801 -111.03896
117892000 -27.650076 -111.25403 -0.089031272 -23.789034 -0.085781515 -23.77898 -27.970577 -111.33134
118891000 -27.595076 -111.69444 -0.089073546 -23.990236 -0.086002767 -23.98056 -27.871778 -111.42153
119890000 -27.50465 -112.07856 -0.08980234 -24.191439 -0.087623201 -24.178526 -27.864731 -111.60577
120889000 -27.447483 -112.61722 -0.091118328 -24.392109 -0.087463669 -24.379688 -27.777527 -111.55535
121888000 -27.411655 -112.93557 -0.090940952 -24.585575 -0.088322952 -24.573277 -27.724741 -111.86494
122887000 -27.374554 -113.17881 -0.091973312 -24.788462 -0.088749357 -24.777622 -27.673456 -111.92197
123886000 -27.314634 -113.61143 -0.092705496 -24.990984 -0.089138284 -24.975449 -27.6635 -112.11018
124885000 -27.276781 -114.12976 -0.093014643 -25.191479 -0.089835897 -25.177155 -27.636766 -112.15259
125884000 -27.226805 -114.30011 -0.093674794 -25.393379 -0.089620523 -25.377146 -27.601234 -112.36212
126883000 -27.19735 -114.69844 -0.093761817 -25.593575 -0.09014035 -25.573364 -27.559879 -112.35228
127882000 -27.148733 -114.9555 -0.094413616 -25.790552 -0.090987742 -25.775198 -27.51453 -112.53487
128881000 -27.116161 -115.30332 -0.094909146 -25.993277 -0.090875395 -25.976286 -27.473438 -112.63955
129880000 -27.063383 -115.63102 -0.095184051 -26.193388 -0.090934344 -26.17658 -27.427547 -112.61917
130879000 -26.997002 -115.74509 -0.094895124 -26.392181 -0.091632247 -26.378366 -27.350128 -112.66133
131878000 -26.933281 -115.96428 -0.095244117 -26.595102 -0.092263371 -26.577484 -27.287563 -112.66036
132877000 -26.861515 -116.05611 -0.095509522 -26.798315 -0.092331327 -26.775194 -27.204645 -112.56854
133876000 -26.778271 -116.19688 -0.095784463 -26.99824 -0.092969954 -26.976448 -27.113062 -112.50562
134875000 -26.680788 -116.30067 -0.095820457 -27.194643 -0.093120694 -27.178671 -27.004744 -112.34888
135874000 -26.606293 -116.33338 -0.095384091 -27.396393 -0.093351848 -27.381395 -26.904896 -112.37531
136873000 -26.492767 -116.26531 -0.096187778 -27.600189 -0.092606597 -27.581972 -26.820473 -112.34604
137872000 -26.407455 -116.37546 -0.096874885 -27.801363 -0.092690423 -27.786966 -26.711088 -112.27766
138871000 -26.340727 -116.55243 -0.098088436 -28.000803 -0.093238652 -27.980814 -26.616295 -112.45589
139870000 -26.237862 -116.80871 -0.097485326 -28.197374 -0.094743259 -28.183828 -26.533379 -112.62931
140869000 -26.149504 -117.28465 -0.099561617 -28.39452 -0.095577523 -28.374619 -26.427212 -112.75119
141868000 -26.061674 -117.80049 -0.099704109 -28.584906 -0.097038999 -28.574114 -26.361677 -113.08153
142867000 -25.979946 -118.03376 -0.098287813 -28.783636 -0.095460303 -28.768631 -26.279522 -113.26799
143866000 -25.914484 -118.57156 -0.10012554 -28.983932 -0.096726656 -28.96788 -26.210154 -113.79353
144865000 -25.857107 -119.06853 -0.10133947 -29.179935 -0.098632313 -29.163857 -26.151472 -114.11748
145864000 -25.801113 -119.42828 -0.10182598 -29.381725 -0.099881314 -29.368414 -26.124632 -114.36285
146863000 -25.757708 -119.81281 -0.1023963 -29.58103 -0.10006779 -29.565218 -26.075087 -114.68085
147862000 -25.714388 -120.19566 -0.10290281 -29.775377 -0.099981971 -29.763018 -26.035442 -115.03751
148861000 -25.686407 -120.73328 -0.10383622 -29.972704 -0.10159597 -29.958002 -26.012014 -115.28519
149860000 -25.670584 -120.90717 -0.10389826 -30.172985 -0.10147567 -30.161358 -25.983982 -115.42949
150859000 -25.6523 -121.28916 -0.10396639 -30.370733 -0.1013514 -30.359871 -25.976068 -115.70206
151858000 -25.635803 -121.62353 -0.10449191 -30.570927 -0.10200407 -30.55455 -25.967403 -116.00683
152857000 -25.617683 -121.92152 -0.10447733 -30.768702 -0.10234012 -30.75819 -25.943361 -116.13676
153856000 -25.608873 -122.17274 -0.10462954 -30.968412 -0.10105173 -30.959312 -25.966902 -116.42779
154855000 -25.611284 -122.35115 -0.10526414 -31.165871 -0.10181353 -31.154419 -25.954231 -116.65665
155854000 -25.622486 -122.61211 -0.10469636 -31.362234 -0.10268865 -31.351276 -25.947845 -116.91867
156853000 -25.602989 -123.3082 -0.10330573 -31.557035 -0.10189992 -31.546707 -25.941696 -117.2429
157852000 -25.610813 -123.53194 -0.10460594 -31.752586 -0.10287233 -31.743834 -25.935629 -117.55776
158851000 -25.6042 -123.77126 -0.10452957 -31.951008 -0.10346957 -31.940943 -25.917852 -117.84474
159850000 -25.587585 -123.87735 -0.10493131 -32.151615 -0.10365806 -32.144615 -25.917091 -118.02955
160849000 -25.571926 -124.00117 -0.10547658 -32.3479 -0.10437445 -32.344498 -25.889635 -118.26218
161848000 -25.554958 -124.09823 -0.10577496 -32.549557 -0.10461204 -32.542324 -25.846661 -118.35172
162847000 -25.505848 -124.28275 -0.10595348 -32.745869 -0.10483532 -32.742683 -25.820702 -118.62875
163846000 -25.466764 -124.52104 -0.10602298 -32.94751 -0.10503951 -32.938423 -25.740913 -118.61411
164845000 -25.410324 -124.51334 -0.10666654 -33.148079 -0.10508035 -33.141323 -25.674067 -118.70521
165844000 -25.349684 -124.53577 -0.10691459 -33.345215 -0.1055771 -33.340076 -25.593735 -118.83378
166843000 -25.288033 -124.65955 -0.10679096 -33.541874 -0.10582615 -33.536602 -25.522291 -119.03367
167842000 -25.232275 -124.77362 -0.10675514 -33.744526 -0.10613332 -33.738499 -25.442404 -118.94778
168841000 -25.153175 -124.99033 -0.10714462 -33.939304 -0.1058564 -33.940079 -25.362453 -119.02966
169840000 -25.088179 -125.26054 -0.10708652 -34.13789 -0.10664743 -34.135448 -25.278488 -119.22194
170839000 -25.027479 -125.4916 -0.10812007 -34.331455 -0.10691645 -34.332348 -25.189974 -119.41483
171838000 -24.969803 -125.92812 -0.10815988 -34.533558 -0.10787433 -34.527763 -25.12389 -119.66338
172837000 -24.899519 -126.29195 -0.10961869 -34.728115 -0.10836131 -34.723083 -25.05765 -119.89116
173836000 -24.830078 -126.7365 -0.11063054 -34.929276 -0.11017968 -34.923801 -25.014164 -120.12782
174835000 -24.779572 -127.1695 -0.11129417 -35.123032 -0.11078748 -35.123962 -24.966887 -120.44875
175834000 -24.729959 -127.55074 -0.1123189 -35.323521 -0.11162882 -35.316055 -24.901318 -120.74933
176833000 -24.682043 -127.93219 -0.11302211 -35.520691 -0.11210373 -35.516563 -24.851946 -120.94814
177832000 -24.634975 -128.40239 -0.11321899 -35.715885 -0.11223336 -35.715763 -24.829206 -121.11667
178831000 -24.591642 -128.77821 -0.11361436 -35.910358 -0.11261404 -35.906384 -24.793369 -121.35455
179830000 -24.55933 -129.23706 -0.11397682 -36.111042 -0.11305107 -36.113178 -24.764917 -121.47623
180829000 -24.516485 -129.41798 -0.11471459 -36.30772 -0.11389178 -36.301979 -24.740082 -121.66035
181828000 -24.493448 -129.8087 -0.11490091 -36.504471 -0.11399648 -36.500725 -24.719662 -121.76734
182827000 -24.468077 -130.16701 -0.11454661 -36.700665 -0.11475658 -36.700974 -24.704578 -121.87452
183826000 -24.4268 -130.50723 -0.11653003 -36.897804 -0.11394812 -36.891876 -24.696955 -122.01476
184825000 -24.430231 -130.84697 -0.11552478 -37.093643 -0.11420058 -37.090637 -24.677683 -122.10455
185824000 -24.404057 -131.16304 -0.11577335 -37.286377 -0.11517177 -37.290154 -24.677605 -122.1667
186823000 -24.389601 -131.50667 -0.1159762 -37.486229 -0.1149841 -37.484921 -24.674511 -122.1309
187822000 -24.368799 -131.83163 -0.11647366 -37.681503 -0.11585975 -37.68494 -24.635757 -122.23297
188821000 -24.348024 -132.08774 -0.11662894 -37.87809 -0.11584752 -37.880375 -24.622705 -122.31383
189820000 -24.331284 -132.33121 -0.11697331 -38.080112 -0.1158236 -38.078663 -24.612177 -122.49611
190819000 -24.303785 -132.57553 -0.11833161 -38.278378 -0.11725999 -38.275436 -24.578035 -122.44433
191818000 -24.267429 -132.76363 -0.11962008 -38.471386 -0.11885169 -38.473862 -24.545471 -122.32209
192817000 -24.195824 -133.01387 -0.11995111 -38.65892 -0.11921059 -38.65786 -24.471125 -122.37003
193816000 -24.160116 -133.38049 -0.11901876 -38.851627 -0.11776026 -38.853401 -24.414202 -122.65054
194815000 -24.099487 -133.81972 -0.11907384 -39.047115 -0.11861013 -39.049084 -24.352171 -122.76436
195814000 -24.049658 -134.03894 -0.11957618 -39.247601 -0.1179866 -39.246803 -24.298534 -122.89267
196813000 -23.997267 -134.37794 -0.11871707 -39.440399 -0.11831379 -39.437622 -24.220884 -123.05874
197812000 -23.940548 -134.60515 -0.1184452 -39.63916 -0.11860321 -39.637817 -24.150936 -123.1479
198811000 -23.884653 -134.78848 -0.11865589 -39.833366 -0.11789591 -39.836578 -24.076962 -123.32803
199810000 -23.818384 -135.15199 -0.11945937 -40.031563 -0.1185399 -40.028324 -24.000809 -123.40166
200809000 -23.759096 -135.42606 -0.1197047 -40.223293 -0.11846063 -40.2286 -23.921926 -123.6003
201808000 -23.698568 -135.64127 -0.12060313 -40.4259 -0.11915126 -40.425949 -23.853401 -123.70953
202807000 -23.640633 -136.02054 -0.12139633 -40.624897 -0.12022415 -40.630665 -23.8025 -123.89105
203806000 -23.585918 -136.47247 -0.12272964 -40.82518 -0.12020818 -40.828983 -23.736414 -124.08551
