!Keysight Technologies,E5080B,MY59205177,A.15.75.32
!Date: Friday, February 23, 2024 03:34:16
!Correction: S11(Cdelta 2-Port  ) 
!S21(Cdelta 2-Port  ) 
!S12(Cdelta 2-Port  ) 
!S22(Cdelta 2-Port  ) 
!S2P File: Measurements: S11, S21, S12, S22:
# Hz S  dB   R 50
10000000 -46.028313 -2.4005809 -0.014860125 -2.0446572 -0.018091539 -2.0983655 -45.926575 -157.80464
10999000 -45.302773 -4.6179976 -0.016161911 -2.2637875 -0.018245947 -2.3192253 -45.839317 -151.63773
11998000 -44.337795 -7.6865582 -0.016983036 -2.4893169 -0.017701907 -2.5339959 -46.071812 -147.60297
12997000 -43.613136 -13.290215 -0.015966009 -2.6698804 -0.017716203 -2.7033582 -45.695045 -141.35796
13996000 -43.28767 -16.740189 -0.015074681 -2.8485897 -0.017897109 -2.8701587 -45.524334 -136.22446
14995000 -42.888405 -21.276585 -0.016911572 -3.0588107 -0.017783521 -3.0850692 -45.169376 -132.91013
15994000 -42.694832 -25.834513 -0.018302096 -3.279326 -0.020269085 -3.3033857 -45.085487 -129.46294
16993000 -42.685135 -30.254261 -0.017219007 -3.4764178 -0.01931655 -3.4828718 -44.223507 -129.16107
17992000 -42.733887 -35.68745 -0.018280521 -3.6784608 -0.020504195 -3.6759083 -43.645752 -129.03334
18991000 -43.001259 -41.173328 -0.018633289 -3.8902018 -0.020953124 -3.8847213 -43.005135 -128.06082
19990000 -42.756184 -46.825516 -0.020758046 -4.0950122 -0.022778451 -4.0920429 -42.285404 -129.08171
20989000 -42.587875 -50.088863 -0.023175046 -4.2987781 -0.025248911 -4.2866182 -41.784492 -128.32004
21988000 -42.422012 -55.716389 -0.02390093 -4.4972606 -0.025307234 -4.483016 -41.542011 -127.63921
22987000 -42.071487 -60.132698 -0.025143202 -4.6966066 -0.026436616 -4.688488 -41.251053 -127.12823
23986000 -42.020828 -64.312553 -0.024962254 -4.8934069 -0.025659533 -4.8895516 -41.135471 -126.88226
24985000 -41.579178 -67.164093 -0.025747286 -5.1024332 -0.025648596 -5.0964327 -40.947079 -124.52171
25984000 -41.291817 -69.45919 -0.026332702 -5.3051147 -0.026748635 -5.3055024 -40.61763 -122.70797
26983000 -40.95295 -71.141983 -0.027563166 -5.503231 -0.026682479 -5.5254717 -40.538063 -122.18172
27982000 -40.800674 -71.794334 -0.028569626 -5.7035842 -0.027865106 -5.7351298 -40.245361 -120.53807
28981000 -40.739265 -73.14518 -0.027219571 -5.8998876 -0.029056914 -5.9298906 -40.006596 -119.89631
29980000 -40.38282 -74.577644 -0.027163045 -6.0979261 -0.029315434 -6.1033134 -39.734859 -119.15877
30979000 -39.951603 -73.831978 -0.023886874 -6.4512515 -0.024470998 -6.4409289 -39.243961 -119.46464
31978000 -39.733849 -74.635101 -0.02346627 -6.644177 -0.02486176 -6.6359773 -39.006706 -118.76199
32977000 -39.540497 -76.254745 -0.023987345 -6.8562317 -0.025451483 -6.8546348 -38.74411 -118.84128
33976000 -39.36414 -77.369652 -0.024654789 -7.0542536 -0.026174882 -7.0513182 -38.47649 -118.19202
34975000 -39.095909 -78.260254 -0.024586583 -7.2575679 -0.026891369 -7.2561941 -38.230019 -117.93298
35974000 -38.911926 -78.78093 -0.023894683 -7.4536471 -0.026193112 -7.4556623 -37.970322 -116.88441
36973000 -38.665565 -79.388214 -0.024219014 -7.6514196 -0.027889594 -7.655983 -37.714611 -116.05167
37972000 -38.467331 -79.234612 -0.023922794 -7.8600802 -0.026818439 -7.8740888 -37.480209 -115.33973
38971000 -38.163811 -78.708145 -0.024769077 -8.0667553 -0.028532103 -8.0723457 -37.32753 -113.62856
39970000 -37.825256 -78.88195 -0.023796296 -8.2585688 -0.026683521 -8.275362 -37.070732 -113.08998
40969000 -37.558468 -78.608627 -0.023647936 -8.4563522 -0.026320461 -8.4725513 -36.828243 -111.64191
41968000 -37.20327 -78.442924 -0.023923574 -8.654295 -0.026819481 -8.6748381 -36.623238 -110.46231
42967000 -36.935619 -78.691063 -0.023583909 -8.8661432 -0.027178934 -8.888607 -36.453625 -108.49836
43966000 -36.647785 -79.256607 -0.024394725 -9.0751171 -0.029010007 -9.0909557 -36.17617 -107.85249
44965000 -36.4105 -80.038849 -0.025254639 -9.2762585 -0.028354922 -9.2952843 -35.965199 -107.60243
45964000 -36.179588 -81.029694 -0.026779369 -9.4769936 -0.029265398 -9.4933386 -35.720436 -107.29053
46963000 -35.991379 -83.003029 -0.025810825 -9.6726961 -0.030362966 -9.6905136 -35.541622 -107.47974
47962000 -35.84066 -84.403786 -0.028255131 -9.8704433 -0.030907551 -9.8912849 -35.347225 -107.64735
48961000 -35.614944 -85.8731 -0.029959457 -10.069928 -0.032214679 -10.091585 -35.124119 -107.80577
49960000 -35.374771 -87.162041 -0.030874962 -10.266522 -0.033472113 -10.289716 -34.971981 -107.83759
50959000 -35.145039 -88.395691 -0.03184855 -10.483396 -0.034718435 -10.492964 -34.794083 -108.11541
51958000 -34.936771 -89.428436 -0.033326294 -10.681263 -0.035995387 -10.69118 -34.625038 -108.5335
52957000 -34.726437 -90.547066 -0.035202499 -10.88249 -0.036635179 -10.889544 -34.472294 -108.20355
53956000 -34.55381 -91.164101 -0.035552468 -11.083532 -0.038068596 -11.085951 -34.335232 -108.26389
54955000 -34.376091 -91.598709 -0.037328068 -11.285354 -0.039105181 -11.282022 -34.181259 -108.15384
55954000 -34.224762 -92.462639 -0.03786204 -11.483651 -0.039623693 -11.478109 -34.069923 -107.88739
56953000 -34.109653 -92.485847 -0.037647661 -11.679743 -0.038123176 -11.673255 -34.003826 -108.07819
57952000 -33.930317 -92.986794 -0.038706083 -11.880028 -0.038965438 -11.871287 -33.887245 -108.12206
58951000 -33.813736 -93.38205 -0.03951633 -12.087114 -0.039985776 -12.065995 -33.751614 -108.1875
59950000 -33.682064 -93.719261 -0.040496036 -12.289527 -0.04136803 -12.266435 -33.673508 -108.45146
60949000 -33.571732 -94.335487 -0.041130483 -12.490547 -0.041143809 -12.463596 -33.581364 -108.70098
61948000 -33.502285 -94.631477 -0.042205699 -12.689437 -0.041529018 -12.670665 -33.491905 -108.90054
62947000 -33.412281 -94.83876 -0.041916091 -12.897934 -0.042164922 -12.881008 -33.348648 -109.07966
63946000 -33.346027 -95.488632 -0.042772684 -13.095786 -0.042856339 -13.079179 -33.244476 -109.17389
64945000 -33.215 -95.718742 -0.043718349 -13.301598 -0.043403279 -13.28065 -33.128975 -109.70788
65944000 -33.122807 -96.021599 -0.044409491 -13.499648 -0.043474134 -13.481977 -33.032707 -110.1946
66943000 -32.978302 -96.470757 -0.042200994 -13.700107 -0.041988488 -13.683769 -32.926815 -110.36229
67942000 -32.927959 -96.40731 -0.044263303 -13.898617 -0.044267491 -13.885908 -32.812302 -110.70723
68941000 -32.807606 -96.50119 -0.043994218 -14.093542 -0.043141305 -14.083333 -32.688866 -110.68768
69940000 -32.714798 -96.501747 -0.043921523 -14.289669 -0.044053577 -14.283332 -32.543041 -110.99374
70939000 -32.593838 -96.457611 -0.044403739 -14.487599 -0.044630483 -14.482334 -32.420639 -110.83032
71938000 -32.458607 -96.0354 -0.04386504 -14.686044 -0.04375574 -14.677012 -32.29554 -110.72077
72937000 -32.312428 -95.806503 -0.043423671 -14.885335 -0.04312614 -14.87761 -32.150928 -110.42275
73936000 -32.175678 -95.436226 -0.043386023 -15.08352 -0.042958036 -15.072901 -32.033253 -110.14361
74935000 -32.044842 -95.641884 -0.042568255 -15.278054 -0.042020638 -15.274136 -31.885862 -109.86953
75934000 -31.907574 -95.928612 -0.042821832 -15.489054 -0.04233247 -15.482746 -31.801525 -109.79942
76933000 -31.787777 -96.249924 -0.044196621 -15.679937 -0.044217017 -15.67483 -31.626995 -110.14011
77932000 -31.694836 -97.01651 -0.045013383 -15.877581 -0.04502777 -15.870003 -31.52047 -110.05403
78931000 -31.621174 -97.783905 -0.043838631 -16.079676 -0.044065867 -16.072468 -31.426403 -109.96193
79930000 -31.496902 -98.631508 -0.045913756 -16.271235 -0.046786841 -16.268854 -31.325584 -110.24719
80929000 -31.383938 -99.416969 -0.047818702 -16.469702 -0.048369668 -16.466873 -31.23238 -110.50253
81928000 -31.293463 -100.14947 -0.04816236 -16.661394 -0.049235392 -16.655169 -31.096323 -110.48568
82927000 -31.195623 -100.88406 -0.049852524 -16.857965 -0.050059389 -16.858067 -30.997177 -110.74
83926000 -31.076757 -101.5774 -0.051055621 -17.054956 -0.050984379 -17.058256 -30.859343 -110.97173
84925000 -30.969908 -102.02094 -0.052058894 -17.254124 -0.051570587 -17.255201 -30.775249 -111.01115
85924000 -30.880594 -102.42467 -0.052913036 -17.453812 -0.052286036 -17.454056 -30.691969 -110.97658
86923000 -30.774387 -102.87538 -0.05304851 -17.65229 -0.05299348 -17.647875 -30.591103 -110.82617
87922000 -30.655809 -103.24512 -0.053171672 -17.86128 -0.052628741 -17.85437 -30.506882 -110.83945
88921000 -30.590448 -103.49647 -0.05466377 -18.061245 -0.053930629 -18.055765 -30.415609 -110.81345
89920000 -30.487328 -104.04449 -0.054145552 -18.256403 -0.054173335 -18.253813 -30.356434 -110.98626
90919000 -30.386992 -104.24806 -0.055762529 -18.455593 -0.055094745 -18.4482 -30.268799 -111.1396
91918000 -30.290302 -104.65568 -0.056064337 -18.654936 -0.055624351 -18.653959 -30.201576 -111.12177
92917000 -30.190569 -104.89198 -0.057680719 -18.857498 -0.056921892 -18.850645 -30.141535 -111.24422
93916000 -30.102308 -105.29603 -0.056956775 -19.05022 -0.05618811 -19.045105 -30.053013 -111.82378
94915000 -30.024591 -105.91679 -0.058415018 -19.250235 -0.057409227 -19.246662 -29.991159 -111.75811
95914000 -29.958218 -106.07944 -0.059102993 -19.444679 -0.058172598 -19.441246 -29.898914 -111.91519
96913000 -29.874746 -106.32899 -0.060527571 -19.645916 -0.059530213 -19.645473 -29.834747 -112.30306
97912000 -29.799068 -106.73872 -0.061546162 -19.843641 -0.059617601 -19.840601 -29.758547 -112.53313
98911000 -29.691851 -106.93975 -0.062153753 -20.042355 -0.060404986 -20.04162 -29.713194 -112.76123
99910000 -29.625362 -107.05772 -0.062398497 -20.241581 -0.060910825 -20.245531 -29.610704 -113.04658
100909000 -29.531208 -107.332 -0.061989374 -20.451244 -0.059979256 -20.445766 -29.51741 -113.33169
101908000 -29.438368 -107.55042 -0.063320339 -20.65313 -0.061407797 -20.650991 -29.413528 -113.0432
102907000 -29.301163 -107.57796 -0.063942626 -20.849928 -0.061311968 -20.8515 -29.343994 -113.05013
103906000 -29.212284 -107.59761 -0.064411044 -21.057877 -0.061076213 -21.053436 -29.196011 -113.03605
104905000 -29.068897 -107.45308 -0.064638577 -21.255611 -0.062148765 -21.255154 -29.063988 -112.70365
105904000 -28.929926 -107.57677 -0.064144649 -21.458733 -0.061792444 -21.455309 -28.962805 -112.56165
106903000 -28.814051 -107.60677 -0.065320179 -21.665743 -0.062089682 -21.660847 -28.828964 -112.50333
107902000 -28.655798 -107.9651 -0.065799519 -21.865122 -0.063129127 -21.859264 -28.699459 -112.41442
108901000 -28.542896 -108.16827 -0.066662677 -22.069021 -0.064539261 -22.05941 -28.573662 -112.38129
109900000 -28.417557 -108.65889 -0.0674311 -22.266323 -0.066032112 -22.25622 -28.418327 -112.43162
110899000 -28.294518 -109.29043 -0.068545192 -22.46063 -0.066296265 -22.454977 -28.296917 -112.6762
111898000 -28.211092 -109.91551 -0.069923677 -22.667379 -0.067287549 -22.66342 -28.178982 -112.7916
112897000 -28.078024 -110.44922 -0.071437858 -22.86467 -0.068848677 -22.854795 -28.04319 -113.00524
113896000 -27.977509 -111.0181 -0.072472699 -23.066692 -0.07018885 -23.053686 -27.929489 -113.13496
114895000 -27.87813 -111.64378 -0.073441967 -23.263985 -0.070996836 -23.251883 -27.822599 -113.19452
115894000 -27.759085 -112.0399 -0.074716926 -23.468061 -0.071368389 -23.453775 -27.752861 -113.39749
116893000 -27.675266 -112.48557 -0.07527975 -23.663879 -0.072743557 -23.645353 -27.63311 -113.40034
117892000 -27.598608 -113.00779 -0.076125301 -23.859907 -0.073453553 -23.84318 -27.556286 -113.60873
118891000 -27.542253 -113.42789 -0.075928248 -24.057819 -0.074220277 -24.04845 -27.462988 -113.733
119890000 -27.445299 -113.74149 -0.076620325 -24.262587 -0.074792773 -24.248169 -27.449749 -113.89207
120889000 -27.399511 -114.26959 -0.07781294 -24.462009 -0.074515998 -24.44758 -27.374699 -113.85699
121888000 -27.359188 -114.62531 -0.07837458 -24.655697 -0.075243667 -24.645121 -27.314878 -114.07556
122887000 -27.3235 -114.78557 -0.079189628 -24.8615 -0.075559735 -24.848255 -27.273113 -114.14589
123886000 -27.266817 -115.19624 -0.07951574 -25.060923 -0.076878533 -25.042421 -27.257595 -114.25819
124885000 -27.228868 -115.71828 -0.080086827 -25.264902 -0.077049531 -25.247185 -27.226105 -114.27998
125884000 -27.176865 -115.88087 -0.080455989 -25.462826 -0.077302232 -25.447405 -27.192509 -114.45498
126883000 -27.161564 -116.28557 -0.080900349 -25.664148 -0.077461131 -25.654053 -27.164391 -114.49495
127882000 -27.113312 -116.56853 -0.080860794 -25.864475 -0.078297883 -25.847937 -27.117979 -114.60642
128881000 -27.082779 -116.88734 -0.080923818 -26.065563 -0.078174002 -26.050936 -27.0744 -114.70349
129880000 -27.020624 -117.24703 -0.082254536 -26.269833 -0.078238845 -26.247299 -27.042465 -114.64713
130879000 -26.966261 -117.3591 -0.081852242 -26.469706 -0.079380229 -26.452528 -26.969719 -114.69411
131878000 -26.899481 -117.61639 -0.081758864 -26.673555 -0.079547375 -26.654388 -26.913109 -114.56662
132877000 -26.830233 -117.66985 -0.081098936 -26.873499 -0.079600103 -26.855089 -26.829815 -114.48524
133876000 -26.750338 -117.86315 -0.081921883 -27.076323 -0.079170644 -27.053617 -26.74205 -114.4126
134875000 -26.654034 -118.00995 -0.082432345 -27.274994 -0.080185972 -27.257561 -26.642752 -114.25586
135874000 -26.578365 -117.99918 -0.082586154 -27.475939 -0.079805754 -27.457697 -26.551664 -114.20492
136873000 -26.464582 -117.92966 -0.082811467 -27.675957 -0.079682365 -27.657894 -26.463139 -114.16678
137872000 -26.390022 -118.05616 -0.082319692 -27.880594 -0.080330737 -27.864397 -26.364943 -114.10313
138871000 -26.306915 -118.2963 -0.083065033 -28.078762 -0.080911428 -28.061802 -26.266685 -114.23487
139870000 -26.207882 -118.54718 -0.083965935 -28.279404 -0.082108647 -28.256262 -26.18454 -114.40375
140869000 -26.129747 -119.09861 -0.084825851 -28.472006 -0.082380898 -28.459198 -26.08835 -114.64043
141868000 -26.050303 -119.48219 -0.085802108 -28.672079 -0.084072821 -28.658897 -26.032019 -114.87104
142867000 -25.970562 -119.69218 -0.084368691 -28.870148 -0.082871631 -28.855091 -25.957972 -115.00466
143866000 -25.901388 -120.18181 -0.086734742 -29.067284 -0.084925368 -29.05389 -25.884535 -115.45837
144865000 -25.842489 -120.70776 -0.087880477 -29.267792 -0.085865736 -29.252033 -25.826263 -115.77026
145864000 -25.787016 -120.97211 -0.088619903 -29.468681 -0.087181322 -29.457346 -25.792267 -116.01522
146863000 -25.741808 -121.39782 -0.089086756 -29.670649 -0.087244712 -29.656767 -25.739384 -116.30871
147862000 -25.702427 -121.6915 -0.090497948 -29.866352 -0.087526262 -29.858503 -25.706707 -116.6413
148861000 -25.670252 -122.14288 -0.091033734 -30.064789 -0.089570053 -30.052166 -25.689997 -116.80195
149860000 -25.635584 -122.30962 -0.091963001 -30.258175 -0.089468583 -30.243654 -25.639641 -116.85295
150859000 -25.613691 -122.78712 -0.091293328 -30.458136 -0.089843303 -30.441761 -25.613781 -117.21495
151858000 -25.597778 -123.1115 -0.091407008 -30.657375 -0.089456692 -30.641367 -25.605659 -117.52435
152857000 -25.587954 -123.42756 -0.091727957 -30.851223 -0.089212269 -30.83744 -25.591444 -117.70854
153856000 -25.583466 -123.656 -0.091900602 -31.054285 -0.08887776 -31.043009 -25.607861 -118.04736
154855000 -25.578938 -123.84379 -0.092128783 -31.25688 -0.089083061 -31.242096 -25.59376 -118.29752
155854000 -25.595676 -124.057 -0.091820493 -31.453058 -0.089722797 -31.441236 -25.588575 -118.56805
156853000 -25.580847 -124.7731 -0.089994468 -31.641785 -0.088249512 -31.632156 -25.580832 -118.89615
157852000 -25.583981 -124.98232 -0.091348581 -31.842844 -0.090460151 -31.834354 -25.574129 -119.22807
158851000 -25.588039 -125.18034 -0.091944233 -32.041283 -0.090802178 -32.033474 -25.55114 -119.50214
159850000 -25.569693 -125.27998 -0.091961153 -32.243015 -0.09047918 -32.235161 -25.555414 -119.68158
160849000 -25.560633 -125.37953 -0.092740938 -32.443245 -0.091813616 -32.435871 -25.521574 -119.96223
161848000 -25.540823 -125.4752 -0.093089223 -32.639656 -0.091187589 -32.637657 -25.480625 -120.10824
162847000 -25.501667 -125.67915 -0.093092136 -32.841061 -0.092102341 -32.836617 -25.462666 -120.3332
163846000 -25.459929 -125.85806 -0.093370631 -33.043674 -0.091586515 -33.035141 -25.380796 -120.34632
164845000 -25.399641 -125.80919 -0.093299486 -33.24168 -0.092747018 -33.235882 -25.322088 -120.44641
165844000 -25.353136 -125.87196 -0.094086118 -33.440449 -0.092578307 -33.433125 -25.24317 -120.57517
166843000 -25.285759 -125.91773 -0.094114423 -33.635941 -0.092799909 -33.63718 -25.172625 -120.74208
167842000 -25.23173 -126.02186 -0.094521821 -33.839222 -0.093007505 -33.835278 -25.097988 -120.65588
168841000 -25.157389 -126.19057 -0.09438055 -34.041996 -0.093617931 -34.036827 -25.021761 -120.73341
169840000 -25.09099 -126.42898 -0.094588757 -34.234806 -0.09370786 -34.231632 -24.942225 -120.89544
170839000 -25.028214 -126.66429 -0.095082186 -34.429588 -0.094108343 -34.428368 -24.856926 -121.10735
171838000 -24.978186 -127.02493 -0.095716186 -34.63726 -0.09465225 -34.62809 -24.801435 -121.32383
172837000 -24.906773 -127.38191 -0.096707866 -34.832401 -0.09625686 -34.823849 -24.726521 -121.55122
173836000 -24.839472 -127.76586 -0.098224528 -35.031578 -0.097417548 -35.027946 -24.689407 -121.71049
174835000 -24.787195 -128.19608 -0.09877266 -35.225937 -0.097994708 -35.228138 -24.643932 -122.04461
175834000 -24.732367 -128.5471 -0.099263124 -35.426243 -0.09856876 -35.423759 -24.582605 -122.31103
176833000 -24.685373 -128.87779 -0.10043786 -35.62521 -0.099511556 -35.624809 -24.5359 -122.41238
177832000 -24.63872 -129.3385 -0.10161425 -35.824104 -0.10077035 -35.824669 -24.512356 -122.53558
178831000 -24.590876 -129.55489 -0.102928 -36.022884 -0.10246177 -36.01865 -24.472248 -122.64397
179830000 -24.524715 -129.94611 -0.10386591 -36.204258 -0.10277002 -36.204697 -24.405542 -122.70524
180829000 -24.471924 -130.30305 -0.10358303 -36.398075 -0.10201043 -36.399548 -24.362753 -123.03493
181828000 -24.449671 -130.74547 -0.10264014 -36.599861 -0.10066809 -36.594849 -24.347477 -123.21853
182827000 -24.425932 -131.11897 -0.10297147 -36.792938 -0.10151356 -36.795567 -24.33761 -123.32711
183826000 -24.389225 -131.45769 -0.10265657 -36.995544 -0.10188164 -36.99432 -24.328485 -123.49278
184825000 -24.38801 -131.78447 -0.1029105 -37.190952 -0.10163572 -37.191475 -24.308292 -123.60277
185824000 -24.358881 -132.15027 -0.10282515 -37.385693 -0.10241698 -37.390549 -24.300615 -123.67117
186823000 -24.346315 -132.50955 -0.10335001 -37.586479 -0.10296564 -37.583588 -24.294361 -123.69267
187822000 -24.314037 -132.84264 -0.10338182 -37.787319 -0.10282701 -37.783703 -24.259518 -123.78121
188821000 -24.295738 -133.10966 -0.10322595 -37.977806 -0.10328028 -37.98555 -24.238514 -123.90316
189820000 -24.278763 -133.39342 -0.10413237 -38.180557 -0.10331024 -38.178642 -24.221796 -124.0974
190819000 -24.244745 -133.68259 -0.10460249 -38.377335 -0.1033789 -38.374687 -24.185677 -124.13374
191818000 -24.213194 -133.99648 -0.10472818 -38.574322 -0.10414854 -38.573235 -24.157984 -124.16788
192817000 -24.168896 -134.2635 -0.10488358 -38.770935 -0.10426971 -38.773357 -24.11566 -124.26969
193816000 -24.136374 -134.5528 -0.10499204 -38.971012 -0.10395394 -38.968472 -24.06275 -124.40925
194815000 -24.072922 -134.93463 -0.10575136 -39.162647 -0.10527872 -39.163147 -23.997805 -124.4759
195814000 -24.021162 -135.13812 -0.10674772 -39.3587 -0.10477433 -39.360462 -23.941193 -124.57416
196813000 -23.964657 -135.45293 -0.10558134 -39.556828 -0.10431532 -39.555328 -23.865063 -124.71076
197812000 -23.909245 -135.6461 -0.1061747 -39.752045 -0.10533018 -39.754211 -23.795088 -124.79302
198811000 -23.85656 -135.82898 -0.10640788 -39.951794 -0.10539754 -39.951435 -23.72402 -124.98879
199810000 -23.7862 -136.1568 -0.10695068 -40.143528 -0.10527714 -40.143192 -23.650162 -125.06039
200809000 -23.727951 -136.43965 -0.10664425 -40.342255 -0.10540391 -40.34351 -23.567478 -125.23227
201808000 -23.670515 -136.6228 -0.10736167 -40.542831 -0.10710429 -40.5457 -23.501793 -125.30064
202807000 -23.610231 -136.97244 -0.10775252 -40.740501 -0.10743278 -40.745552 -23.446701 -125.49338
