!Keysight Technologies,E5080B,MY59205177,A.15.75.32
!Date: Friday, February 23, 2024 02:56:04
!Correction: S11(Cdelta 2-Port  ) 
!S21(Cdelta 2-Port  ) 
!S12(Cdelta 2-Port  ) 
!S22(Cdelta 2-Port  ) 
!S2P File: Measurements: S11, S21, S12, S22:
# Hz S  dB   R 50
10000000 -43.859882 -3.7479827 -0.028697565 -2.0443668 -0.032743588 -2.0994537 -48.521912 -149.13492
10999000 -43.243896 -5.2065358 -0.029354788 -2.256834 -0.032119755 -2.3136003 -48.166248 -140.96904
11998000 -42.478466 -7.5802746 -0.029879438 -2.4811001 -0.032087415 -2.5254381 -48.264748 -135.18834
12997000 -41.89275 -12.424449 -0.029510638 -2.6595197 -0.03155911 -2.6913538 -47.533894 -129.17773
13996000 -41.615833 -15.668724 -0.028446639 -2.8418758 -0.031339828 -2.8605893 -47.119942 -122.90811
14995000 -41.349277 -19.289621 -0.030416664 -3.0480075 -0.031521823 -3.0735536 -46.607311 -120.30918
15994000 -41.216183 -22.715425 -0.031660803 -3.2684369 -0.034747139 -3.2892988 -46.369991 -116.43642
16993000 -41.177433 -26.671911 -0.03072923 -3.4641805 -0.033172134 -3.4724324 -45.476635 -117.23852
17992000 -41.311619 -31.350414 -0.031401362 -3.6624897 -0.033532374 -3.6661808 -44.861263 -118.24202
18991000 -41.583385 -35.647381 -0.032468952 -3.8724604 -0.034496121 -3.8711627 -44.1684 -117.81734
19990000 -41.439465 -40.524227 -0.034528214 -4.0847836 -0.037087869 -4.0758133 -43.458508 -119.63753
20989000 -41.332222 -43.214462 -0.036936186 -4.2823553 -0.038427155 -4.2739139 -42.86961 -119.08983
21988000 -41.305283 -47.965816 -0.037267234 -4.4791684 -0.039087158 -4.4710202 -42.569427 -118.84854
22987000 -41.112343 -52.270279 -0.039171003 -4.6796937 -0.040549599 -4.6731796 -42.305027 -118.69987
23986000 -41.134247 -56.531116 -0.038167045 -4.8747296 -0.04000929 -4.8724432 -42.132305 -118.67704
24985000 -40.783089 -58.856552 -0.039672546 -5.079854 -0.039882321 -5.0802402 -41.902401 -116.22272
25984000 -40.557655 -61.118534 -0.040808022 -5.2899776 -0.040259842 -5.2919755 -41.544018 -114.93761
26983000 -40.31728 -62.853008 -0.041528758 -5.4840117 -0.040845387 -5.5055776 -41.422829 -114.1402
27982000 -40.173771 -63.708466 -0.042548388 -5.6847792 -0.043221306 -5.7161222 -41.12912 -112.4956
28981000 -40.16753 -65.340385 -0.040713169 -5.8812227 -0.042726934 -5.9102597 -40.86417 -111.93901
29980000 -39.773384 -67.031189 -0.040155333 -6.0780892 -0.0434574 -6.0848393 -40.494041 -111.18485
30979000 -39.434448 -66.183952 -0.037496217 -6.431303 -0.0376756 -6.4187827 -40.001236 -112.21538
31978000 -39.247246 -67.235062 -0.037012678 -6.6232214 -0.038300231 -6.6149669 -39.738232 -111.49714
32977000 -39.073746 -68.839073 -0.03718891 -6.8350301 -0.039374225 -6.8313432 -39.497498 -111.85248
33976000 -38.929672 -70.035172 -0.037889197 -7.0358753 -0.039441098 -7.027976 -39.180367 -111.49324
34975000 -38.645855 -71.069069 -0.038887605 -7.2323942 -0.040418435 -7.2336416 -38.941406 -111.08083
35974000 -38.478691 -71.819778 -0.037214495 -7.4337158 -0.040827621 -7.4327826 -38.61375 -110.46985
36973000 -38.235519 -72.757416 -0.037481595 -7.6311717 -0.040423401 -7.6340899 -38.332645 -109.57243
37972000 -38.088875 -72.555481 -0.03752964 -7.8383927 -0.040723622 -7.8498588 -38.08997 -109.03172
38971000 -37.763084 -72.324387 -0.039103612 -8.040906 -0.040456582 -8.051405 -37.878601 -107.518
39970000 -37.434177 -72.853416 -0.037079513 -8.2311096 -0.039911844 -8.2501459 -37.605095 -107.15571
40969000 -37.155411 -72.793732 -0.036878489 -8.4293804 -0.038806897 -8.4419661 -37.330528 -105.67603
41968000 -36.813728 -73.023712 -0.037683696 -8.6338854 -0.039829548 -8.6518908 -37.106346 -104.73719
42967000 -36.566269 -73.443184 -0.037313972 -8.8431044 -0.040042471 -8.8624735 -36.867489 -102.81441
43966000 -36.290363 -74.230728 -0.037929673 -9.0449324 -0.04118301 -9.0621109 -36.602833 -102.32255
44965000 -36.059052 -74.973663 -0.038845554 -9.2441483 -0.042272091 -9.263957 -36.369171 -102.20177
45964000 -35.84903 -76.302315 -0.040160038 -9.4489374 -0.042896599 -9.4673405 -36.132359 -102.05803
46963000 -35.695671 -78.254929 -0.040438555 -9.6381559 -0.043124571 -9.6598892 -35.957569 -102.41068
47962000 -35.539177 -79.744858 -0.041521698 -9.8423834 -0.044074237 -9.8577976 -35.732086 -102.6881
48961000 -35.344341 -81.173248 -0.044516455 -10.036493 -0.045894921 -10.060364 -35.510136 -103.00848
49960000 -35.146118 -82.648979 -0.045383766 -10.234798 -0.047172811 -10.258505 -35.372654 -103.11947
50959000 -34.931347 -84.056625 -0.045627564 -10.45068 -0.047937002 -10.459288 -35.184624 -103.59167
51958000 -34.750324 -85.113548 -0.047435813 -10.647522 -0.049350329 -10.659824 -35.015633 -104.11929
52957000 -34.564983 -86.336212 -0.048638765 -10.849138 -0.050759662 -10.854563 -34.855988 -103.97425
53956000 -34.39212 -87.12442 -0.049877662 -11.04891 -0.051580019 -11.053623 -34.721191 -103.96519
54955000 -34.237354 -87.660576 -0.051637124 -11.252809 -0.052395027 -11.252892 -34.573997 -104.05831
55954000 -34.084866 -88.523972 -0.051899351 -11.449378 -0.052183598 -11.449833 -34.459007 -103.75408
56953000 -33.965889 -88.695259 -0.051899873 -11.648499 -0.051585257 -11.63888 -34.381977 -104.08744
57952000 -33.81638 -89.218391 -0.052887883 -11.845275 -0.052924827 -11.837599 -34.286175 -104.07927
58951000 -33.70013 -89.643608 -0.053589135 -12.053321 -0.053680599 -12.031962 -34.116989 -104.29276
59950000 -33.583008 -90.057777 -0.05412275 -12.251694 -0.054436762 -12.227523 -34.057457 -104.60845
60949000 -33.472584 -90.661316 -0.05488161 -12.451308 -0.054817908 -12.429236 -33.96534 -104.86087
61948000 -33.413307 -90.879852 -0.055391788 -12.650415 -0.054854874 -12.632727 -33.887127 -104.99389
62947000 -33.336643 -91.211853 -0.05639239 -12.862372 -0.055606522 -12.840154 -33.743069 -105.26824
63946000 -33.273941 -91.922691 -0.056902748 -13.055964 -0.05657649 -13.039031 -33.637493 -105.47664
64945000 -33.155609 -92.082573 -0.056556296 -13.262569 -0.056758236 -13.240807 -33.529156 -105.93295
65944000 -33.076485 -92.35083 -0.057772797 -13.458094 -0.057512313 -13.439484 -33.452209 -106.45323
66943000 -32.9198 -92.809868 -0.055753089 -13.662035 -0.055563521 -13.643323 -33.351482 -106.70955
67942000 -32.872334 -92.772095 -0.057670489 -13.856668 -0.057801127 -13.844271 -33.234921 -107.05345
68941000 -32.746674 -92.880608 -0.057209618 -14.048808 -0.057002675 -14.041447 -33.117661 -107.04278
69940000 -32.654682 -92.885498 -0.058053493 -14.245457 -0.057714298 -14.243081 -32.985123 -107.32451
70939000 -32.549782 -92.838104 -0.057292242 -14.445724 -0.057126995 -14.437531 -32.846684 -107.20298
71938000 -32.404751 -92.498322 -0.057611991 -14.641119 -0.056379542 -14.634743 -32.718109 -107.16615
72937000 -32.236481 -92.3451 -0.057115193 -14.838277 -0.056135926 -14.832248 -32.567757 -106.88171
73936000 -32.11692 -92.063675 -0.05672624 -15.037346 -0.055791374 -15.029584 -32.455948 -106.63262
74935000 -31.975773 -92.319374 -0.056482341 -15.233212 -0.055256244 -15.234016 -32.30022 -106.35531
75934000 -31.85479 -92.600739 -0.056272287 -15.442056 -0.055403847 -15.437766 -32.214317 -106.31129
76933000 -31.73498 -92.98851 -0.057422079 -15.63842 -0.057114143 -15.632322 -32.048038 -106.76623
77932000 -31.63088 -93.762207 -0.058216672 -15.828959 -0.058517341 -15.827909 -31.943293 -106.74401
78931000 -31.583469 -94.583679 -0.057252634 -16.035482 -0.057928097 -16.026802 -31.842808 -106.63179
79930000 -31.460415 -95.416023 -0.060259048 -16.222681 -0.060884573 -16.222775 -31.75845 -106.86489
80929000 -31.335842 -96.35144 -0.061383907 -16.417566 -0.061940797 -16.415031 -31.650557 -107.29337
81928000 -31.264374 -97.218414 -0.061375767 -16.612463 -0.061691619 -16.608519 -31.527563 -107.36359
82927000 -31.170277 -97.902374 -0.062751189 -16.806538 -0.062979944 -16.811026 -31.431469 -107.73589
83926000 -31.059612 -98.68306 -0.064589702 -17.006758 -0.064303592 -17.009583 -31.307323 -107.92867
84925000 -30.951057 -99.183945 -0.065644987 -17.208099 -0.064726591 -17.203186 -31.211632 -108.02728
85924000 -30.866764 -99.634659 -0.066493921 -17.40556 -0.066081524 -17.402613 -31.129528 -108.12495
86923000 -30.763304 -100.16936 -0.06627471 -17.602795 -0.066572778 -17.598598 -31.030731 -107.97163
87922000 -30.658764 -100.59269 -0.066392198 -17.81023 -0.065937497 -17.801521 -30.946867 -108.03819
88921000 -30.588913 -100.82109 -0.067457393 -18.005775 -0.066749953 -18.00386 -30.847298 -107.98795
89920000 -30.489294 -101.47136 -0.068143114 -18.207914 -0.067647219 -18.202393 -30.787966 -108.21535
90919000 -30.388695 -101.75462 -0.068362691 -18.403692 -0.0675034 -18.395933 -30.709286 -108.42384
91918000 -30.308189 -102.18261 -0.069177702 -18.602369 -0.068722971 -18.593849 -30.641787 -108.45564
92917000 -30.220366 -102.55289 -0.071188398 -18.801525 -0.069777682 -18.792711 -30.574545 -108.57897
93916000 -30.129955 -102.8582 -0.069826081 -18.995222 -0.070040211 -18.989023 -30.493551 -109.17351
94915000 -30.052788 -103.54583 -0.072107106 -19.193607 -0.070278034 -19.18655 -30.429832 -109.07608
95914000 -29.993204 -103.75295 -0.07250718 -19.38751 -0.071584173 -19.385382 -30.346428 -109.40686
96913000 -29.911734 -103.95127 -0.07384216 -19.590467 -0.072446115 -19.583912 -30.276581 -109.73448
97912000 -29.838745 -104.51291 -0.075058512 -19.78277 -0.07280647 -19.785576 -30.198994 -110.01508
98911000 -29.72595 -104.68827 -0.075582385 -19.985798 -0.074218698 -19.982035 -30.163336 -110.16839
99910000 -29.666779 -104.79529 -0.075842641 -20.184145 -0.074304536 -20.183451 -30.055101 -110.47787
100909000 -29.581436 -105.09285 -0.07497739 -20.390848 -0.073451705 -20.385988 -29.964407 -110.74639
101908000 -29.494135 -105.3229 -0.07596276 -20.592369 -0.075018741 -20.586943 -29.855906 -110.4842
102907000 -29.358509 -105.28223 -0.0767323 -20.79023 -0.07513357 -20.788605 -29.784004 -110.46834
103906000 -29.261122 -105.41743 -0.077132538 -20.993666 -0.074115999 -20.990078 -29.63448 -110.42546
104905000 -29.119253 -105.36621 -0.078126304 -21.193628 -0.074811213 -21.192505 -29.499887 -110.06631
105904000 -28.980684 -105.41625 -0.078042753 -21.397327 -0.074920505 -21.390863 -29.392342 -109.93478
106903000 -28.873661 -105.56695 -0.077605806 -21.601053 -0.075145952 -21.59387 -29.256039 -109.86531
107902000 -28.708956 -105.90688 -0.078356922 -21.799608 -0.075856335 -21.788698 -29.115154 -109.82921
108901000 -28.596489 -106.14883 -0.079719275 -22.002869 -0.077075884 -21.997425 -28.979439 -109.73788
109900000 -28.467344 -106.67542 -0.080769807 -22.20182 -0.078011915 -22.192516 -28.836546 -109.84469
110899000 -28.360714 -107.26105 -0.082431816 -22.399607 -0.079071261 -22.387411 -28.709751 -110.15797
111898000 -28.271086 -108.00072 -0.082971893 -22.598835 -0.079758823 -22.595417 -28.585829 -110.29259
112897000 -28.140623 -108.59526 -0.084796026 -22.799164 -0.081635945 -22.786983 -28.45027 -110.49079
113896000 -28.041807 -109.15274 -0.08519832 -22.999462 -0.082814902 -22.98757 -28.343918 -110.67497
114895000 -27.942413 -109.84803 -0.086452447 -23.197998 -0.083740294 -23.184029 -28.231062 -110.75175
115894000 -27.806513 -110.16339 -0.088040553 -23.398781 -0.085321344 -23.384899 -28.166859 -110.92229
116893000 -27.73181 -110.80685 -0.088673793 -23.595316 -0.085636564 -23.575823 -28.033031 -111.08735
117892000 -27.647287 -111.26025 -0.088145956 -23.790144 -0.086282924 -23.779303 -27.958658 -111.32417
118891000 -27.595566 -111.70206 -0.089529358 -23.989962 -0.08708889 -23.977755 -27.865793 -111.43346
119890000 -27.50025 -112.14284 -0.089704826 -24.191174 -0.087418236 -24.176619 -27.856895 -111.61066
120889000 -27.451893 -112.59917 -0.091711827 -24.390043 -0.087676294 -24.377548 -27.783413 -111.59675
121888000 -27.408455 -112.96946 -0.090949148 -24.587805 -0.088622808 -24.572083 -27.723267 -111.90634
122887000 -27.365023 -113.15154 -0.091884479 -24.78968 -0.088611446 -24.776382 -27.67424 -111.88485
123886000 -27.313034 -113.57971 -0.092706822 -24.990955 -0.089228913 -24.975636 -27.656542 -112.09336
124885000 -27.274218 -114.10679 -0.092846714 -25.189785 -0.08969637 -25.178438 -27.6327 -112.16563
125884000 -27.223812 -114.27097 -0.093767643 -25.391575 -0.089794673 -25.375883 -27.598957 -112.36541
126883000 -27.202333 -114.68937 -0.09395624 -25.593304 -0.090578035 -25.575453 -27.556559 -112.37024
127882000 -27.151388 -114.96158 -0.094304629 -25.791845 -0.090740591 -25.775665 -27.513813 -112.54275
128881000 -27.118279 -115.28317 -0.094783209 -25.992365 -0.091038227 -25.975183 -27.476376 -112.70174
129880000 -27.066338 -115.59594 -0.095844269 -26.19318 -0.091299675 -26.1744 -27.431259 -112.64564
130879000 -27.004032 -115.7576 -0.09520866 -26.390306 -0.092414886 -26.376371 -27.348682 -112.69427
131878000 -26.927635 -115.97944 -0.095458716 -26.595562 -0.092464067 -26.575531 -27.28896 -112.56464
132877000 -26.863707 -116.05526 -0.094908886 -26.796295 -0.092252791 -26.780567 -27.195553 -112.61667
133876000 -26.779232 -116.21616 -0.095469564 -26.995943 -0.092289016 -26.979103 -27.109957 -112.48529
134875000 -26.683741 -116.30852 -0.095349163 -27.193499 -0.093307421 -27.174994 -27.002537 -112.35032
135874000 -26.602484 -116.36601 -0.095827602 -27.391901 -0.093028396 -27.375834 -26.900835 -112.36818
136873000 -26.487183 -116.32128 -0.09646859 -27.597876 -0.092897758 -27.578543 -26.817175 -112.32998
137872000 -26.409519 -116.4113 -0.096386276 -27.797094 -0.092992961 -27.78483 -26.714996 -112.31622
138871000 -26.334173 -116.61606 -0.096433125 -27.997673 -0.093582749 -27.97967 -26.613995 -112.48512
139870000 -26.238398 -116.87831 -0.097323045 -28.198275 -0.094725266 -28.183727 -26.531378 -112.64642
140869000 -26.153929 -117.32053 -0.099360324 -28.392056 -0.096198104 -28.374922 -26.428438 -112.77715
141868000 -26.056902 -117.79981 -0.099155597 -28.588499 -0.096880712 -28.571436 -26.362078 -113.12624
142867000 -25.98246 -118.08452 -0.098120205 -28.786486 -0.095835805 -28.7679 -26.277763 -113.31284
143866000 -25.911022 -118.58316 -0.099784106 -28.981833 -0.097032912 -28.967028 -26.211792 -113.79782
144865000 -25.852947 -119.13692 -0.1007163 -29.180754 -0.098487996 -29.165037 -26.155674 -114.12112
145864000 -25.803993 -119.44637 -0.10160366 -29.378614 -0.099419385 -29.368959 -26.119589 -114.42908
146863000 -25.749849 -119.84341 -0.10221476 -29.581106 -0.099698022 -29.563959 -26.069035 -114.69308
147862000 -25.713829 -120.17641 -0.10291209 -29.775417 -0.099340193 -29.763208 -26.029795 -115.04093
148861000 -25.683205 -120.72005 -0.10283364 -29.9739 -0.10078413 -29.95859 -26.007036 -115.30771
149860000 -25.665339 -120.93188 -0.10319811 -30.173182 -0.10059153 -30.160248 -25.976961 -115.48193
150859000 -25.650007 -121.32338 -0.10441794 -30.374983 -0.10143804 -30.358603 -25.971092 -115.71376
151858000 -25.63283 -121.62881 -0.10415146 -30.572969 -0.10156231 -30.553148 -25.960485 -115.98694
152857000 -25.615917 -121.95729 -0.10457411 -30.766222 -0.10251239 -30.758358 -25.945774 -116.15574
153856000 -25.609152 -122.1489 -0.10416339 -30.968945 -0.1012939 -30.953493 -25.958992 -116.45661
154855000 -25.601364 -122.35311 -0.10413661 -31.16708 -0.101941 -31.155212 -25.953091 -116.65401
155854000 -25.620308 -122.60622 -0.10490585 -31.366537 -0.1021212 -31.351757 -25.945608 -116.91196
156853000 -25.603617 -123.3007 -0.10287552 -31.553783 -0.10175549 -31.543549 -25.943228 -117.21562
157852000 -25.614 -123.47076 -0.10372142 -31.753239 -0.10357004 -31.742136 -25.933092 -117.57448
158851000 -25.605389 -123.75833 -0.10520075 -31.951942 -0.10356103 -31.942442 -25.912254 -117.81475
159850000 -25.589993 -123.86823 -0.10581926 -32.150032 -0.10333384 -32.141136 -25.918329 -117.97247
160849000 -25.572092 -123.9753 -0.10563943 -32.349216 -0.10421695 -32.345257 -25.888687 -118.28403
161848000 -25.549793 -124.07632 -0.10596754 -32.550327 -0.10442695 -32.541367 -25.847216 -118.37465
162847000 -25.505913 -124.26675 -0.10575905 -32.748138 -0.1046953 -32.742523 -25.816532 -118.63577
163846000 -25.470346 -124.48506 -0.10569353 -32.948318 -0.10471572 -32.940807 -25.740479 -118.61137
164845000 -25.412857 -124.54428 -0.10608716 -33.150238 -0.10525114 -33.139759 -25.672329 -118.74858
165844000 -25.351334 -124.59659 -0.1056999 -33.347034 -0.1058068 -33.335976 -25.587946 -118.85812
166843000 -25.290985 -124.65213 -0.10588504 -33.540501 -0.10549673 -33.538376 -25.521832 -119.03744
167842000 -25.227594 -124.81081 -0.10673472 -33.743198 -0.1056946 -33.736374 -25.436459 -118.97856
168841000 -25.157406 -124.9854 -0.10707458 -33.943111 -0.1055885 -33.939056 -25.365189 -119.05653
169840000 -25.086206 -125.27251 -0.107177 -34.136875 -0.106475 -34.132328 -25.27331 -119.25253
170839000 -25.029432 -125.56244 -0.10792395 -34.33482 -0.10675727 -34.333183 -25.189837 -119.44392
171838000 -24.964293 -125.94251 -0.10780374 -34.532295 -0.10797252 -34.528187 -25.123322 -119.70576
172837000 -24.896671 -126.32839 -0.1091897 -34.727795 -0.10933783 -34.724384 -25.049101 -119.87291
173836000 -24.831245 -126.77826 -0.10995427 -34.928276 -0.10980294 -34.925156 -25.010113 -120.13466
174835000 -24.775894 -127.18754 -0.11069294 -35.122173 -0.11081403 -35.123837 -24.965137 -120.49187
175834000 -24.731398 -127.58985 -0.11183067 -35.320618 -0.1115255 -35.318859 -24.903347 -120.76691
176833000 -24.67705 -127.93758 -0.1124047 -35.517845 -0.11171779 -35.518635 -24.855415 -120.95373
177832000 -24.629732 -128.45204 -0.1125447 -35.716236 -0.11223708 -35.716198 -24.826767 -121.13263
178831000 -24.5868 -128.80997 -0.11295728 -35.914627 -0.11285181 -35.911137 -24.790541 -121.38035
179830000 -24.555569 -129.25244 -0.11371693 -36.107258 -0.11304629 -36.11084 -24.757433 -121.49636
180829000 -24.515562 -129.45288 -0.11422822 -36.307034 -0.11365183 -36.308922 -24.735182 -121.68171
181828000 -24.487059 -129.81401 -0.11391065 -36.505684 -0.11396194 -36.5051 -24.71324 -121.7788
182827000 -24.464478 -130.16254 -0.11441 -36.698498 -0.11358806 -36.699875 -24.702118 -121.84944
183826000 -24.425089 -130.49544 -0.11544397 -36.899239 -0.11461996 -36.893715 -24.693964 -122.00255
184825000 -24.429771 -130.77365 -0.1156795 -37.091961 -0.11473425 -37.092003 -24.672935 -122.11669
185824000 -24.404903 -131.13963 -0.11465983 -37.286873 -0.11481957 -37.286884 -24.673494 -122.10613
186823000 -24.389675 -131.49442 -0.11551894 -37.485886 -0.11519356 -37.486622 -24.673037 -122.13332
187822000 -24.369587 -131.82761 -0.11595254 -37.68182 -0.1153177 -37.682671 -24.63723 -122.20624
188821000 -24.34577 -132.07991 -0.11540277 -37.875885 -0.11594004 -37.884804 -24.615934 -122.30686
189820000 -24.331076 -132.31688 -0.11603124 -38.078426 -0.11596397 -38.079178 -24.611717 -122.47932
190819000 -24.305201 -132.56656 -0.11718659 -38.277817 -0.11730945 -38.276901 -24.580788 -122.43044
191818000 -24.26313 -132.74719 -0.11850585 -38.472862 -0.1186104 -38.473228 -24.545494 -122.33009
192817000 -24.195658 -133.00183 -0.1195956 -38.657261 -0.11890037 -38.659798 -24.472019 -122.41756
193816000 -24.157242 -133.38408 -0.11844307 -38.850513 -0.11747062 -38.848125 -24.415688 -122.67342
194815000 -24.1033 -133.84232 -0.11802704 -39.046425 -0.1184154 -39.04937 -24.354258 -122.77974
195814000 -24.049934 -134.0482 -0.11884052 -39.243752 -0.11791905 -39.244179 -24.296967 -122.89429
196813000 -23.99905 -134.40123 -0.11869446 -39.44054 -0.11789537 -39.440231 -24.217964 -123.0478
197812000 -23.93763 -134.64069 -0.11880194 -39.634197 -0.11806694 -39.635551 -24.150526 -123.17249
198811000 -23.886196 -134.81448 -0.11874075 -39.833027 -0.11717861 -39.836456 -24.079966 -123.34371
199810000 -23.81621 -135.15749 -0.11880354 -40.02557 -0.11755148 -40.026524 -24.00028 -123.43793
200809000 -23.759123 -135.45853 -0.11848404 -40.225746 -0.11790787 -40.226578 -23.922989 -123.6515
201808000 -23.697428 -135.69504 -0.11908501 -40.426254 -0.11904643 -40.429359 -23.855312 -123.69672
202807000 -23.641529 -136.07434 -0.11982551 -40.628567 -0.11963765 -40.628811 -23.798624 -123.94803
203806000 -23.586885 -136.524 -0.12199318 -40.828388 -0.12040645 -40.827007 -23.73246 -124.11137
