!Keysight Technologies,E5080B,MY59205177,A.15.75.32
!Date: Friday, February 23, 2024 03:34:22
!Correction: S11(Cdelta 2-Port  ) 
!S21(Cdelta 2-Port  ) 
!S12(Cdelta 2-Port  ) 
!S22(Cdelta 2-Port  ) 
!S2P File: Measurements: S11, S21, S12, S22:
# Hz S  dB   R 50
10000000 -46.043354 -2.1999865 -0.016060581 -2.0460355 -0.019067464 -2.0988858 -45.97538 -158.21819
10999000 -45.267639 -4.2663393 -0.017028254 -2.2628369 -0.018394642 -2.3185356 -45.874821 -151.85149
11998000 -44.313911 -7.4539366 -0.017405352 -2.4885449 -0.017898928 -2.5345314 -46.04401 -147.46706
12997000 -43.592594 -13.037715 -0.016351329 -2.6715608 -0.017506193 -2.7025666 -45.666023 -141.50908
13996000 -43.308205 -17.022785 -0.016099814 -2.8501647 -0.017675655 -2.868751 -45.465118 -136.46761
14995000 -42.895248 -21.345348 -0.017769486 -3.0585339 -0.01757065 -3.0849454 -45.117786 -132.88942
15994000 -42.720299 -26.133558 -0.019007405 -3.2737646 -0.02004179 -3.3033009 -45.030895 -129.31665
16993000 -42.690598 -30.56246 -0.018773416 -3.4721925 -0.019092426 -3.4841228 -44.179913 -129.37939
17992000 -42.734058 -35.956512 -0.019016765 -3.6759126 -0.020009283 -3.6795647 -43.643276 -129.0647
18991000 -42.937668 -41.188869 -0.020037629 -3.8851225 -0.021460373 -3.8822377 -42.983772 -128.44075
19990000 -42.741524 -46.716732 -0.021990314 -4.0936809 -0.02235223 -4.0891042 -42.340733 -128.80917
20989000 -42.592739 -50.255222 -0.024010513 -4.2998395 -0.02527599 -4.2893176 -41.781025 -128.32896
21988000 -42.390743 -55.562386 -0.024837026 -4.4960098 -0.025472835 -4.4840875 -41.512798 -127.56586
22987000 -42.092613 -60.383839 -0.026470214 -4.6969013 -0.026746292 -4.6875129 -41.269775 -127.01838
23986000 -41.983021 -64.367645 -0.026181914 -4.888763 -0.025423883 -4.887476 -41.167332 -126.88423
24985000 -41.599213 -67.312256 -0.026566839 -5.0982318 -0.026267594 -5.0951247 -40.946278 -124.42297
25984000 -41.254879 -68.971924 -0.027562646 -5.3017483 -0.027105739 -5.306571 -40.599335 -122.88233
26983000 -40.959522 -70.999199 -0.029239075 -5.5046444 -0.027098445 -5.5202699 -40.499001 -122.46766
27982000 -40.791462 -71.760056 -0.029759543 -5.7005734 -0.029130403 -5.7351298 -40.249783 -120.52576
28981000 -40.780396 -73.334518 -0.028113654 -5.8986354 -0.029046752 -5.9247842 -40.008579 -120.11147
29980000 -40.323044 -75.195686 -0.028630598 -6.0955019 -0.029651377 -6.105288 -39.739574 -119.13137
30979000 -39.942684 -73.857292 -0.025984516 -6.4531937 -0.024896385 -6.4417968 -39.220329 -119.48684
31978000 -39.750385 -74.570755 -0.024605066 -6.6447625 -0.024896126 -6.6361437 -38.994247 -118.82165
32977000 -39.54248 -76.151085 -0.024695922 -6.858129 -0.02533952 -6.8553228 -38.754749 -118.91058
33976000 -39.374691 -77.237106 -0.025769942 -7.0560861 -0.025900664 -7.051928 -38.497643 -118.15528
34975000 -39.067039 -78.117722 -0.025451222 -7.2544842 -0.026234519 -7.2563863 -38.25145 -117.90826
35974000 -38.881279 -78.699165 -0.024436375 -7.4531364 -0.02638557 -7.4552598 -37.985535 -116.9219
36973000 -38.641495 -79.287697 -0.025266876 -7.6538949 -0.027604848 -7.6536217 -37.716396 -116.00074
37972000 -38.503223 -79.137405 -0.025071343 -7.8601665 -0.027023688 -7.8719406 -37.488991 -115.16577
38971000 -38.142422 -78.66423 -0.026257437 -8.0657635 -0.027033066 -8.0721874 -37.321793 -113.71618
39970000 -37.861332 -78.880997 -0.024179187 -8.2602158 -0.026820783 -8.2749233 -37.037716 -113.09995
40969000 -37.564171 -78.486748 -0.024055544 -8.4533815 -0.0260629 -8.4726171 -36.830322 -111.60656
41968000 -37.200787 -78.620773 -0.024935178 -8.6580925 -0.026588196 -8.672431 -36.643745 -110.44299
42967000 -36.936092 -78.502777 -0.024948455 -8.8688107 -0.026535586 -8.8917017 -36.450699 -108.56863
43966000 -36.62442 -79.232567 -0.025046609 -9.0709314 -0.027836969 -9.0866013 -36.169365 -107.81452
44965000 -36.408325 -80.027657 -0.026330099 -9.2707272 -0.028904468 -9.2952614 -35.942379 -107.46302
45964000 -36.190357 -81.081085 -0.02818322 -9.4765797 -0.029629746 -9.4959106 -35.734795 -107.28217
46963000 -35.959553 -83.180405 -0.027760636 -9.6645765 -0.029875789 -9.6887741 -35.528732 -107.46268
47962000 -35.812538 -84.440994 -0.028654832 -9.8696184 -0.031134894 -9.8866987 -35.346352 -107.53484
48961000 -35.589211 -85.801704 -0.031053551 -10.068206 -0.032424096 -10.092064 -35.125751 -107.68723
49960000 -35.378754 -87.069702 -0.032380022 -10.268734 -0.033530809 -10.291735 -34.978252 -107.81322
50959000 -35.136669 -88.480698 -0.033071969 -10.479346 -0.034907095 -10.491481 -34.798813 -108.05204
51958000 -34.934753 -89.4552 -0.034981988 -10.682261 -0.036412247 -10.691398 -34.623699 -108.44991
52957000 -34.719784 -90.386261 -0.03644279 -10.88047 -0.037218671 -10.888779 -34.469692 -108.21491
53956000 -34.538578 -91.205009 -0.037402742 -11.083303 -0.038293444 -11.085788 -34.327774 -108.27237
54955000 -34.385403 -91.673164 -0.038065463 -11.282958 -0.039072007 -11.282666 -34.181595 -108.15388
55954000 -34.217411 -92.459831 -0.039112493 -11.483397 -0.039184064 -11.482276 -34.080589 -107.89925
56953000 -34.093399 -92.540482 -0.039028909 -11.682757 -0.038524568 -11.674226 -33.994968 -108.12754
57952000 -33.932686 -93.144775 -0.040766995 -11.884135 -0.039199475 -11.870637 -33.89674 -108.21133
58951000 -33.814667 -93.378677 -0.041282576 -12.085176 -0.040130254 -12.065507 -33.75206 -108.23145
59950000 -33.685612 -93.811394 -0.042431541 -12.287377 -0.040522166 -12.261783 -33.672977 -108.53979
60949000 -33.558212 -94.309776 -0.042342406 -12.489264 -0.041738883 -12.466493 -33.569523 -108.75996
61948000 -33.495087 -94.696846 -0.042948101 -12.688755 -0.041179087 -12.670794 -33.486954 -108.8827
62947000 -33.409206 -94.840118 -0.042912807 -12.899973 -0.042207789 -12.880774 -33.342255 -109.18852
63946000 -33.337795 -95.623047 -0.043690633 -13.099608 -0.043355171 -13.077831 -33.232754 -109.28001
64945000 -33.235718 -95.839714 -0.044830821 -13.299136 -0.044661868 -13.28086 -33.133133 -109.79637
65944000 -33.124996 -96.082306 -0.04529012 -13.496433 -0.044096727 -13.48432 -33.028137 -110.17083
66943000 -32.99229 -96.471436 -0.043297127 -13.699337 -0.042263463 -13.684659 -32.936581 -110.43161
67942000 -32.92897 -96.42588 -0.045205634 -13.895344 -0.044021938 -13.887198 -32.813263 -110.71203
68941000 -32.806564 -96.479225 -0.044927333 -14.089496 -0.043423411 -14.084912 -32.698704 -110.65115
69940000 -32.708477 -96.501465 -0.044616882 -14.290934 -0.04432293 -14.283625 -32.55349 -110.94091
70939000 -32.606716 -96.424599 -0.045005016 -14.485737 -0.043693248 -14.477682 -32.418461 -110.9138
71938000 -32.468002 -95.985184 -0.044547055 -14.684618 -0.044761252 -14.678671 -32.291386 -110.76801
72937000 -32.31321 -95.802261 -0.044159487 -14.882762 -0.043536887 -14.879444 -32.15387 -110.3859
73936000 -32.165424 -95.45871 -0.043598332 -15.078167 -0.04286366 -15.068789 -32.028847 -110.21264
74935000 -32.047508 -95.684402 -0.043102611 -15.277909 -0.042345803 -15.277789 -31.873987 -109.87012
75934000 -31.911802 -95.946655 -0.043897465 -15.49007 -0.042187922 -15.479815 -31.802538 -109.79781
76933000 -31.791601 -96.314468 -0.045241728 -15.678226 -0.043890927 -15.672217 -31.617275 -110.08743
77932000 -31.686954 -97.087578 -0.046138484 -15.87863 -0.045257423 -15.870474 -31.517685 -110.08414
78931000 -31.619165 -97.822632 -0.044501286 -16.077005 -0.044470951 -16.07394 -31.42989 -109.93802
79930000 -31.497921 -98.61631 -0.047173858 -16.272091 -0.04705165 -16.268515 -31.328424 -110.25986
80929000 -31.386969 -99.350502 -0.049166013 -16.46825 -0.048733003 -16.465729 -31.22505 -110.45183
81928000 -31.287462 -100.18486 -0.04872803 -16.660198 -0.048273604 -16.656189 -31.097672 -110.47952
82927000 -31.189623 -100.86435 -0.050438058 -16.858191 -0.050001781 -16.860685 -30.996176 -110.78053
83926000 -31.07098 -101.56256 -0.051867388 -17.055628 -0.051088363 -17.053938 -30.878294 -110.89305
84925000 -30.967752 -102.00729 -0.052972257 -17.257751 -0.05156666 -17.251894 -30.774389 -110.97137
85924000 -30.866476 -102.3915 -0.053925648 -17.459408 -0.052587342 -17.452291 -30.692039 -110.93372
86923000 -30.766409 -102.89117 -0.05355585 -17.65649 -0.053214908 -17.650738 -30.599506 -110.84948
87922000 -30.650499 -103.23039 -0.053324185 -17.860456 -0.052889977 -17.851574 -30.503538 -110.89273
88921000 -30.582512 -103.49068 -0.055273544 -18.06098 -0.053875592 -18.052204 -30.416166 -110.87814
89920000 -30.4795 -103.9877 -0.055003252 -18.260443 -0.053427439 -18.25456 -30.352936 -110.97466
90919000 -30.372213 -104.21504 -0.055903859 -18.458565 -0.054394037 -18.455477 -30.272232 -111.10788
91918000 -30.285149 -104.6336 -0.05710575 -18.656523 -0.055590264 -18.650787 -30.20504 -111.15198
92917000 -30.196802 -104.89601 -0.058142427 -18.856499 -0.056497291 -18.852816 -30.148848 -111.27744
93916000 -30.096363 -105.26046 -0.057616454 -19.046892 -0.056730434 -19.044413 -30.052967 -111.8968
94915000 -30.023788 -105.93607 -0.059515517 -19.252323 -0.057670489 -19.245291 -29.987091 -111.71896
95914000 -29.959896 -106.1289 -0.060064558 -19.443714 -0.05857008 -19.44264 -29.896311 -111.92786
96913000 -29.879126 -106.31055 -0.061135281 -19.647001 -0.059806298 -19.644606 -29.836313 -112.33899
97912000 -29.794577 -106.78823 -0.062538728 -19.843838 -0.060086343 -19.843876 -29.751331 -112.58401
98911000 -29.691959 -106.93676 -0.062919013 -20.044144 -0.061387844 -20.038601 -29.712942 -112.77628
99910000 -29.62533 -107.04557 -0.063879579 -20.24202 -0.061047073 -20.243206 -29.605639 -113.07538
100909000 -29.527359 -107.33661 -0.062895902 -20.450172 -0.060924739 -20.444498 -29.517159 -113.28098
101908000 -29.438757 -107.54885 -0.064343527 -20.649492 -0.062240146 -20.650379 -29.40967 -113.0225
102907000 -29.312151 -107.54764 -0.064286776 -20.850365 -0.062281638 -20.849197 -29.344049 -113.04553
103906000 -29.213699 -107.59528 -0.064763114 -21.056602 -0.061311707 -21.055996 -29.192387 -113.03299
104905000 -29.063055 -107.4934 -0.065597422 -21.253801 -0.062869899 -21.254436 -29.069126 -112.64875
105904000 -28.932182 -107.56385 -0.0660697 -21.457653 -0.062159792 -21.455509 -28.953676 -112.53056
106903000 -28.814684 -107.64165 -0.065776393 -21.667145 -0.063367359 -21.658386 -28.834805 -112.44439
107902000 -28.654236 -107.96043 -0.066506803 -21.862743 -0.063066617 -21.856752 -28.689455 -112.40665
108901000 -28.546247 -108.1247 -0.067390613 -22.062628 -0.064729482 -22.06019 -28.566055 -112.37045
109900000 -28.415161 -108.65096 -0.068149954 -22.265142 -0.066059187 -22.255344 -28.412893 -112.43635
110899000 -28.306608 -109.26491 -0.069657728 -22.465378 -0.066563316 -22.458694 -28.295345 -112.6972
111898000 -28.209057 -109.91612 -0.071221553 -22.667187 -0.0673609 -22.659885 -28.172972 -112.81619
112897000 -28.083591 -110.4286 -0.072723553 -22.861904 -0.068508111 -22.855354 -28.040836 -113.01241
113896000 -27.977314 -111.03375 -0.073383786 -23.064419 -0.070068888 -23.054512 -27.930277 -113.11549
114895000 -27.874685 -111.66409 -0.07418552 -23.262743 -0.070902899 -23.249329 -27.81426 -113.19915
115894000 -27.75083 -112.03085 -0.075235501 -23.466286 -0.072014727 -23.452648 -27.749022 -113.38342
116893000 -27.673788 -112.50234 -0.076301537 -23.664495 -0.073426172 -23.644264 -27.628571 -113.46421
117892000 -27.595381 -113.02953 -0.075911127 -23.855778 -0.074061759 -23.843866 -27.55481 -113.65429
118891000 -27.530552 -113.45488 -0.077254012 -24.057632 -0.073642321 -24.04718 -27.458662 -113.77127
119890000 -27.448608 -113.79873 -0.078211166 -24.260569 -0.074571557 -24.244596 -27.450808 -113.89655
120889000 -27.390814 -114.26966 -0.079351492 -24.461924 -0.075500205 -24.449793 -27.375233 -113.83287
121888000 -27.360397 -114.6068 -0.078787617 -24.656231 -0.075622424 -24.64562 -27.318487 -114.10518
122887000 -27.318863 -114.77932 -0.079744585 -24.862288 -0.076013602 -24.852114 -27.267963 -114.10368
123886000 -27.260893 -115.20042 -0.080415383 -25.062353 -0.076227516 -25.048504 -27.254999 -114.28742
124885000 -27.227175 -115.72578 -0.079985052 -25.265066 -0.076766022 -25.251465 -27.225672 -114.2942
125884000 -27.179001 -115.90685 -0.081444189 -25.459951 -0.076941766 -25.44895 -27.199986 -114.46661
126883000 -27.159122 -116.2911 -0.08100874 -25.664284 -0.077941813 -25.649727 -27.158182 -114.48772
127882000 -27.108339 -116.55371 -0.081472412 -25.865314 -0.078430459 -25.845303 -27.116539 -114.61095
128881000 -27.077148 -116.89571 -0.081964619 -26.067327 -0.078396194 -26.050859 -27.074823 -114.7302
129880000 -27.032669 -117.19663 -0.082886927 -26.268185 -0.078534834 -26.249048 -27.040756 -114.6493
130879000 -26.960865 -117.38124 -0.082484052 -26.467894 -0.079845831 -26.453651 -26.963881 -114.68512
131878000 -26.897671 -117.63814 -0.083010413 -26.670729 -0.079984784 -26.652222 -26.901176 -114.54282
132877000 -26.832973 -117.66613 -0.081695028 -26.875742 -0.079667598 -26.854225 -26.825424 -114.55178
133876000 -26.75424 -117.87611 -0.083094321 -27.075853 -0.080016166 -27.056065 -26.743164 -114.40906
134875000 -26.652952 -117.98149 -0.083454236 -27.274689 -0.080956787 -27.253967 -26.636675 -114.25134
135874000 -26.574907 -118.01555 -0.083483264 -27.471067 -0.079934157 -27.458105 -26.542679 -114.20529
136873000 -26.461744 -117.96219 -0.08288271 -27.678232 -0.080502927 -27.656683 -26.455141 -114.14652
137872000 -26.386913 -118.05598 -0.083868556 -27.879324 -0.079922825 -27.864967 -26.359642 -114.0978
138871000 -26.31081 -118.27048 -0.084056459 -28.077866 -0.080553032 -28.065819 -26.262426 -114.23413
139870000 -26.212608 -118.53613 -0.084775701 -28.278151 -0.08201474 -28.260563 -26.182034 -114.39231
140869000 -26.131266 -119.11375 -0.085874714 -28.474648 -0.082286194 -28.457197 -26.081882 -114.63972
141868000 -26.052691 -119.47905 -0.086873382 -28.672844 -0.084232233 -28.660164 -26.027735 -114.85213
142867000 -25.968973 -119.68332 -0.085112527 -28.870943 -0.08275976 -28.85491 -25.954041 -115.01615
143866000 -25.896425 -120.18353 -0.087217242 -29.066557 -0.084961265 -29.049889 -25.884111 -115.44624
144865000 -25.843203 -120.69312 -0.088702329 -29.267416 -0.085799463 -29.252897 -25.819654 -115.76517
145864000 -25.787567 -120.99418 -0.088975519 -29.467762 -0.087108433 -29.458508 -25.786255 -115.99866
146863000 -25.741928 -121.35152 -0.090296812 -29.665075 -0.087227277 -29.657454 -25.738752 -116.3042
147862000 -25.704124 -121.7094 -0.090813808 -29.866987 -0.088292308 -29.852528 -25.708775 -116.60772
148861000 -25.666807 -122.13831 -0.091804102 -30.065332 -0.089582734 -30.04937 -25.687986 -116.78246
149860000 -25.636103 -122.31742 -0.093485154 -30.257418 -0.089994468 -30.247499 -25.636314 -116.87495
150859000 -25.611259 -122.78507 -0.093106151 -30.454073 -0.089925751 -30.440838 -25.617239 -117.24565
151858000 -25.599201 -123.14837 -0.09166979 -30.657686 -0.089394592 -30.640055 -25.603971 -117.58144
152857000 -25.583067 -123.48841 -0.092223182 -30.856306 -0.089473866 -30.840637 -25.592947 -117.73598
153856000 -25.579597 -123.68895 -0.091949783 -31.056431 -0.088729277 -31.039078 -25.607527 -118.06034
154855000 -25.580702 -123.84032 -0.093054846 -31.253714 -0.089562654 -31.243778 -25.592701 -118.3287
155854000 -25.6003 -124.07167 -0.092930548 -31.451942 -0.089526713 -31.441328 -25.588345 -118.60876
156853000 -25.580965 -124.76166 -0.090658918 -31.641184 -0.089151494 -31.631012 -25.586874 -118.88265
157852000 -25.586283 -124.9674 -0.092320219 -31.843185 -0.090240255 -31.834934 -25.572006 -119.22076
158851000 -25.58342 -125.20133 -0.093165919 -32.040573 -0.090591252 -32.033722 -25.558512 -119.5035
159850000 -25.578487 -125.30142 -0.094124213 -32.239788 -0.091070741 -32.233051 -25.5562 -119.68654
160849000 -25.558895 -125.38842 -0.093499698 -32.440659 -0.09189637 -32.435135 -25.528736 -119.95547
161848000 -25.540953 -125.4757 -0.093978457 -32.643822 -0.091825783 -32.634937 -25.484125 -120.08337
162847000 -25.499535 -125.65839 -0.093549162 -32.838665 -0.092143059 -32.835232 -25.460554 -120.33522
163846000 -25.460644 -125.85664 -0.094207279 -33.04089 -0.09168645 -33.032223 -25.382399 -120.32287
164845000 -25.40682 -125.82478 -0.094988525 -33.241459 -0.09249527 -33.233486 -25.319469 -120.44604
165844000 -25.349243 -125.88779 -0.094429754 -33.438457 -0.092964664 -33.433819 -25.238836 -120.55064
166843000 -25.287918 -125.92473 -0.095028475 -33.637077 -0.092870519 -33.632416 -25.175627 -120.7475
167842000 -25.23443 -126.02815 -0.094976351 -33.839821 -0.093393639 -33.83643 -25.093039 -120.63807
168841000 -25.156597 -126.21511 -0.095377475 -34.037384 -0.093186021 -34.033337 -25.023264 -120.74041
169840000 -25.089912 -126.4415 -0.095543921 -34.233742 -0.093823187 -34.235035 -24.934011 -120.89224
170839000 -25.032541 -126.70535 -0.096257389 -34.429581 -0.094052523 -34.43195 -24.859337 -121.09527
171838000 -24.975636 -127.06754 -0.096060745 -34.63483 -0.095425107 -34.626766 -24.790377 -121.33432
172837000 -24.898726 -127.39574 -0.097477116 -34.828007 -0.095989294 -34.825882 -24.728138 -121.50565
173836000 -24.831064 -127.8035 -0.098834097 -35.029312 -0.09707924 -35.02544 -24.688299 -121.72374
174835000 -24.781269 -128.2298 -0.099600546 -35.227108 -0.098043419 -35.227123 -24.641903 -122.07208
175834000 -24.731907 -128.56248 -0.10047469 -35.428024 -0.09948878 -35.422905 -24.58077 -122.33175
176833000 -24.678207 -128.90099 -0.1013294 -35.627922 -0.10028607 -35.623608 -24.532997 -122.43852
177832000 -24.635803 -129.31966 -0.1020205 -35.82679 -0.10096005 -35.824478 -24.513372 -122.56684
178831000 -24.588377 -129.55893 -0.10384072 -36.023949 -0.10289221 -36.020893 -24.474472 -122.64638
179830000 -24.51684 -129.98039 -0.10553599 -36.207863 -0.10318459 -36.207115 -24.409075 -122.71552
180829000 -24.472475 -130.3262 -0.10373918 -36.398632 -0.1026693 -36.401478 -24.362537 -123.05711
181828000 -24.446829 -130.74979 -0.103139 -36.602295 -0.10158192 -36.598495 -24.346947 -123.23315
182827000 -24.421627 -131.13222 -0.10351543 -36.796906 -0.10214823 -36.796154 -24.337532 -123.35792
183826000 -24.383881 -131.45332 -0.1040393 -36.99268 -0.10168527 -36.992867 -24.330702 -123.50074
184825000 -24.389484 -131.78351 -0.10387121 -37.192448 -0.10203084 -37.190552 -24.309649 -123.59995
185824000 -24.359982 -132.17636 -0.10390409 -37.386593 -0.10271277 -37.388062 -24.306019 -123.69714
186823000 -24.34214 -132.52129 -0.10404249 -37.584759 -0.10237033 -37.589123 -24.295956 -123.70731
187822000 -24.320374 -132.85472 -0.10486236 -37.782608 -0.10273768 -37.782162 -24.258522 -123.80765
188821000 -24.29521 -133.09558 -0.10424559 -37.976646 -0.10316285 -37.982075 -24.24118 -123.9128
189820000 -24.277435 -133.3922 -0.10466931 -38.175549 -0.10325988 -38.178379 -24.224091 -124.12716
190819000 -24.246527 -133.69531 -0.10516999 -38.374039 -0.10418142 -38.374134 -24.177986 -124.16436
191818000 -24.215551 -134.0016 -0.10540231 -38.572796 -0.10344146 -38.575844 -24.154228 -124.16676
192817000 -24.169422 -134.29808 -0.10534609 -38.770199 -0.10390303 -38.770729 -24.11095 -124.25312
193816000 -24.135197 -134.53732 -0.10551875 -38.963867 -0.10433998 -38.965225 -24.061937 -124.39669
194815000 -24.075428 -134.94789 -0.1068029 -39.159061 -0.10506338 -39.163239 -23.992596 -124.48306
195814000 -24.021885 -135.11847 -0.10667184 -39.358665 -0.10538056 -39.360378 -23.940918 -124.56432
196813000 -23.969364 -135.4463 -0.10667874 -39.554993 -0.10459612 -39.553997 -23.862257 -124.73498
197812000 -23.906309 -135.65111 -0.10682041 -39.74942 -0.10509069 -39.749275 -23.790501 -124.80731
198811000 -23.860699 -135.81877 -0.1072014 -39.949017 -0.10509335 -39.95396 -23.722233 -124.97582
199810000 -23.785849 -136.18816 -0.10694033 -40.144005 -0.10539277 -40.140667 -23.644197 -125.08419
200809000 -23.72529 -136.41982 -0.10782178 -40.34074 -0.10603464 -40.339527 -23.571167 -125.2579
201808000 -23.673031 -136.63359 -0.10872412 -40.539497 -0.10647924 -40.542072 -23.498405 -125.30097
202807000 -23.611795 -136.97403 -0.10924226 -40.743088 -0.1070101 -40.747803 -23.44853 -125.50594
