!Keysight Technologies,E5080B,MY59205177,A.15.75.32
!Date: Friday, February 23, 2024 02:56:11
!Correction: S11(Cdelta 2-Port  ) 
!S21(Cdelta 2-Port  ) 
!S12(Cdelta 2-Port  ) 
!S22(Cdelta 2-Port  ) 
!S2P File: Measurements: S11, S21, S12, S22:
# Hz S  dB   R 50
10000000 -43.917343 -3.5338004 -0.02826477 -2.0430374 -0.032684121 -2.0973179 -48.394688 -148.91376
10999000 -43.266602 -5.5208745 -0.029412644 -2.2606301 -0.032311693 -2.3128743 -48.187572 -140.79294
11998000 -42.507862 -7.7785959 -0.030200828 -2.4813144 -0.031745289 -2.5266569 -48.250458 -135.39052
12997000 -41.879093 -12.229932 -0.02942724 -2.6602128 -0.031448554 -2.6949635 -47.524303 -128.81236
13996000 -41.630016 -15.759174 -0.028406512 -2.8367598 -0.031769801 -2.8637371 -47.151188 -123.2057
14995000 -41.313713 -19.217052 -0.030755039 -3.0492864 -0.031652458 -3.0764298 -46.643703 -119.99469
15994000 -41.21804 -22.913174 -0.032399319 -3.2681453 -0.034097187 -3.2900791 -46.398632 -115.9157
16993000 -41.224037 -26.720451 -0.031419873 -3.4669456 -0.033169005 -3.4736714 -45.442814 -117.49989
17992000 -41.328629 -31.298735 -0.031463679 -3.664484 -0.033500027 -3.6662052 -44.890976 -118.39528
18991000 -41.582306 -35.360672 -0.032305956 -3.8753507 -0.034192678 -3.8695493 -44.087643 -117.94066
19990000 -41.466652 -40.509819 -0.034426976 -4.0839643 -0.036249883 -4.0756602 -43.470779 -119.55076
20989000 -41.366989 -43.329552 -0.036348034 -4.2880464 -0.038343322 -4.2747736 -42.864498 -119.45553
21988000 -41.337856 -47.947292 -0.037346084 -4.4763489 -0.039013758 -4.4697814 -42.527061 -118.83074
22987000 -41.108261 -52.329517 -0.039012715 -4.6809816 -0.039697099 -4.6725359 -42.258518 -118.94406
23986000 -41.131763 -56.192688 -0.037879795 -4.8726077 -0.038943239 -4.8735123 -42.1604 -118.86185
24985000 -40.796825 -58.763638 -0.039400868 -5.0820274 -0.039731324 -5.0752449 -41.920551 -115.75148
25984000 -40.589325 -60.836914 -0.040446654 -5.289135 -0.039930653 -5.2913046 -41.531727 -114.74541
26983000 -40.303741 -62.848438 -0.041504711 -5.4868264 -0.04081377 -5.50387 -41.402115 -114.11683
27982000 -40.148563 -63.768833 -0.042658184 -5.682847 -0.042376388 -5.7223883 -41.101814 -112.49831
28981000 -40.171268 -65.147552 -0.040850874 -5.8822055 -0.041783314 -5.9072676 -40.848877 -112.06567
29980000 -39.775436 -66.907936 -0.040623285 -6.0751529 -0.042126235 -6.0838294 -40.500057 -111.27078
30979000 -39.427364 -66.165558 -0.038759883 -6.431437 -0.036704101 -6.4184213 -39.982452 -112.26672
31978000 -39.23838 -67.469284 -0.037674293 -6.6214871 -0.038456663 -6.6148763 -39.717247 -111.69801
32977000 -39.084675 -68.856628 -0.037797019 -6.8340039 -0.039338961 -6.8313594 -39.476688 -111.94231
33976000 -38.931385 -70.076035 -0.038287174 -7.0351682 -0.039786443 -7.0257688 -39.155285 -111.54214
34975000 -38.659897 -71.236679 -0.03828169 -7.235075 -0.039997794 -7.2349582 -38.921066 -111.1554
35974000 -38.482391 -71.934586 -0.037708763 -7.4321494 -0.039769985 -7.4323525 -38.621628 -110.34042
36973000 -38.251595 -72.70639 -0.037990253 -7.627974 -0.040497344 -7.6304264 -38.332737 -109.74926
37972000 -38.073921 -72.53978 -0.037859168 -7.8395 -0.040592972 -7.8505025 -38.085491 -108.9789
38971000 -37.752972 -72.443535 -0.039040923 -8.0397959 -0.041237365 -8.0511351 -37.868767 -107.49644
39970000 -37.425564 -73.069252 -0.036938794 -8.2369509 -0.03994659 -8.2463474 -37.596264 -107.12466
40969000 -37.155636 -72.923653 -0.037741661 -8.4291582 -0.040124767 -8.4465551 -37.320614 -105.75307
41968000 -36.826088 -73.071388 -0.037511624 -8.6331987 -0.039896689 -8.64958 -37.093422 -104.75002
42967000 -36.563076 -73.268326 -0.037594914 -8.8427696 -0.040110398 -8.8609467 -36.866596 -102.93042
43966000 -36.305161 -74.188248 -0.037787881 -9.0479889 -0.041948501 -9.0610123 -36.596611 -102.34201
44965000 -36.067024 -75.051933 -0.038681794 -9.2468481 -0.0417036 -9.26653 -36.366268 -102.29889
45964000 -35.869614 -76.203819 -0.039615858 -9.448431 -0.042611651 -9.467453 -36.138859 -102.22358
46963000 -35.688065 -78.192696 -0.040040117 -9.6379099 -0.043338176 -9.6579008 -35.939716 -102.50665
47962000 -35.552525 -79.70636 -0.041131265 -9.8445377 -0.044337053 -9.858963 -35.746696 -102.7085
48961000 -35.352097 -81.230377 -0.043648798 -10.039841 -0.04632058 -10.056777 -35.520798 -102.92857
49960000 -35.135338 -82.683952 -0.044934396 -10.24043 -0.047176212 -10.256648 -35.37096 -103.15605
50959000 -34.9403 -84.115311 -0.045520835 -10.450386 -0.048908141 -10.459599 -35.191395 -103.55247
51958000 -34.759388 -85.178093 -0.047354426 -10.649183 -0.049884208 -10.658425 -35.0378 -104.19108
52957000 -34.556282 -86.377411 -0.0491613 -10.849619 -0.051040169 -10.853854 -34.852257 -103.96641
53956000 -34.397202 -87.112419 -0.049732074 -11.047876 -0.051909305 -11.052159 -34.717949 -104.05156
54955000 -34.244686 -87.709656 -0.050979141 -11.251004 -0.052517124 -11.245794 -34.564255 -104.12035
55954000 -34.082397 -88.577026 -0.051883109 -11.451311 -0.053307939 -11.449115 -34.460133 -103.74161
56953000 -33.959007 -88.623146 -0.05226298 -11.65145 -0.051380415 -11.639496 -34.383362 -103.97868
57952000 -33.813801 -89.310478 -0.052905437 -11.844406 -0.053041957 -11.83375 -34.284821 -104.19944
58951000 -33.716618 -89.622948 -0.053663827 -12.049137 -0.053899441 -12.02977 -34.133068 -104.26395
59950000 -33.591686 -90.055923 -0.054780684 -12.253279 -0.05456337 -12.227729 -34.065758 -104.6097
60949000 -33.482712 -90.693314 -0.055510033 -12.453485 -0.054902323 -12.42861 -33.968872 -104.92557
61948000 -33.416149 -90.999573 -0.055724248 -12.65002 -0.055264108 -12.632375 -33.883625 -105.03693
62947000 -33.33445 -91.151627 -0.055444751 -12.861273 -0.055592626 -12.841749 -33.755264 -105.21541
63946000 -33.264137 -91.960541 -0.056342829 -13.058645 -0.056401834 -13.041958 -33.645569 -105.45431
64945000 -33.156128 -92.099632 -0.057395324 -13.260362 -0.057420507 -13.242531 -33.535397 -105.94519
65944000 -33.060287 -92.438522 -0.057690952 -13.459863 -0.057919964 -13.44281 -33.439285 -106.41895
66943000 -32.920918 -92.828804 -0.055560376 -13.659815 -0.055972822 -13.642137 -33.345631 -106.72211
67942000 -32.851574 -92.808632 -0.057876941 -13.855259 -0.057740003 -13.845705 -33.218021 -107.09283
68941000 -32.749546 -92.94545 -0.057638485 -14.047954 -0.056405243 -14.040441 -33.116077 -107.00408
69940000 -32.651924 -92.991508 -0.057687014 -14.24682 -0.057540905 -14.239903 -32.971382 -107.34779
70939000 -32.540386 -92.878189 -0.057664193 -14.447002 -0.057533562 -14.442457 -32.852077 -107.22097
71938000 -32.398617 -92.529091 -0.057339191 -14.641534 -0.05736516 -14.632455 -32.706512 -107.17608
72937000 -32.245251 -92.374626 -0.056379803 -14.838979 -0.056856848 -14.831437 -32.575207 -106.88906
73936000 -32.101612 -92.048828 -0.056911662 -15.037842 -0.055857711 -15.033835 -32.455112 -106.73122
74935000 -31.984426 -92.313484 -0.056355678 -15.233885 -0.055252571 -15.226749 -32.292217 -106.37856
75934000 -31.863899 -92.618652 -0.056398947 -15.442527 -0.054932207 -15.43855 -32.211956 -106.31553
76933000 -31.731852 -93.023743 -0.057972167 -15.631728 -0.057035722 -15.628825 -32.035763 -106.72385
77932000 -31.631645 -93.855652 -0.058425251 -15.833036 -0.059082527 -15.824444 -31.933611 -106.71422
78931000 -31.571014 -94.605927 -0.057138011 -16.032242 -0.057368834 -16.025238 -31.847874 -106.69121
79930000 -31.457573 -95.387527 -0.059128184 -16.22258 -0.060369026 -16.218946 -31.747511 -106.95921
80929000 -31.341879 -96.333817 -0.061214566 -16.417412 -0.061471596 -16.413969 -31.643026 -107.3689
81928000 -31.260206 -97.196236 -0.061472647 -16.611765 -0.061378393 -16.609249 -31.518673 -107.4063
82927000 -31.156885 -97.981682 -0.063395984 -16.810143 -0.06338758 -16.806036 -31.415623 -107.74744
83926000 -31.054594 -98.679665 -0.064554237 -17.004671 -0.064167768 -17.004349 -31.299568 -108.00605
84925000 -30.953592 -99.1577 -0.065861806 -17.206106 -0.06489791 -17.199083 -31.209808 -108.07905
85924000 -30.870193 -99.65152 -0.066353828 -17.405518 -0.065539874 -17.404388 -31.129337 -108.11594
86923000 -30.770077 -100.20443 -0.066025808 -17.606091 -0.066168264 -17.596268 -31.029785 -107.99397
87922000 -30.66243 -100.59288 -0.066389047 -17.808352 -0.065828957 -17.80349 -30.927122 -108.08964
88921000 -30.583624 -100.88647 -0.068056606 -18.005272 -0.066926077 -18.002911 -30.842384 -108.07097
89920000 -30.493319 -101.46005 -0.068477869 -18.20352 -0.066879019 -18.194988 -30.796291 -108.25529
90919000 -30.388311 -101.80853 -0.068962559 -18.403244 -0.067692965 -18.39707 -30.710972 -108.48306
91918000 -30.301506 -102.16921 -0.069342352 -18.598591 -0.068789765 -18.59593 -30.637098 -108.46851
92917000 -30.214685 -102.52161 -0.071191818 -18.800863 -0.069880269 -18.797653 -30.577291 -108.64525
93916000 -30.137136 -102.89178 -0.069893949 -18.994747 -0.069535419 -18.988245 -30.488594 -109.20283
94915000 -30.049366 -103.57969 -0.071876556 -19.192768 -0.070367217 -19.187668 -30.429792 -109.11694
95914000 -29.996494 -103.80951 -0.072507441 -19.388554 -0.071379177 -19.384048 -30.337072 -109.38394
96913000 -29.907425 -103.99397 -0.074064657 -19.588383 -0.072999164 -19.584568 -30.28186 -109.75487
97912000 -29.837881 -104.47944 -0.075074576 -19.783094 -0.072477438 -19.785301 -30.205221 -109.99979
98911000 -29.728127 -104.70301 -0.075330578 -19.984829 -0.073808722 -19.983854 -30.159454 -110.23402
99910000 -29.661955 -104.84716 -0.075692229 -20.18046 -0.074049123 -20.178411 -30.047697 -110.49339
100909000 -29.578739 -105.09638 -0.07479541 -20.390783 -0.073833212 -20.38509 -29.963709 -110.71307
101908000 -29.491594 -105.30789 -0.076623484 -20.590439 -0.075034015 -20.586706 -29.852413 -110.49915
102907000 -29.362204 -105.40079 -0.076608993 -20.786167 -0.074344829 -20.788519 -29.780495 -110.44115
103906000 -29.269239 -105.43034 -0.077144653 -20.996923 -0.074231863 -20.993431 -29.63516 -110.41884
104905000 -29.121058 -105.30511 -0.077383652 -21.196768 -0.075138837 -21.194714 -29.497894 -110.07821
105904000 -28.985437 -105.46976 -0.077922575 -21.397017 -0.074495189 -21.391981 -29.380901 -109.97334
106903000 -28.872789 -105.59075 -0.077022396 -21.600922 -0.075471759 -21.597303 -29.250235 -109.86597
107902000 -28.710062 -105.91709 -0.079367049 -21.80187 -0.075890057 -21.793604 -29.119526 -109.81911
108901000 -28.603897 -106.17404 -0.079523124 -22.000954 -0.077381551 -21.993391 -28.980019 -109.77502
109900000 -28.471191 -106.64907 -0.080680139 -22.203497 -0.078254126 -22.193401 -28.835146 -109.90184
110899000 -28.352034 -107.32102 -0.081570797 -22.39752 -0.078993492 -22.391119 -28.702707 -110.16399
111898000 -28.272251 -108.00124 -0.083063185 -22.59926 -0.080208912 -22.594719 -28.58596 -110.33472
112897000 -28.13895 -108.57097 -0.084569812 -22.799206 -0.081434958 -22.78447 -28.452934 -110.50883
113896000 -28.041225 -109.21064 -0.08544331 -23.000126 -0.083134428 -22.986847 -28.340714 -110.66431
114895000 -27.938099 -109.83978 -0.085789695 -23.196507 -0.083897054 -23.182947 -28.228777 -110.76812
115894000 -27.808317 -110.20461 -0.087940969 -23.398769 -0.085383646 -23.383966 -28.161259 -110.96351
116893000 -27.732887 -110.81956 -0.088577099 -23.59421 -0.086264171 -23.576864 -28.027462 -111.07027
117892000 -27.652855 -111.28694 -0.088010177 -23.78792 -0.086520046 -23.778395 -27.957363 -111.31317
118891000 -27.594067 -111.74419 -0.089222044 -23.990513 -0.087490611 -23.974773 -27.864674 -111.42845
119890000 -27.507038 -112.12481 -0.089814231 -24.190561 -0.087938324 -24.174706 -27.851767 -111.61837
120889000 -27.44161 -112.65285 -0.090896808 -24.393875 -0.087903984 -24.372173 -27.777718 -111.59716
121888000 -27.405781 -112.98596 -0.09029258 -24.591146 -0.088150181 -24.57308 -27.716206 -111.9083
122887000 -27.359291 -113.14774 -0.091624849 -24.791742 -0.089266963 -24.780567 -27.666502 -111.93873
123886000 -27.309937 -113.60586 -0.092450321 -24.994038 -0.089358658 -24.973101 -27.653 -112.11983
124885000 -27.275291 -114.11095 -0.092757069 -25.191164 -0.090005033 -25.17547 -27.625418 -112.18215
125884000 -27.220261 -114.28205 -0.093860485 -25.388426 -0.08958485 -25.376049 -27.593531 -112.32991
126883000 -27.202141 -114.70751 -0.094122358 -25.590427 -0.090761207 -25.577112 -27.550137 -112.3684
127882000 -27.149652 -115.00469 -0.094428167 -25.789085 -0.091398284 -25.772211 -27.50894 -112.55891
128881000 -27.117243 -115.31051 -0.094977677 -25.993187 -0.091063082 -25.975264 -27.47294 -112.65784
129880000 -27.059731 -115.60789 -0.095135897 -26.194378 -0.091876544 -26.174236 -27.42523 -112.63409
130879000 -26.996443 -115.77753 -0.094779506 -26.391722 -0.092520393 -26.373554 -27.357742 -112.70744
131878000 -26.936899 -115.99508 -0.095262907 -26.595379 -0.093394168 -26.574591 -27.28977 -112.62296
132877000 -26.864941 -116.04849 -0.09440621 -26.794804 -0.093034744 -26.776783 -27.199474 -112.59502
133876000 -26.776728 -116.25871 -0.095712483 -26.997944 -0.092952237 -26.977331 -27.105124 -112.53118
134875000 -26.682108 -116.37212 -0.095411874 -27.194868 -0.09318126 -27.178593 -27.006138 -112.39831
135874000 -26.601435 -116.35406 -0.095553972 -27.39835 -0.092907012 -27.374901 -26.900194 -112.39964
136873000 -26.491198 -116.29816 -0.096124262 -27.597778 -0.092887178 -27.583046 -26.81835 -112.40983
137872000 -26.407297 -116.43209 -0.096208952 -27.799419 -0.092366494 -27.782984 -26.712891 -112.3165
138871000 -26.337917 -116.61163 -0.09710253 -27.997725 -0.094220236 -27.97859 -26.609461 -112.48759
139870000 -26.239487 -116.87292 -0.097235158 -28.199179 -0.094865754 -28.18112 -26.531824 -112.65447
140869000 -26.155823 -117.35709 -0.099175729 -28.396795 -0.096421212 -28.373318 -26.427141 -112.78236
141868000 -26.056593 -117.83022 -0.099201679 -28.5849 -0.096973881 -28.568722 -26.356199 -113.12403
142867000 -25.981579 -118.07436 -0.097517624 -28.783302 -0.095598958 -28.764772 -26.275106 -113.3154
143866000 -25.909992 -118.60199 -0.099249355 -28.979998 -0.097464673 -28.963676 -26.205931 -113.79995
144865000 -25.85598 -119.11558 -0.10115717 -29.180365 -0.098731086 -29.163597 -26.145012 -114.14178
145864000 -25.799782 -119.44531 -0.10127535 -29.378605 -0.099788606 -29.369431 -26.119831 -114.41144
146863000 -25.757267 -119.83723 -0.10184745 -29.576269 -0.099852175 -29.566895 -26.063452 -114.73902
147862000 -25.716057 -120.23679 -0.10314085 -29.77562 -0.1004127 -29.760145 -26.031546 -115.09692
148861000 -25.682812 -120.71805 -0.10272629 -29.972113 -0.10049191 -29.960119 -26.00503 -115.30626
149860000 -25.675673 -120.91828 -0.10367131 -30.172682 -0.10089302 -30.165411 -25.974613 -115.45235
150859000 -25.648191 -121.30203 -0.10454574 -30.368736 -0.10128568 -30.358831 -25.968702 -115.72617
151858000 -25.638859 -121.64973 -0.10365593 -30.570608 -0.10199983 -30.556087 -25.956856 -116.01598
152857000 -25.619038 -121.96272 -0.10442059 -30.763815 -0.10243924 -30.756458 -25.94375 -116.17716
153856000 -25.612473 -122.17314 -0.10425778 -30.967781 -0.10162777 -30.952297 -25.959002 -116.42535
154855000 -25.605434 -122.39243 -0.10495041 -31.165836 -0.10245991 -31.156366 -25.95491 -116.64513
155854000 -25.6201 -122.62415 -0.10474674 -31.366203 -0.10226803 -31.353239 -25.94327 -116.91535
156853000 -25.605017 -123.34277 -0.10320792 -31.55044 -0.1017131 -31.544252 -25.940149 -117.21021
157852000 -25.610567 -123.56731 -0.10368775 -31.754444 -0.10326306 -31.743372 -25.92836 -117.57057
158851000 -25.601515 -123.78752 -0.10468867 -31.952291 -0.10372698 -31.942726 -25.914082 -117.83568
159850000 -25.589285 -123.89175 -0.10568452 -32.148525 -0.1036448 -32.139523 -25.917809 -118.01138
160849000 -25.571192 -124.00128 -0.1049695 -32.347336 -0.10410559 -32.343658 -25.882271 -118.26735
161848000 -25.555031 -124.1081 -0.10584844 -32.548798 -0.10456271 -32.542294 -25.837746 -118.36956
162847000 -25.505972 -124.30013 -0.10637631 -32.747391 -0.10497481 -32.741882 -25.816866 -118.64256
163846000 -25.465109 -124.52499 -0.10618585 -32.948032 -0.1047181 -32.940811 -25.738785 -118.62141
164845000 -25.403416 -124.51231 -0.10658323 -33.146477 -0.10491222 -33.137928 -25.668678 -118.71475
165844000 -25.348719 -124.59163 -0.10697959 -33.34584 -0.10536253 -33.338894 -25.592133 -118.84364
166843000 -25.282412 -124.65697 -0.10655166 -33.544849 -0.10578796 -33.534576 -25.521362 -119.03173
167842000 -25.225342 -124.81735 -0.1065774 -33.739525 -0.10600494 -33.73653 -25.435879 -118.96612
168841000 -25.152325 -124.99004 -0.10778517 -33.941807 -0.10599061 -33.938087 -25.360607 -119.07281
169840000 -25.081863 -125.26056 -0.10721838 -34.129173 -0.10630468 -34.130344 -25.267567 -119.27353
170839000 -25.027987 -125.55582 -0.10845208 -34.333233 -0.10663045 -34.328232 -25.184925 -119.45114
171838000 -24.966286 -125.94213 -0.10893806 -34.532913 -0.10754741 -34.526695 -25.117424 -119.68631
172837000 -24.896677 -126.30446 -0.10969409 -34.726368 -0.10888047 -34.720882 -25.048048 -119.91949
173836000 -24.832212 -126.74577 -0.11025296 -34.927319 -0.10977373 -34.925995 -25.012804 -120.15989
174835000 -24.779081 -127.1971 -0.11085174 -35.12175 -0.11025296 -35.123886 -24.961586 -120.50848
175834000 -24.730598 -127.59885 -0.11173479 -35.323681 -0.11118475 -35.316677 -24.896755 -120.77194
176833000 -24.677523 -127.94736 -0.11254284 -35.518066 -0.11189761 -35.517132 -24.84754 -120.97615
177832000 -24.633694 -128.40349 -0.11318178 -35.714058 -0.11232846 -35.713009 -24.820333 -121.14487
178831000 -24.594072 -128.79236 -0.11352163 -35.911682 -0.11254948 -35.908577 -24.790602 -121.3597
179830000 -24.552235 -129.26073 -0.11379452 -36.110416 -0.11308401 -36.11158 -24.76041 -121.5111
180829000 -24.518332 -129.43248 -0.11429306 -36.303677 -0.11400259 -36.306549 -24.729885 -121.66609
181828000 -24.489506 -129.82834 -0.11452269 -36.504742 -0.11373367 -36.498379 -24.707676 -121.82011
182827000 -24.467945 -130.19391 -0.11435153 -36.692905 -0.11417773 -36.697651 -24.69599 -121.90165
183826000 -24.424557 -130.49902 -0.1152664 -36.892357 -0.11381472 -36.899914 -24.690115 -122.01054
184825000 -24.431231 -130.82146 -0.11515236 -37.093105 -0.11453066 -37.090153 -24.674322 -122.11335
185824000 -24.400408 -131.15848 -0.11487167 -37.285187 -0.11481187 -37.286587 -24.672087 -122.17672
186823000 -24.384369 -131.52406 -0.11593898 -37.488827 -0.11609291 -37.48642 -24.672232 -122.18742
187822000 -24.365366 -131.84006 -0.1163782 -37.684235 -0.11556678 -37.683929 -24.634138 -122.22826
188821000 -24.346813 -132.07224 -0.11565292 -37.875671 -0.11567259 -37.881687 -24.615667 -122.33413
189820000 -24.331461 -132.33794 -0.11631386 -38.077488 -0.11585071 -38.077145 -24.607203 -122.46861
190819000 -24.297121 -132.57462 -0.11733712 -38.278442 -0.11710734 -38.275856 -24.574909 -122.45722
191818000 -24.26535 -132.74268 -0.11879689 -38.47266 -0.11838694 -38.472874 -24.541124 -122.31715
192817000 -24.195761 -133.02583 -0.11947693 -38.657784 -0.11844892 -38.6581 -24.471035 -122.41328
193816000 -24.156427 -133.36754 -0.11843083 -38.84959 -0.11775999 -38.847664 -24.413643 -122.67833
194815000 -24.102526 -133.84016 -0.11820366 -39.046299 -0.11837231 -39.047863 -24.349159 -122.76723
195814000 -24.050713 -134.04578 -0.11865722 -39.243389 -0.11752354 -39.247578 -24.297104 -122.89742
196813000 -23.994156 -134.38245 -0.11782994 -39.436058 -0.11803342 -39.441952 -24.218576 -123.04555
197812000 -23.937645 -134.61555 -0.1189472 -39.639164 -0.11763684 -39.634853 -24.150944 -123.19156
198811000 -23.88385 -134.82007 -0.11866094 -39.829567 -0.11775468 -39.83736 -24.076099 -123.33369
199810000 -23.81517 -135.18283 -0.11844733 -40.026093 -0.11747222 -40.025951 -24.000145 -123.41943
200809000 -23.758026 -135.45587 -0.11969991 -40.225513 -0.1182292 -40.226753 -23.922104 -123.64979
201808000 -23.698523 -135.68538 -0.11991625 -40.422798 -0.11939605 -40.424549 -23.853527 -123.71407
202807000 -23.642876 -136.03908 -0.12102313 -40.622955 -0.11964696 -40.628956 -23.798428 -123.95331
203806000 -23.587763 -136.49594 -0.12178952 -40.82626 -0.11947693 -40.829536 -23.73167 -124.13393
