!Keysight Technologies,E5080B,MY59205177,A.15.75.32
!Date: Friday, February 23, 2024 03:34:28
!Correction: S11(Cdelta 2-Port  ) 
!S21(Cdelta 2-Port  ) 
!S12(Cdelta 2-Port  ) 
!S22(Cdelta 2-Port  ) 
!S2P File: Measurements: S11, S21, S12, S22:
# Hz S  dB   R 50
10000000 -46.04388 -2.7681305 -0.015702825 -2.0481424 -0.018194998 -2.0975773 -45.922997 -158.00218
10999000 -45.258842 -4.6009879 -0.016561801 -2.2629175 -0.018581554 -2.3173609 -45.836746 -151.25821
11998000 -44.32943 -7.3023934 -0.016843226 -2.4902349 -0.017892171 -2.5320048 -46.039242 -147.30193
12997000 -43.593727 -12.998837 -0.01586676 -2.6695981 -0.017625751 -2.7024436 -45.683422 -141.55579
13996000 -43.31974 -17.045103 -0.015261453 -2.8495793 -0.017673315 -2.8719144 -45.457481 -136.58345
14995000 -42.903275 -21.344334 -0.017134804 -3.0631831 -0.017650183 -3.0815947 -45.159184 -133.21941
15994000 -42.726082 -25.778772 -0.018847771 -3.276901 -0.020464143 -3.300873 -45.096115 -129.50389
16993000 -42.696648 -30.324032 -0.017458111 -3.4746993 -0.018864151 -3.4831207 -44.186954 -129.2084
17992000 -42.701168 -35.718658 -0.0178563 -3.6752958 -0.019668885 -3.6760449 -43.62389 -129.33745
18991000 -42.976418 -41.030914 -0.019615836 -3.8878996 -0.020757265 -3.881614 -42.999874 -128.28755
19990000 -42.745022 -47.020935 -0.021288162 -4.0921688 -0.022306956 -4.0868349 -42.306465 -128.79434
20989000 -42.585979 -50.035603 -0.023362687 -4.2968607 -0.024724299 -4.2855 -41.770172 -128.10971
21988000 -42.392303 -55.104305 -0.02460767 -4.4953837 -0.025522048 -4.4827766 -41.480263 -127.56426
22987000 -42.100506 -60.135704 -0.025711872 -4.6951709 -0.026376976 -4.6869302 -41.261486 -127.0528
23986000 -41.96706 -64.255241 -0.02492268 -4.8887796 -0.025217928 -4.8861103 -41.157612 -126.99409
24985000 -41.585011 -66.901588 -0.02640927 -5.0987334 -0.025452264 -5.0940437 -40.930149 -124.65149
25984000 -41.303562 -69.259941 -0.027185187 -5.3048596 -0.025939725 -5.3042326 -40.575825 -122.95099
26983000 -40.965488 -71.093925 -0.02795108 -5.5051179 -0.027523831 -5.5233536 -40.496651 -122.20755
27982000 -40.771564 -71.84169 -0.02875359 -5.7036591 -0.028708771 -5.7366047 -40.231419 -120.59302
28981000 -40.745632 -73.235321 -0.027422495 -5.9018531 -0.02829317 -5.9240241 -40.015095 -119.89823
29980000 -40.334957 -74.701004 -0.026583247 -6.0973663 -0.029299278 -6.1034751 -39.727623 -119.08501
30979000 -39.941582 -73.701271 -0.024958869 -6.446619 -0.024204956 -6.4401793 -39.235836 -119.39907
31978000 -39.755283 -74.807274 -0.024551699 -6.6458592 -0.024879202 -6.6354113 -38.996593 -118.75059
32977000 -39.564064 -76.114311 -0.02377235 -6.8598051 -0.025377275 -6.8501844 -38.774136 -118.75799
33976000 -39.368458 -77.378815 -0.025119249 -7.0562444 -0.025861863 -7.0511427 -38.467827 -118.26914
34975000 -39.077503 -78.196327 -0.024630578 -7.2594767 -0.026280876 -7.2543826 -38.223583 -117.87457
35974000 -38.887039 -78.665062 -0.024187777 -7.4499607 -0.026895797 -7.4580441 -37.956493 -116.90742
36973000 -38.645828 -79.446442 -0.024603765 -7.6492605 -0.027066147 -7.6550994 -37.71104 -116.02188
37972000 -38.480804 -79.0093 -0.024711283 -7.8617816 -0.027630899 -7.8690124 -37.481468 -115.33353
38971000 -38.153141 -78.645348 -0.025778012 -8.0662889 -0.027666589 -8.0743837 -37.301319 -113.6783
39970000 -37.833351 -79.066292 -0.023904312 -8.258338 -0.025967069 -8.2803478 -37.063103 -113.14429
40969000 -37.55545 -78.608131 -0.024066737 -8.4546299 -0.026231915 -8.472929 -36.8158 -111.62694
41968000 -37.203392 -78.505836 -0.024254937 -8.6577768 -0.026803853 -8.6759176 -36.64167 -110.5117
42967000 -36.934719 -78.591438 -0.023644814 -8.8683405 -0.026139986 -8.8894863 -36.440941 -108.56136
43966000 -36.64035 -79.350601 -0.024620686 -9.0671062 -0.027933365 -9.08922 -36.155132 -107.94335
44965000 -36.409393 -80.078888 -0.025646253 -9.2768164 -0.027947694 -9.2956562 -35.959332 -107.55346
45964000 -36.187828 -81.033737 -0.026495736 -9.4761591 -0.029107211 -9.4959764 -35.725895 -107.30788
46963000 -35.977448 -83.022499 -0.027429007 -9.6662502 -0.029949293 -9.6916752 -35.551834 -107.42493
47962000 -35.809898 -84.507278 -0.028832806 -9.8720884 -0.031443339 -9.8890562 -35.33197 -107.61069
48961000 -35.595974 -85.841866 -0.030525891 -10.070544 -0.032841917 -10.090449 -35.104557 -107.69655
49960000 -35.367882 -87.18705 -0.031325746 -10.265336 -0.033546723 -10.291047 -34.969318 -107.82202
50959000 -35.134945 -88.431839 -0.032248583 -10.480191 -0.034374271 -10.492794 -34.792034 -108.06514
51958000 -34.938232 -89.4804 -0.033985782 -10.678736 -0.035590053 -10.68889 -34.618431 -108.4793
52957000 -34.717594 -90.504486 -0.035294101 -10.880165 -0.037233815 -10.888641 -34.463718 -108.21349
53956000 -34.554787 -91.158676 -0.037112933 -11.08263 -0.038067028 -11.083538 -34.324642 -108.23528
54955000 -34.383976 -91.667717 -0.03752755 -11.284224 -0.039024208 -11.277315 -34.177284 -108.20031
55954000 -34.204403 -92.469742 -0.038392682 -11.48372 -0.039356202 -11.480165 -34.066376 -107.86306
56953000 -34.091991 -92.485016 -0.038037259 -11.684649 -0.037881624 -11.673362 -33.995342 -108.11091
57952000 -33.916191 -93.070198 -0.039994135 -11.880364 -0.039314408 -11.871086 -33.886505 -108.1521
58951000 -33.794613 -93.30368 -0.040087666 -12.090125 -0.04027421 -12.068173 -33.746708 -108.23607
59950000 -33.669044 -93.771538 -0.040689129 -12.289037 -0.041433889 -12.264127 -33.663673 -108.45214
60949000 -33.559044 -94.30748 -0.041241284 -12.491087 -0.041823566 -12.466343 -33.571247 -108.77354
61948000 -33.49818 -94.691452 -0.042167533 -12.687651 -0.042192366 -12.670224 -33.478638 -108.78814
62947000 -33.399212 -94.790047 -0.042192627 -12.899976 -0.04204521 -12.877258 -33.34243 -109.03736
63946000 -33.33271 -95.614052 -0.043351509 -13.097391 -0.042970847 -13.078825 -33.228481 -109.24975
64945000 -33.228203 -95.765648 -0.043562774 -13.297975 -0.04381353 -13.281178 -33.124947 -109.71789
65944000 -33.122448 -96.051346 -0.044495795 -13.496039 -0.044132028 -13.480985 -33.033119 -110.08864
66943000 -32.981159 -96.424225 -0.042641975 -13.702086 -0.042742621 -13.6856 -32.925362 -110.38895
67942000 -32.908413 -96.424232 -0.044510964 -13.897552 -0.044059854 -13.883036 -32.814041 -110.74847
68941000 -32.816013 -96.486633 -0.044322144 -14.093046 -0.042869672 -14.08622 -32.700294 -110.69324
69940000 -32.711956 -96.500427 -0.044682268 -14.287637 -0.044517502 -14.28234 -32.559044 -110.90736
70939000 -32.605709 -96.502846 -0.044040766 -14.485342 -0.044011999 -14.480433 -32.41869 -110.85066
71938000 -32.459652 -95.99192 -0.04508296 -14.680233 -0.044689588 -14.674841 -32.289963 -110.76717
72937000 -32.30994 -95.79937 -0.043512046 -14.882844 -0.044092279 -14.877426 -32.156513 -110.47529
73936000 -32.177715 -95.40303 -0.04404024 -15.083177 -0.043014504 -15.074544 -32.034122 -110.21249
74935000 -32.055908 -95.654274 -0.043608006 -15.276012 -0.042579498 -15.278979 -31.884962 -109.8892
75934000 -31.921637 -95.938164 -0.042674914 -15.486117 -0.042549435 -15.480659 -31.7924 -109.85883
76933000 -31.78923 -96.243736 -0.044456042 -15.677585 -0.04356591 -15.675923 -31.62005 -110.11809
77932000 -31.685034 -97.012787 -0.045162473 -15.879565 -0.045533914 -15.871403 -31.522865 -110.09424
78931000 -31.612072 -97.770798 -0.04447775 -16.075274 -0.044789761 -16.072359 -31.429403 -109.92129
79930000 -31.499916 -98.639336 -0.046982307 -16.270134 -0.047120996 -16.272488 -31.324127 -110.25504
80929000 -31.392076 -99.470886 -0.048497148 -16.468002 -0.048750021 -16.464563 -31.22423 -110.54566
81928000 -31.288002 -100.17037 -0.048281718 -16.660488 -0.048520967 -16.657494 -31.099552 -110.53895
82927000 -31.190649 -100.88226 -0.049632054 -16.858633 -0.049591471 -16.856409 -30.986439 -110.76091
83926000 -31.065481 -101.59889 -0.051880751 -17.054552 -0.050859708 -17.056732 -30.873928 -110.97118
84925000 -30.960484 -102.04752 -0.052949198 -17.25947 -0.051638436 -17.253239 -30.768227 -111.00226
85924000 -30.873888 -102.4467 -0.053204164 -17.452616 -0.052644722 -17.453175 -30.686918 -110.93758
86923000 -30.766977 -102.87199 -0.053353798 -17.65522 -0.053045366 -17.650745 -30.58276 -110.83373
87922000 -30.652231 -103.19102 -0.054098636 -17.859274 -0.052056797 -17.853148 -30.501505 -110.87511
88921000 -30.590605 -103.49944 -0.055046771 -18.055447 -0.053360611 -18.055597 -30.414351 -110.86549
89920000 -30.476978 -104.01868 -0.055292685 -18.261404 -0.053778619 -18.252054 -30.348185 -110.9986
90919000 -30.380493 -104.2645 -0.05604336 -18.457165 -0.055019505 -18.450237 -30.268187 -111.10702
91918000 -30.281183 -104.65134 -0.057282012 -18.654762 -0.055209838 -18.649733 -30.20694 -111.1968
92917000 -30.19393 -104.93333 -0.058268096 -18.852541 -0.05683272 -18.853695 -30.131245 -111.27861
93916000 -30.098225 -105.2875 -0.056888059 -19.049408 -0.056389768 -19.044119 -30.054411 -111.81863
94915000 -30.025515 -105.9255 -0.058580309 -19.251448 -0.05731637 -19.243252 -29.992214 -111.7494
95914000 -29.953405 -106.11077 -0.060016789 -19.443043 -0.058246583 -19.441862 -29.900867 -111.94904
96913000 -29.871422 -106.34058 -0.06088195 -19.644386 -0.059132647 -19.642662 -29.841814 -112.27076
97912000 -29.794746 -106.73753 -0.061884344 -19.839617 -0.059289306 -19.843328 -29.755777 -112.5556
98911000 -29.687973 -106.95775 -0.061945785 -20.043112 -0.060795058 -20.042126 -29.714756 -112.81431
99910000 -29.622688 -107.07719 -0.063097872 -20.240879 -0.061165474 -20.238581 -29.609652 -113.11371
100909000 -29.528721 -107.33025 -0.06236672 -20.449909 -0.060560118 -20.445313 -29.517546 -113.25119
101908000 -29.435333 -107.58672 -0.063821003 -20.647108 -0.061044447 -20.647202 -29.413441 -113.09637
102907000 -29.303314 -107.56028 -0.064107873 -20.851166 -0.062290303 -20.85021 -29.339952 -113.05087
103906000 -29.211155 -107.60427 -0.064618081 -21.058264 -0.061078839 -21.052349 -29.193409 -113.02133
104905000 -29.061892 -107.52246 -0.064777307 -21.254791 -0.062107012 -21.258577 -29.062222 -112.68259
105904000 -28.921907 -107.60358 -0.064951248 -21.456362 -0.062134322 -21.450191 -28.955761 -112.61783
106903000 -28.812527 -107.64793 -0.065069489 -21.664202 -0.062434472 -21.655569 -28.828276 -112.50487
107902000 -28.650166 -107.99986 -0.065932505 -21.863703 -0.062954992 -21.856932 -28.698385 -112.44543
108901000 -28.545343 -108.23 -0.066850103 -22.065598 -0.06475208 -22.061939 -28.569656 -112.35162
109900000 -28.416887 -108.7065 -0.067673244 -22.26634 -0.065300994 -22.255764 -28.417892 -112.46864
110899000 -28.291531 -109.30668 -0.069129832 -22.463226 -0.065941438 -22.455992 -28.286329 -112.71637
111898000 -28.210854 -109.93193 -0.070255406 -22.666386 -0.066858515 -22.659714 -28.171804 -112.82563
112897000 -28.079451 -110.47321 -0.072070524 -22.864721 -0.068730593 -22.853085 -28.034168 -112.99478
113896000 -27.974707 -111.0342 -0.072738819 -23.064259 -0.069463611 -23.053587 -27.929743 -113.10784
114895000 -27.86993 -111.6732 -0.073660225 -23.262398 -0.070848174 -23.25024 -27.814356 -113.23154
115894000 -27.751133 -112.05489 -0.074712448 -23.466911 -0.0723074 -23.449558 -27.752884 -113.40742
116893000 -27.670471 -112.52167 -0.075799435 -23.661287 -0.073115781 -23.645744 -27.626699 -113.49723
117892000 -27.596048 -113.03938 -0.076013863 -23.856997 -0.073365882 -23.846939 -27.551561 -113.67347
118891000 -27.523602 -113.41544 -0.076291002 -24.053879 -0.073824786 -24.045496 -27.460608 -113.76154
119890000 -27.446243 -113.80206 -0.07669884 -24.259756 -0.074352995 -24.243069 -27.443636 -113.87897
120889000 -27.390303 -114.27265 -0.077701725 -24.465019 -0.074194469 -24.451603 -27.368792 -113.85715
121888000 -27.354828 -114.6022 -0.077939175 -24.6569 -0.074697174 -24.645336 -27.307707 -114.10875
122887000 -27.314451 -114.78497 -0.07883507 -24.860537 -0.075271055 -24.84593 -27.265141 -114.1096
123886000 -27.25926 -115.21644 -0.079679199 -25.059669 -0.076156117 -25.042976 -27.248116 -114.26117
124885000 -27.221792 -115.71143 -0.079992697 -25.263777 -0.076229617 -25.246027 -27.222483 -114.30805
125884000 -27.177855 -115.88934 -0.08047498 -25.460348 -0.07663165 -25.448446 -27.192413 -114.46832
126883000 -27.152967 -116.28776 -0.08081042 -25.663204 -0.077661142 -25.649172 -27.156601 -114.48072
127882000 -27.103655 -116.57588 -0.080954149 -25.866289 -0.077725179 -25.846289 -27.113245 -114.60248
128881000 -27.0728 -116.93423 -0.081244789 -26.066944 -0.078854047 -26.046614 -27.076599 -114.75454
129880000 -27.019419 -117.23965 -0.081855409 -26.268042 -0.078838497 -26.25042 -27.035679 -114.65842
130879000 -26.962322 -117.41415 -0.08147531 -26.466967 -0.079302192 -26.453352 -26.962452 -114.69718
131878000 -26.899832 -117.60632 -0.081415437 -26.669523 -0.079777807 -26.648876 -26.897627 -114.57446
132877000 -26.83478 -117.68279 -0.081938766 -26.875793 -0.079503082 -26.856117 -26.82198 -114.55546
133876000 -26.749798 -117.87846 -0.082587212 -27.073713 -0.080320455 -27.058001 -26.736383 -114.44702
134875000 -26.646965 -117.97926 -0.082716756 -27.274027 -0.079850316 -27.253222 -26.637209 -114.27074
135874000 -26.564344 -118.01272 -0.082357153 -27.472345 -0.079921238 -27.456039 -26.540716 -114.22131
136873000 -26.459633 -117.9654 -0.083143927 -27.676941 -0.080163822 -27.659174 -26.455954 -114.19363
137872000 -26.384737 -118.06448 -0.083462685 -27.876583 -0.080511369 -27.864914 -26.358284 -114.0966
138871000 -26.30785 -118.26776 -0.083904445 -28.073389 -0.080875821 -28.060526 -26.260933 -114.25504
139870000 -26.209124 -118.54472 -0.084107928 -28.279829 -0.081889965 -28.259014 -26.182661 -114.41026
140869000 -26.132668 -119.10309 -0.085399486 -28.477007 -0.082234219 -28.458893 -26.085518 -114.65462
141868000 -26.054523 -119.53491 -0.085977159 -28.674467 -0.08346796 -28.656656 -26.032763 -114.90115
142867000 -25.969519 -119.69793 -0.084522568 -28.870695 -0.082483001 -28.856009 -25.948807 -115.00758
143866000 -25.902302 -120.2021 -0.086410463 -29.067844 -0.083874889 -29.051025 -25.880177 -115.44794
144865000 -25.841572 -120.70611 -0.088058516 -29.265581 -0.085672997 -29.251289 -25.822113 -115.79263
145864000 -25.791105 -121.01224 -0.088620424 -29.467291 -0.086340487 -29.456718 -25.786774 -116.04118
146863000 -25.7379 -121.36954 -0.089670472 -29.665449 -0.087140389 -29.655182 -25.736084 -116.29946
147862000 -25.699697 -121.73114 -0.090978488 -29.864399 -0.086950235 -29.855034 -25.706306 -116.59383
148861000 -25.670298 -122.1293 -0.091549762 -30.064068 -0.089617088 -30.052458 -25.682447 -116.80256
149860000 -25.638605 -122.3453 -0.093259811 -30.255754 -0.089443743 -30.245317 -25.631718 -116.90135
150859000 -25.613798 -122.7772 -0.092099696 -30.455629 -0.088761508 -30.440435 -25.615 -117.19533
151858000 -25.599144 -123.11595 -0.091816261 -30.6511 -0.088649489 -30.637302 -25.606529 -117.53835
152857000 -25.5881 -123.44956 -0.092286907 -30.852423 -0.089297354 -30.842764 -25.58386 -117.72207
153856000 -25.581264 -123.67052 -0.091844819 -31.055861 -0.088252157 -31.041271 -25.610487 -118.06541
154855000 -25.581867 -123.87259 -0.092103399 -31.250978 -0.088977635 -31.239838 -25.596691 -118.28814
155854000 -25.596058 -124.09085 -0.092711054 -31.45628 -0.089567408 -31.438049 -25.588139 -118.56583
156853000 -25.581758 -124.76601 -0.090399362 -31.640987 -0.089082263 -31.63261 -25.582298 -118.87349
157852000 -25.589449 -124.99495 -0.091534957 -31.844654 -0.090585701 -31.834345 -25.565443 -119.22826
158851000 -25.584455 -125.21825 -0.091920696 -32.041367 -0.090478651 -32.034367 -25.555977 -119.5158
159850000 -25.576353 -125.30825 -0.092242219 -32.240971 -0.090502702 -32.231544 -25.55797 -119.67589
160849000 -25.55776 -125.38612 -0.092652872 -32.443657 -0.091471247 -32.432339 -25.528307 -119.99429
161848000 -25.542271 -125.5066 -0.093106151 -32.639992 -0.091150574 -32.636696 -25.488787 -120.07017
162847000 -25.502146 -125.68611 -0.092978679 -32.840511 -0.091702573 -32.836029 -25.460442 -120.35408
163846000 -25.462591 -125.89457 -0.092306472 -33.040028 -0.092088595 -33.033451 -25.380955 -120.3302
164845000 -25.403231 -125.8615 -0.093632475 -33.23848 -0.091660276 -33.234047 -25.314802 -120.4445
165844000 -25.355099 -125.8715 -0.093902804 -33.439495 -0.092537053 -33.43399 -25.242559 -120.5798
166843000 -25.292263 -125.9578 -0.093594916 -33.641315 -0.092891939 -33.631882 -25.175743 -120.74635
167842000 -25.234787 -126.03999 -0.094413355 -33.840466 -0.092412241 -33.834091 -25.098368 -120.67394
168841000 -25.156757 -126.20396 -0.094587959 -34.040966 -0.093433045 -34.034355 -25.020288 -120.70911
169840000 -25.08778 -126.42957 -0.095087476 -34.231224 -0.093753621 -34.23177 -24.939627 -120.90726
170839000 -25.031586 -126.68359 -0.095403939 -34.431454 -0.09401761 -34.429146 -24.856804 -121.14108
171838000 -24.971571 -127.07862 -0.095739476 -34.632359 -0.095279574 -34.624226 -24.78968 -121.34227
172837000 -24.906269 -127.41473 -0.097527944 -34.828835 -0.096292585 -34.825237 -24.72883 -121.50568
173836000 -24.839384 -127.82971 -0.098629929 -35.02932 -0.09752503 -35.025532 -24.682289 -121.71292
174835000 -24.781746 -128.19933 -0.098745652 -35.224712 -0.098325677 -35.226665 -24.642818 -122.03773
175834000 -24.733816 -128.57639 -0.099286959 -35.425114 -0.098937906 -35.420883 -24.577166 -122.30949
176833000 -24.681742 -128.87328 -0.10070889 -35.624977 -0.099967666 -35.622719 -24.528374 -122.45612
177832000 -24.639894 -129.33687 -0.10179949 -35.822643 -0.10032872 -35.824005 -24.509972 -122.57541
178831000 -24.591558 -129.55659 -0.10296351 -36.017811 -0.10244401 -36.019764 -24.473391 -122.63496
179830000 -24.524178 -129.98108 -0.10398787 -36.204624 -0.10242652 -36.205967 -24.407137 -122.72701
180829000 -24.472513 -130.31906 -0.10313476 -36.401382 -0.10204223 -36.395477 -24.36565 -123.05115
181828000 -24.449982 -130.72871 -0.10244931 -36.598621 -0.10153582 -36.597469 -24.348579 -123.24086
182827000 -24.423697 -131.16304 -0.10212359 -36.793453 -0.10208596 -36.796604 -24.337105 -123.36499
183826000 -24.381971 -131.45424 -0.10366071 -36.99268 -0.10230938 -36.995136 -24.322031 -123.50674
184825000 -24.391073 -131.79564 -0.10304463 -37.191967 -0.10169189 -37.189331 -24.307436 -123.5929
185824000 -24.358744 -132.15034 -0.1031822 -37.387676 -0.10227757 -37.387478 -24.301168 -123.71069
186823000 -24.341467 -132.53951 -0.10328771 -37.583275 -0.10246734 -37.58371 -24.300652 -123.7243
187822000 -24.318817 -132.85245 -0.10369411 -37.781551 -0.10305629 -37.782204 -24.258375 -123.78496
188821000 -24.293646 -133.10524 -0.10349236 -37.974586 -0.10307007 -37.982121 -24.238985 -123.90963
189820000 -24.276812 -133.39349 -0.10393219 -38.178398 -0.10343245 -38.176857 -24.224159 -124.10217
190819000 -24.241079 -133.66748 -0.10406555 -38.374451 -0.10317028 -38.374496 -24.180075 -124.12383
191818000 -24.210684 -134.01521 -0.10442854 -38.571732 -0.10396931 -38.573509 -24.156094 -124.15313
192817000 -24.164389 -134.30571 -0.1051196 -38.767063 -0.10419097 -38.770901 -24.110115 -124.24045
193816000 -24.131369 -134.53781 -0.10565004 -38.964367 -0.10378319 -38.966175 -24.058336 -124.41773
194815000 -24.073711 -134.95204 -0.10563625 -39.158596 -0.10483107 -39.167496 -23.990528 -124.47206
195814000 -24.022161 -135.10091 -0.10711385 -39.359581 -0.10516097 -39.359348 -23.937029 -124.57433
196813000 -23.966925 -135.44936 -0.10599884 -39.555042 -0.10505118 -39.554928 -23.86055 -124.73696
197812000 -23.909023 -135.66339 -0.10639886 -39.750267 -0.1055084 -39.748013 -23.792114 -124.79625
198811000 -23.855017 -135.85553 -0.10640178 -39.950409 -0.10497056 -39.949913 -23.722404 -124.9735
199810000 -23.786806 -136.17734 -0.10648348 -40.141685 -0.10478016 -40.142704 -23.644033 -125.06481
200809000 -23.729223 -136.42867 -0.10709899 -40.341114 -0.10613279 -40.343239 -23.567257 -125.25089
201808000 -23.670347 -136.62546 -0.10768592 -40.542656 -0.10661719 -40.544647 -23.498323 -125.33363
202807000 -23.614674 -136.95528 -0.10858876 -40.742027 -0.10739695 -40.744934 -23.447355 -125.52208
