!Keysight Technologies,E5080B,MY59205177,A.15.75.32
!Date: Friday, February 23, 2024 02:56:17
!Correction: S11(Cdelta 2-Port  ) 
!S21(Cdelta 2-Port  ) 
!S12(Cdelta 2-Port  ) 
!S22(Cdelta 2-Port  ) 
!S2P File: Measurements: S11, S21, S12, S22:
# Hz S  dB   R 50
10000000 -43.911335 -3.8927162 -0.029138483 -2.0425539 -0.03271829 -2.0981698 -48.422771 -149.08926
10999000 -43.233471 -5.2907352 -0.030003767 -2.2604702 -0.032654911 -2.3148906 -48.130844 -140.70093
11998000 -42.490345 -7.8280749 -0.030143481 -2.4839444 -0.032404535 -2.5281954 -48.254871 -135.4745
12997000 -41.892143 -12.349057 -0.028940169 -2.6587067 -0.032083243 -2.6936893 -47.575119 -129.12997
13996000 -41.660702 -15.69797 -0.02918487 -2.8382046 -0.032082722 -2.8621039 -47.077656 -123.56691
14995000 -41.325806 -19.045053 -0.031006621 -3.0482886 -0.032037087 -3.07341 -46.588337 -119.78727
15994000 -41.227474 -22.709219 -0.032415751 -3.2696681 -0.034399059 -3.2913587 -46.379646 -115.99809
16993000 -41.199547 -26.780922 -0.031158881 -3.4632034 -0.033777595 -3.4716332 -45.449902 -117.46236
17992000 -41.297462 -31.221312 -0.031405531 -3.6638188 -0.034169719 -3.6655328 -44.875534 -118.30299
18991000 -41.614952 -35.742844 -0.03238941 -3.8746045 -0.035061579 -3.8709235 -44.163933 -117.94682
19990000 -41.459103 -40.637646 -0.035345774 -4.0803075 -0.037132777 -4.0775299 -43.419544 -119.64346
20989000 -41.367878 -43.604122 -0.037117634 -4.2848091 -0.038779475 -4.2754569 -42.832851 -119.58739
21988000 -41.325981 -48.038853 -0.037896771 -4.4796157 -0.039636493 -4.4704065 -42.545376 -119.13563
22987000 -41.135311 -52.282341 -0.039707027 -4.681088 -0.040075909 -4.6714458 -42.259472 -118.77732
23986000 -41.127251 -56.15099 -0.038768243 -4.8720365 -0.04020001 -4.8706651 -42.126995 -118.66465
24985000 -40.848503 -59.023087 -0.039962005 -5.0817323 -0.040821087 -5.0776243 -41.90247 -116.11642
25984000 -40.606483 -61.120605 -0.040646277 -5.2882404 -0.040669534 -5.2905636 -41.527458 -114.92472
26983000 -40.335606 -63.002518 -0.042009924 -5.4888306 -0.042117871 -5.5052609 -41.405792 -114.21494
27982000 -40.158611 -63.843071 -0.042592831 -5.683639 -0.04334785 -5.7193637 -41.054234 -112.76768
28981000 -40.155624 -65.47036 -0.040432021 -5.8829041 -0.04376803 -5.9066563 -40.826126 -112.14191
29980000 -39.817028 -66.719505 -0.04061022 -6.0740294 -0.044218849 -6.0834002 -40.509789 -111.35457
30979000 -39.422489 -66.190575 -0.038139626 -6.4264536 -0.037083171 -6.4251184 -40.007656 -112.11633
31978000 -39.243458 -67.402832 -0.037401699 -6.6237869 -0.03879828 -6.6151333 -39.732697 -111.56951
32977000 -39.071808 -69.093224 -0.036745086 -6.8351874 -0.039632838 -6.8333497 -39.487431 -111.85203
33976000 -38.943314 -70.079208 -0.037884235 -7.0341845 -0.039949462 -7.027534 -39.181812 -111.30386
34975000 -38.65583 -71.019348 -0.03792654 -7.2360468 -0.04075158 -7.2329621 -38.925571 -111.35827
35974000 -38.490486 -71.90078 -0.036805652 -7.4286642 -0.040732767 -7.4332309 -38.621849 -110.59869
36973000 -38.270966 -72.766464 -0.037489429 -7.6323414 -0.041062016 -7.6331668 -38.302578 -109.70325
37972000 -38.103985 -72.590469 -0.0376474 -7.8392329 -0.041300345 -7.8485584 -38.086311 -109.03106
38971000 -37.766945 -72.472603 -0.03843943 -8.0384541 -0.041275255 -8.0508003 -37.867401 -107.50739
39970000 -37.446754 -73.046173 -0.036845073 -8.2343235 -0.039682209 -8.2528992 -37.601875 -107.19528
40969000 -37.164333 -72.921303 -0.037158884 -8.4285221 -0.040392831 -8.4460201 -37.324478 -105.91839
41968000 -36.839283 -73.099045 -0.036420077 -8.6350641 -0.040802274 -8.6480522 -37.098412 -104.73632
42967000 -36.573536 -73.436798 -0.037486818 -8.8483372 -0.040639222 -8.8605146 -36.881657 -102.93175
43966000 -36.303772 -74.283661 -0.037870917 -9.044548 -0.042608514 -9.0589447 -36.594963 -102.37613
44965000 -36.071087 -75.124306 -0.038429767 -9.2478104 -0.042171456 -9.2646952 -36.378933 -102.3873
45964000 -35.847408 -76.309662 -0.039592609 -9.4435081 -0.042764056 -9.4628248 -36.124813 -102.27412
46963000 -35.694473 -78.30983 -0.03986299 -9.6415138 -0.043644875 -9.664114 -35.946579 -102.44902
47962000 -35.550869 -79.810211 -0.041241284 -9.840621 -0.045425355 -9.8586349 -35.732513 -102.60717
48961000 -35.354961 -81.241402 -0.043573756 -10.038563 -0.045985177 -10.059188 -35.507309 -103.06874
49960000 -35.128963 -82.70591 -0.04475785 -10.235636 -0.047426131 -10.259956 -35.372784 -103.28489
50959000 -34.929211 -84.07766 -0.045328572 -10.448066 -0.048824366 -10.460848 -35.201183 -103.56084
51958000 -34.758484 -85.282799 -0.046971053 -10.645696 -0.050152089 -10.657302 -35.022438 -104.18751
52957000 -34.546383 -86.427139 -0.049288802 -10.848448 -0.050952688 -10.854808 -34.873222 -104.02509
53956000 -34.39748 -87.179886 -0.049561881 -11.049421 -0.052020382 -11.05224 -34.7267 -104.01646
54955000 -34.23275 -87.735008 -0.050312091 -11.252146 -0.053010512 -11.245832 -34.567234 -104.12074
55954000 -34.076298 -88.554878 -0.052034531 -11.449835 -0.052792765 -11.447365 -34.449669 -103.89585
56953000 -33.984402 -88.728485 -0.051846694 -11.64691 -0.051978465 -11.635775 -34.38723 -104.06102
57952000 -33.813095 -89.280968 -0.052655205 -11.846203 -0.052726734 -11.836284 -34.269539 -104.17158
58951000 -33.704659 -89.567886 -0.053438708 -12.050962 -0.053988289 -12.03098 -34.133621 -104.31566
59950000 -33.579746 -90.093773 -0.054110691 -12.249851 -0.055041526 -12.226415 -34.058983 -104.72964
60949000 -33.48357 -90.708328 -0.05486929 -12.451013 -0.054876108 -12.431886 -33.964001 -104.92105
61948000 -33.40966 -90.982895 -0.055555917 -12.649846 -0.05430413 -12.633615 -33.881638 -105.00192
62947000 -33.32365 -91.196434 -0.055176016 -12.859694 -0.055839881 -12.841196 -33.74897 -105.35823
63946000 -33.270271 -92.01577 -0.056364596 -13.060063 -0.057461161 -13.042346 -33.624058 -105.49076
64945000 -33.149643 -92.152161 -0.05693081 -13.262199 -0.057410013 -13.239101 -33.536148 -105.96332
65944000 -33.065182 -92.444679 -0.058178108 -13.459268 -0.058047459 -13.441423 -33.440311 -106.52029
66943000 -32.926746 -92.845306 -0.056069322 -13.65799 -0.056517482 -13.643175 -33.336555 -106.7845
67942000 -32.865353 -92.834732 -0.057517298 -13.858414 -0.058266785 -13.843759 -33.211838 -106.98712
68941000 -32.751816 -92.963715 -0.057067197 -14.050098 -0.057307191 -14.038795 -33.11364 -107.07938
69940000 -32.650494 -92.958183 -0.057119127 -14.248886 -0.05816919 -14.237613 -32.969215 -107.34966
70939000 -32.553185 -92.934593 -0.057698295 -14.444347 -0.057061948 -14.437092 -32.842907 -107.30221
71938000 -32.396866 -92.52182 -0.057883762 -14.639575 -0.057871431 -14.628593 -32.702858 -107.16033
72937000 -32.245045 -92.40815 -0.057156112 -14.839078 -0.056809377 -14.834244 -32.568237 -106.8857
73936000 -32.110577 -92.075668 -0.056403406 -15.035152 -0.056972776 -15.030163 -32.442326 -106.71398
74935000 -31.987867 -92.324936 -0.056042835 -15.232193 -0.056606386 -15.22845 -32.295811 -106.40642
75934000 -31.860958 -92.625679 -0.05566971 -15.442836 -0.055657651 -15.436504 -32.204697 -106.36905
76933000 -31.738234 -93.046829 -0.0567008 -15.637044 -0.057713248 -15.627063 -32.02702 -106.76422
77932000 -31.635502 -93.802124 -0.058419477 -15.83089 -0.059405033 -15.822733 -31.944218 -106.69021
78931000 -31.571066 -94.633209 -0.056850553 -16.028582 -0.058512881 -16.025927 -31.834679 -106.64284
79930000 -31.467529 -95.436508 -0.060015738 -16.22611 -0.060900327 -16.221527 -31.744135 -106.95025
80929000 -31.331491 -96.387642 -0.061255787 -16.415173 -0.06191165 -16.413528 -31.637562 -107.3884
81928000 -31.257479 -97.232292 -0.061098266 -16.610323 -0.062691309 -16.60623 -31.512405 -107.38283
82927000 -31.166275 -97.925499 -0.063329004 -16.807775 -0.064203501 -16.807304 -31.419029 -107.73797
83926000 -31.052103 -98.720848 -0.064316206 -17.006176 -0.064876102 -17.005909 -31.299675 -107.98344
84925000 -30.953989 -99.199608 -0.065518849 -17.204714 -0.065430813 -17.20126 -31.206381 -108.09163
85924000 -30.863377 -99.683167 -0.065878361 -17.403852 -0.066870876 -17.404474 -31.113842 -108.12125
86923000 -30.764212 -100.24278 -0.066061288 -17.602133 -0.066572778 -17.596506 -31.018574 -108.036
87922000 -30.655996 -100.60832 -0.066269718 -17.808212 -0.066400088 -17.79994 -30.929783 -108.05995
88921000 -30.585947 -100.94004 -0.06705752 -18.00478 -0.067603305 -18.000765 -30.83124 -108.09266
89920000 -30.498022 -101.48446 -0.067827851 -18.202604 -0.068617776 -18.193438 -30.782145 -108.25967
90919000 -30.395733 -101.76231 -0.068301678 -18.402241 -0.069938675 -18.39691 -30.710667 -108.51266
91918000 -30.296009 -102.19163 -0.069333933 -18.601171 -0.069465183 -18.595974 -30.643276 -108.51514
92917000 -30.216417 -102.53082 -0.070342228 -18.797863 -0.070694774 -18.794546 -30.568714 -108.67048
93916000 -30.130909 -102.93517 -0.069956556 -18.990627 -0.070383005 -18.988071 -30.481541 -109.29774
94915000 -30.054747 -103.57434 -0.071497068 -19.19619 -0.071137346 -19.188295 -30.427006 -109.12382
95914000 -29.983934 -103.83255 -0.072253183 -19.388142 -0.072174221 -19.384363 -30.338301 -109.46381
96913000 -29.914566 -104.05524 -0.073984869 -19.587431 -0.07305339 -19.584652 -30.279274 -109.83668
97912000 -29.841055 -104.50038 -0.074385643 -19.780159 -0.0733127 -19.786711 -30.191689 -110.0445
98911000 -29.733326 -104.65635 -0.074791983 -19.983887 -0.074509941 -19.978249 -30.158239 -110.25947
99910000 -29.671976 -104.7998 -0.075580016 -20.184282 -0.075205207 -20.182217 -30.046204 -110.47197
100909000 -29.575733 -105.106 -0.074831225 -20.38987 -0.074666627 -20.385427 -29.962559 -110.76516
101908000 -29.492613 -105.32952 -0.076224878 -20.589119 -0.076060757 -20.587559 -29.845688 -110.49076
102907000 -29.361094 -105.34822 -0.076210916 -20.792036 -0.075709879 -20.784216 -29.773289 -110.45138
103906000 -29.266296 -105.4411 -0.077130951 -20.996679 -0.075235233 -20.989737 -29.629095 -110.40642
104905000 -29.11776 -105.35972 -0.077378124 -21.196283 -0.076001219 -21.195471 -29.501991 -110.12568
105904000 -28.977428 -105.50734 -0.077882782 -21.393803 -0.075718306 -21.385513 -29.382679 -109.94528
106903000 -28.875633 -105.58382 -0.077895693 -21.598377 -0.076680921 -21.595903 -29.255625 -109.86875
107902000 -28.705357 -105.94921 -0.078681655 -21.805387 -0.077150717 -21.788702 -29.111633 -109.79862
108901000 -28.599422 -106.16538 -0.079253159 -22.002941 -0.077752851 -21.993521 -28.97875 -109.8203
109900000 -28.470718 -106.71185 -0.080121107 -22.200054 -0.078931019 -22.191105 -28.830637 -109.90467
110899000 -28.355856 -107.3744 -0.081398293 -22.397882 -0.079644926 -22.389357 -28.707638 -110.16192
111898000 -28.2645 -108.04755 -0.082928352 -22.602396 -0.080730252 -22.594727 -28.585823 -110.27794
112897000 -28.146132 -108.604 -0.08465296 -22.79884 -0.082354784 -22.788498 -28.455479 -110.54653
113896000 -28.035013 -109.22939 -0.085138135 -22.999023 -0.084135637 -22.986383 -28.34849 -110.68552
114895000 -27.936604 -109.86636 -0.08600831 -23.200468 -0.084749565 -23.183811 -28.229639 -110.78203
115894000 -27.806536 -110.23509 -0.087532341 -23.399094 -0.086488359 -23.385071 -28.165144 -110.97598
116893000 -27.735075 -110.8331 -0.087888665 -23.592665 -0.08656124 -23.578646 -28.026884 -111.1274
117892000 -27.644047 -111.32833 -0.088588193 -23.790211 -0.087072514 -23.775852 -27.965639 -111.38203
118891000 -27.595846 -111.74356 -0.088196412 -23.990152 -0.087835044 -23.976179 -27.860531 -111.50241
119890000 -27.498335 -112.1124 -0.089823477 -24.189402 -0.088133015 -24.175346 -27.851639 -111.66351
120889000 -27.449434 -112.61384 -0.091098763 -24.390133 -0.088134594 -24.375944 -27.778706 -111.60929
121888000 -27.406075 -112.98604 -0.090670548 -24.586758 -0.089238159 -24.577709 -27.71777 -111.93083
122887000 -27.365694 -113.18302 -0.091339327 -24.789066 -0.090179197 -24.778252 -27.665464 -111.92454
123886000 -27.305695 -113.59904 -0.092061892 -24.99128 -0.090031199 -24.974146 -27.650583 -112.12296
124885000 -27.278513 -114.09435 -0.092077754 -25.189514 -0.090950735 -25.175135 -27.625113 -112.16976
125884000 -27.225098 -114.30342 -0.093626395 -25.387127 -0.090724729 -25.37137 -27.600176 -112.39616
126883000 -27.197441 -114.67368 -0.09393508 -25.592331 -0.091551878 -25.580006 -27.55731 -112.37903
127882000 -27.151297 -114.96322 -0.093528792 -25.791414 -0.09211345 -25.771227 -27.510332 -112.59187
128881000 -27.125286 -115.29473 -0.094305947 -25.990456 -0.092269719 -25.973452 -27.469698 -112.74603
129880000 -27.063717 -115.64386 -0.094972119 -26.192789 -0.092001602 -26.174826 -27.425066 -112.66376
130879000 -26.995729 -115.80632 -0.094603837 -26.389259 -0.09295541 -26.375916 -27.346842 -112.71291
131878000 -26.933037 -116.01273 -0.094546691 -26.593431 -0.093230985 -26.572697 -27.281469 -112.63895
132877000 -26.867228 -116.07188 -0.095104679 -26.795973 -0.093452618 -26.77701 -27.198963 -112.63049
133876000 -26.780977 -116.20965 -0.09519887 -26.994707 -0.093279384 -26.97716 -27.108465 -112.56264
134875000 -26.688082 -116.37361 -0.09497609 -27.195612 -0.094011791 -27.177355 -27.0026 -112.41126
135874000 -26.602703 -116.38569 -0.094928458 -27.39287 -0.093358994 -27.380899 -26.905066 -112.41365
136873000 -26.490818 -116.31998 -0.09585274 -27.596409 -0.092989519 -27.578888 -26.814901 -112.40276
137872000 -26.411448 -116.42509 -0.095436223 -27.79562 -0.093337305 -27.785622 -26.711031 -112.3109
138871000 -26.338184 -116.62757 -0.096124791 -27.997952 -0.093839854 -27.980385 -26.611927 -112.50388
139870000 -26.234951 -116.87858 -0.097421259 -28.198658 -0.095256552 -28.179726 -26.530975 -112.63103
140869000 -26.152573 -117.32993 -0.099543869 -28.39101 -0.096413806 -28.373671 -26.422148 -112.79205
141868000 -26.055044 -117.85034 -0.099569827 -28.585314 -0.097517624 -28.571106 -26.353193 -113.12971
142867000 -25.978325 -118.09421 -0.097311392 -28.782349 -0.095632039 -28.765898 -26.275225 -113.34481
143866000 -25.909655 -118.6039 -0.09870699 -28.978754 -0.09737175 -28.965614 -26.203661 -113.8461
144865000 -25.853537 -119.13522 -0.1005955 -29.178801 -0.098869585 -29.164501 -26.145012 -114.14682
145864000 -25.799616 -119.49191 -0.10107424 -29.376917 -0.10008501 -29.367962 -26.112179 -114.41203
146863000 -25.752726 -119.87328 -0.10161452 -29.577097 -0.10002515 -29.56481 -26.058527 -114.74155
147862000 -25.714842 -120.2384 -0.10272761 -29.773033 -0.10092243 -29.765165 -26.032429 -115.11131
148861000 -25.682804 -120.75385 -0.10293701 -29.974199 -0.10135961 -29.95842 -26.007668 -115.31808
149860000 -25.665689 -120.96238 -0.10326067 -30.173624 -0.10199162 -30.160135 -25.975708 -115.50108
150859000 -25.646616 -121.33005 -0.10306239 -30.375973 -0.10203375 -30.358925 -25.97064 -115.73969
151858000 -25.634363 -121.64693 -0.10374501 -30.571917 -0.10180902 -30.559448 -25.952799 -116.02329
152857000 -25.616341 -121.96362 -0.10432513 -30.769592 -0.10255931 -30.757301 -25.942059 -116.17402
153856000 -25.610289 -122.17989 -0.10339878 -30.966333 -0.10211114 -30.950573 -25.958746 -116.44894
154855000 -25.605692 -122.38067 -0.10428987 -31.166048 -0.10161903 -31.153255 -25.951443 -116.70421
155854000 -25.62038 -122.60181 -0.10476637 -31.366514 -0.1022728 -31.351542 -25.9431 -116.95233
156853000 -25.598389 -123.31554 -0.10268441 -31.551769 -0.10164472 -31.544792 -25.940466 -117.22243
157852000 -25.610912 -123.52214 -0.10379857 -31.751894 -0.10390992 -31.74296 -25.928888 -117.59006
158851000 -25.602612 -123.78548 -0.10493661 -31.949812 -0.10351066 -31.940468 -25.917379 -117.85371
159850000 -25.588762 -123.90335 -0.10500928 -32.148502 -0.10342688 -32.139076 -25.915043 -118.02052
160849000 -25.571068 -124.00906 -0.10532116 -32.347496 -0.1046192 -32.343342 -25.886448 -118.29488
161848000 -25.548313 -124.11788 -0.10570414 -32.548599 -0.10432407 -32.541424 -25.846796 -118.41935
162847000 -25.510403 -124.30933 -0.10532222 -32.746799 -0.1054002 -32.742046 -25.816046 -118.64655
163846000 -25.466576 -124.52608 -0.10594711 -32.949203 -0.10512862 -32.938606 -25.736397 -118.65319
164845000 -25.4083 -124.5419 -0.10639913 -33.148933 -0.10536253 -33.140499 -25.668945 -118.76463
165844000 -25.350176 -124.5959 -0.10652805 -33.344738 -0.10572696 -33.336277 -25.58799 -118.88936
166843000 -25.285702 -124.69241 -0.10561927 -33.54644 -0.10587284 -33.540852 -25.517889 -119.06168
167842000 -25.232349 -124.80007 -0.10719026 -33.742832 -0.10656307 -33.732792 -25.437235 -118.9956
168841000 -25.152262 -125.02932 -0.10678486 -33.938629 -0.10617577 -33.936729 -25.358582 -119.09042
169840000 -25.084404 -125.32159 -0.10704619 -34.137138 -0.10672756 -34.131119 -25.269564 -119.24959
170839000 -25.027327 -125.56067 -0.10785124 -34.333576 -0.10677318 -34.327343 -25.182961 -119.47535
171838000 -24.963612 -125.97302 -0.10771883 -34.529774 -0.10821269 -34.524723 -25.11742 -119.70947
172837000 -24.896433 -126.33484 -0.10948649 -34.728878 -0.10870555 -34.719353 -25.052296 -119.91846
173836000 -24.830509 -126.74454 -0.11099567 -34.926453 -0.10968506 -34.923252 -25.010233 -120.15882
174835000 -24.776608 -127.20007 -0.11050441 -35.122894 -0.11039608 -35.122929 -24.960117 -120.52332
175834000 -24.724415 -127.59383 -0.11163068 -35.322109 -0.11127187 -35.316048 -24.898857 -120.78313
176833000 -24.677433 -127.95454 -0.11273438 -35.517498 -0.11245225 -35.517162 -24.846617 -120.97481
177832000 -24.628834 -128.4019 -0.11303592 -35.715454 -0.11181474 -35.714314 -24.821949 -121.17072
178831000 -24.587349 -128.81134 -0.11401535 -35.910633 -0.1132057 -35.906605 -24.781982 -121.39784
179830000 -24.553663 -129.25417 -0.11442541 -36.105869 -0.11278008 -36.106968 -24.756016 -121.50215
180829000 -24.514137 -129.47386 -0.1142726 -36.306511 -0.11373872 -36.304985 -24.723291 -121.67879
181828000 -24.489077 -129.85266 -0.11499075 -36.501198 -0.11421599 -36.502193 -24.711981 -121.82196
182827000 -24.46274 -130.19072 -0.1149336 -36.699234 -0.11392367 -36.69677 -24.697996 -121.90244
183826000 -24.427845 -130.53108 -0.115998 -36.896492 -0.11463219 -36.890171 -24.684696 -122.03677
184825000 -24.427349 -130.83963 -0.11609212 -37.090015 -0.11457372 -37.091534 -24.672503 -122.14085
185824000 -24.402887 -131.16432 -0.11532541 -37.287094 -0.11476083 -37.288982 -24.666952 -122.16919
186823000 -24.386049 -131.54848 -0.11588235 -37.484699 -0.11512126 -37.482052 -24.667147 -122.1489
187822000 -24.366249 -131.85272 -0.11625909 -37.680824 -0.11576591 -37.68074 -24.634447 -122.22069
188821000 -24.346346 -132.08716 -0.11654864 -37.876976 -0.11586294 -37.878059 -24.617224 -122.3219
189820000 -24.331068 -132.37477 -0.11708687 -38.077744 -0.11601821 -38.07531 -24.604481 -122.48688
190819000 -24.299828 -132.59564 -0.11777701 -38.278229 -0.1168829 -38.274696 -24.575182 -122.45918
191818000 -24.264687 -132.76334 -0.11884956 -38.4706 -0.1179608 -38.473228 -24.542612 -122.3188
192817000 -24.198597 -133.03383 -0.11943862 -38.655151 -0.11888281 -38.659626 -24.470192 -122.39705
193816000 -24.157776 -133.39545 -0.11867265 -38.847881 -0.11756743 -38.847908 -24.410511 -122.67214
194815000 -24.102259 -133.84749 -0.11845849 -39.045723 -0.11800735 -39.048569 -24.348541 -122.77179
195814000 -24.04929 -134.06615 -0.11854575 -39.24609 -0.11777223 -39.245647 -24.294676 -122.896
196813000 -23.993368 -134.41899 -0.11819541 -39.433846 -0.11767913 -39.440166 -24.218357 -123.08274
197812000 -23.937294 -134.63474 -0.11894108 -39.639202 -0.11834784 -39.634846 -24.150064 -123.18304
198811000 -23.885477 -134.80902 -0.11862449 -39.829033 -0.11729562 -39.835934 -24.075256 -123.33924
199810000 -23.811434 -135.20811 -0.11875352 -40.028149 -0.11761131 -40.029453 -23.998545 -123.47263
200809000 -23.757698 -135.4687 -0.11885195 -40.224762 -0.11820047 -40.224239 -23.919786 -123.65783
201808000 -23.703089 -135.68895 -0.12040565 -40.427288 -0.11920021 -40.429344 -23.853361 -123.72108
202807000 -23.643579 -136.06824 -0.1203817 -40.624348 -0.11943223 -40.628769 -23.79608 -123.93933
203806000 -23.593676 -136.51486 -0.12233824 -40.825436 -0.12014724 -40.822353 -23.732941 -124.13622
