!Keysight Technologies,E5080B,MY59205177,A.15.75.32
!Date: Friday, February 23, 2024 02:46:49
!Correction: S11(Cdelta 2-Port  ) 
!S21(Cdelta 2-Port  ) 
!S12(Cdelta 2-Port  ) 
!S22(Cdelta 2-Port  ) 
!S2P File: Measurements: S11, S21, S12, S22:
# Hz S  dB   R 50
10000000 -39.50473 -3.3924177 -0.067014143 -2.0542336 -0.069781624 -2.1061523 -53.657337 -59.051704
10999000 -39.075859 -4.4858146 -0.068088949 -2.2687845 -0.070212267 -2.3260813 -51.597923 -60.45763
11998000 -38.597965 -6.1030612 -0.068273284 -2.4933224 -0.069156133 -2.5384252 -50.580116 -57.596951
12997000 -38.230217 -9.112237 -0.06810499 -2.6781416 -0.069548041 -2.7077069 -49.223698 -60.04007
13996000 -38.078205 -11.532819 -0.067409277 -2.8571181 -0.069714546 -2.8736229 -48.104343 -60.155231
14995000 -37.909363 -14.032512 -0.068907589 -3.065613 -0.069262125 -3.0897839 -47.31245 -60.94873
15994000 -37.85186 -16.772652 -0.070657946 -3.2845795 -0.071497858 -3.3054278 -46.753105 -60.251312
16993000 -37.871632 -19.404455 -0.069091432 -3.482017 -0.070678726 -3.4913728 -46.352516 -65.862335
17992000 -37.971828 -22.37785 -0.070283823 -3.6824393 -0.071228132 -3.6840961 -46.017551 -69.755295
18991000 -38.253052 -25.212387 -0.071051568 -3.896425 -0.072410583 -3.889827 -45.366909 -73.249619
19990000 -38.263325 -28.585367 -0.073296376 -4.1001716 -0.074810944 -4.0953312 -45.059818 -78.384697
20989000 -38.264339 -30.722765 -0.075681694 -4.3055191 -0.076212764 -4.2954493 -44.476009 -81.379326
21988000 -38.307369 -34.022041 -0.076515727 -4.5052052 -0.077425294 -4.4925737 -44.271526 -82.219467
22987000 -38.298553 -37.352684 -0.077759966 -4.7056565 -0.078923903 -4.6947079 -43.927013 -83.013901
23986000 -38.389591 -39.876678 -0.076567106 -4.8972216 -0.077241622 -4.8951473 -43.855846 -83.582596
24985000 -38.245808 -42.375481 -0.078097574 -5.1060586 -0.077968433 -5.1059599 -43.335323 -82.402603
25984000 -38.162853 -44.189285 -0.079058871 -5.3148732 -0.078526929 -5.3159814 -42.879192 -82.665039
26983000 -38.004524 -46.256821 -0.079644926 -5.5156937 -0.079397894 -5.5273905 -42.690269 -82.13282
27982000 -37.918289 -47.226402 -0.081484012 -5.7148261 -0.081040651 -5.7461987 -42.243519 -81.928879
28981000 -37.957756 -48.475933 -0.080123216 -5.9128799 -0.081304394 -5.9341483 -41.983246 -82.474838
29980000 -37.732697 -50.172012 -0.078914411 -6.1024847 -0.081447355 -6.1126318 -41.598053 -82.793091
30979000 -37.416698 -50.249035 -0.077282734 -6.4602408 -0.076171398 -6.4482365 -41.175289 -85.284111
31978000 -37.301434 -51.385433 -0.076066814 -6.6553426 -0.077468246 -6.6477094 -40.883389 -85.566025
32977000 -37.224449 -52.980789 -0.076776564 -6.868741 -0.078209326 -6.8618984 -40.621193 -86.752808
33976000 -37.119659 -54.2351 -0.077329636 -7.0698099 -0.078128934 -7.0625501 -40.271851 -87.034325
34975000 -36.941509 -55.399437 -0.077364422 -7.2708697 -0.079118714 -7.2676144 -40.037586 -87.723976
35974000 -36.797382 -56.286922 -0.077146761 -7.4609299 -0.079491481 -7.4682031 -39.665943 -87.778419
36973000 -36.64468 -57.389435 -0.077223971 -7.6641889 -0.080959424 -7.6654797 -39.305363 -87.675285
37972000 -36.493477 -57.587807 -0.076935969 -7.8754168 -0.080229744 -7.8813972 -39.023132 -87.679482
38971000 -36.195004 -58.048172 -0.077802397 -8.0753613 -0.08047498 -8.0897913 -38.744789 -86.507408
39970000 -35.951576 -58.94519 -0.076479897 -8.2683964 -0.079059131 -8.2865458 -38.410614 -86.924553
40969000 -35.7117 -59.217953 -0.076750219 -8.4674759 -0.079896457 -8.4847946 -38.080902 -86.045609
41968000 -35.422951 -59.92511 -0.076757327 -8.6666031 -0.079385504 -8.6902714 -37.802784 -85.315887
42967000 -35.191727 -60.521343 -0.07712964 -8.8828754 -0.079693966 -8.9032955 -37.494392 -84.072693
43966000 -34.995941 -61.684284 -0.077671684 -9.0839643 -0.080796175 -9.1008444 -37.156971 -84.06057
44965000 -34.821098 -62.743599 -0.078502417 -9.2891912 -0.081500895 -9.3077431 -36.94445 -84.321434
45964000 -34.646122 -64.003387 -0.079569526 -9.4870739 -0.082667418 -9.5045204 -36.678776 -84.780487
46963000 -34.553177 -65.937439 -0.079536565 -9.6793346 -0.083201714 -9.7021484 -36.534256 -85.400497
47962000 -34.46246 -67.387627 -0.082141094 -9.8852596 -0.084476113 -9.9016628 -36.310703 -85.96373
48961000 -34.328445 -68.880058 -0.083490394 -10.080213 -0.086122379 -10.104404 -36.129887 -86.660469
49960000 -34.18298 -70.511642 -0.085311837 -10.280227 -0.087270856 -10.302999 -35.996887 -87.039124
50959000 -34.037155 -71.937325 -0.085665077 -10.494694 -0.088472217 -10.504395 -35.847435 -87.807327
51958000 -33.884689 -73.251236 -0.087683693 -10.69388 -0.09010943 -10.700665 -35.67498 -88.647308
52957000 -33.745403 -74.542198 -0.089594893 -10.895936 -0.091537341 -10.901167 -35.521416 -88.854477
53956000 -33.615219 -75.415367 -0.090221748 -11.099851 -0.091758363 -11.099002 -35.37886 -89.078354
54955000 -33.480667 -76.106911 -0.091543682 -11.298102 -0.092838518 -11.293105 -35.224915 -89.4105
55954000 -33.357922 -77.12278 -0.09285941 -11.49962 -0.093135774 -11.496323 -35.110214 -89.265167
56953000 -33.248741 -77.372528 -0.093047969 -11.694407 -0.092591263 -11.685594 -35.056171 -89.641617
57952000 -33.112255 -78.162727 -0.09363988 -11.895623 -0.09371791 -11.884895 -34.952019 -89.934822
58951000 -33.008598 -78.620117 -0.094144583 -12.09989 -0.094463088 -12.081969 -34.795586 -90.301994
59950000 -32.908333 -79.138733 -0.09521316 -12.300527 -0.09571328 -12.279088 -34.747818 -90.803841
60949000 -32.815704 -79.861534 -0.095927633 -12.501285 -0.096202604 -12.480429 -34.663902 -91.205589
61948000 -32.759415 -80.260376 -0.095896937 -12.703828 -0.095887668 -12.68175 -34.583271 -91.475639
62947000 -32.680969 -80.524895 -0.096685894 -12.913692 -0.097131386 -12.891045 -34.440792 -92.010513
63946000 -32.646416 -81.28537 -0.098043419 -13.10919 -0.098366454 -13.090833 -34.35006 -92.248596
64945000 -32.535889 -81.661034 -0.097933277 -13.314198 -0.098661706 -13.292984 -34.245773 -92.974228
65944000 -32.454449 -82.035835 -0.09912011 -13.510636 -0.098801263 -13.49339 -34.186115 -93.58503
66943000 -32.319794 -82.616089 -0.097831346 -13.715878 -0.097073413 -13.697261 -34.092602 -94.048721
67942000 -32.25742 -82.657784 -0.099271066 -13.911181 -0.098991141 -13.900556 -33.967518 -94.483612
68941000 -32.149307 -82.898651 -0.098993786 -14.104065 -0.098150656 -14.096349 -33.858223 -94.55394
69940000 -32.053032 -83.015007 -0.099583067 -14.302229 -0.098606363 -14.292534 -33.709763 -95.082809
70939000 -31.94228 -83.095863 -0.10002489 -14.500992 -0.099263653 -14.494431 -33.590706 -95.181915
71938000 -31.788946 -82.955986 -0.099259153 -14.697036 -0.098903745 -14.689268 -33.449207 -95.242973
72937000 -31.639864 -82.968079 -0.098869585 -14.89458 -0.098486669 -14.890571 -33.300583 -95.083206
73936000 -31.489166 -82.875114 -0.098496467 -15.095711 -0.098339446 -15.088514 -33.159672 -95.035255
74935000 -31.373392 -83.243843 -0.097457789 -15.289047 -0.097799577 -15.284495 -32.98378 -94.942795
75934000 -31.260506 -83.681702 -0.098289929 -15.501946 -0.097807519 -15.492257 -32.892334 -94.885292
76933000 -31.142035 -84.150681 -0.09874671 -15.69377 -0.09899193 -15.687245 -32.738235 -95.5271
77932000 -31.057734 -84.984138 -0.10038303 -15.889606 -0.10131218 -15.885517 -32.628628 -95.671478
78931000 -31.015766 -85.790848 -0.099905953 -16.090967 -0.10019919 -16.085072 -32.524689 -95.660362
79930000 -30.915825 -86.681389 -0.10214638 -16.281822 -0.1027467 -16.280188 -32.435181 -96.117889
80929000 -30.814322 -87.692055 -0.10409816 -16.47913 -0.1040279 -16.474874 -32.339275 -96.601364
81928000 -30.756718 -88.64856 -0.10442589 -16.670536 -0.10453355 -16.669451 -32.217621 -96.865891
82927000 -30.678392 -89.407661 -0.10551875 -16.872213 -0.10574234 -16.867666 -32.130821 -97.294754
83926000 -30.580309 -90.20752 -0.10662223 -17.067333 -0.10745347 -17.066826 -32.014366 -97.724022
84925000 -30.49674 -90.780357 -0.10814156 -17.269661 -0.10702019 -17.2649 -31.915573 -97.891594
85924000 -30.411509 -91.263802 -0.10857523 -17.468073 -0.10971161 -17.466431 -31.837416 -98.036987
86923000 -30.323553 -91.924568 -0.10950188 -17.666012 -0.10920616 -17.660498 -31.721546 -97.991096
87922000 -30.225668 -92.422104 -0.10909043 -17.874598 -0.10970816 -17.863888 -31.638231 -98.313477
88921000 -30.156643 -92.782051 -0.10958657 -18.067596 -0.11043829 -18.064098 -31.546896 -98.337715
89920000 -30.068851 -93.414398 -0.11091069 -18.267988 -0.1110363 -18.263227 -31.488058 -98.641739
90919000 -29.973064 -93.867363 -0.1120615 -18.465895 -0.11094389 -18.463297 -31.401693 -98.873688
91918000 -29.892677 -94.322517 -0.11347486 -18.665804 -0.11200439 -18.662096 -31.342272 -99.004402
92917000 -29.816044 -94.77475 -0.1141267 -18.85988 -0.11278433 -18.859089 -31.279533 -99.160042
93916000 -29.734018 -95.166275 -0.11365953 -19.060684 -0.11359151 -19.054193 -31.198845 -100.00009
94915000 -29.672117 -95.912132 -0.11520207 -19.257969 -0.11457531 -19.254538 -31.125683 -99.865448
95914000 -29.606571 -96.144913 -0.11612057 -19.455353 -0.11528952 -19.454296 -31.044954 -100.18914
96913000 -29.529961 -96.491821 -0.11745679 -19.656158 -0.11638459 -19.651503 -30.985054 -100.67645
97912000 -29.459854 -97.023232 -0.11833453 -19.851162 -0.11644042 -19.851681 -30.909412 -100.97061
98911000 -29.367668 -97.290489 -0.11842232 -20.050245 -0.11773074 -20.052721 -30.863235 -101.23379
99910000 -29.288479 -97.518349 -0.11982764 -20.251307 -0.11840609 -20.247877 -30.766716 -101.64442
100909000 -29.209595 -97.82785 -0.11879902 -20.462299 -0.1178592 -20.451555 -30.668348 -101.8979
101908000 -29.124043 -98.170647 -0.12026273 -20.661612 -0.1192231 -20.657129 -30.550615 -101.79971
102907000 -28.988564 -98.328239 -0.12098613 -20.855694 -0.11915153 -20.857983 -30.471579 -101.8186
103906000 -28.890776 -98.437378 -0.12139153 -21.068884 -0.11834012 -21.058304 -30.307665 -101.92383
104905000 -28.747303 -98.523087 -0.12176822 -21.262796 -0.11963126 -21.267996 -30.169239 -101.68434
105904000 -28.601917 -98.758949 -0.12197508 -21.467997 -0.11969725 -21.460352 -30.036312 -101.65039
106903000 -28.495077 -98.952827 -0.12197987 -21.672642 -0.11967703 -21.664089 -29.902531 -101.65834
107902000 -28.342022 -99.4142 -0.12266787 -21.870565 -0.12043732 -21.867102 -29.752617 -101.79698
108901000 -28.235956 -99.730087 -0.12439927 -22.07062 -0.12137476 -22.065069 -29.606838 -101.81536
109900000 -28.120718 -100.33363 -0.1249318 -22.271698 -0.12265243 -22.266073 -29.454458 -102.05666
110899000 -28.006565 -101.05267 -0.12677924 -22.471186 -0.1242184 -22.462526 -29.328987 -102.45806
111898000 -27.928026 -101.80643 -0.12806064 -22.673679 -0.12490249 -22.666168 -29.200535 -102.74651
112897000 -27.803205 -102.41159 -0.12897518 -22.86986 -0.12636375 -22.862232 -29.067162 -103.07666
113896000 -27.716709 -103.07547 -0.13015454 -23.07255 -0.12776178 -23.059736 -28.955805 -103.30061
114895000 -27.623276 -103.7766 -0.13155165 -23.270521 -0.12928346 -23.257111 -28.839705 -103.51518
115894000 -27.502121 -104.2461 -0.1332591 -23.473389 -0.1301636 -23.459743 -28.76152 -103.74711
116893000 -27.425512 -104.87616 -0.13336721 -23.665277 -0.13065362 -23.647835 -28.632885 -104.03184
117892000 -27.346876 -105.4353 -0.13357489 -23.866316 -0.13167652 -23.852583 -28.556574 -104.33125
118891000 -27.29339 -105.87241 -0.13413471 -24.067013 -0.13243625 -24.0515 -28.460529 -104.58848
119890000 -27.198797 -106.32507 -0.13543189 -24.266565 -0.13243999 -24.250423 -28.455166 -104.7609
120889000 -27.152374 -106.87947 -0.13569441 -24.462299 -0.1331518 -24.451962 -28.370407 -104.76223
121888000 -27.117731 -107.25732 -0.13676018 -24.658745 -0.13387948 -24.649862 -28.314953 -105.17799
122887000 -27.067163 -107.46404 -0.13772573 -24.868261 -0.13474213 -24.856581 -28.260052 -105.21115
123886000 -27.016983 -107.94233 -0.13833311 -25.068884 -0.13537073 -25.047142 -28.249733 -105.39316
124885000 -26.984568 -108.47305 -0.13817598 -25.267361 -0.13508232 -25.253372 -28.215605 -105.51138
125884000 -26.927588 -108.71964 -0.13893338 -25.466635 -0.13578923 -25.452953 -28.1898 -105.73816
126883000 -26.905312 -109.12493 -0.13984488 -25.667902 -0.13701823 -25.655037 -28.14414 -105.80607
127882000 -26.853498 -109.43472 -0.13975933 -25.867548 -0.13695252 -25.850388 -28.10166 -105.99229
128881000 -26.819792 -109.77557 -0.13999966 -26.069305 -0.13746496 -26.05287 -28.056255 -106.1423
129880000 -26.763269 -110.13116 -0.14087288 -26.272358 -0.13745907 -26.252787 -28.010365 -106.18402
130879000 -26.705719 -110.3107 -0.14076272 -26.470171 -0.13797744 -26.453947 -27.930561 -106.29457
131878000 -26.638746 -110.58081 -0.14071405 -26.674622 -0.1391774 -26.652222 -27.85524 -106.20235
132877000 -26.567057 -110.69825 -0.14042155 -26.876589 -0.13877355 -26.855656 -27.761808 -106.30776
133876000 -26.482347 -110.91811 -0.1415457 -27.075626 -0.13917419 -27.057631 -27.667274 -106.21879
134875000 -26.384892 -111.09549 -0.1419985 -27.276205 -0.13966389 -27.256672 -27.550034 -106.17589
135874000 -26.301548 -111.19272 -0.14136866 -27.474798 -0.13982135 -27.461084 -27.443552 -106.23087
136873000 -26.182867 -111.20949 -0.14218813 -27.678493 -0.13988043 -27.655434 -27.348894 -106.25563
137872000 -26.107296 -111.41486 -0.14207152 -27.885109 -0.14027984 -27.861679 -27.237188 -106.22037
138871000 -26.030993 -111.61604 -0.1426672 -28.07626 -0.14037476 -28.062838 -27.145191 -106.49126
139870000 -25.934338 -111.94776 -0.14409404 -28.280075 -0.1416738 -28.261475 -27.061947 -106.74619
140869000 -25.855272 -112.45107 -0.14545684 -28.475586 -0.14303477 -28.456257 -26.946793 -106.9214
141868000 -25.763624 -112.99318 -0.1457205 -28.66918 -0.14319851 -28.652267 -26.884031 -107.36181
142867000 -25.686842 -113.31023 -0.14407638 -28.867146 -0.14212447 -28.847967 -26.798315 -107.60776
143866000 -25.623247 -113.84998 -0.14629528 -29.064215 -0.14432336 -29.048456 -26.733719 -108.13358
144865000 -25.575912 -114.41036 -0.14757788 -29.259878 -0.14563029 -29.243687 -26.681944 -108.50598
145864000 -25.519943 -114.74075 -0.14858067 -29.463419 -0.1464618 -29.449518 -26.655096 -108.81504
146863000 -25.475609 -115.14005 -0.14888579 -29.660698 -0.14695688 -29.646873 -26.608446 -109.16202
147862000 -25.441803 -115.56599 -0.1501303 -29.857725 -0.14775008 -29.848433 -26.578472 -109.56131
148861000 -25.415258 -116.10712 -0.15019943 -30.056339 -0.14802943 -30.040535 -26.562906 -109.83172
149860000 -25.395779 -116.31778 -0.15072121 -30.254736 -0.14850111 -30.24291 -26.533854 -109.99874
150859000 -25.382132 -116.71161 -0.15164965 -30.454411 -0.14939292 -30.437943 -26.527395 -110.24008
151858000 -25.36495 -117.05689 -0.15210859 -30.652695 -0.14948884 -30.636835 -26.5254 -110.55173
152857000 -25.35688 -117.38915 -0.1521204 -30.851093 -0.149424 -30.837341 -26.510303 -110.69038
153856000 -25.345211 -117.58719 -0.15167405 -31.051714 -0.14940524 -31.037582 -26.542789 -110.99429
154855000 -25.3337 -117.75732 -0.1520263 -31.250639 -0.14913787 -31.238916 -26.527458 -111.23469
155854000 -25.346256 -118.03561 -0.15288854 -31.449394 -0.15029055 -31.436602 -26.521908 -111.52892
156853000 -25.336479 -118.7504 -0.15115619 -31.635504 -0.14925897 -31.629965 -26.523365 -111.81331
157852000 -25.340799 -118.93802 -0.15186009 -31.838903 -0.15073514 -31.828756 -26.523855 -112.18687
158851000 -25.33769 -119.19274 -0.15249251 -32.036415 -0.15165153 -32.027088 -26.511911 -112.45988
159850000 -25.320089 -119.3601 -0.15327814 -32.236137 -0.15144219 -32.226116 -26.513414 -112.6259
160849000 -25.299433 -119.49517 -0.15368389 -32.432312 -0.15227079 -32.428238 -26.488026 -112.91596
161848000 -25.27363 -119.6044 -0.15398909 -32.634106 -0.15205176 -32.623581 -26.446859 -113.04903
162847000 -25.23315 -119.80279 -0.15394993 -32.834644 -0.15342188 -32.8302 -26.413998 -113.35595
163846000 -25.194809 -120.08234 -0.15373378 -33.031853 -0.15349026 -33.021229 -26.334702 -113.36579
164845000 -25.136026 -120.14763 -0.15449817 -33.2337 -0.15407009 -33.227795 -26.265751 -113.48119
165844000 -25.075167 -120.23603 -0.15454511 -33.431904 -0.15488498 -33.424648 -26.179321 -113.71901
166843000 -25.0142 -120.36118 -0.15471759 -33.632278 -0.15361094 -33.625481 -26.109493 -113.87955
167842000 -24.95434 -120.54792 -0.15494078 -33.826111 -0.15427689 -33.821445 -26.023418 -113.86353
168841000 -24.877275 -120.80598 -0.15542583 -34.025738 -0.15423237 -34.021118 -25.942518 -114.02873
169840000 -24.811161 -121.07256 -0.15578803 -34.222542 -0.15480398 -34.218994 -25.851009 -114.27322
170839000 -24.758089 -121.41174 -0.15638588 -34.421509 -0.15477876 -34.416142 -25.76535 -114.5407
171838000 -24.70046 -121.82809 -0.15683942 -34.622971 -0.15609714 -34.615128 -25.700026 -114.80781
172837000 -24.634354 -122.22054 -0.15838905 -34.819859 -0.1569151 -34.81142 -25.631907 -115.07597
173836000 -24.572374 -122.71029 -0.1594279 -35.014164 -0.15782663 -35.01194 -25.587158 -115.3784
174835000 -24.519724 -123.15483 -0.15967442 -35.209328 -0.15930061 -35.21159 -25.543344 -115.74496
175834000 -24.469784 -123.60286 -0.16058491 -35.410885 -0.16029939 -35.405773 -25.48189 -116.08053
176833000 -24.424047 -123.97105 -0.16166432 -35.606598 -0.16017127 -35.606075 -25.427589 -116.30955
177832000 -24.378944 -124.48907 -0.16194537 -35.803066 -0.16120385 -35.803127 -25.41017 -116.49107
178831000 -24.338976 -124.86945 -0.16246775 -36.000282 -0.16136396 -35.997879 -25.373507 -116.75502
179830000 -24.302315 -125.34983 -0.16324927 -36.199383 -0.16170302 -36.202557 -25.339838 -116.9516
180829000 -24.265749 -125.58106 -0.16412987 -36.396339 -0.16263168 -36.393185 -25.31172 -117.13071
181828000 -24.240311 -125.95698 -0.1639175 -36.593533 -0.16292514 -36.591667 -25.295664 -117.29667
182827000 -24.218134 -126.34002 -0.16399331 -36.791069 -0.16389546 -36.788235 -25.288404 -117.39598
183826000 -24.174517 -126.66742 -0.16545863 -36.98983 -0.16304958 -36.984303 -25.271641 -117.53354
184825000 -24.17639 -127.00091 -0.16552424 -37.184242 -0.16346458 -37.182793 -25.258505 -117.64109
185824000 -24.152174 -127.33688 -0.16544035 -37.376945 -0.16399492 -37.376366 -25.246975 -117.7234
186823000 -24.134087 -127.70206 -0.165599 -37.580708 -0.16438796 -37.575626 -25.246483 -117.67255
187822000 -24.117121 -128.03546 -0.1657609 -37.771904 -0.16535644 -37.772465 -25.206923 -117.79147
188821000 -24.090855 -128.29039 -0.16611913 -37.97068 -0.16562106 -37.974846 -25.191912 -117.89885
189820000 -24.074949 -128.58768 -0.16680689 -38.16777 -0.16619875 -38.168423 -25.185322 -118.07576
190819000 -24.0445 -128.83943 -0.16754159 -38.372623 -0.16642414 -38.367809 -25.147476 -118.02373
191818000 -24.012127 -129.03326 -0.16922341 -38.562675 -0.16843919 -38.565372 -25.111731 -117.93842
192817000 -23.940079 -129.32339 -0.17010818 -38.750084 -0.16876805 -38.750828 -25.030769 -118.04624
193816000 -23.899891 -129.71342 -0.16902319 -38.942326 -0.16725802 -38.943466 -24.968971 -118.33862
194815000 -23.841818 -130.16324 -0.16938195 -39.134178 -0.16822393 -39.139133 -24.907555 -118.49219
195814000 -23.787527 -130.42645 -0.16918547 -39.335762 -0.1679683 -39.340969 -24.847736 -118.65224
196813000 -23.736412 -130.78036 -0.16909207 -39.531921 -0.16839668 -39.534828 -24.765965 -118.82644
197812000 -23.677332 -131.05396 -0.16963577 -39.732723 -0.16855276 -39.729683 -24.694313 -119.01006
198811000 -23.623995 -131.26454 -0.16913407 -39.927948 -0.16829389 -39.93029 -24.619625 -119.20959
199810000 -23.554163 -131.66835 -0.16989042 -40.122719 -0.16869001 -40.120052 -24.536642 -119.35725
200809000 -23.495249 -131.96263 -0.16991141 -40.315948 -0.16937926 -40.323177 -24.452032 -119.58525
201808000 -23.439322 -132.25992 -0.17068243 -40.521793 -0.16984896 -40.521969 -24.382143 -119.71647
202807000 -23.382511 -132.61649 -0.17147405 -40.72076 -0.17095652 -40.722858 -24.323648 -119.97243
203806000 -23.331507 -133.08881 -0.17331582 -40.920486 -0.17139085 -40.924744 -24.259874 -120.17826
204805000 -23.282942 -133.47395 -0.17446306 -41.120247 -0.17248937 -41.123531 -24.197538 -120.42455
