!Keysight Technologies,E5080B,MY59205177,A.15.75.32
!Date: Friday, February 23, 2024 03:26:09
!Correction: S11(Cdelta 2-Port  ) 
!S21(Cdelta 2-Port  ) 
!S12(Cdelta 2-Port  ) 
!S22(Cdelta 2-Port  ) 
!S2P File: Measurements: S11, S21, S12, S22:
# Hz S  dB   R 50
10000000 -45.901409 -0.59301782 -0.017356232 -2.0581098 -0.019689167 -2.1130724 -46.211411 -159.67995
10999000 -45.105415 -2.2044542 -0.018262064 -2.2802732 -0.019312391 -2.3325889 -46.209164 -153.1543
11998000 -44.220417 -5.3689804 -0.018713621 -2.5068021 -0.019582033 -2.546833 -46.492981 -148.51115
12997000 -43.481968 -11.00185 -0.017511912 -2.6858675 -0.018639268 -2.7159314 -46.099632 -142.75168
13996000 -43.182941 -14.609389 -0.017038129 -2.8690369 -0.019096846 -2.8862748 -45.920609 -137.23064
14995000 -42.832718 -19.086908 -0.019035485 -3.0765769 -0.018850112 -3.1024163 -45.633617 -133.80826
15994000 -42.639027 -23.259523 -0.020462323 -3.3001368 -0.021282438 -3.3218529 -45.573303 -130.53951
16993000 -42.617802 -27.673143 -0.020328902 -3.4970396 -0.020778334 -3.5048921 -44.694363 -129.68405
17992000 -42.76289 -33.082512 -0.020014223 -3.6991746 -0.021334985 -3.6983037 -44.143509 -129.81628
18991000 -43.058788 -38.165207 -0.021530611 -3.9067667 -0.022156568 -3.9038088 -43.454739 -128.63042
19990000 -42.844372 -43.595226 -0.023361385 -4.1184335 -0.024066737 -4.1128373 -42.763557 -129.45187
20989000 -42.713428 -47.214695 -0.026369164 -4.3221297 -0.026085297 -4.3114786 -42.253807 -128.87535
21988000 -42.542114 -52.511806 -0.026723891 -4.5192995 -0.026587414 -4.5067825 -42.013069 -128.11931
22987000 -42.277058 -56.927811 -0.027343564 -4.7178206 -0.028129548 -4.7117515 -41.746361 -127.50589
23986000 -42.289227 -61.801575 -0.027886469 -4.9156985 -0.026976282 -4.9133449 -41.65099 -127.2869
24985000 -41.90015 -64.039284 -0.029079065 -5.1242929 -0.027015874 -5.122642 -41.423565 -124.90315
25984000 -41.545933 -66.212326 -0.029693602 -5.3315339 -0.028570667 -5.3307929 -41.13575 -122.85949
26983000 -41.267857 -68.512703 -0.030730532 -5.5297804 -0.028979778 -5.5496178 -41.011147 -122.4435
27982000 -41.102673 -69.437531 -0.031881928 -5.7318592 -0.030768074 -5.7676034 -40.72842 -120.50228
28981000 -41.079346 -70.706367 -0.029579183 -5.9288468 -0.031011574 -5.952117 -40.469955 -120.13342
29980000 -40.654316 -72.418655 -0.029625054 -6.126615 -0.031587008 -6.128551 -40.294315 -119.12082
30979000 -40.252514 -71.034309 -0.02784713 -6.4819713 -0.026298845 -6.4735317 -39.723095 -119.41829
31978000 -40.072777 -72.340584 -0.027185448 -6.6768007 -0.027589999 -6.6698351 -39.445705 -118.62563
32977000 -39.871536 -73.814522 -0.026849434 -6.8911443 -0.028229076 -6.8863945 -39.208061 -118.78254
33976000 -39.700829 -74.881989 -0.027865106 -7.0896773 -0.028127464 -7.0841708 -38.924007 -118.02477
34975000 -39.384533 -75.987518 -0.027781738 -7.2896023 -0.029412385 -7.2911444 -38.689384 -117.77524
35974000 -39.160236 -76.578865 -0.027146636 -7.4902329 -0.028616788 -7.4889083 -38.410164 -116.79958
36973000 -38.955467 -77.143517 -0.028476603 -7.6872578 -0.030151822 -7.6888347 -38.141727 -115.78938
37972000 -38.782005 -76.902954 -0.027293289 -7.8967175 -0.029825745 -7.9081502 -37.924763 -115.0276
38971000 -38.444824 -76.335686 -0.028552167 -8.1006069 -0.030398156 -8.1139135 -37.73632 -113.2814
39970000 -38.091957 -76.799026 -0.027339656 -8.2961674 -0.029225264 -8.312933 -37.491871 -112.71925
40969000 -37.812927 -76.45887 -0.026864801 -8.4947453 -0.028498231 -8.5140076 -37.22702 -111.27129
41968000 -37.443901 -76.490036 -0.027275315 -8.701458 -0.029508553 -8.7134991 -37.026424 -109.82078
42967000 -37.187939 -76.574699 -0.026962478 -8.9135981 -0.029350618 -8.9303637 -36.823429 -107.98239
43966000 -36.887829 -77.320679 -0.027584789 -9.1147079 -0.030928146 -9.127903 -36.536575 -107.18163
44965000 -36.637169 -78.033775 -0.028723363 -9.3172588 -0.031480365 -9.3354731 -36.325596 -106.88376
45964000 -36.419605 -79.054558 -0.029755112 -9.517457 -0.033220913 -9.5358505 -36.087456 -106.62056
46963000 -36.203781 -81.154541 -0.030813435 -9.708643 -0.033086054 -9.7321568 -35.897449 -106.76019
47962000 -36.059944 -82.589149 -0.032352116 -9.9158831 -0.034941804 -9.9339361 -35.694424 -106.77218
48961000 -35.837112 -83.992142 -0.034570746 -10.110161 -0.036139991 -10.133951 -35.451832 -106.8854
49960000 -35.601677 -85.356468 -0.036038194 -10.311309 -0.037728608 -10.334375 -35.331936 -107.00349
50959000 -35.409771 -86.735512 -0.036686085 -10.527219 -0.038395293 -10.535238 -35.130039 -107.27464
51958000 -35.197617 -87.767174 -0.038578369 -10.726408 -0.04006546 -10.735651 -34.967506 -107.70586
52957000 -34.966969 -88.842003 -0.039866649 -10.926619 -0.041228741 -10.931062 -34.798073 -107.43405
53956000 -34.804428 -89.65519 -0.041272122 -11.13104 -0.041877929 -11.12921 -34.666061 -107.41508
54955000 -34.634872 -89.970184 -0.041847087 -11.333789 -0.042550743 -11.330337 -34.510399 -107.37938
55954000 -34.463005 -90.926575 -0.043485902 -11.531242 -0.043811176 -11.527282 -34.402153 -106.93216
56953000 -34.347092 -90.995346 -0.043073852 -11.73072 -0.04225719 -11.723742 -34.32378 -107.14989
57952000 -34.172321 -91.540932 -0.044369482 -11.930948 -0.043493744 -11.920644 -34.224915 -107.25439
58951000 -34.053127 -91.841721 -0.045308691 -12.138147 -0.045172416 -12.116199 -34.071381 -107.31908
59950000 -33.927223 -92.243576 -0.045916896 -12.338593 -0.045744237 -12.314171 -34.007694 -107.53291
60949000 -33.814163 -92.748161 -0.046705462 -12.542603 -0.045527637 -12.51804 -33.897812 -107.78442
61948000 -33.759365 -93.083885 -0.04750412 -12.740693 -0.045584925 -12.721497 -33.82053 -107.90089
62947000 -33.650814 -93.353249 -0.047426131 -12.951389 -0.046479657 -12.931926 -33.685249 -108.18628
63946000 -33.591774 -94.093399 -0.048375688 -13.149453 -0.047783107 -13.129763 -33.571598 -108.30424
64945000 -33.48172 -94.102898 -0.048411287 -13.350876 -0.04797155 -13.333343 -33.465046 -108.81145
65944000 -33.378521 -94.475891 -0.049846765 -13.554453 -0.048633792 -13.535759 -33.371414 -109.25615
66943000 -33.22678 -94.85643 -0.04803751 -13.75475 -0.047313336 -13.737892 -33.268276 -109.50124
67942000 -33.175892 -94.906021 -0.049860116 -13.950598 -0.049382795 -13.94271 -33.149666 -109.76827
68941000 -33.05724 -94.883232 -0.049460556 -14.144481 -0.049068622 -14.135634 -33.029465 -109.73744
69940000 -32.954769 -94.899841 -0.050103121 -14.342588 -0.048913639 -14.337865 -32.881413 -110.07011
70939000 -32.844112 -94.864853 -0.049711913 -14.544325 -0.049386721 -14.535238 -32.750477 -109.94195
71938000 -32.705109 -94.503052 -0.049274139 -14.737344 -0.048595309 -14.731671 -32.610519 -109.85147
72937000 -32.537216 -94.2024 -0.049308177 -14.937957 -0.048466258 -14.933181 -32.471466 -109.52251
73936000 -32.392796 -93.913887 -0.048753425 -15.140047 -0.048151366 -15.134811 -32.34922 -109.31239
74935000 -32.264851 -94.052437 -0.04819246 -15.332616 -0.048112106 -15.32973 -32.195499 -108.89698
75934000 -32.130104 -94.327881 -0.049072549 -15.544179 -0.048150059 -15.538771 -32.100216 -108.80814
76933000 -31.99954 -94.676003 -0.050054412 -15.735813 -0.049509518 -15.734714 -31.919813 -109.20836
77932000 -31.891699 -95.416748 -0.052052345 -15.936625 -0.050766993 -15.933327 -31.833746 -109.2063
78931000 -31.8269 -96.200264 -0.050235361 -16.136152 -0.049662426 -16.129753 -31.717812 -109.04086
79930000 -31.706821 -97.097389 -0.052531272 -16.327379 -0.052805342 -16.329393 -31.617386 -109.33047
80929000 -31.597439 -97.901306 -0.05416495 -16.527563 -0.054956589 -16.528471 -31.524075 -109.56085
81928000 -31.493486 -98.644287 -0.055086356 -16.720627 -0.055480406 -16.717752 -31.374958 -109.56517
82927000 -31.400291 -99.443413 -0.056557346 -16.920309 -0.056133043 -16.916388 -31.274046 -109.82171
83926000 -31.26997 -100.11469 -0.05782631 -17.117844 -0.056829046 -17.117655 -31.143585 -110.01793
84925000 -31.16824 -100.54106 -0.059218191 -17.317823 -0.057845723 -17.313879 -31.050461 -110.11165
85924000 -31.070929 -100.93896 -0.059865087 -17.519133 -0.059296127 -17.518665 -30.963482 -110.00081
86923000 -30.965204 -101.44724 -0.060333066 -17.7197 -0.059716806 -17.712397 -30.850628 -109.86451
87922000 -30.852032 -101.84088 -0.059465654 -17.92552 -0.059236821 -17.913815 -30.761318 -109.86758
88921000 -30.785143 -102.05973 -0.061737567 -18.122721 -0.060297631 -18.122572 -30.667082 -109.88091
89920000 -30.681128 -102.65038 -0.061980184 -18.322836 -0.061269961 -18.313654 -30.615726 -110.06702
90919000 -30.570717 -102.89703 -0.062747248 -18.51895 -0.061865702 -18.51346 -30.528725 -110.13734
91918000 -30.4683 -103.28323 -0.06386067 -18.716793 -0.062390354 -18.720139 -30.457117 -110.16174
92917000 -30.385723 -103.52065 -0.064522184 -18.919949 -0.063249685 -18.915585 -30.391191 -110.25194
93916000 -30.295143 -103.92791 -0.063761897 -19.115292 -0.063697539 -19.110527 -30.304558 -110.85934
94915000 -30.210316 -104.58436 -0.065890454 -19.317619 -0.064441264 -19.311672 -30.252165 -110.73427
95914000 -30.146093 -104.78301 -0.066570677 -19.512011 -0.065298893 -19.508465 -30.154341 -111.03043
96913000 -30.057083 -104.95126 -0.067849673 -19.715918 -0.066739701 -19.710779 -30.08478 -111.33864
97912000 -29.986422 -105.42822 -0.068950199 -19.90873 -0.066996001 -19.910999 -30.005421 -111.59254
98911000 -29.871504 -105.64645 -0.069948405 -20.111666 -0.068794765 -20.106956 -29.965509 -111.80307
99910000 -29.811966 -105.75687 -0.070139132 -20.310009 -0.068937048 -20.309114 -29.851818 -112.10965
100909000 -29.718796 -106.01742 -0.069521472 -20.518635 -0.0678147 -20.510916 -29.773069 -112.29518
101908000 -29.617186 -106.26118 -0.070995517 -20.717232 -0.06897597 -20.717937 -29.664207 -112.13869
102907000 -29.487724 -106.23698 -0.071491539 -20.918747 -0.069990762 -20.922882 -29.581102 -112.05431
103906000 -29.390863 -106.26636 -0.07189735 -21.129017 -0.06960512 -21.12112 -29.439302 -112.00737
104905000 -29.245367 -106.17882 -0.07213027 -21.32283 -0.070450097 -21.324677 -29.305218 -111.70195
105904000 -29.09617 -106.28885 -0.073221877 -21.526381 -0.070516393 -21.522736 -29.192413 -111.55581
106903000 -28.991934 -106.36507 -0.07298547 -21.732542 -0.070324861 -21.726536 -29.063196 -111.48918
107902000 -28.826651 -106.68537 -0.073929578 -21.936861 -0.071256027 -21.929214 -28.928232 -111.44952
108901000 -28.709816 -106.8915 -0.074791722 -22.136539 -0.072516657 -22.129938 -28.795671 -111.35091
109900000 -28.583746 -107.4363 -0.075835265 -22.337076 -0.073666543 -22.33049 -28.646408 -111.44498
110899000 -28.466951 -108.0145 -0.077238992 -22.536467 -0.073983558 -22.526775 -28.519665 -111.7336
111898000 -28.373753 -108.70504 -0.078174531 -22.7365 -0.075244457 -22.731892 -28.39562 -111.87169
112897000 -28.253965 -109.27113 -0.080414593 -22.93738 -0.076867729 -22.927158 -28.262211 -112.03722
113896000 -28.14835 -109.86349 -0.080939911 -23.136999 -0.077953145 -23.127119 -28.157434 -112.15044
114895000 -28.049219 -110.50337 -0.082607791 -23.335487 -0.079636224 -23.323442 -28.040724 -112.22655
115894000 -27.927685 -110.86954 -0.083612569 -23.535454 -0.08005967 -23.525322 -27.963665 -112.46629
116893000 -27.853172 -111.34437 -0.084440216 -23.738411 -0.082075149 -23.723068 -27.849859 -112.48347
117892000 -27.770794 -111.81712 -0.084189743 -23.930824 -0.081815839 -23.918489 -27.767523 -112.68438
118891000 -27.70875 -112.28623 -0.08527831 -24.137295 -0.08252231 -24.121647 -27.670822 -112.78299
119890000 -27.618231 -112.61739 -0.085957356 -24.334883 -0.083637111 -24.32308 -27.660788 -112.94321
120889000 -27.562269 -113.11555 -0.087284066 -24.534473 -0.083424687 -24.523218 -27.585909 -112.85981
121888000 -27.528587 -113.43484 -0.086864404 -24.73077 -0.084210858 -24.71954 -27.528147 -113.14381
122887000 -27.492844 -113.67647 -0.088356502 -24.936478 -0.084186308 -24.920364 -27.484341 -113.13862
123886000 -27.434408 -114.10718 -0.089122429 -25.136301 -0.085646331 -25.121695 -27.469139 -113.3471
124885000 -27.400791 -114.58943 -0.089151233 -25.338192 -0.085528053 -25.325171 -27.438442 -113.34491
125884000 -27.349005 -114.77312 -0.089805245 -25.538292 -0.085703887 -25.522871 -27.409328 -113.49036
126883000 -27.325441 -115.17458 -0.090450369 -25.742147 -0.086725764 -25.727531 -27.370646 -113.49052
127882000 -27.27737 -115.44044 -0.090623498 -25.940313 -0.087286443 -25.926498 -27.331352 -113.64135
128881000 -27.25172 -115.79491 -0.090775743 -26.145617 -0.087251842 -26.1273 -27.291124 -113.70477
129880000 -27.196054 -116.14596 -0.091484733 -26.347076 -0.087380201 -26.327368 -27.246025 -113.66456
130879000 -27.135059 -116.29329 -0.091720819 -26.547709 -0.087880738 -26.530413 -27.174839 -113.72563
131878000 -27.061762 -116.47213 -0.092103928 -26.751886 -0.088721089 -26.730421 -27.112225 -113.58295
132877000 -26.994812 -116.55486 -0.091506936 -26.950155 -0.089462765 -26.932371 -27.029537 -113.54708
133876000 -26.907335 -116.75657 -0.091878392 -27.153322 -0.089370549 -27.136671 -26.934162 -113.45927
134875000 -26.808847 -116.90505 -0.091849573 -27.353342 -0.089989446 -27.333132 -26.831038 -113.29736
135874000 -26.726793 -116.92332 -0.092319958 -27.552832 -0.089316376 -27.536102 -26.729052 -113.25879
136873000 -26.610302 -116.84244 -0.093235746 -27.755058 -0.089799955 -27.736116 -26.64019 -113.24755
137872000 -26.530142 -116.96866 -0.093190782 -27.958632 -0.090003453 -27.943388 -26.539667 -113.15035
138871000 -26.447157 -117.20438 -0.093707599 -28.157686 -0.090846583 -28.144518 -26.44104 -113.32571
139870000 -26.349033 -117.49759 -0.0937277 -28.35803 -0.09164203 -28.341539 -26.35865 -113.51579
140869000 -26.271641 -118.04176 -0.095271103 -28.553736 -0.091777399 -28.537052 -26.25362 -113.73667
141868000 -26.188112 -118.43533 -0.095884494 -28.754427 -0.093632743 -28.737595 -26.2054 -113.95772
142867000 -26.106462 -118.69626 -0.09482237 -28.951662 -0.093472719 -28.936972 -26.11915 -114.08228
143866000 -26.036737 -119.14188 -0.096952975 -29.149401 -0.094470233 -29.13187 -26.051153 -114.55972
144865000 -25.978199 -119.67935 -0.098400876 -29.349445 -0.096141204 -29.33497 -25.990143 -114.84505
145864000 -25.916136 -119.97401 -0.098985843 -29.550049 -0.097184062 -29.539249 -25.956423 -115.10544
146863000 -25.873518 -120.35249 -0.10003442 -29.750156 -0.097895421 -29.740376 -25.908396 -115.37801
147862000 -25.837257 -120.69644 -0.10066014 -29.949162 -0.097746894 -29.937037 -25.873308 -115.67761
148861000 -25.801979 -121.17663 -0.10198817 -30.151421 -0.10005455 -30.136301 -25.853079 -115.87603
149860000 -25.77557 -121.26423 -0.10295954 -30.338436 -0.10027018 -30.333677 -25.798773 -115.94653
150859000 -25.743868 -121.76386 -0.10273875 -30.535427 -0.1008138 -30.523064 -25.784264 -116.29749
151858000 -25.731955 -122.1219 -0.10228101 -30.736586 -0.100569 -30.724182 -25.76594 -116.64682
152857000 -25.726679 -122.47036 -0.10307007 -30.938465 -0.10032634 -30.926727 -25.756994 -116.78498
153856000 -25.720333 -122.65491 -0.10267195 -31.13567 -0.099457793 -31.127893 -25.770208 -117.09914
154855000 -25.715933 -122.79536 -0.10268308 -31.337933 -0.099892437 -31.32629 -25.764017 -117.32906
155854000 -25.736843 -123.0846 -0.10298446 -31.538588 -0.10085301 -31.524652 -25.756788 -117.60518
156853000 -25.72439 -123.75771 -0.10079101 -31.724529 -0.10028846 -31.715048 -25.751625 -117.89474
157852000 -25.730963 -123.99926 -0.10224736 -31.926271 -0.10234012 -31.919598 -25.743738 -118.26978
158851000 -25.727077 -124.2395 -0.10313025 -32.126514 -0.10187342 -32.119061 -25.72776 -118.52943
159850000 -25.717037 -124.3197 -0.10375615 -32.324173 -0.10245143 -32.319225 -25.733942 -118.70384
160849000 -25.708256 -124.42809 -0.10414483 -32.52478 -0.10306954 -32.519157 -25.706074 -119.0087
161848000 -25.683348 -124.50507 -0.10433945 -32.727764 -0.10310454 -32.719242 -25.671118 -119.11292
162847000 -25.643446 -124.65215 -0.10455211 -32.926319 -0.10364559 -32.92104 -25.639673 -119.33897
163846000 -25.605303 -124.86543 -0.10516866 -33.129036 -0.10394836 -33.116016 -25.563782 -119.34178
164845000 -25.551527 -124.84616 -0.10532965 -33.327019 -0.10424612 -33.319748 -25.495445 -119.49319
165844000 -25.497078 -124.88107 -0.1047303 -33.529594 -0.10410665 -33.520992 -25.421864 -119.60184
166843000 -25.430592 -124.93468 -0.10511695 -33.726093 -0.10426308 -33.717831 -25.348852 -119.78507
167842000 -25.373545 -125.06145 -0.1061365 -33.925701 -0.10427263 -33.917961 -25.272024 -119.74638
168841000 -25.294985 -125.21289 -0.10644634 -34.1236 -0.10483319 -34.120098 -25.194302 -119.77499
169840000 -25.226746 -125.49962 -0.10598796 -34.318726 -0.10551875 -34.318775 -25.113573 -119.97615
170839000 -25.170069 -125.75247 -0.10741049 -34.519215 -0.10582457 -34.514927 -25.027534 -120.14619
171838000 -25.1066 -126.11623 -0.10757156 -34.723202 -0.10701674 -34.711899 -24.960157 -120.37952
172837000 -25.03862 -126.48409 -0.10916927 -34.917538 -0.10784461 -34.911472 -24.89628 -120.604
173836000 -24.970587 -126.89256 -0.1098494 -35.117634 -0.10891683 -35.112366 -24.852863 -120.83452
174835000 -24.918156 -127.2956 -0.11124053 -35.311039 -0.10970365 -35.312717 -24.803841 -121.17118
175834000 -24.864311 -127.65701 -0.11192603 -35.514603 -0.11007667 -35.510735 -24.743801 -121.44443
176833000 -24.817537 -128.01501 -0.11282657 -35.712116 -0.11141077 -35.709846 -24.693121 -121.57018
177832000 -24.770321 -128.46495 -0.11396273 -35.913307 -0.112677 -35.91177 -24.674906 -121.70786
178831000 -24.730373 -128.7318 -0.11511275 -36.114403 -0.11357477 -36.108627 -24.63501 -121.82021
179830000 -24.670399 -129.02228 -0.11692385 -36.301788 -0.11537645 -36.302765 -24.588295 -121.79121
180829000 -24.601839 -129.38249 -0.11608654 -36.486008 -0.11594403 -36.489868 -24.525787 -122.09844
181828000 -24.574549 -129.83447 -0.11539107 -36.691143 -0.11431485 -36.682175 -24.50333 -122.33168
182827000 -24.554251 -130.23117 -0.11576962 -36.881989 -0.11462235 -36.886292 -24.490891 -122.44994
183826000 -24.512308 -130.56862 -0.11631279 -37.085373 -0.11402413 -37.080402 -24.480583 -122.59673
184825000 -24.513216 -130.90559 -0.11648164 -37.279362 -0.11570928 -37.280964 -24.459763 -122.70695
185824000 -24.48855 -131.27989 -0.1165973 -37.472702 -0.11552 -37.480953 -24.452494 -122.77823
186823000 -24.465693 -131.63232 -0.11640347 -37.679806 -0.11541845 -37.675816 -24.444866 -122.78992
187822000 -24.442884 -131.95245 -0.11738019 -37.875195 -0.11567153 -37.873695 -24.407427 -122.88792
188821000 -24.422882 -132.21759 -0.11659119 -38.065838 -0.1164383 -38.074757 -24.386055 -123.03065
189820000 -24.402618 -132.53384 -0.11698873 -38.26918 -0.11637794 -38.270519 -24.369946 -123.24277
190819000 -24.360147 -132.83453 -0.11790469 -38.466461 -0.11712994 -38.465019 -24.329937 -123.2482
191818000 -24.332439 -133.11877 -0.11758605 -38.663773 -0.1171709 -38.665565 -24.298187 -123.31313
192817000 -24.288227 -133.39566 -0.11842977 -38.862408 -0.11780388 -38.862865 -24.253557 -123.38331
193816000 -24.250662 -133.66397 -0.11822174 -39.061306 -0.11720573 -39.058983 -24.203279 -123.54151
194815000 -24.192669 -134.04565 -0.1189166 -39.255356 -0.11802438 -39.254913 -24.136406 -123.61478
195814000 -24.131174 -134.24353 -0.11944314 -39.451618 -0.11904271 -39.453449 -24.077726 -123.74903
196813000 -24.078552 -134.5916 -0.1191933 -39.643539 -0.11868887 -39.649685 -23.99762 -123.89508
197812000 -24.020248 -134.79314 -0.11952084 -39.844315 -0.11914222 -39.844013 -23.926811 -123.96776
198811000 -23.962248 -134.97627 -0.12034603 -40.041843 -0.11888308 -40.044857 -23.8566 -124.13638
199810000 -23.891022 -135.29375 -0.1205334 -40.233913 -0.1188469 -40.238651 -23.774622 -124.24299
200809000 -23.831928 -135.56677 -0.12110777 -40.432159 -0.11969911 -40.434769 -23.697765 -124.44319
201808000 -23.774485 -135.77756 -0.12175677 -40.636772 -0.1202843 -40.636703 -23.627289 -124.50877
202807000 -23.716591 -136.1349 -0.1219796 -40.83522 -0.12121505 -40.838078 -23.570335 -124.71979
203806000 -23.666563 -136.5513 -0.12398906 -41.037369 -0.12138248 -41.035263 -23.50452 -124.90154
