!Keysight Technologies,E5080B,MY59205177,A.15.75.32
!Date: Friday, February 23, 2024 02:56:23
!Correction: S11(Cdelta 2-Port  ) 
!S21(Cdelta 2-Port  ) 
!S12(Cdelta 2-Port  ) 
!S22(Cdelta 2-Port  ) 
!S2P File: Measurements: S11, S21, S12, S22:
# Hz S  dB   R 50
10000000 -43.878235 -3.9937189 -0.028830461 -2.043762 -0.032625176 -2.096585 -48.353065 -149.27649
10999000 -43.279152 -5.3612032 -0.030133056 -2.2602468 -0.032115322 -2.315196 -48.057568 -141.216
11998000 -42.555149 -7.7733173 -0.030464629 -2.4812965 -0.032165129 -2.526448 -48.266548 -136.0047
12997000 -41.871178 -12.607347 -0.029662846 -2.6608973 -0.03214192 -2.6909914 -47.50079 -129.1778
13996000 -41.671577 -15.360149 -0.028742645 -2.8395867 -0.03171869 -2.8633533 -47.049992 -123.37283
14995000 -41.325867 -19.200996 -0.031069454 -3.048882 -0.031625081 -3.0726256 -46.620468 -120.05937
15994000 -41.230976 -23.186127 -0.032093152 -3.266489 -0.033502374 -3.2881529 -46.347092 -116.67107
16993000 -41.230446 -26.976486 -0.031598222 -3.4636388 -0.033453334 -3.4699457 -45.447884 -117.42437
17992000 -41.342796 -31.348059 -0.031588051 -3.6636367 -0.033706896 -3.6658595 -44.876236 -118.40043
18991000 -41.597561 -35.673462 -0.032458782 -3.8738985 -0.034348439 -3.8709247 -44.13583 -117.92405
19990000 -41.467857 -40.284054 -0.03500104 -4.0826464 -0.036167398 -4.0787363 -43.374229 -120.11367
20989000 -41.360813 -43.356617 -0.037100401 -4.2835135 -0.038345151 -4.2748551 -42.860439 -119.57461
21988000 -41.324577 -48.145794 -0.037951868 -4.4805632 -0.038888127 -4.4684105 -42.521843 -118.92497
22987000 -41.114506 -52.612923 -0.039067306 -4.679491 -0.041039281 -4.6699166 -42.28196 -118.69678
23986000 -41.096668 -56.260067 -0.038379885 -4.8730865 -0.03955891 -4.8736138 -42.153313 -118.92652
24985000 -40.833179 -58.890697 -0.040058143 -5.0827718 -0.039436132 -5.0802794 -41.830608 -116.20457
25984000 -40.625126 -61.046654 -0.040614139 -5.2915597 -0.039989173 -5.2906494 -41.528732 -115.07188
26983000 -40.345451 -62.958019 -0.041579198 -5.4899554 -0.041521437 -5.5040202 -41.379082 -114.42951
27982000 -40.207481 -63.857769 -0.042559631 -5.6873627 -0.042137478 -5.717607 -41.073368 -112.60292
28981000 -40.19648 -65.36763 -0.041142501 -5.8845296 -0.041882113 -5.9068184 -40.843925 -111.96319
29980000 -39.803978 -66.791428 -0.040988848 -6.0762982 -0.042917777 -6.0817385 -40.464958 -111.48225
30979000 -39.425354 -66.359314 -0.038047183 -6.4293036 -0.037860472 -6.4174066 -39.983215 -112.19869
31978000 -39.261864 -67.477089 -0.038140669 -6.6247106 -0.03831825 -6.6175413 -39.713089 -111.72359
32977000 -39.058498 -69.156639 -0.03765706 -6.836957 -0.039716434 -6.8315663 -39.461037 -111.97448
33976000 -38.962975 -70.37384 -0.038536321 -7.0346818 -0.039831903 -7.0307741 -39.174179 -111.52101
34975000 -38.661167 -71.243065 -0.038477819 -7.2326164 -0.040801488 -7.2323813 -38.909981 -111.34373
35974000 -38.460098 -71.946198 -0.037543215 -7.4299679 -0.04043385 -7.4323735 -38.606575 -110.50553
36973000 -38.270802 -72.744347 -0.038217708 -7.6280031 -0.041122902 -7.6301975 -38.308762 -109.76345
37972000 -38.082256 -72.705933 -0.037821826 -7.8385053 -0.040926915 -7.8458495 -38.074165 -109.06363
38971000 -37.769165 -72.538055 -0.039012715 -8.0401268 -0.040849831 -8.0525246 -37.854851 -107.62354
39970000 -37.463097 -73.029205 -0.036750305 -8.2346191 -0.040231623 -8.249054 -37.583183 -107.14142
40969000 -37.143524 -72.926208 -0.037460707 -8.4250822 -0.039376315 -8.4458475 -37.324539 -105.94877
41968000 -36.831779 -73.098953 -0.037703019 -8.6377687 -0.040220652 -8.6480379 -37.0993 -104.73321
42967000 -36.578465 -73.403877 -0.036701489 -8.8445349 -0.040643141 -8.8669376 -36.882416 -103.02142
43966000 -36.291328 -74.259331 -0.038357425 -9.0462589 -0.041700464 -9.0564766 -36.591846 -102.36459
44965000 -36.076744 -75.143112 -0.039664447 -9.2450085 -0.042040505 -9.260191 -36.364796 -102.39196
45964000 -35.838722 -76.310486 -0.040435679 -9.4453239 -0.043088753 -9.4642544 -36.116695 -102.14493
46963000 -35.694012 -78.299858 -0.040573377 -9.6446781 -0.043309417 -9.6583824 -35.953602 -102.53493
47962000 -35.549572 -79.748962 -0.041966535 -9.8416319 -0.044498932 -9.8542833 -35.72826 -102.70399
48961000 -35.353474 -81.273895 -0.043656118 -10.037997 -0.046471283 -10.059235 -35.515686 -103.12503
49960000 -35.132912 -82.751968 -0.045344267 -10.235544 -0.047368817 -10.2575 -35.375801 -103.25215
50959000 -34.938446 -84.153618 -0.045550656 -10.450821 -0.048753947 -10.459289 -35.185879 -103.66518
51958000 -34.748253 -85.249069 -0.047839377 -10.648331 -0.049509779 -10.6576 -35.009769 -104.17211
52957000 -34.559875 -86.395248 -0.049739145 -10.848874 -0.051282451 -10.853383 -34.845993 -103.96781
53956000 -34.402481 -87.182205 -0.05056769 -11.047004 -0.051407397 -11.050505 -34.706753 -104.19131
54955000 -34.24057 -87.735023 -0.051230326 -11.249006 -0.052668042 -11.246956 -34.562019 -104.14021
55954000 -34.078186 -88.690887 -0.051979251 -11.453781 -0.052781235 -11.449236 -34.446598 -103.8921
56953000 -33.975239 -88.713684 -0.051718853 -11.646693 -0.051604643 -11.637122 -34.376392 -104.18635
57952000 -33.817242 -89.320129 -0.052497473 -11.841412 -0.05313053 -11.837486 -34.273911 -104.29574
58951000 -33.702347 -89.689911 -0.053519424 -12.051313 -0.053634737 -12.031319 -34.123501 -104.36473
59950000 -33.575935 -90.133698 -0.0542829 -12.248475 -0.054874796 -12.226804 -34.058228 -104.67196
60949000 -33.474159 -90.745773 -0.05540752 -12.451187 -0.055156354 -12.430905 -33.965073 -104.99126
61948000 -33.413799 -91.060829 -0.05569724 -12.650397 -0.055087406 -12.630637 -33.879944 -105.10547
62947000 -33.332096 -91.185837 -0.055548314 -12.857265 -0.05601871 -12.839972 -33.750305 -105.35348
63946000 -33.266964 -92.01075 -0.056590129 -13.059279 -0.056651495 -13.038624 -33.642677 -105.51839
64945000 -33.155781 -92.145691 -0.056810688 -13.258865 -0.057519659 -13.238554 -33.528294 -106.07317
65944000 -33.072765 -92.511269 -0.058020439 -13.457644 -0.057997353 -13.443104 -33.442036 -106.49066
66943000 -32.918064 -92.955231 -0.055573747 -13.660467 -0.055700388 -13.641358 -33.332722 -106.72503
67942000 -32.857796 -92.905823 -0.058507372 -13.855215 -0.058234252 -13.8444 -33.213997 -107.05121
68941000 -32.742626 -92.973038 -0.057712723 -14.049729 -0.056337059 -14.039211 -33.102612 -107.04098
69940000 -32.648205 -92.995407 -0.057480834 -14.246493 -0.057285681 -14.239621 -32.967422 -107.38908
70939000 -32.546227 -92.924202 -0.057287782 -14.444472 -0.05741762 -14.43526 -32.832836 -107.3095
71938000 -32.398312 -92.575623 -0.057510741 -14.63791 -0.057863299 -14.631674 -32.700752 -107.19022
72937000 -32.240307 -92.393845 -0.057392441 -14.839687 -0.057093948 -14.83338 -32.556381 -106.88576
73936000 -32.095825 -92.143753 -0.056778431 -15.036948 -0.056256551 -15.032289 -32.447712 -106.70264
74935000 -31.977358 -92.400536 -0.055920117 -15.2298 -0.055868462 -15.229545 -32.291023 -106.45184
75934000 -31.854206 -92.656578 -0.055979379 -15.442337 -0.055971511 -15.436716 -32.202194 -106.35047
76933000 -31.730839 -93.07383 -0.056603502 -15.637474 -0.056991659 -15.627553 -32.030792 -106.79488
77932000 -31.634371 -93.884132 -0.058300365 -15.831037 -0.058470376 -15.824712 -31.930283 -106.82353
78931000 -31.568508 -94.645775 -0.056952842 -16.027851 -0.058379337 -16.025316 -31.834141 -106.67326
79930000 -31.452858 -95.455734 -0.059545957 -16.22331 -0.06016482 -16.218531 -31.737926 -106.99156
80929000 -31.334572 -96.39782 -0.061618626 -16.416592 -0.061576616 -16.416525 -31.645124 -107.3225
81928000 -31.247049 -97.307396 -0.061336648 -16.607203 -0.061559815 -16.609623 -31.513676 -107.48266
82927000 -31.163534 -97.982025 -0.063263081 -16.80604 -0.063438013 -16.805382 -31.413155 -107.80492
83926000 -31.042381 -98.726807 -0.064368486 -17.004354 -0.064423658 -17.005365 -31.303909 -108.03264
84925000 -30.9541 -99.188591 -0.065728828 -17.20466 -0.064397119 -17.200935 -31.211613 -108.18634
85924000 -30.870687 -99.711632 -0.065745905 -17.40444 -0.065673634 -17.400732 -31.115032 -108.14326
86923000 -30.76132 -100.26782 -0.066009514 -17.602026 -0.065760627 -17.593964 -31.018198 -108.01609
87922000 -30.651527 -100.62006 -0.065585598 -17.808926 -0.06573566 -17.800758 -30.933565 -108.08959
88921000 -30.587002 -100.92291 -0.067450814 -18.003448 -0.066863775 -18.005787 -30.840668 -108.14201
89920000 -30.490238 -101.46454 -0.067857035 -18.208061 -0.067696907 -18.199463 -30.789616 -108.31236
90919000 -30.395464 -101.81899 -0.069306582 -18.403616 -0.067696117 -18.393084 -30.703669 -108.50848
91918000 -30.301369 -102.26177 -0.069593288 -18.602512 -0.068593577 -18.595478 -30.637367 -108.5233
92917000 -30.216324 -102.59363 -0.070794232 -18.800943 -0.070065729 -18.795679 -30.563965 -108.69125
93916000 -30.127169 -102.92354 -0.06984897 -18.989769 -0.069141664 -18.989027 -30.4881 -109.23436
94915000 -30.064816 -103.55418 -0.07185366 -19.19486 -0.070570067 -19.187582 -30.419596 -109.12967
95914000 -29.989889 -103.7472 -0.072562985 -19.384668 -0.070763975 -19.382906 -30.339884 -109.42564
96913000 -29.909052 -104.0715 -0.073742375 -19.585987 -0.072535083 -19.583929 -30.268272 -109.79894
97912000 -29.837423 -104.47206 -0.075236022 -19.779549 -0.072212912 -19.781429 -30.195429 -109.99995
98911000 -29.730167 -104.68635 -0.07544937 -19.982321 -0.074221067 -19.982048 -30.15222 -110.25155
99910000 -29.673025 -104.8278 -0.076122403 -20.181713 -0.074354574 -20.181732 -30.042732 -110.51276
100909000 -29.58478 -105.16592 -0.075376414 -20.388838 -0.07408493 -20.38373 -29.952 -110.77799
101908000 -29.489956 -105.37643 -0.075849488 -20.587482 -0.074856244 -20.584942 -29.841547 -110.50292
102907000 -29.356707 -105.40533 -0.07755442 -20.789446 -0.07513041 -20.787495 -29.774046 -110.44699
103906000 -29.267488 -105.45654 -0.07724452 -20.998495 -0.074291371 -20.987133 -29.629473 -110.45509
104905000 -29.123098 -105.40664 -0.077516995 -21.195885 -0.075541034 -21.192806 -29.498331 -110.10422
105904000 -28.983335 -105.54144 -0.077791594 -21.390652 -0.07527896 -21.389017 -29.377554 -109.9602
106903000 -28.873327 -105.62139 -0.078163728 -21.597664 -0.075554207 -21.595554 -29.252947 -109.90135
107902000 -28.708265 -105.93758 -0.078568049 -21.798046 -0.076086573 -21.791552 -29.106609 -109.84446
108901000 -28.596453 -106.20975 -0.079810768 -22.001724 -0.077780001 -21.993877 -28.989195 -109.77267
109900000 -28.470953 -106.73692 -0.080021173 -22.199884 -0.079032242 -22.191074 -28.831072 -109.91092
110899000 -28.357227 -107.34304 -0.081370071 -22.396904 -0.07946486 -22.392536 -28.711424 -110.19193
111898000 -28.270193 -108.06174 -0.082515977 -22.601467 -0.080324933 -22.59462 -28.592232 -110.35782
112897000 -28.133465 -108.64353 -0.084160976 -22.797012 -0.081747256 -22.78537 -28.456566 -110.4986
113896000 -28.041496 -109.19738 -0.084916919 -23.000496 -0.082700655 -22.986883 -28.34866 -110.67714
114895000 -27.940535 -109.88059 -0.086585537 -23.197887 -0.084182352 -23.181616 -28.232147 -110.74787
115894000 -27.813541 -110.22218 -0.087656222 -23.396324 -0.08555261 -23.38413 -28.164795 -110.97553
116893000 -27.731972 -110.80633 -0.088410661 -23.590954 -0.086289786 -23.578527 -28.027035 -111.13674
117892000 -27.65243 -111.34833 -0.088303141 -23.789101 -0.086749792 -23.777445 -27.959318 -111.36983
118891000 -27.59598 -111.75285 -0.088848174 -23.991045 -0.086743191 -23.97604 -27.864117 -111.5299
119890000 -27.504108 -112.13414 -0.089252956 -24.193653 -0.088031836 -24.177698 -27.85351 -111.64041
120889000 -27.451151 -112.62552 -0.090396717 -24.389505 -0.088273026 -24.375114 -27.773333 -111.59835
121888000 -27.407869 -112.96505 -0.09079425 -24.583698 -0.088763624 -24.573694 -27.720484 -111.92719
122887000 -27.371277 -113.19857 -0.091898486 -24.788425 -0.088824391 -24.777037 -27.673307 -111.98147
123886000 -27.310371 -113.6306 -0.092931077 -24.991785 -0.088853985 -24.972717 -27.656464 -112.11253
124885000 -27.279903 -114.12836 -0.093228869 -25.191515 -0.089839861 -25.174635 -27.622442 -112.22437
125884000 -27.22624 -114.33112 -0.093579575 -25.386707 -0.090195589 -25.374323 -27.597021 -112.40151
126883000 -27.203197 -114.71828 -0.093114085 -25.590946 -0.091262929 -25.576614 -27.553602 -112.42767
127882000 -27.154583 -115.00876 -0.09390492 -25.788168 -0.091474153 -25.772331 -27.505846 -112.61422
128881000 -27.121014 -115.33151 -0.094346955 -25.990341 -0.091329284 -25.974598 -27.468365 -112.71572
129880000 -27.062096 -115.64994 -0.095565088 -26.192354 -0.091386117 -26.174509 -27.421741 -112.6769
130879000 -27.000965 -115.79094 -0.094769984 -26.388826 -0.092172146 -26.372864 -27.347754 -112.72526
131878000 -26.937689 -116.05241 -0.095173202 -26.595421 -0.092469357 -26.576139 -27.278872 -112.6517
132877000 -26.869984 -116.08076 -0.095150977 -26.795038 -0.093637764 -26.778584 -27.194368 -112.65286
133876000 -26.782009 -116.2242 -0.095621452 -26.995102 -0.093304507 -26.976246 -27.105907 -112.57514
134875000 -26.685505 -116.34774 -0.095210247 -27.189783 -0.093793295 -27.172613 -27.000845 -112.40175
135874000 -26.600889 -116.37484 -0.095299684 -27.393625 -0.093164861 -27.38142 -26.904438 -112.43318
136873000 -26.489134 -116.32674 -0.095855385 -27.594889 -0.092831112 -27.578348 -26.812998 -112.37029
137872000 -26.406952 -116.43983 -0.095506869 -27.800722 -0.09312731 -27.786659 -26.704998 -112.33208
138871000 -26.337816 -116.65797 -0.096414596 -27.995955 -0.093455791 -27.980209 -26.606991 -112.53491
139870000 -26.238316 -116.88542 -0.096680865 -28.195564 -0.094803318 -28.179636 -26.529875 -112.67573
140869000 -26.151085 -117.3928 -0.09833733 -28.394945 -0.096023694 -28.373596 -26.424488 -112.82404
141868000 -26.056414 -117.83083 -0.098933406 -28.582693 -0.097348191 -28.572105 -26.354448 -113.18054
142867000 -25.979485 -118.13346 -0.097365133 -28.783648 -0.095799282 -28.768808 -26.270624 -113.33856
143866000 -25.911352 -118.61158 -0.099056549 -28.978123 -0.097274862 -28.963741 -26.205687 -113.82801
144865000 -25.855505 -119.14033 -0.10054993 -29.176943 -0.098310851 -29.162933 -26.141743 -114.17971
145864000 -25.79583 -119.45789 -0.10098866 -29.379414 -0.099466003 -29.36705 -26.11277 -114.43283
146863000 -25.754906 -119.86501 -0.10191662 -29.578861 -0.10003839 -29.564184 -26.058174 -114.74416
147862000 -25.711645 -120.25794 -0.10226856 -29.776518 -0.10014833 -29.76342 -26.024721 -115.09676
148861000 -25.683817 -120.74848 -0.10290838 -29.975641 -0.10137736 -29.956251 -26.00227 -115.3351
149860000 -25.671358 -120.95708 -0.1037641 -30.169424 -0.1009929 -30.157581 -25.969049 -115.51147
150859000 -25.647196 -121.34692 -0.10375588 -30.368723 -0.10147011 -30.354004 -25.961897 -115.74753
151858000 -25.638298 -121.6673 -0.10403665 -30.569639 -0.10175814 -30.555353 -25.955305 -116.0437
152857000 -25.618919 -122.01102 -0.10443278 -30.769156 -0.10235894 -30.753866 -25.939529 -116.17801
153856000 -25.613148 -122.19926 -0.10385425 -30.969271 -0.10135908 -30.953283 -25.954018 -116.49983
154855000 -25.600639 -122.3737 -0.10449085 -31.162645 -0.10151859 -31.150686 -25.945116 -116.72421
155854000 -25.616753 -122.63105 -0.10472553 -31.365236 -0.10288214 -31.353788 -25.93738 -116.94514
156853000 -25.603514 -123.3288 -0.10220601 -31.552219 -0.10190284 -31.543497 -25.94021 -117.28896
157852000 -25.612589 -123.5483 -0.10416127 -31.75107 -0.10320527 -31.740862 -25.92646 -117.63564
158851000 -25.603746 -123.77556 -0.10452215 -31.950413 -0.10315517 -31.940601 -25.918276 -117.86244
159850000 -25.588451 -123.93557 -0.10561503 -32.148251 -0.10336697 -32.14201 -25.908587 -118.02967
160849000 -25.569136 -124.04461 -0.1056633 -32.346146 -0.10405415 -32.341942 -25.875956 -118.31907
161848000 -25.54351 -124.12965 -0.10586859 -32.550385 -0.10355838 -32.538078 -25.843193 -118.4405
162847000 -25.505871 -124.33795 -0.10530445 -32.744339 -0.10499337 -32.739948 -25.809803 -118.67158
163846000 -25.46064 -124.55571 -0.10560521 -32.947308 -0.10385159 -32.938835 -25.731133 -118.66246
164845000 -25.404678 -124.56853 -0.10678698 -33.144283 -0.10500583 -33.136108 -25.66678 -118.77701
165844000 -25.349796 -124.63663 -0.10591475 -33.341259 -0.10533177 -33.334465 -25.585211 -118.91628
166843000 -25.286568 -124.67131 -0.10643573 -33.543491 -0.10512411 -33.534359 -25.512278 -119.08749
167842000 -25.227371 -124.82943 -0.10663895 -33.741856 -0.10595241 -33.734486 -25.432804 -119.01519
168841000 -25.145611 -125.04272 -0.10730594 -33.937 -0.10619486 -33.932575 -25.352169 -119.09185
169840000 -25.084013 -125.30457 -0.10716001 -34.133743 -0.10697004 -34.128689 -25.265928 -119.2839
170839000 -25.023911 -125.55578 -0.10805479 -34.329079 -0.10668988 -34.329311 -25.184368 -119.48798
171838000 -24.964056 -125.99863 -0.10698119 -34.532185 -0.10782178 -34.526634 -25.113785 -119.72694
172837000 -24.897583 -126.34003 -0.1093957 -34.72773 -0.10839449 -34.72258 -25.049664 -119.91994
173836000 -24.828499 -126.77689 -0.10980028 -34.927479 -0.10942968 -34.924801 -25.00728 -120.16632
174835000 -24.775883 -127.18961 -0.11029943 -35.118862 -0.11037643 -35.122177 -24.955557 -120.51476
175834000 -24.724674 -127.5807 -0.11154117 -35.318184 -0.11134251 -35.317604 -24.895533 -120.81998
176833000 -24.675961 -127.96361 -0.11242064 -35.519138 -0.11148486 -35.516029 -24.841396 -121.00225
177832000 -24.632393 -128.4516 -0.11316372 -35.712345 -0.11168778 -35.714134 -24.820612 -121.1579
178831000 -24.584867 -128.81123 -0.11294692 -35.911289 -0.11229393 -35.911896 -24.786108 -121.39566
179830000 -24.551991 -129.27629 -0.11387132 -36.10421 -0.11192258 -36.108917 -24.755232 -121.51934
180829000 -24.512337 -129.46597 -0.11393058 -36.304947 -0.11352189 -36.303558 -24.724827 -121.7087
181828000 -24.488846 -129.83044 -0.11379187 -36.503616 -0.11201607 -36.49733 -24.702961 -121.82681
182827000 -24.463034 -130.1947 -0.11407275 -36.696377 -0.11367893 -36.694965 -24.694399 -121.91664
183826000 -24.423208 -130.5275 -0.11451604 -36.89349 -0.11344005 -36.88979 -24.688957 -122.02047
184825000 -24.428499 -130.84026 -0.11521217 -37.091568 -0.11402199 -37.0952 -24.669065 -122.15678
185824000 -24.401489 -131.19513 -0.11517336 -37.284103 -0.11456096 -37.290241 -24.664789 -122.19409
186823000 -24.386612 -131.5639 -0.11532328 -37.486244 -0.11456149 -37.481678 -24.665163 -122.17416
187822000 -24.366173 -131.84732 -0.11585523 -37.678482 -0.11537459 -37.679714 -24.629215 -122.24942
188821000 -24.341707 -132.09012 -0.11560666 -37.874599 -0.11571407 -37.882671 -24.612421 -122.37373
189820000 -24.33271 -132.36276 -0.11630482 -38.076969 -0.11556359 -38.075665 -24.606997 -122.51579
190819000 -24.300142 -132.60359 -0.11727967 -38.275303 -0.11727063 -38.271362 -24.573708 -122.46764
191818000 -24.264717 -132.77895 -0.11822122 -38.468441 -0.11793607 -38.473297 -24.537668 -122.35558
192817000 -24.192667 -133.08043 -0.11890596 -38.65535 -0.11843935 -38.657562 -24.464861 -122.41383
193816000 -24.156694 -133.40776 -0.11842126 -38.845501 -0.11756849 -38.845497 -24.40823 -122.65414
194815000 -24.101645 -133.86256 -0.11721957 -39.046741 -0.11778287 -39.046356 -24.34202 -122.79702
195814000 -24.05117 -134.07053 -0.11817307 -39.243801 -0.118147 -39.245949 -24.288288 -122.89315
196813000 -23.99567 -134.41389 -0.11815552 -39.434692 -0.11700043 -39.438812 -24.214018 -123.10201
197812000 -23.93549 -134.6416 -0.11820313 -39.637486 -0.11843801 -39.637062 -24.143393 -123.1586
198811000 -23.886906 -134.82729 -0.11814913 -39.835278 -0.11822494 -39.838146 -24.075645 -123.35963
199810000 -23.816973 -135.20804 -0.11829516 -40.027218 -0.11752594 -40.024399 -23.998556 -123.46601
200809000 -23.7561 -135.49263 -0.1190161 -40.222336 -0.11805523 -40.224735 -23.920128 -123.6582
201808000 -23.701799 -135.73236 -0.11966426 -40.423019 -0.11966745 -40.417965 -23.850918 -123.72054
202807000 -23.641766 -136.0741 -0.12011584 -40.622837 -0.11959454 -40.6297 -23.803331 -123.94415
203806000 -23.589474 -136.52711 -0.1218614 -40.825256 -0.12025023 -40.826187 -23.732943 -124.12197
