!Keysight Technologies,E5080B,MY59205177,A.15.75.32
!Date: Friday, February 23, 2024 03:34:34
!Correction: S11(Cdelta 2-Port  ) 
!S21(Cdelta 2-Port  ) 
!S12(Cdelta 2-Port  ) 
!S22(Cdelta 2-Port  ) 
!S2P File: Measurements: S11, S21, S12, S22:
# Hz S  dB   R 50
10000000 -46.097366 -2.3612542 -0.014960129 -2.0460639 -0.019436939 -2.1017616 -45.964615 -157.74704
10999000 -45.260517 -4.3792043 -0.016429799 -2.266052 -0.019367514 -2.31866 -45.858868 -151.71724
11998000 -44.334469 -7.4310555 -0.016529059 -2.4878459 -0.018190838 -2.5299118 -46.015854 -147.40959
12997000 -43.596535 -13.036772 -0.01567165 -2.6683977 -0.01828338 -2.7026448 -45.673908 -141.19887
13996000 -43.306671 -17.185343 -0.015049744 -2.8474994 -0.018460931 -2.8708797 -45.482868 -136.27318
14995000 -42.888226 -21.425312 -0.017630171 -3.0592422 -0.01785708 -3.0838735 -45.125866 -133.03075
15994000 -42.739708 -25.928448 -0.018630169 -3.2781918 -0.021069916 -3.3017616 -45.054695 -129.32968
16993000 -42.686039 -30.476936 -0.017479423 -3.4759758 -0.019859234 -3.4882402 -44.187927 -129.02376
17992000 -42.69854 -36.012688 -0.017706586 -3.6726999 -0.020714609 -3.6790404 -43.601936 -129.34885
18991000 -42.951996 -41.117741 -0.019206567 -3.887769 -0.021255905 -3.8828425 -42.987762 -127.97164
19990000 -42.735886 -46.997952 -0.022222655 -4.0937676 -0.023244532 -4.0868764 -42.317547 -128.98056
20989000 -42.569088 -50.236362 -0.02410526 -4.2985835 -0.025636617 -4.2891607 -41.790623 -128.2215
21988000 -42.405422 -55.763287 -0.024516815 -4.4942975 -0.025613703 -4.4791532 -41.543968 -127.45142
22987000 -42.081894 -60.229935 -0.02548351 -4.6958871 -0.026922366 -4.6882753 -41.238277 -127.05899
23986000 -41.96822 -64.583221 -0.02506171 -4.8859673 -0.026291294 -4.8932481 -41.143101 -126.89256
24985000 -41.562286 -67.266205 -0.026264209 -5.0966635 -0.02631369 -5.0963688 -40.963432 -124.52248
25984000 -41.257759 -69.421539 -0.026992952 -5.3032951 -0.02709532 -5.3069067 -40.596275 -122.75698
26983000 -40.902817 -71.188667 -0.027845826 -5.5055861 -0.027756467 -5.5177827 -40.506493 -122.15403
27982000 -40.785801 -71.829155 -0.029860672 -5.6998272 -0.029753808 -5.7342029 -40.209621 -120.56689
28981000 -40.732353 -73.425209 -0.02693617 -5.898972 -0.030278506 -5.9250464 -40.015759 -119.8282
29980000 -40.349705 -75.008759 -0.027088808 -6.0985594 -0.029612023 -6.1024208 -39.732513 -119.19257
30979000 -39.933018 -73.847511 -0.024965119 -6.4505219 -0.024564454 -6.4420724 -39.23428 -119.50096
31978000 -39.748383 -74.793373 -0.024066215 -6.6446133 -0.025563188 -6.6324744 -38.979156 -118.77297
32977000 -39.528816 -76.347633 -0.023780677 -6.8594584 -0.025631931 -6.8531222 -38.743858 -118.6208
33976000 -39.367554 -77.371719 -0.024612095 -7.0574269 -0.026060818 -7.0519648 -38.461975 -118.18874
34975000 -39.09845 -78.078735 -0.025044266 -7.2558374 -0.027292768 -7.2577205 -38.233444 -117.86246
35974000 -38.867245 -78.744415 -0.024688633 -7.4540076 -0.026758272 -7.4521556 -37.972481 -116.92673
36973000 -38.640259 -79.382889 -0.024682386 -7.6538982 -0.027808832 -7.6527662 -37.694416 -116.19791
37972000 -38.496635 -79.122231 -0.02488441 -7.8591342 -0.027709315 -7.8698525 -37.487282 -115.25072
38971000 -38.152988 -78.704597 -0.025286144 -8.0637989 -0.028007355 -8.0724134 -37.310764 -113.75785
39970000 -37.841198 -79.019348 -0.023776254 -8.2593899 -0.026920542 -8.2716179 -37.035007 -113.01089
40969000 -37.552589 -78.577126 -0.024112809 -8.4514427 -0.026581945 -8.4719381 -36.837601 -111.67471
41968000 -37.197121 -78.57019 -0.023681773 -8.6576042 -0.027483974 -8.6811552 -36.627335 -110.31485
42967000 -36.938568 -78.625572 -0.024449913 -8.8711987 -0.027614748 -8.8904266 -36.446629 -108.47939
43966000 -36.63699 -79.412422 -0.024603765 -9.0695677 -0.028266074 -9.088171 -36.148434 -107.81161
44965000 -36.409725 -79.948631 -0.025436381 -9.2716637 -0.028785901 -9.2949228 -35.930843 -107.607
45964000 -36.174469 -81.080658 -0.026449379 -9.4756403 -0.029500473 -9.4958076 -35.734028 -107.3881
46963000 -35.95937 -82.942863 -0.027150281 -9.6666698 -0.030262606 -9.6906395 -35.545303 -107.60171
47962000 -35.804626 -84.474258 -0.028322091 -9.869997 -0.031758849 -9.8872309 -35.330418 -107.5468
48961000 -35.611748 -85.805672 -0.030477664 -10.068847 -0.032687251 -10.091808 -35.117504 -107.73824
49960000 -35.353333 -87.108513 -0.031942949 -10.266743 -0.034032743 -10.291229 -34.973301 -107.74597
50959000 -35.136044 -88.474129 -0.032697164 -10.48387 -0.035168834 -10.48986 -34.791977 -108.06497
51958000 -34.932934 -89.426216 -0.034727044 -10.679255 -0.036780588 -10.690212 -34.62199 -108.50352
52957000 -34.720932 -90.549004 -0.035891507 -10.881604 -0.037342951 -10.888485 -34.453094 -108.13804
53956000 -34.548401 -91.217102 -0.037014507 -11.079719 -0.038811859 -11.084498 -34.323627 -108.28047
54955000 -34.375935 -91.657227 -0.037967797 -11.281587 -0.039379448 -11.28236 -34.187172 -108.26713
55954000 -34.200375 -92.461281 -0.038591687 -11.484974 -0.039938752 -11.484726 -34.066765 -107.92003
56953000 -34.100979 -92.465111 -0.038174618 -11.681835 -0.038415924 -11.673965 -34.000496 -108.08714
57952000 -33.923912 -93.006844 -0.039267909 -11.87676 -0.040011641 -11.876081 -33.906574 -108.13441
58951000 -33.793495 -93.375015 -0.040312879 -12.084336 -0.040468864 -12.067989 -33.748554 -108.17296
59950000 -33.678146 -93.838219 -0.041387632 -12.285418 -0.041425787 -12.262905 -33.670475 -108.4784
60949000 -33.567936 -94.357552 -0.04198483 -12.488622 -0.042389978 -12.464878 -33.570152 -108.74828
61948000 -33.50922 -94.671806 -0.042228177 -12.687862 -0.041511506 -12.668787 -33.485821 -108.84375
62947000 -33.411991 -94.888908 -0.042093825 -12.897585 -0.042724323 -12.880343 -33.338188 -109.12026
63946000 -33.335709 -95.582909 -0.043809608 -13.096038 -0.044231925 -13.078542 -33.223419 -109.32207
64945000 -33.232162 -95.815331 -0.044145364 -13.299354 -0.044389095 -13.27848 -33.117191 -109.77331
65944000 -33.120167 -96.063644 -0.044830039 -13.499756 -0.044620022 -13.482268 -33.023083 -110.19067
66943000 -32.971832 -96.446861 -0.042477809 -13.701031 -0.043077514 -13.68264 -32.920521 -110.41232
67942000 -32.925896 -96.384865 -0.044476181 -13.897699 -0.045041893 -13.883958 -32.797428 -110.74438
68941000 -32.809376 -96.467583 -0.044355359 -14.090043 -0.044734575 -14.083211 -32.682026 -110.66723
69940000 -32.713795 -96.453812 -0.044384908 -14.289612 -0.044835269 -14.282052 -32.555435 -110.94549
70939000 -32.61351 -96.438118 -0.044510704 -14.487409 -0.0449051 -14.477956 -32.42075 -110.82169
71938000 -32.45578 -96.027428 -0.044554379 -14.686432 -0.044334438 -14.675307 -32.287888 -110.73038
72937000 -32.315228 -95.813362 -0.044291809 -14.882332 -0.043763585 -14.876596 -32.145325 -110.41676
73936000 -32.171223 -95.428413 -0.043015812 -15.081973 -0.043829739 -15.07545 -32.032425 -110.25838
74935000 -32.033142 -95.651085 -0.043116469 -15.274284 -0.043478578 -15.275268 -31.879591 -109.90205
75934000 -31.91773 -95.934166 -0.043276995 -15.485958 -0.042371158 -15.480016 -31.792654 -109.77787
76933000 -31.792044 -96.262695 -0.044823762 -15.680123 -0.044271935 -15.673794 -31.620819 -110.12033
77932000 -31.685629 -97.068542 -0.045161165 -15.87601 -0.045949597 -15.871439 -31.524879 -110.11316
78931000 -31.619122 -97.875214 -0.043811176 -16.076345 -0.045671772 -16.072254 -31.421862 -109.90585
79930000 -31.494846 -98.666962 -0.046077006 -16.270121 -0.047495481 -16.268253 -31.324812 -110.25881
80929000 -31.386436 -99.470299 -0.048167072 -16.466463 -0.04925555 -16.464731 -31.221991 -110.53319
81928000 -31.285236 -100.16149 -0.048308942 -16.658968 -0.049594086 -16.652039 -31.094448 -110.49114
82927000 -31.178446 -100.90891 -0.050019585 -16.858133 -0.050663806 -16.8545 -30.985556 -110.75603
83926000 -31.067848 -101.56026 -0.051243685 -17.054747 -0.051522389 -17.057276 -30.866573 -110.96648
84925000 -30.965157 -102.05703 -0.052317999 -17.256563 -0.052220538 -17.251593 -30.77562 -111.0052
85924000 -30.869604 -102.40544 -0.053114805 -17.458183 -0.053409617 -17.454416 -30.693335 -110.97488
86923000 -30.766424 -102.87836 -0.052726999 -17.652426 -0.052817132 -17.648973 -30.583502 -110.83157
87922000 -30.655113 -103.21468 -0.052857224 -17.861563 -0.052803248 -17.851803 -30.507793 -110.8651
88921000 -30.585527 -103.52062 -0.054359436 -18.058336 -0.054246463 -18.053411 -30.411884 -110.88216
89920000 -30.475445 -103.99036 -0.054347903 -18.253149 -0.054619469 -18.252802 -30.353764 -110.95268
90919000 -30.376287 -104.31645 -0.054892361 -18.455017 -0.05557768 -18.447418 -30.267851 -111.17802
91918000 -30.276384 -104.61443 -0.056467395 -18.655418 -0.056053326 -18.651142 -30.201159 -111.20778
92917000 -30.189257 -104.95366 -0.057888746 -18.851295 -0.056703947 -18.851494 -30.136116 -111.33183
93916000 -30.107927 -105.25335 -0.057082407 -19.046619 -0.056906942 -19.042877 -30.052082 -111.85992
94915000 -30.021919 -105.92747 -0.058357559 -19.24983 -0.05786461 -19.24049 -29.987516 -111.74635
95914000 -29.955866 -106.13979 -0.059703946 -19.445778 -0.05898675 -19.442837 -29.893806 -112.02302
96913000 -29.873955 -106.30582 -0.060504209 -19.645113 -0.060604218 -19.641705 -29.83395 -112.36212
97912000 -29.791763 -106.77424 -0.062277697 -19.83839 -0.060397636 -19.84404 -29.751669 -112.60999
98911000 -29.685759 -106.88538 -0.062252752 -20.045294 -0.061444815 -20.040482 -29.712578 -112.817
99910000 -29.620634 -107.10787 -0.062650867 -20.23786 -0.061394408 -20.241426 -29.603767 -113.06954
100909000 -29.519842 -107.33336 -0.061643831 -20.448107 -0.061021347 -20.441893 -29.513361 -113.28754
101908000 -29.443811 -107.58274 -0.063828617 -20.647871 -0.062038217 -20.647739 -29.404732 -113.05654
102907000 -29.311253 -107.55868 -0.063811541 -20.846807 -0.062712319 -20.848309 -29.331736 -113.06942
103906000 -29.214071 -107.64916 -0.064209275 -21.055868 -0.061542485 -21.050058 -29.189468 -112.99289
104905000 -29.062815 -107.53306 -0.064594433 -21.252018 -0.062754601 -21.251846 -29.057175 -112.65623
105904000 -28.924969 -107.62452 -0.064980417 -21.457346 -0.062453642 -21.452183 -28.951641 -112.60098
106903000 -28.812906 -107.6694 -0.06507501 -21.663868 -0.062605433 -21.656605 -28.828762 -112.5083
107902000 -28.651283 -107.99913 -0.065415308 -21.862431 -0.063168257 -21.857435 -28.697741 -112.467
108901000 -28.539366 -108.21349 -0.06667766 -22.066179 -0.064950198 -22.056639 -28.560535 -112.37244
109900000 -28.413315 -108.71568 -0.067346968 -22.264116 -0.066054456 -22.252851 -28.414726 -112.43562
110899000 -28.292519 -109.3029 -0.069451511 -22.461571 -0.066354349 -22.45315 -28.290119 -112.70724
111898000 -28.203613 -109.95243 -0.070000231 -22.663134 -0.068087637 -22.660889 -28.17345 -112.84532
112897000 -28.071918 -110.51598 -0.071848392 -22.864834 -0.068322457 -22.85194 -28.038191 -113.01189
113896000 -27.973063 -111.05936 -0.072968885 -23.064327 -0.069698766 -23.052366 -27.926031 -113.15591
114895000 -27.868998 -111.71165 -0.073103674 -23.263456 -0.071021043 -23.251884 -27.817867 -113.22117
115894000 -27.747211 -112.02615 -0.074888639 -23.464075 -0.071729966 -23.451876 -27.749186 -113.41994
116893000 -27.664862 -112.51901 -0.075318463 -23.660934 -0.073447756 -23.646336 -27.629332 -113.4287
117892000 -27.586544 -113.02361 -0.075340062 -23.858444 -0.074040428 -23.84403 -27.552843 -113.68065
118891000 -27.532349 -113.43391 -0.076096058 -24.059055 -0.073865071 -24.046707 -27.456514 -113.80895
119890000 -27.442415 -113.76949 -0.07698445 -24.259697 -0.074433304 -24.245937 -27.442619 -113.90551
120889000 -27.394131 -114.30313 -0.078627355 -24.460184 -0.074661098 -24.449316 -27.371412 -113.85756
121888000 -27.355661 -114.62103 -0.078317381 -24.657454 -0.075650349 -24.644228 -27.311666 -114.08012
122887000 -27.311838 -114.81559 -0.079136372 -24.861782 -0.076233573 -24.845367 -27.262671 -114.1623
123886000 -27.260342 -115.22744 -0.078984529 -25.065123 -0.077350453 -25.045469 -27.249168 -114.27712
124885000 -27.227041 -115.69323 -0.079668388 -25.26162 -0.077097751 -25.245739 -27.219088 -114.27261
125884000 -27.174488 -115.90292 -0.080466539 -25.458363 -0.077228978 -25.448498 -27.187479 -114.4596
126883000 -27.16107 -116.31242 -0.080746599 -25.665512 -0.078390919 -25.651091 -27.151024 -114.49128
127882000 -27.103861 -116.5999 -0.081481904 -25.864092 -0.078765474 -25.84745 -27.1085 -114.61696
128881000 -27.076099 -116.91481 -0.081440233 -26.066624 -0.078633942 -26.047226 -27.074196 -114.69642
129880000 -27.018742 -117.21423 -0.081950903 -26.268324 -0.078439154 -26.246658 -27.033186 -114.66837
130879000 -26.962309 -117.39609 -0.081571586 -26.467823 -0.079833701 -26.452045 -26.95862 -114.67532
131878000 -26.899456 -117.6306 -0.08267533 -26.667707 -0.080444917 -26.648838 -26.902071 -114.57247
132877000 -26.837626 -117.68159 -0.081836678 -26.869064 -0.080209963 -26.853033 -26.823261 -114.55042
133876000 -26.749405 -117.85687 -0.082556605 -27.074366 -0.080029085 -27.053457 -26.734369 -114.39613
134875000 -26.649168 -118.00015 -0.0824086 -27.272936 -0.081047244 -27.252983 -26.63406 -114.28014
135874000 -26.572609 -118.01277 -0.082978487 -27.473732 -0.080463372 -27.454517 -26.544638 -114.24298
136873000 -26.461973 -117.92046 -0.083226249 -27.67857 -0.080083929 -27.655678 -26.456814 -114.17348
137872000 -26.383581 -118.10422 -0.083163716 -27.877239 -0.080158547 -27.86455 -26.357689 -114.12878
138871000 -26.311733 -118.30798 -0.083991274 -28.074492 -0.08056543 -28.065378 -26.258772 -114.24413
139870000 -26.209732 -118.57825 -0.083879113 -28.277588 -0.082069077 -28.260544 -26.184338 -114.42664
140869000 -26.129002 -119.11753 -0.085703887 -28.471766 -0.082731001 -28.453787 -26.083811 -114.64729
141868000 -26.045786 -119.49731 -0.085704155 -28.673527 -0.084025584 -28.657955 -26.033375 -114.89004
142867000 -25.966055 -119.73738 -0.085064746 -28.870544 -0.082954742 -28.852798 -25.953518 -115.03041
143866000 -25.892841 -120.1852 -0.087039769 -29.066467 -0.084752202 -29.050673 -25.878914 -115.49752
144865000 -25.840664 -120.74298 -0.088646054 -29.267176 -0.08576224 -29.251938 -25.816696 -115.77505
145864000 -25.780508 -121.02519 -0.088722676 -29.468428 -0.087303877 -29.454006 -25.793716 -115.98869
146863000 -25.735725 -121.40373 -0.090189509 -29.6665 -0.087302819 -29.654383 -25.742676 -116.29099
147862000 -25.697596 -121.71761 -0.090561911 -29.866837 -0.088842623 -29.850445 -25.712051 -116.63602
148861000 -25.663998 -122.16649 -0.091482088 -30.067255 -0.089188747 -30.046453 -25.687452 -116.76891
149860000 -25.63312 -122.36804 -0.092841953 -30.255642 -0.089948744 -30.245035 -25.638107 -116.86933
150859000 -25.608042 -122.82034 -0.091564573 -30.454464 -0.090043619 -30.442635 -25.616625 -117.23535
151858000 -25.594908 -123.14288 -0.09114635 -30.654507 -0.089986533 -30.638094 -25.604876 -117.56861
152857000 -25.580786 -123.46376 -0.09179987 -30.854294 -0.089863911 -30.839636 -25.584352 -117.74972
153856000 -25.581455 -123.65633 -0.091246277 -31.053913 -0.088811971 -31.039324 -25.604198 -118.07261
154855000 -25.578659 -123.84869 -0.09231361 -31.253641 -0.089149378 -31.241856 -25.592722 -118.31572
155854000 -25.597635 -124.06517 -0.091849573 -31.450811 -0.08993157 -31.437052 -25.581936 -118.56595
156853000 -25.581957 -124.77648 -0.089862324 -31.63954 -0.089373983 -31.632307 -25.583637 -118.89015
157852000 -25.590252 -125.00305 -0.091448247 -31.842222 -0.090211973 -31.831347 -25.568378 -119.24152
158851000 -25.583351 -125.22368 -0.091582015 -32.04258 -0.090591252 -32.032837 -25.554171 -119.52389
159850000 -25.573042 -125.33826 -0.092563227 -32.238377 -0.090913199 -32.233185 -25.551334 -119.66023
160849000 -25.556179 -125.42632 -0.092863902 -32.441147 -0.091685921 -32.43132 -25.523342 -119.97253
161848000 -25.541061 -125.49582 -0.093168832 -32.642944 -0.091599993 -32.635769 -25.481909 -120.07544
162847000 -25.496853 -125.66453 -0.093107738 -32.837791 -0.092611358 -32.833698 -25.453062 -120.35937
163846000 -25.46521 -125.8739 -0.09296149 -33.037712 -0.091888174 -33.032185 -25.377983 -120.35339
164845000 -25.402819 -125.84927 -0.093752563 -33.239704 -0.092054218 -33.23312 -25.316545 -120.45809
165844000 -25.349621 -125.87864 -0.0940594 -33.439236 -0.093182847 -33.431278 -25.241173 -120.57038
166843000 -25.288103 -125.94476 -0.093763672 -33.633648 -0.092529915 -33.632301 -25.170036 -120.73932
167842000 -25.235374 -126.07528 -0.093921848 -33.839188 -0.09330821 -33.831394 -25.097435 -120.66978
168841000 -25.149252 -126.20851 -0.094679497 -34.038296 -0.094070517 -34.02898 -25.019375 -120.72871
169840000 -25.087301 -126.45698 -0.094348803 -34.234501 -0.094094321 -34.226749 -24.936918 -120.94604
170839000 -25.028009 -126.67194 -0.09617614 -34.429169 -0.094754636 -34.429207 -24.855885 -121.11555
171838000 -24.971268 -127.04757 -0.095326141 -34.632839 -0.095378272 -34.627678 -24.790495 -121.32304
172837000 -24.899271 -127.40592 -0.096711308 -34.828537 -0.096483678 -34.825287 -24.724768 -121.53118
173836000 -24.832239 -127.80215 -0.097895682 -35.027283 -0.097417548 -35.025864 -24.685186 -121.74512
174835000 -24.782724 -128.21547 -0.09876366 -35.224655 -0.098218173 -35.226742 -24.638857 -122.06398
175834000 -24.728653 -128.55556 -0.09946017 -35.422939 -0.099356353 -35.419872 -24.577406 -122.31843
176833000 -24.678074 -128.91982 -0.10023415 -35.62495 -0.10006462 -35.621433 -24.53158 -122.46548
177832000 -24.63792 -129.32797 -0.10172264 -35.822021 -0.10039309 -35.822922 -24.51293 -122.55683
178831000 -24.587276 -129.57866 -0.10283788 -36.019939 -0.10268626 -36.015636 -24.470142 -122.65153
179830000 -24.519014 -129.97592 -0.10482445 -36.201374 -0.10362359 -36.204029 -24.413092 -122.73801
180829000 -24.472998 -130.3134 -0.10353293 -36.398014 -0.10229718 -36.396233 -24.364634 -123.04906
181828000 -24.445097 -130.75731 -0.10274404 -36.598701 -0.10171707 -36.595654 -24.343441 -123.24722
182827000 -24.424919 -131.14037 -0.10270058 -36.795868 -0.10162088 -36.790283 -24.333874 -123.35825
183826000 -24.378656 -131.4501 -0.1034078 -36.994877 -0.10207801 -36.991417 -24.326523 -123.50928
184825000 -24.387348 -131.76881 -0.10330123 -37.187691 -0.10256328 -37.189434 -24.306358 -123.64675
185824000 -24.358227 -132.15665 -0.10314244 -37.386505 -0.10295556 -37.389248 -24.297873 -123.70213
186823000 -24.340866 -132.51913 -0.1031284 -37.588005 -0.10248774 -37.583649 -24.294754 -123.72407
187822000 -24.314631 -132.85062 -0.10348468 -37.783009 -0.10283045 -37.780685 -24.257605 -123.77702
188821000 -24.291498 -133.10179 -0.10336379 -37.978378 -0.10340912 -37.982086 -24.239374 -123.92706
189820000 -24.273977 -133.3965 -0.10397992 -38.175182 -0.10337493 -38.179558 -24.218233 -124.11414
190819000 -24.236727 -133.72595 -0.10453885 -38.377148 -0.10360026 -38.373547 -24.182566 -124.14906
191818000 -24.205744 -134.01141 -0.10482789 -38.574345 -0.10405574 -38.573769 -24.152479 -124.18631
192817000 -24.164837 -134.29706 -0.10532912 -38.769249 -0.10436703 -38.770863 -24.110924 -124.27972
193816000 -24.134123 -134.53836 -0.10526971 -38.964546 -0.10467621 -38.961529 -24.056662 -124.4568
194815000 -24.073242 -134.94522 -0.10508937 -39.160313 -0.10536227 -39.164177 -23.990086 -124.47206
195814000 -24.017221 -135.10385 -0.10707007 -39.35902 -0.10517105 -39.36034 -23.938818 -124.5696
196813000 -23.966034 -135.48003 -0.10597125 -39.551979 -0.10519863 -39.550903 -23.856867 -124.7333
197812000 -23.905512 -135.66228 -0.10645165 -39.750366 -0.10647234 -39.748741 -23.790033 -124.79846
198811000 -23.855032 -135.84158 -0.1063848 -39.948135 -0.10596621 -39.946087 -23.718769 -124.98715
199810000 -23.779018 -136.19234 -0.10646067 -40.139381 -0.10524955 -40.139458 -23.643484 -125.05011
200809000 -23.727198 -136.44818 -0.10639223 -40.340553 -0.10586117 -40.338066 -23.566868 -125.23196
201808000 -23.667664 -136.64345 -0.10786159 -40.539257 -0.10688037 -40.54549 -23.497707 -125.31444
202807000 -23.612293 -136.98506 -0.10827187 -40.742466 -0.10756227 -40.745907 -23.444258 -125.51377
