!Keysight Technologies,E5080B,MY59205177,A.15.75.32
!Date: Friday, February 23, 2024 02:56:30
!Correction: S11(Cdelta 2-Port  ) 
!S21(Cdelta 2-Port  ) 
!S12(Cdelta 2-Port  ) 
!S22(Cdelta 2-Port  ) 
!S2P File: Measurements: S11, S21, S12, S22:
# Hz S  dB   R 50
10000000 -43.900337 -3.4538565 -0.02929667 -2.0383873 -0.032409493 -2.0953753 -48.41045 -149.513
10999000 -43.260521 -5.5425973 -0.030431002 -2.2573779 -0.03251981 -2.3133209 -48.186836 -141.73697
11998000 -42.505863 -7.6386113 -0.030426569 -2.4839287 -0.031807087 -2.5258882 -48.2104 -135.24373
12997000 -41.909103 -12.300694 -0.029556248 -2.6583714 -0.031692356 -2.6937113 -47.529793 -128.89101
13996000 -41.650005 -15.639868 -0.028905772 -2.8402867 -0.031728338 -2.8608356 -47.129025 -123.29287
14995000 -41.359169 -19.409504 -0.030603314 -3.0515652 -0.031644896 -3.073791 -46.644379 -120.30688
15994000 -41.237194 -23.14749 -0.032335687 -3.2684009 -0.033691507 -3.2913625 -46.336681 -116.64825
16993000 -41.233593 -26.667139 -0.031420916 -3.4666016 -0.03291234 -3.4741633 -45.464008 -117.70889
17992000 -41.315498 -31.554214 -0.032053776 -3.6618156 -0.033340119 -3.6681676 -44.841854 -118.32681
18991000 -41.598274 -35.4263 -0.032591794 -3.874891 -0.035002604 -3.8683076 -44.091072 -117.77265
19990000 -41.453911 -40.716915 -0.034686338 -4.0808206 -0.036456626 -4.0752144 -43.437683 -119.65097
20989000 -41.385422 -43.606915 -0.036314622 -4.2833309 -0.03894794 -4.2757807 -42.801315 -119.5707
21988000 -41.315506 -48.146378 -0.037521806 -4.4802289 -0.039046671 -4.4690809 -42.553238 -119.10809
22987000 -41.128822 -52.50285 -0.038986072 -4.6806474 -0.039926995 -4.6714997 -42.291801 -118.60793
23986000 -41.114174 -56.456684 -0.038250353 -4.8756719 -0.03867422 -4.8728285 -42.188107 -119.07661
24985000 -40.80975 -58.965038 -0.040299553 -5.082994 -0.038897529 -5.080966 -41.835403 -116.19159
25984000 -40.589912 -61.306568 -0.040015038 -5.2879138 -0.040262192 -5.2895412 -41.527939 -115.08192
26983000 -40.280022 -62.866768 -0.040923256 -5.4869823 -0.040789731 -5.5049596 -41.400921 -114.18047
27982000 -40.155121 -64.124565 -0.042062458 -5.683063 -0.0424501 -5.7191849 -41.070438 -112.74366
28981000 -40.146656 -65.27916 -0.040254094 -5.882452 -0.042791769 -5.9055548 -40.832321 -112.03885
29980000 -39.791843 -67.138252 -0.039714605 -6.0745716 -0.042417165 -6.0791183 -40.532539 -111.35647
30979000 -39.438057 -66.342331 -0.037892852 -6.4325867 -0.037883453 -6.4196568 -39.977093 -112.37264
31978000 -39.248352 -67.46283 -0.037023645 -6.6269593 -0.038675785 -6.6178699 -39.717556 -111.55741
32977000 -39.08065 -69.015961 -0.037530422 -6.8336611 -0.039376836 -6.8331718 -39.455704 -111.8284
33976000 -38.947186 -70.342567 -0.038244084 -7.0362439 -0.039816227 -7.0300608 -39.150444 -111.40076
34975000 -38.663467 -71.282326 -0.038298406 -7.2354937 -0.040599246 -7.2329383 -38.923855 -111.33973
35974000 -38.481369 -71.864433 -0.037109017 -7.4318905 -0.040509362 -7.4315267 -38.609566 -110.67246
36973000 -38.25816 -72.827141 -0.037491519 -7.6278367 -0.041265327 -7.6344433 -38.319748 -109.76366
37972000 -38.069645 -72.628349 -0.037520502 -7.8381042 -0.041411936 -7.846911 -38.080902 -109.09286
38971000 -37.762012 -72.501686 -0.038813688 -8.0395603 -0.040736686 -8.0501347 -37.877895 -107.6043
39970000 -37.443832 -73.082909 -0.036651887 -8.2346354 -0.039983947 -8.248064 -37.574871 -107.10524
40969000 -37.155159 -73.053566 -0.037526507 -8.4261303 -0.03956309 -8.4458237 -37.331631 -105.96317
41968000 -36.821133 -73.091354 -0.037324414 -8.6375818 -0.040202625 -8.6468306 -37.097973 -104.68929
42967000 -36.567673 -73.400558 -0.0369884 -8.8442411 -0.040373236 -8.8610363 -36.870087 -103.03475
43966000 -36.301651 -74.307686 -0.037598573 -9.0460453 -0.0416806 -9.0637026 -36.582016 -102.39118
44965000 -36.080132 -75.148338 -0.038611013 -9.2457132 -0.042014364 -9.267662 -36.36095 -102.34849
45964000 -35.863064 -76.319458 -0.039627872 -9.4449492 -0.042734515 -9.463769 -36.136581 -102.26884
46963000 -35.691719 -78.366043 -0.039721657 -9.6397877 -0.043147579 -9.6652651 -35.942402 -102.63399
47962000 -35.559895 -79.803963 -0.041516732 -9.8418541 -0.044755761 -9.855545 -35.713871 -102.76443
48961000 -35.335567 -81.29203 -0.043647751 -10.037991 -0.046668831 -10.056721 -35.506237 -103.05403
49960000 -35.149921 -82.79216 -0.045455437 -10.236233 -0.047536571 -10.258714 -35.371342 -103.22455
50959000 -34.945015 -84.159973 -0.045408353 -10.451302 -0.048636932 -10.461157 -35.189564 -103.67788
51958000 -34.74337 -85.344803 -0.047383472 -10.64903 -0.049792562 -10.657537 -35.020824 -104.21746
52957000 -34.548534 -86.498962 -0.048986677 -10.848948 -0.051338244 -10.853456 -34.845688 -104.14133
53956000 -34.395672 -87.166733 -0.050540976 -11.050989 -0.051961701 -11.049417 -34.711086 -104.13696
54955000 -34.234287 -87.724098 -0.050418675 -11.24852 -0.052529961 -11.2482 -34.554691 -104.16075
55954000 -34.09243 -88.667068 -0.052023787 -11.45188 -0.053359039 -11.44449 -34.454979 -103.93143
56953000 -33.965275 -88.78373 -0.051796135 -11.646074 -0.051599141 -11.633073 -34.376965 -104.14119
57952000 -33.81432 -89.386703 -0.053019948 -11.84153 -0.053803779 -11.828037 -34.282772 -104.31678
58951000 -33.69883 -89.749184 -0.053630542 -12.05551 -0.053921193 -12.027312 -34.11496 -104.47194
59950000 -33.585835 -90.173965 -0.054476608 -12.249009 -0.05464201 -12.228009 -34.054836 -104.69473
60949000 -33.473843 -90.708176 -0.054356027 -12.449236 -0.055831753 -12.42441 -33.967701 -104.93858
61948000 -33.420959 -91.029175 -0.055117816 -12.648868 -0.055238675 -12.631868 -33.883953 -105.04973
62947000 -33.337337 -91.232719 -0.055054374 -12.858408 -0.056042574 -12.839813 -33.739334 -105.32224
63946000 -33.262436 -92.075127 -0.056336798 -13.058756 -0.057044901 -13.039733 -33.633575 -105.52252
64945000 -33.152508 -92.234604 -0.056742761 -13.257382 -0.05786461 -13.239076 -33.520218 -105.96432
65944000 -33.064106 -92.462517 -0.057845198 -13.459091 -0.057668652 -13.441169 -33.437241 -106.46062
66943000 -32.922771 -92.92424 -0.055776164 -13.661597 -0.056362234 -13.64325 -33.342911 -106.7861
67942000 -32.864037 -92.857048 -0.057961673 -13.856207 -0.057877988 -13.84339 -33.211205 -107.10408
68941000 -32.74192 -92.988243 -0.057357028 -14.050702 -0.057051722 -14.036577 -33.107365 -107.04756
69940000 -32.652596 -92.910515 -0.057913143 -14.246425 -0.05816919 -14.236117 -32.956207 -107.38683
70939000 -32.556511 -92.984871 -0.05747664 -14.444291 -0.057657111 -14.438828 -32.842094 -107.24229
71938000 -32.402782 -92.566345 -0.056868915 -14.642953 -0.057654224 -14.635732 -32.696655 -107.17361
72937000 -32.246803 -92.455002 -0.056624744 -14.83833 -0.056895401 -14.834095 -32.560101 -106.93051
73936000 -32.107327 -92.140823 -0.056481816 -15.033649 -0.056992706 -15.028281 -32.445889 -106.85258
74935000 -31.974512 -92.420021 -0.055727396 -15.235123 -0.055787701 -15.230392 -32.29417 -106.45441
75934000 -31.867302 -92.68782 -0.056355942 -15.440252 -0.056583833 -15.435051 -32.198269 -106.44528
76933000 -31.724478 -93.08918 -0.057697508 -15.633151 -0.057037294 -15.630396 -32.026966 -106.84154
77932000 -31.626303 -93.899124 -0.058603663 -15.828611 -0.059009053 -15.824406 -31.929218 -106.80287
78931000 -31.5616 -94.637932 -0.057577629 -16.029806 -0.057785124 -16.020779 -31.838345 -106.71452
79930000 -31.466385 -95.472466 -0.05989527 -16.222933 -0.060412075 -16.222935 -31.736526 -106.96789
80929000 -31.331499 -96.425125 -0.061366051 -16.416281 -0.06200802 -16.41194 -31.623682 -107.35362
81928000 -31.26 -97.319458 -0.061478686 -16.610695 -0.062401909 -16.605101 -31.507418 -107.45274
82927000 -31.158752 -98.008827 -0.063322179 -16.807249 -0.064058214 -16.805033 -31.403564 -107.83069
83926000 -31.065363 -98.736557 -0.064468324 -17.004116 -0.06404876 -17.007326 -31.282999 -108.01981
84925000 -30.946808 -99.200302 -0.065687567 -17.204659 -0.064613089 -17.198788 -31.192051 -108.06863
85924000 -30.865673 -99.721375 -0.066115692 -17.406591 -0.066754945 -17.401857 -31.107426 -108.2041
86923000 -30.756668 -100.27389 -0.066833809 -17.600025 -0.065858915 -17.598286 -31.012915 -108.08582
87922000 -30.647066 -100.63937 -0.06602975 -17.807901 -0.0660308 -17.800478 -30.922386 -108.10694
88921000 -30.585541 -101.00191 -0.067831002 -18.006212 -0.066784389 -18.003948 -30.838287 -108.17753
89920000 -30.493641 -101.52881 -0.067854404 -18.204914 -0.067781836 -18.200268 -30.786581 -108.28181
90919000 -30.388943 -101.83134 -0.06834323 -18.401405 -0.068732433 -18.396416 -30.688734 -108.52685
91918000 -30.299515 -102.24202 -0.069849759 -18.598404 -0.06958618 -18.59409 -30.622931 -108.56931
92917000 -30.209724 -102.57207 -0.070531391 -18.796513 -0.069652997 -18.791557 -30.568581 -108.63144
93916000 -30.128046 -102.96786 -0.07053902 -18.990866 -0.069662467 -18.986044 -30.482908 -109.30466
94915000 -30.061497 -103.63956 -0.071726285 -19.196768 -0.07095895 -19.185463 -30.420771 -109.15175
95914000 -29.993029 -103.81096 -0.072433479 -19.388153 -0.072192118 -19.378559 -30.33761 -109.45059
96913000 -29.907492 -104.08097 -0.073564917 -19.588512 -0.072740398 -19.584137 -30.270214 -109.85271
97912000 -29.830683 -104.52658 -0.074842021 -19.782995 -0.072414264 -19.783813 -30.190109 -110.07167
98911000 -29.731756 -104.72028 -0.075494409 -19.985115 -0.074013047 -19.980078 -30.147137 -110.27718
99910000 -29.667658 -104.90775 -0.075663254 -20.182507 -0.074379325 -20.184763 -30.042284 -110.54572
100909000 -29.576469 -105.14042 -0.074992143 -20.387756 -0.073740527 -20.382877 -29.961668 -110.77843
101908000 -29.488255 -105.37858 -0.076841116 -20.59277 -0.074549966 -20.583982 -29.840725 -110.49284
102907000 -29.355408 -105.37177 -0.07671807 -20.787725 -0.075376935 -20.787771 -29.773554 -110.49612
103906000 -29.264412 -105.48595 -0.076942824 -20.995872 -0.074267939 -20.989449 -29.623878 -110.4483
104905000 -29.119413 -105.44082 -0.077767611 -21.192135 -0.075103283 -21.190754 -29.493246 -110.18073
105904000 -28.982491 -105.52354 -0.077962637 -21.391638 -0.075123563 -21.38925 -29.382303 -110.01366
106903000 -28.873302 -105.65509 -0.077820323 -21.598867 -0.075436726 -21.592663 -29.250954 -109.9351
107902000 -28.71114 -105.96888 -0.078531407 -21.796984 -0.076268874 -21.789185 -29.109152 -109.85789
108901000 -28.597538 -106.1842 -0.079370208 -21.998152 -0.07755468 -21.990427 -28.977127 -109.83112
109900000 -28.477802 -106.75648 -0.080804884 -22.201601 -0.078329243 -22.190334 -28.828735 -109.93202
110899000 -28.356123 -107.37547 -0.081795797 -22.399969 -0.078694046 -22.390022 -28.703901 -110.23795
111898000 -28.272663 -108.03342 -0.083358452 -22.599499 -0.080928832 -22.591967 -28.58033 -110.33828
112897000 -28.145069 -108.67091 -0.084224842 -22.799349 -0.081749104 -22.786211 -28.452271 -110.53234
113896000 -28.042103 -109.25642 -0.084673285 -22.999117 -0.08308588 -22.986393 -28.340408 -110.7065
114895000 -27.937696 -109.92428 -0.086248592 -23.199543 -0.084718421 -23.182503 -28.234144 -110.79173
115894000 -27.813072 -110.28004 -0.087671801 -23.397297 -0.085739002 -23.37986 -28.157091 -111.0065
116893000 -27.735071 -110.84689 -0.088023387 -23.590805 -0.086195782 -23.571653 -28.027451 -111.15636
117892000 -27.652006 -111.31804 -0.088169731 -23.78964 -0.08649417 -23.775393 -27.952745 -111.35218
118891000 -27.591536 -111.77382 -0.088775516 -23.991327 -0.086705431 -23.976664 -27.858137 -111.49879
119890000 -27.502697 -112.14803 -0.089512706 -24.190443 -0.088110559 -24.172291 -27.847521 -111.6553
120889000 -27.446871 -112.68182 -0.090457246 -24.391081 -0.088653184 -24.371901 -27.77635 -111.62451
121888000 -27.405727 -112.99475 -0.090806939 -24.585804 -0.088199846 -24.570459 -27.710676 -111.89196
122887000 -27.364294 -113.21601 -0.091040611 -24.791216 -0.089905664 -24.774515 -27.668961 -111.9874
123886000 -27.307846 -113.65068 -0.092539698 -24.99193 -0.089303426 -24.971064 -27.64707 -112.1436
124885000 -27.278309 -114.15186 -0.092337146 -25.187302 -0.089941874 -25.176397 -27.623589 -112.20978
125884000 -27.218534 -114.35271 -0.093411095 -25.390429 -0.090505615 -25.369698 -27.587849 -112.41824
126883000 -27.202076 -114.7147 -0.093803085 -25.589777 -0.090995669 -25.576479 -27.549948 -112.44883
127882000 -27.146204 -115.02959 -0.094103053 -25.790512 -0.091104582 -25.768888 -27.507961 -112.59975
128881000 -27.119919 -115.35213 -0.094447218 -25.991678 -0.091465697 -25.972223 -27.462959 -112.71707
129880000 -27.063393 -115.63848 -0.095150977 -26.19236 -0.091435559 -26.173786 -27.422485 -112.68704
130879000 -27.000553 -115.80274 -0.094977409 -26.391949 -0.092311233 -26.37319 -27.3484 -112.74738
131878000 -26.934767 -116.02029 -0.094664685 -26.593626 -0.092633836 -26.571856 -27.276266 -112.65879
132877000 -26.860649 -116.10184 -0.094291665 -26.794422 -0.092981324 -26.775845 -27.197287 -112.65717
133876000 -26.77569 -116.2613 -0.095516928 -26.996387 -0.092589408 -26.973793 -27.102936 -112.56744
134875000 -26.679159 -116.37697 -0.095929481 -27.192835 -0.09395095 -27.17774 -26.995834 -112.43344
135874000 -26.59935 -116.39307 -0.095221095 -27.394354 -0.093434371 -27.376171 -26.894241 -112.41506
136873000 -26.483343 -116.32547 -0.096259765 -27.594814 -0.092776634 -27.575054 -26.809494 -112.38871
137872000 -26.403246 -116.46008 -0.096446626 -27.796873 -0.093772933 -27.781219 -26.707829 -112.33145
138871000 -26.337524 -116.65163 -0.096687481 -27.997234 -0.093447328 -27.983604 -26.607079 -112.52017
139870000 -26.232607 -116.92057 -0.097908124 -28.19479 -0.095102027 -28.181286 -26.522264 -112.65997
140869000 -26.149879 -117.39851 -0.099457525 -28.393837 -0.095967062 -28.373384 -26.416908 -112.84274
141868000 -26.049709 -117.87117 -0.099439517 -28.585487 -0.097683616 -28.569954 -26.350428 -113.15337
142867000 -25.973902 -118.1184 -0.097689703 -28.782772 -0.095838979 -28.764807 -26.26828 -113.34364
143866000 -25.912207 -118.64525 -0.099403761 -28.982204 -0.097475529 -28.964199 -26.196192 -113.88213
144865000 -25.852779 -119.1581 -0.10122898 -29.17963 -0.0986294 -29.161255 -26.136425 -114.19303
145864000 -25.801256 -119.49932 -0.10125309 -29.377487 -0.099818274 -29.364832 -26.108278 -114.46323
146863000 -25.749514 -119.90379 -0.10213128 -29.58005 -0.099475801 -29.564219 -26.056824 -114.77196
147862000 -25.715849 -120.27958 -0.10300699 -29.776091 -0.10038409 -29.759893 -26.02289 -115.12042
148861000 -25.67927 -120.82607 -0.10340541 -29.97381 -0.10080691 -29.954611 -25.998676 -115.36254
149860000 -25.67017 -120.99694 -0.10416313 -30.172228 -0.1017698 -30.156 -25.968498 -115.54455
150859000 -25.655403 -121.38108 -0.10385663 -30.368641 -0.10237086 -30.355862 -25.964546 -115.76871
151858000 -25.636505 -121.65795 -0.10385743 -30.57123 -0.10214665 -30.553574 -25.95183 -116.06674
152857000 -25.615088 -121.98244 -0.10471201 -30.765345 -0.10288506 -30.754005 -25.936193 -116.21111
153856000 -25.605677 -122.2208 -0.10410082 -30.965734 -0.10235469 -30.950712 -25.95871 -116.51395
154855000 -25.602617 -122.38466 -0.1044235 -31.165531 -0.10253147 -31.146957 -25.947985 -116.73307
155854000 -25.614168 -122.64407 -0.10522117 -31.364735 -0.10283893 -31.349104 -25.937273 -116.94363
156853000 -25.602407 -123.34505 -0.10244242 -31.553473 -0.10162883 -31.542715 -25.933693 -117.26913
157852000 -25.605364 -123.59038 -0.10428271 -31.749893 -0.10333198 -31.741098 -25.927668 -117.62318
158851000 -25.606339 -123.79801 -0.10476345 -31.948214 -0.10394227 -31.941866 -25.907854 -117.8447
159850000 -25.583357 -123.93018 -0.10531904 -32.148216 -0.10430843 -32.139523 -25.910084 -118.02911
160849000 -25.570248 -124.04829 -0.10500132 -32.347546 -0.10433415 -32.342594 -25.88022 -118.28612
161848000 -25.54685 -124.13051 -0.10568479 -32.547634 -0.10497295 -32.539433 -25.837973 -118.42536
162847000 -25.508049 -124.32988 -0.10570547 -32.744801 -0.10538561 -32.737984 -25.80835 -118.6706
163846000 -25.469614 -124.58504 -0.10639223 -32.946533 -0.10479501 -32.938831 -25.731745 -118.68568
164845000 -25.398397 -124.53405 -0.10659278 -33.14864 -0.10529649 -33.134533 -25.66494 -118.78168
165844000 -25.345615 -124.63148 -0.10647818 -33.342583 -0.10543998 -33.33263 -25.581074 -118.91481
166843000 -25.283691 -124.68123 -0.10601024 -33.543133 -0.10569672 -33.537682 -25.50993 -119.06219
167842000 -25.228106 -124.84873 -0.10727251 -33.741291 -0.10618027 -33.735756 -25.431677 -119.02079
168841000 -25.153967 -125.04549 -0.1078393 -33.940418 -0.1057137 -33.936275 -25.355276 -119.06707
169840000 -25.086582 -125.28947 -0.10703531 -34.134132 -0.10641239 -34.133171 -25.265131 -119.28581
170839000 -25.020836 -125.56468 -0.10808185 -34.328808 -0.10743888 -34.329002 -25.181181 -119.48782
171838000 -24.965666 -125.97564 -0.10752989 -34.530884 -0.10834274 -34.525669 -25.115786 -119.74529
172837000 -24.895 -126.37864 -0.1095656 -34.730618 -0.10944852 -34.723206 -25.0478 -119.94789
173836000 -24.825787 -126.78146 -0.11041705 -34.928028 -0.11032518 -34.924637 -25.004116 -120.15247
174835000 -24.775505 -127.20515 -0.11105808 -35.118855 -0.11046565 -35.121117 -24.958563 -120.52339
175834000 -24.723381 -127.61915 -0.11163572 -35.319458 -0.11147796 -35.316719 -24.889118 -120.8072
176833000 -24.672211 -127.97179 -0.11240178 -35.517303 -0.11183678 -35.51495 -24.841944 -120.98389
177832000 -24.62603 -128.46735 -0.11292221 -35.712963 -0.11198686 -35.71106 -24.814428 -121.16206
178831000 -24.583309 -128.84816 -0.11305213 -35.909878 -0.11332899 -35.908295 -24.779697 -121.40514
179830000 -24.55402 -129.28526 -0.11405601 -36.106766 -0.11361276 -36.107929 -24.756271 -121.53909
180829000 -24.512676 -129.49521 -0.11450914 -36.304935 -0.11437067 -36.304409 -24.724787 -121.70879
181828000 -24.485563 -129.84621 -0.11385033 -36.49823 -0.11399808 -36.498619 -24.710003 -121.85398
182827000 -24.463209 -130.19356 -0.11477438 -36.693882 -0.11452907 -36.693611 -24.690723 -121.92045
183826000 -24.422386 -130.51741 -0.11502504 -36.894936 -0.11449505 -36.889229 -24.684704 -122.06485
184825000 -24.42861 -130.83485 -0.11478316 -37.090839 -0.11490171 -37.088894 -24.664621 -122.16266
185824000 -24.40064 -131.21278 -0.11537698 -37.287163 -0.1152143 -37.286964 -24.663332 -122.20933
186823000 -24.387482 -131.56874 -0.11581721 -37.48423 -0.11552026 -37.480247 -24.664234 -122.20778
187822000 -24.364126 -131.87495 -0.11634471 -37.680038 -0.11567046 -37.679485 -24.630472 -122.25986
188821000 -24.343512 -132.09894 -0.11587597 -37.874336 -0.11628249 -37.87656 -24.61224 -122.37865
189820000 -24.328712 -132.39261 -0.1168547 -38.078896 -0.11584859 -38.077614 -24.602959 -122.5089
190819000 -24.301195 -132.60634 -0.11813769 -38.274002 -0.11697863 -38.273575 -24.568811 -122.47243
191818000 -24.263798 -132.77568 -0.11862157 -38.472298 -0.11858459 -38.470261 -24.536741 -122.35806
192817000 -24.192022 -133.07176 -0.11912014 -38.652515 -0.11895225 -38.656071 -24.463869 -122.44741
193816000 -24.156063 -133.41269 -0.11806215 -38.848793 -0.11795043 -38.844543 -24.406792 -122.70465
194815000 -24.099661 -133.86765 -0.1177467 -39.041435 -0.11902435 -39.04718 -24.344528 -122.81509
195814000 -24.044071 -134.07129 -0.11925317 -39.240391 -0.11865535 -39.238605 -24.290087 -122.93236
196813000 -23.994354 -134.4281 -0.1187788 -39.437 -0.11764482 -39.437366 -24.209103 -123.09657
197812000 -23.935665 -134.67316 -0.11864445 -39.637249 -0.11896875 -39.635311 -24.15012 -123.20545
198811000 -23.883469 -134.82855 -0.11912998 -39.833931 -0.11828506 -39.838322 -24.077934 -123.3574
199810000 -23.813019 -135.21301 -0.11907411 -40.025505 -0.11791053 -40.023495 -23.998949 -123.47101
200809000 -23.753544 -135.46446 -0.12000008 -40.222294 -0.11873623 -40.221436 -23.919098 -123.66109
201808000 -23.69997 -135.71486 -0.12042215 -40.420139 -0.11887749 -40.428391 -23.850956 -123.7471
202807000 -23.640482 -136.1013 -0.12044398 -40.626591 -0.1200714 -40.628998 -23.796665 -123.95057
203806000 -23.590055 -136.52589 -0.12214387 -40.824211 -0.12037105 -40.823879 -23.729435 -124.14952
