!Keysight Technologies,E5080B,MY59205177,A.15.75.32
!Date: Friday, February 23, 2024 03:34:41
!Correction: S11(Cdelta 2-Port  ) 
!S21(Cdelta 2-Port  ) 
!S12(Cdelta 2-Port  ) 
!S22(Cdelta 2-Port  ) 
!S2P File: Measurements: S11, S21, S12, S22:
# Hz S  dB   R 50
10000000 -46.130993 -2.3189101 -0.015815319 -2.0442183 -0.018316913 -2.1037488 -45.944305 -157.92047
10999000 -45.260929 -4.3348875 -0.015903395 -2.2649493 -0.018580254 -2.321034 -45.836655 -151.26915
11998000 -44.358097 -7.6786761 -0.016429279 -2.4883797 -0.018425576 -2.5294745 -46.023872 -147.40123
12997000 -43.561123 -12.813787 -0.016110208 -2.665436 -0.017845124 -2.7028236 -45.667446 -141.70056
13996000 -43.325802 -17.275095 -0.015136764 -2.8478787 -0.0176585 -2.8709142 -45.458538 -136.29051
14995000 -42.916 -21.015657 -0.017293077 -3.0598257 -0.017474486 -3.0849028 -45.162769 -132.83437
15994000 -42.69474 -25.998253 -0.018694123 -3.2788632 -0.019541988 -3.2999015 -44.99091 -129.73178
16993000 -42.650791 -30.494394 -0.01735987 -3.4739339 -0.019447079 -3.4840636 -44.197941 -129.28056
17992000 -42.771042 -35.840691 -0.017990423 -3.674612 -0.0200886 -3.6738234 -43.631157 -129.05289
18991000 -42.998444 -41.352367 -0.019108545 -3.8829157 -0.021300389 -3.8837409 -42.965248 -128.19035
19990000 -42.750744 -46.872551 -0.021673173 -4.1000919 -0.02331402 -4.0904965 -42.313358 -128.79657
20989000 -42.544834 -50.247608 -0.023590157 -4.2983422 -0.024828175 -4.2862186 -41.748035 -128.28564
21988000 -42.376431 -55.46114 -0.02395455 -4.496304 -0.025426226 -4.4856353 -41.522079 -127.52631
22987000 -42.055069 -60.116306 -0.025448358 -4.695437 -0.025797023 -4.6855869 -41.263428 -127.13408
23986000 -41.99572 -64.375145 -0.024658173 -4.8856983 -0.025566572 -4.8890018 -41.153652 -126.90859
24985000 -41.592442 -67.127869 -0.026095973 -5.0979233 -0.025477 -5.0957494 -40.908611 -124.44202
25984000 -41.199257 -69.351532 -0.026548347 -5.3043113 -0.026767649 -5.3045454 -40.547882 -122.76403
26983000 -40.902573 -70.942001 -0.027099228 -5.5026388 -0.02708438 -5.5211163 -40.51963 -122.28628
27982000 -40.778114 -71.951767 -0.02887007 -5.7024498 -0.028848441 -5.7398381 -40.187202 -120.65062
28981000 -40.720364 -73.446594 -0.026765045 -5.9015565 -0.02839114 -5.9232183 -39.982773 -119.79171
29980000 -40.306736 -74.920715 -0.02735763 -6.0954943 -0.029191386 -6.0992351 -39.738575 -119.05764
30979000 -39.94595 -73.785454 -0.024906799 -6.4495478 -0.023658087 -6.4409161 -39.227875 -119.5273
31978000 -39.749935 -74.781868 -0.023936329 -6.6472631 -0.025228081 -6.634069 -38.992428 -118.69373
32977000 -39.557659 -76.160553 -0.024336934 -6.8520608 -0.025819939 -6.8518848 -38.777367 -118.68691
33976000 -39.37553 -77.518669 -0.025000526 -7.0583353 -0.025818376 -7.0508714 -38.463451 -118.13329
34975000 -39.101631 -77.955391 -0.024827654 -7.2556624 -0.026484538 -7.2562752 -38.253937 -117.77011
35974000 -38.892548 -78.541794 -0.024184654 -7.4505711 -0.026722329 -7.453866 -37.96257 -116.89075
36973000 -38.649158 -79.515686 -0.02421511 -7.6515598 -0.027654605 -7.6544232 -37.702892 -115.9044
37972000 -38.495953 -79.10022 -0.023463927 -7.8600945 -0.026896579 -7.8722544 -37.483315 -115.21871
38971000 -38.154655 -78.576431 -0.025438724 -8.0593977 -0.026422031 -8.0761185 -37.32814 -113.71898
39970000 -37.821812 -78.996552 -0.023141215 -8.2612114 -0.026548607 -8.273242 -37.062752 -113.13908
40969000 -37.546883 -78.5214 -0.023339525 -8.4565477 -0.026027223 -8.4678402 -36.822422 -111.75467
41968000 -37.204895 -78.527412 -0.02323126 -8.6604557 -0.026568923 -8.6724758 -36.624329 -110.58822
42967000 -36.941078 -78.577553 -0.023461845 -8.870883 -0.026647057 -8.8878021 -36.438622 -108.61356
43966000 -36.638451 -79.350945 -0.024036802 -9.0701857 -0.027744744 -9.0901833 -36.177887 -107.97703
44965000 -36.411373 -80.2314 -0.025131747 -9.2745981 -0.028051386 -9.2950907 -35.959019 -107.65812
45964000 -36.159496 -81.04261 -0.026746031 -9.4711981 -0.029399354 -9.4952564 -35.731632 -107.35344
46963000 -35.965736 -83.03347 -0.027002329 -9.6656265 -0.029391795 -9.6891022 -35.527218 -107.57009
47962000 -35.817787 -84.603363 -0.027904185 -9.870266 -0.030343935 -9.8905048 -35.335266 -107.66717
48961000 -35.59161 -85.849693 -0.030164596 -10.064993 -0.032195382 -10.091685 -35.105774 -107.78423
49960000 -35.368889 -87.188652 -0.031788573 -10.265515 -0.033347163 -10.290341 -34.963829 -107.84174
50959000 -35.131275 -88.497841 -0.032021441 -10.480284 -0.034656852 -10.490871 -34.781239 -108.08923
51958000 -34.937618 -89.502266 -0.033887167 -10.678923 -0.036004785 -10.689153 -34.61832 -108.51173
52957000 -34.716942 -90.514107 -0.035140131 -10.878779 -0.037235122 -10.887673 -34.448082 -108.28499
53956000 -34.546326 -91.162498 -0.036786072 -11.083951 -0.037957352 -11.084386 -34.309143 -108.26035
54955000 -34.372734 -91.675606 -0.037694924 -11.281405 -0.038706344 -11.279026 -34.184422 -108.17872
55954000 -34.205006 -92.549973 -0.03900044 -11.487068 -0.03898764 -11.482354 -34.055511 -107.96027
56953000 -34.090771 -92.512672 -0.037995737 -11.683716 -0.038683359 -11.669879 -33.990105 -108.07789
57952000 -33.919941 -93.147408 -0.039372656 -11.881039 -0.039519988 -11.86947 -33.881119 -108.11195
58951000 -33.799885 -93.391441 -0.041315243 -12.082447 -0.040594801 -12.065627 -33.740166 -108.23415
59950000 -33.665157 -93.758614 -0.041360974 -12.284325 -0.04146133 -12.265498 -33.662827 -108.47985
60949000 -33.559589 -94.36203 -0.041169159 -12.488664 -0.041522224 -12.466488 -33.564396 -108.68183
61948000 -33.493629 -94.691574 -0.042414814 -12.6862 -0.041512031 -12.668775 -33.47599 -108.84746
62947000 -33.395588 -94.91011 -0.042688247 -12.895996 -0.042261634 -12.877707 -33.344074 -109.12783
63946000 -33.338097 -95.643044 -0.043079082 -13.096425 -0.042888496 -13.076457 -33.233665 -109.24683
64945000 -33.228451 -95.772629 -0.043805685 -13.298664 -0.043342359 -13.27749 -33.122967 -109.73719
65944000 -33.116482 -96.066353 -0.044592824 -13.497991 -0.044174653 -13.479619 -33.020718 -110.23853
66943000 -32.98127 -96.406204 -0.042437293 -13.700683 -0.042626552 -13.682625 -32.928635 -110.40921
67942000 -32.916218 -96.414856 -0.044347774 -13.897924 -0.044244215 -13.884271 -32.798573 -110.70765
68941000 -32.805073 -96.502632 -0.04447801 -14.089258 -0.043419227 -14.080735 -32.693005 -110.73597
69940000 -32.716537 -96.469658 -0.043915771 -14.290545 -0.044582099 -14.281207 -32.545834 -110.97709
70939000 -32.613621 -96.479744 -0.044339929 -14.483603 -0.044139612 -14.477879 -32.411358 -110.8451
71938000 -32.461903 -96.057251 -0.04422617 -14.682002 -0.044003371 -14.676357 -32.288021 -110.73441
72937000 -32.307655 -95.830933 -0.043473352 -14.882337 -0.04409254 -14.876538 -32.150887 -110.4967
73936000 -32.164043 -95.478607 -0.043570094 -15.08179 -0.042981826 -15.073376 -32.027927 -110.24177
74935000 -32.049023 -95.685852 -0.042905487 -15.273765 -0.04198065 -15.275913 -31.875404 -109.86806
75934000 -31.920521 -95.928429 -0.042922482 -15.486672 -0.042378217 -15.4815 -31.794344 -109.8791
76933000 -31.790558 -96.239349 -0.044571638 -15.680447 -0.043475442 -15.67279 -31.619383 -110.17241
77932000 -31.684666 -97.181404 -0.045209818 -15.878025 -0.044828728 -15.87088 -31.521612 -110.12777
78931000 -31.607004 -97.839264 -0.043485116 -16.077503 -0.044308808 -16.070177 -31.420454 -109.97111
79930000 -31.499146 -98.635025 -0.046696305 -16.26836 -0.047001932 -16.265371 -31.319714 -110.28073
80929000 -31.380091 -99.483612 -0.04779698 -16.466499 -0.048158694 -16.463932 -31.22134 -110.52549
81928000 -31.285074 -100.20454 -0.047978882 -16.660625 -0.048574891 -16.657581 -31.090305 -110.46106
82927000 -31.186731 -100.92509 -0.0496043 -16.856934 -0.049938936 -16.855448 -30.989761 -110.8251
83926000 -31.06745 -101.59211 -0.051520292 -17.055344 -0.050931472 -17.053328 -30.867561 -110.95219
84925000 -30.962147 -102.02269 -0.052191719 -17.25927 -0.051476549 -17.250019 -30.770506 -111.00255
85924000 -30.871967 -102.47806 -0.053752672 -17.452847 -0.052719399 -17.451286 -30.681984 -111.00352
86923000 -30.756861 -102.95148 -0.053182676 -17.653435 -0.053132363 -17.645149 -30.587187 -110.80049
87922000 -30.641317 -103.2391 -0.052522101 -17.859732 -0.052236259 -17.852436 -30.500113 -110.85565
88921000 -30.574022 -103.51867 -0.054235455 -18.056316 -0.05408055 -18.055418 -30.413073 -110.87088
89920000 -30.478727 -104.00611 -0.054125369 -18.256222 -0.053384982 -18.250505 -30.350191 -111.0049
90919000 -30.383215 -104.31454 -0.055238154 -18.450483 -0.055107329 -18.448421 -30.266479 -111.13964
91918000 -30.275518 -104.63255 -0.056808066 -18.65428 -0.055032089 -18.649908 -30.19109 -111.13766
92917000 -30.185539 -104.917 -0.057628255 -18.852718 -0.056300085 -18.846781 -30.13924 -111.22698
93916000 -30.096304 -105.28172 -0.057024442 -19.047647 -0.05560023 -19.042542 -30.049442 -111.8189
94915000 -30.01898 -105.9379 -0.058057692 -19.252327 -0.057291191 -19.245335 -29.986273 -111.73061
95914000 -29.953321 -106.13041 -0.059255455 -19.444977 -0.05768282 -19.439367 -29.895721 -111.99301
96913000 -29.861334 -106.30413 -0.060393177 -19.643841 -0.058971792 -19.641947 -29.828926 -112.35482
97912000 -29.795027 -106.79342 -0.061712623 -19.840025 -0.059267789 -19.841433 -29.748798 -112.58363
98911000 -29.684923 -106.95615 -0.062536366 -20.041817 -0.061170988 -20.038488 -29.711025 -112.76552
99910000 -29.613985 -107.06153 -0.062526122 -20.24008 -0.061265763 -20.23951 -29.609085 -113.03049
100909000 -29.529301 -107.31036 -0.061715249 -20.451796 -0.059748035 -20.444086 -29.511633 -113.26537
101908000 -29.438465 -107.61466 -0.063107848 -20.650732 -0.061966266 -20.649145 -29.409742 -113.09296
102907000 -29.306103 -107.6384 -0.063144356 -20.853065 -0.062344398 -20.845627 -29.33024 -113.10434
103906000 -29.216515 -107.61326 -0.064252362 -21.056707 -0.061917692 -21.050255 -29.194077 -113.01673
104905000 -29.063799 -107.51472 -0.064467795 -21.256643 -0.06194526 -21.25745 -29.05941 -112.73691
105904000 -28.923819 -107.62675 -0.06472791 -21.460089 -0.062404796 -21.449053 -28.950144 -112.60351
106903000 -28.812817 -107.70364 -0.06432303 -21.661297 -0.062679231 -21.656414 -28.826302 -112.48952
107902000 -28.646097 -108.02824 -0.06541872 -21.863466 -0.063763469 -21.85549 -28.688477 -112.43457
108901000 -28.530111 -108.23826 -0.066571996 -22.065294 -0.06432382 -22.056395 -28.554764 -112.39842
109900000 -28.409035 -108.69347 -0.067050949 -22.265398 -0.065286279 -22.257509 -28.411747 -112.45554
110899000 -28.291306 -109.3039 -0.068449996 -22.460537 -0.066013977 -22.455526 -28.290369 -112.69991
111898000 -28.198107 -110.00195 -0.069190063 -22.663179 -0.067248903 -22.662516 -28.165728 -112.84962
112897000 -28.075266 -110.49226 -0.071818128 -22.864368 -0.068451576 -22.85507 -28.04254 -112.99005
113896000 -27.966295 -111.01052 -0.072449796 -23.063259 -0.070002861 -23.054356 -27.925819 -113.13334
114895000 -27.871084 -111.74033 -0.073359825 -23.261076 -0.070933685 -23.251101 -27.81699 -113.21613
115894000 -27.742058 -112.06741 -0.074550226 -23.466494 -0.072021574 -23.448986 -27.748373 -113.41492
116893000 -27.663494 -112.55627 -0.07562875 -23.659689 -0.073219769 -23.643673 -27.621344 -113.44317
117892000 -27.587719 -113.03483 -0.07500162 -23.857531 -0.07352332 -23.845343 -27.547554 -113.66486
118891000 -27.527086 -113.43493 -0.076122135 -24.058046 -0.074002251 -24.045237 -27.457249 -113.76627
119890000 -27.436865 -113.81125 -0.075870559 -24.25729 -0.075051926 -24.245338 -27.437984 -113.9084
120889000 -27.389011 -114.26713 -0.078262299 -24.459827 -0.074528106 -24.441425 -27.373182 -113.88621
121888000 -27.350906 -114.62646 -0.077936277 -24.654633 -0.075999379 -24.646206 -27.307798 -114.12887
122887000 -27.308167 -114.79298 -0.078805543 -24.860785 -0.075519696 -24.848013 -27.263155 -114.16512
123886000 -27.258028 -115.20192 -0.079259485 -25.065184 -0.076484114 -25.044628 -27.253523 -114.2721
124885000 -27.225847 -115.72409 -0.079461955 -25.26576 -0.077041104 -25.24473 -27.216574 -114.29412
125884000 -27.170338 -115.91802 -0.080945447 -25.459869 -0.077288002 -25.446667 -27.186718 -114.49693
126883000 -27.155716 -116.31822 -0.081534393 -25.665426 -0.077999003 -25.651505 -27.146648 -114.53857
127882000 -27.105873 -116.5369 -0.081478216 -25.863569 -0.078298405 -25.84774 -27.106621 -114.61187
128881000 -27.070362 -116.94054 -0.081036173 -26.067772 -0.078343213 -26.049122 -27.073954 -114.7202
129880000 -27.020269 -117.25875 -0.082222611 -26.268164 -0.07816267 -26.247526 -27.032333 -114.66917
130879000 -26.963789 -117.37217 -0.081914499 -26.467428 -0.079277411 -26.447607 -26.962576 -114.67064
131878000 -26.897482 -117.60584 -0.081938766 -26.669703 -0.079733774 -26.648327 -26.899382 -114.53085
132877000 -26.828571 -117.73721 -0.081487969 -26.872084 -0.079892501 -26.855524 -26.817389 -114.55098
133876000 -26.751814 -117.86139 -0.082420476 -27.072779 -0.080332056 -27.05328 -26.72625 -114.40454
134875000 -26.652527 -118.0246 -0.082969777 -27.27491 -0.080571495 -27.255409 -26.636703 -114.27355
135874000 -26.572283 -118.01711 -0.08271385 -27.474762 -0.080399036 -27.457882 -26.542723 -114.23345
136873000 -26.461224 -117.96899 -0.0834231 -27.676029 -0.079617508 -27.656015 -26.457556 -114.18731
137872000 -26.382099 -118.09013 -0.082995899 -27.876247 -0.080284588 -27.864309 -26.356571 -114.10372
138871000 -26.306124 -118.27438 -0.083157644 -28.075836 -0.080888748 -28.063133 -26.260212 -114.25784
139870000 -26.207655 -118.59882 -0.083537102 -28.278126 -0.08191476 -28.258598 -26.178877 -114.45095
140869000 -26.130569 -119.1223 -0.085254289 -28.474077 -0.082581669 -28.454996 -26.08106 -114.67375
141868000 -26.046 -119.50825 -0.086201593 -28.670622 -0.08371681 -28.657814 -26.025854 -114.89657
142867000 -25.969675 -119.72473 -0.084023207 -28.871361 -0.083157644 -28.852629 -25.95546 -114.99678
143866000 -25.89591 -120.23704 -0.086503938 -29.069279 -0.084181823 -29.051561 -25.877333 -115.46341
144865000 -25.836754 -120.71861 -0.088277511 -29.264746 -0.085822701 -29.2505 -25.821863 -115.75774
145864000 -25.782398 -121.03017 -0.088094182 -29.465757 -0.086680606 -29.454996 -25.785242 -116.02531
146863000 -25.73708 -121.39417 -0.089436874 -29.669273 -0.087266371 -29.655224 -25.734489 -116.33772
147862000 -25.696976 -121.71616 -0.09088888 -29.863476 -0.087576449 -29.853708 -25.707741 -116.64025
148861000 -25.66592 -122.15515 -0.090877779 -30.062235 -0.088749886 -30.047935 -25.681261 -116.77753
149860000 -25.631147 -122.31226 -0.091908008 -30.256851 -0.089625545 -30.242622 -25.634216 -116.87472
150859000 -25.607191 -122.80408 -0.09176603 -30.450937 -0.089447968 -30.440084 -25.617121 -117.24897
151858000 -25.604019 -123.14073 -0.090394601 -30.651823 -0.089104727 -30.637817 -25.604305 -117.57565
152857000 -25.583199 -123.49128 -0.09164653 -30.853895 -0.089639023 -30.838196 -25.586422 -117.73759
153856000 -25.580334 -123.68945 -0.090454333 -31.050781 -0.089346498 -31.042145 -25.603292 -118.09978
154855000 -25.577572 -123.84293 -0.091072328 -31.253683 -0.089323245 -31.241491 -25.58852 -118.29609
155854000 -25.594805 -124.09507 -0.092216305 -31.453087 -0.089820042 -31.43886 -25.585011 -118.58234
156853000 -25.576643 -124.78813 -0.089498967 -31.641949 -0.088678814 -31.632683 -25.579639 -118.91151
157852000 -25.587934 -125.00514 -0.090466492 -31.839706 -0.090172067 -31.83251 -25.564926 -119.22495
158851000 -25.585958 -125.20982 -0.091347262 -32.038925 -0.090033576 -32.030994 -25.555025 -119.51497
159850000 -25.574226 -125.34075 -0.092465654 -32.237972 -0.090058953 -32.230091 -25.551924 -119.71132
160849000 -25.557785 -125.43784 -0.092058718 -32.437405 -0.091230944 -32.435341 -25.520977 -119.9679
161848000 -25.541386 -125.50899 -0.092523828 -32.638363 -0.091171198 -32.634197 -25.483315 -120.09856
162847000 -25.496681 -125.67858 -0.092732206 -32.836227 -0.091057532 -32.830734 -25.45208 -120.40163
163846000 -25.463608 -125.87579 -0.093399726 -33.038074 -0.091540247 -33.033619 -25.376894 -120.37428
164845000 -25.405254 -125.84601 -0.093066216 -33.238689 -0.091786124 -33.233662 -25.314814 -120.4613
165844000 -25.350367 -125.89514 -0.093424052 -33.437233 -0.092391618 -33.433128 -25.239735 -120.59753
166843000 -25.283419 -125.93631 -0.092788801 -33.637524 -0.092211813 -33.633244 -25.166231 -120.78069
167842000 -25.230442 -126.04289 -0.092961751 -33.836578 -0.092612684 -33.830936 -25.092941 -120.67677
168841000 -25.152357 -126.21622 -0.093967348 -34.03352 -0.093285993 -34.031952 -25.019638 -120.745
169840000 -25.083921 -126.46243 -0.093615547 -34.230659 -0.093536198 -34.225868 -24.930891 -120.9519
170839000 -25.02466 -126.67165 -0.095002279 -34.427452 -0.094053052 -34.426407 -24.852474 -121.10825
171838000 -24.967442 -127.08344 -0.09508086 -34.632339 -0.094747759 -34.628567 -24.791822 -121.33788
172837000 -24.897423 -127.44596 -0.096258707 -34.827518 -0.09620975 -34.82473 -24.722874 -121.51862
173836000 -24.83042 -127.79374 -0.097813345 -35.028759 -0.096927822 -35.024586 -24.681936 -121.7674
174835000 -24.782331 -128.22043 -0.098242007 -35.224884 -0.097897798 -35.223598 -24.637405 -122.04242
175834000 -24.727777 -128.59578 -0.098779812 -35.426121 -0.098758623 -35.421993 -24.580738 -122.3326
176833000 -24.68132 -128.92209 -0.10016686 -35.625244 -0.09952268 -35.623203 -24.529028 -122.48002
177832000 -24.633064 -129.32999 -0.10122871 -35.822662 -0.099853769 -35.824505 -24.506695 -122.56397
178831000 -24.586258 -129.55775 -0.10277638 -36.016453 -0.10194629 -36.019348 -24.469498 -122.65077
179830000 -24.5168 -129.97551 -0.10408729 -36.202709 -0.10272947 -36.206085 -24.407343 -122.69846
180829000 -24.469006 -130.34215 -0.10216282 -36.396412 -0.10147673 -36.399471 -24.365047 -123.04337
181828000 -24.443497 -130.76816 -0.1012364 -36.597256 -0.10127138 -36.593235 -24.347143 -123.2411
182827000 -24.421061 -131.11531 -0.10214823 -36.793335 -0.10107769 -36.790001 -24.332329 -123.35196
183826000 -24.381792 -131.44911 -0.1023433 -36.992783 -0.10153873 -36.989906 -24.319269 -123.52381
184825000 -24.385553 -131.79839 -0.10282754 -37.191971 -0.10206661 -37.189693 -24.308252 -123.63293
185824000 -24.355406 -132.1635 -0.10180266 -37.38348 -0.10198181 -37.388203 -24.299633 -123.68657
186823000 -24.337631 -132.50999 -0.10234648 -37.58588 -0.10203349 -37.587616 -24.290195 -123.68748
187822000 -24.314413 -132.83943 -0.10323231 -37.782887 -0.10271012 -37.77969 -24.252451 -123.77138
188821000 -24.297089 -133.10855 -0.10273954 -37.979694 -0.10262477 -37.980499 -24.235144 -123.90244
189820000 -24.272779 -133.41534 -0.10350217 -38.179325 -0.10287339 -38.177372 -24.223063 -124.12153
190819000 -24.239342 -133.72589 -0.10426468 -38.371571 -0.10318088 -38.373116 -24.180429 -124.13654
191818000 -24.206522 -134.00291 -0.10403533 -38.572628 -0.10367078 -38.572056 -24.155466 -124.18612
192817000 -24.164089 -134.29124 -0.10464757 -38.767548 -0.1039534 -38.77124 -24.112457 -124.26993
193816000 -24.131922 -134.51347 -0.10388792 -38.962128 -0.10373653 -38.964264 -24.05645 -124.41634
194815000 -24.071318 -134.94766 -0.10489949 -39.161808 -0.10454734 -39.163559 -23.99053 -124.50516
195814000 -24.015961 -135.13637 -0.10507187 -39.355255 -0.10426415 -39.358524 -23.936171 -124.58926
196813000 -23.964153 -135.47392 -0.10461548 -39.55109 -0.10418036 -39.55344 -23.858158 -124.74313
197812000 -23.902729 -135.69705 -0.10528535 -39.750282 -0.10543361 -39.744797 -23.787868 -124.83417
198811000 -23.848591 -135.85477 -0.10590944 -39.946869 -0.10457651 -39.952286 -23.724489 -125.00786
199810000 -23.78252 -136.20929 -0.10614658 -40.142426 -0.10500503 -40.139084 -23.643236 -125.09293
200809000 -23.725412 -136.44501 -0.10693237 -40.340141 -0.10530365 -40.344795 -23.566843 -125.28973
201808000 -23.664167 -136.65553 -0.10714622 -40.537563 -0.10637737 -40.54517 -23.501768 -125.34915
202807000 -23.61051 -136.96863 -0.10770397 -40.740913 -0.10692282 -40.745831 -23.445101 -125.51966
