!Keysight Technologies,E5080B,MY59205177,A.15.75.32
!Date: Friday, February 23, 2024 03:34:47
!Correction: S11(Cdelta 2-Port  ) 
!S21(Cdelta 2-Port  ) 
!S12(Cdelta 2-Port  ) 
!S22(Cdelta 2-Port  ) 
!S2P File: Measurements: S11, S21, S12, S22:
# Hz S  dB   R 50
10000000 -46.061775 -2.2325788 -0.014535713 -2.044769 -0.019137666 -2.0977914 -45.874714 -157.94427
10999000 -45.303452 -4.4432402 -0.015680483 -2.2675772 -0.018797334 -2.3189788 -45.887196 -151.44429
11998000 -44.350407 -7.7801843 -0.016221672 -2.4875772 -0.018754179 -2.5305486 -46.033176 -146.95534
12997000 -43.630806 -13.108674 -0.015509281 -2.6684427 -0.018150026 -2.7015405 -45.703205 -141.47305
13996000 -43.324627 -17.113783 -0.014774669 -2.8475461 -0.01862211 -2.8720999 -45.474621 -136.19724
14995000 -42.927814 -21.499781 -0.016894421 -3.0602248 -0.017514771 -3.0822253 -45.068462 -132.89912
15994000 -42.701694 -25.998692 -0.018065285 -3.2749441 -0.020350488 -3.2985992 -44.996555 -129.51941
16993000 -42.651947 -30.732456 -0.017422765 -3.4730201 -0.019605177 -3.4829512 -44.170212 -129.25592
17992000 -42.765461 -36.430073 -0.017372085 -3.6745248 -0.020403285 -3.6778226 -43.589931 -129.06403
18991000 -43.010979 -41.397705 -0.018592214 -3.8851974 -0.021408344 -3.883307 -42.994213 -128.23743
19990000 -42.747829 -46.907814 -0.020593146 -4.0929403 -0.023463408 -4.0889606 -42.327869 -129.00272
20989000 -42.568932 -50.366325 -0.022773247 -4.2986245 -0.025109615 -4.2865949 -41.80949 -128.08707
21988000 -42.395641 -55.629597 -0.02364143 -4.4956951 -0.026032433 -4.4817834 -41.498085 -127.60375
22987000 -42.046474 -60.080421 -0.024815939 -4.6975269 -0.027083337 -4.6864047 -41.239597 -126.8279
23986000 -41.973598 -64.281189 -0.024548054 -4.8888655 -0.025741817 -4.8892746 -41.13726 -126.97207
24985000 -41.595009 -67.030487 -0.025681665 -5.0999565 -0.026392082 -5.0952272 -40.957867 -124.40712
25984000 -41.266273 -69.169044 -0.026810626 -5.3007135 -0.026857769 -5.3083148 -40.575829 -122.97527
26983000 -40.947811 -70.923958 -0.027147677 -5.501451 -0.028337985 -5.5197387 -40.514301 -122.16463
27982000 -40.798504 -71.893326 -0.028898735 -5.7020779 -0.029339932 -5.7375274 -40.244015 -120.61129
28981000 -40.714352 -73.38269 -0.026484538 -5.900279 -0.028891439 -5.9275665 -39.980175 -119.7588
29980000 -40.33923 -74.607834 -0.026839016 -6.0942941 -0.029489789 -6.1020365 -39.69453 -119.02126
30979000 -39.94154 -73.810974 -0.023868393 -6.4520922 -0.024553521 -6.4395566 -39.210403 -119.551
31978000 -39.715557 -74.722916 -0.023987086 -6.6436114 -0.025317648 -6.6350117 -38.979599 -118.59707
32977000 -39.556522 -76.193207 -0.023759335 -6.8539333 -0.026339473 -6.8526926 -38.741459 -118.72849
33976000 -39.383186 -77.342697 -0.0238559 -7.0569372 -0.026434273 -7.0508075 -38.477474 -118.09684
34975000 -39.083599 -78.231224 -0.024383271 -7.2560763 -0.027108343 -7.2537975 -38.245155 -117.83041
35974000 -38.875175 -78.803749 -0.023297884 -7.451189 -0.027157575 -7.456305 -37.961151 -116.98497
36973000 -38.664764 -79.467232 -0.024673535 -7.6518397 -0.02774813 -7.6574712 -37.713875 -116.01176
37972000 -38.47699 -79.107307 -0.023407711 -7.8660336 -0.027808832 -7.8724341 -37.467667 -115.26231
38971000 -38.172161 -78.565224 -0.024744606 -8.066328 -0.027996413 -8.0774498 -37.310585 -113.73087
39970000 -37.824722 -78.98835 -0.023285652 -8.2623911 -0.027103655 -8.2774439 -37.067974 -113.13921
40969000 -37.550896 -78.658211 -0.022620501 -8.4549942 -0.026661122 -8.4738998 -36.808838 -111.74763
41968000 -37.207748 -78.582062 -0.02321044 -8.661643 -0.026554598 -8.6748409 -36.611877 -110.50111
42967000 -36.950256 -78.662514 -0.023395739 -8.8704128 -0.027299281 -8.8875666 -36.423542 -108.6371
43966000 -36.633289 -79.36071 -0.023959495 -9.0739803 -0.028879451 -9.0863028 -36.162052 -107.82652
44965000 -36.408054 -80.085915 -0.024627194 -9.277586 -0.029328726 -9.2937279 -35.951294 -107.66958
45964000 -36.184288 -81.112686 -0.026343379 -9.4761019 -0.029606288 -9.4951982 -35.721157 -107.3397
46963000 -35.970673 -83.153961 -0.026720244 -9.6693087 -0.030338461 -9.6874142 -35.531357 -107.55213
47962000 -35.804729 -84.500908 -0.027680919 -9.8727598 -0.031419612 -9.8872128 -35.347469 -107.55233
48961000 -35.584927 -85.921257 -0.030209169 -10.065182 -0.03263196 -10.087938 -35.094151 -107.78255
49960000 -35.375198 -87.183388 -0.031019134 -10.268412 -0.03410371 -10.287638 -34.980583 -107.80936
50959000 -35.136238 -88.555786 -0.031706173 -10.481574 -0.035132561 -10.489888 -34.79171 -108.0909
51958000 -34.938656 -89.49202 -0.033743419 -10.678143 -0.036643535 -10.689937 -34.608109 -108.55672
52957000 -34.705688 -90.55722 -0.035793107 -10.881948 -0.037779264 -10.886827 -34.463184 -108.27158
53956000 -34.549828 -91.194443 -0.036238138 -11.078926 -0.038906671 -11.082381 -34.319881 -108.22105
54955000 -34.367046 -91.639847 -0.037251309 -11.285701 -0.039374225 -11.281981 -34.168209 -108.19897
55954000 -34.203434 -92.487785 -0.038180888 -11.482665 -0.039280448 -11.481387 -34.071835 -107.89179
56953000 -34.082447 -92.527824 -0.037594654 -11.68324 -0.038565047 -11.671593 -34.000866 -108.11544
57952000 -33.920456 -93.068367 -0.038567923 -11.883439 -0.040404327 -11.865061 -33.879162 -108.1583
58951000 -33.794243 -93.435829 -0.040988848 -12.084964 -0.041087363 -12.063373 -33.726738 -108.25446
59950000 -33.676838 -93.858376 -0.04056371 -12.282958 -0.041731827 -12.263121 -33.653912 -108.53336
60949000 -33.558121 -94.347084 -0.04057024 -12.485779 -0.041918702 -12.465307 -33.569801 -108.71781
61948000 -33.492783 -94.689629 -0.041712224 -12.687573 -0.041704122 -12.669134 -33.46843 -108.87032
62947000 -33.408005 -94.912598 -0.041379269 -12.896437 -0.042685892 -12.87863 -33.337933 -109.06983
63946000 -33.338974 -95.580513 -0.042520944 -13.096017 -0.04375574 -13.07624 -33.23373 -109.23457
64945000 -33.226936 -95.807137 -0.043387592 -13.298419 -0.044241861 -13.277938 -33.126179 -109.7886
65944000 -33.114189 -96.058769 -0.044149548 -13.498036 -0.044577915 -13.479567 -33.019215 -110.22318
66943000 -32.974113 -96.424736 -0.042184003 -13.700897 -0.042892154 -13.683137 -32.924278 -110.45894
67942000 -32.917194 -96.445091 -0.044564314 -13.897035 -0.04477616 -13.883202 -32.796284 -110.74802
68941000 -32.80159 -96.516624 -0.042750202 -14.092133 -0.044131245 -14.083795 -32.679386 -110.71671
69940000 -32.721725 -96.591911 -0.043175817 -14.290537 -0.044419691 -14.28128 -32.540596 -110.97019
70939000 -32.595604 -96.478821 -0.043613758 -14.483565 -0.044576347 -14.480252 -32.408802 -110.82495
71938000 -32.465263 -96.100647 -0.043402757 -14.683324 -0.044278473 -14.676634 -32.275421 -110.72207
72937000 -32.320751 -95.80806 -0.043681219 -14.880757 -0.043652982 -14.877316 -32.146828 -110.42492
73936000 -32.168373 -95.460442 -0.043226797 -15.079135 -0.043471258 -15.074101 -32.038036 -110.23966
74935000 -32.051338 -95.74633 -0.043399882 -15.277512 -0.042104281 -15.274581 -31.875153 -109.87224
75934000 -31.917313 -96.030823 -0.042671252 -15.489775 -0.042670209 -15.482305 -31.788134 -109.81391
76933000 -31.779057 -96.383499 -0.043550223 -15.678864 -0.043707889 -15.672279 -31.608912 -110.16999
77932000 -31.679571 -97.076302 -0.044820361 -15.877856 -0.045353945 -15.87085 -31.523508 -110.06855
78931000 -31.609747 -97.852837 -0.043770645 -16.075752 -0.044906408 -16.06934 -31.420938 -109.96893
79930000 -31.495472 -98.6978 -0.046438839 -16.271132 -0.046769831 -16.267841 -31.307344 -110.26988
80929000 -31.381786 -99.464851 -0.047659576 -16.468288 -0.048673056 -16.463892 -31.212852 -110.52311
81928000 -31.271748 -100.21066 -0.047906119 -16.658657 -0.04926838 -16.656015 -31.094637 -110.50221
82927000 -31.178791 -100.94566 -0.049953859 -16.856874 -0.05060776 -16.857019 -30.982141 -110.79193
83926000 -31.058666 -101.56962 -0.051105909 -17.05455 -0.051599927 -17.055882 -30.873869 -110.98727
84925000 -30.958084 -102.0305 -0.052031387 -17.255753 -0.050940901 -17.249748 -30.773857 -111.02886
85924000 -30.877996 -102.44449 -0.052351538 -17.454466 -0.053078119 -17.452572 -30.691133 -111.03134
86923000 -30.763105 -102.92291 -0.053541176 -17.651548 -0.053512085 -17.648085 -30.584648 -110.90512
87922000 -30.647272 -103.26311 -0.052660443 -17.85779 -0.052128579 -17.850035 -30.495108 -110.8466
88921000 -30.578621 -103.5071 -0.054139525 -18.05932 -0.053192373 -18.051037 -30.407898 -110.80367
89920000 -30.471012 -103.99352 -0.054475557 -18.256382 -0.054478701 -18.250679 -30.350063 -110.97832
90919000 -30.371954 -104.29166 -0.055518948 -18.454376 -0.055042051 -18.451126 -30.264654 -111.15086
91918000 -30.268539 -104.66992 -0.056559443 -18.651686 -0.055104185 -18.650917 -30.198767 -111.18671
92917000 -30.181936 -104.92122 -0.057424702 -18.853672 -0.056160837 -18.850945 -30.132795 -111.21805
93916000 -30.097717 -105.30399 -0.056989823 -19.047319 -0.056245539 -19.043461 -30.039061 -111.87679
94915000 -30.031267 -105.91905 -0.058365691 -19.250504 -0.057530936 -19.238302 -29.990099 -111.73
95914000 -29.95458 -106.12457 -0.058929283 -19.443714 -0.058054019 -19.438894 -29.886356 -112.0487
96913000 -29.869864 -106.36603 -0.060776155 -19.644705 -0.059652768 -19.641191 -29.822489 -112.37029
97912000 -29.796963 -106.77265 -0.061299365 -19.837831 -0.059218455 -19.840248 -29.744532 -112.58231
98911000 -29.683567 -106.97137 -0.061393883 -20.045124 -0.060911614 -20.040562 -29.705959 -112.82308
99910000 -29.612909 -107.10149 -0.061967056 -20.240725 -0.061113492 -20.237198 -29.599785 -113.09293
100909000 -29.518593 -107.3287 -0.061492074 -20.446346 -0.061265498 -20.440929 -29.516487 -113.27392
101908000 -29.43778 -107.56108 -0.06311205 -20.651222 -0.061552987 -20.644905 -29.397997 -113.12583
102907000 -29.303936 -107.58382 -0.063867494 -20.850185 -0.062436309 -20.846439 -29.329918 -113.06157
103906000 -29.206257 -107.63673 -0.063779496 -21.054928 -0.061216932 -21.054834 -29.187674 -113.02586
104905000 -29.066011 -107.57384 -0.064519294 -21.252321 -0.06188618 -21.254417 -29.060341 -112.70354
105904000 -28.929081 -107.60365 -0.064585768 -21.456972 -0.062100712 -21.453054 -28.949671 -112.60298
106903000 -28.807756 -107.71022 -0.064764164 -21.663139 -0.062507741 -21.658846 -28.825315 -112.47078
107902000 -28.646288 -108.03416 -0.065453149 -21.862785 -0.063451149 -21.852716 -28.681833 -112.45297
108901000 -28.536018 -108.27168 -0.066559635 -22.063509 -0.064676672 -22.055616 -28.557318 -112.35723
109900000 -28.402519 -108.70188 -0.067411907 -22.265551 -0.065521479 -22.256771 -28.408077 -112.48817
110899000 -28.291733 -109.29431 -0.069251083 -22.460978 -0.066435046 -22.454977 -28.288685 -112.7515
111898000 -28.197271 -110.01115 -0.070490614 -22.664124 -0.067658521 -22.658461 -28.162086 -112.86608
112897000 -28.071787 -110.49777 -0.071750231 -22.863939 -0.068356901 -22.853199 -28.031376 -113.04896
113896000 -27.968233 -111.10176 -0.072629049 -23.064903 -0.06956251 -23.052948 -27.926895 -113.14333
114895000 -27.861952 -111.73007 -0.073430382 -23.266483 -0.071245231 -23.246786 -27.813124 -113.23707
115894000 -27.748486 -112.07014 -0.074734576 -23.464003 -0.072656691 -23.451942 -27.748835 -113.4523
116893000 -27.670349 -112.57112 -0.075644024 -23.660839 -0.073425382 -23.643377 -27.62188 -113.48051
117892000 -27.584419 -113.02738 -0.075422242 -23.857185 -0.073711306 -23.842152 -27.548134 -113.6474
118891000 -27.524632 -113.40263 -0.075214691 -24.059801 -0.07375396 -24.04294 -27.453005 -113.78339
119890000 -27.434046 -113.78304 -0.076789737 -24.25841 -0.074763276 -24.248184 -27.437006 -113.93771
120889000 -27.382875 -114.32465 -0.077954724 -24.462456 -0.074787505 -24.448732 -27.368113 -113.87895
121888000 -27.345129 -114.62823 -0.077330165 -24.65774 -0.074743003 -24.645458 -27.307333 -114.09912
122887000 -27.308033 -114.79268 -0.078439683 -24.861174 -0.076031253 -24.848148 -27.264145 -114.14036
123886000 -27.256287 -115.19345 -0.079370208 -25.062565 -0.076228306 -25.042877 -27.250671 -114.23885
124885000 -27.227472 -115.70747 -0.079272933 -25.261013 -0.076994203 -25.243006 -27.218691 -114.30481
125884000 -27.171457 -115.93107 -0.08049766 -25.46031 -0.076957576 -25.444756 -27.189413 -114.50249
126883000 -27.15646 -116.26543 -0.080678031 -25.66308 -0.078217231 -25.649036 -27.150663 -114.4894
127882000 -27.107218 -116.62289 -0.080955468 -25.862297 -0.078616023 -25.846962 -27.107876 -114.62518
128881000 -27.075657 -116.94032 -0.081460014 -26.064796 -0.078665838 -26.045341 -27.073521 -114.72308
129880000 -27.020731 -117.25397 -0.081912383 -26.268162 -0.078718558 -26.247782 -27.031765 -114.67636
130879000 -26.964581 -117.40834 -0.081530176 -26.46759 -0.079681836 -26.451437 -26.959509 -114.71368
131878000 -26.901329 -117.66231 -0.081847496 -26.669981 -0.080208384 -26.647583 -26.90114 -114.55198
132877000 -26.838036 -117.72131 -0.081361897 -26.872154 -0.080134027 -26.856222 -26.821098 -114.51989
133876000 -26.747641 -117.86555 -0.082289092 -27.070078 -0.079497546 -27.050337 -26.733089 -114.41516
134875000 -26.653088 -118.01185 -0.082144789 -27.271423 -0.079544738 -27.25219 -26.63751 -114.30113
135874000 -26.573959 -118.04433 -0.082390137 -27.472754 -0.079683423 -27.459478 -26.545605 -114.24475
136873000 -26.45875 -117.97488 -0.083125189 -27.674511 -0.079876944 -27.654104 -26.461973 -114.19249
137872000 -26.38348 -118.13036 -0.083063714 -27.874456 -0.07983318 -27.861572 -26.356022 -114.10067
138871000 -26.310028 -118.3043 -0.083416767 -28.075356 -0.080839165 -28.061483 -26.261244 -114.28524
139870000 -26.205956 -118.60078 -0.084062792 -28.273409 -0.081097618 -28.260092 -26.18325 -114.44831
140869000 -26.129034 -119.13741 -0.084593572 -28.472944 -0.081667073 -28.458998 -26.081873 -114.67344
141868000 -26.045132 -119.56682 -0.085228682 -28.672878 -0.083299078 -28.658699 -26.030949 -114.93937
142867000 -25.966391 -119.74857 -0.084882073 -28.870756 -0.082613595 -28.853273 -25.948076 -115.0503
143866000 -25.892035 -120.20358 -0.085973985 -29.06539 -0.084172055 -29.049366 -25.881622 -115.48811
144865000 -25.839586 -120.73232 -0.088095769 -29.264133 -0.085412689 -29.251673 -25.818651 -115.77049
145864000 -25.78299 -121.04046 -0.088282801 -29.466993 -0.086679019 -29.454775 -25.783819 -116.05127
146863000 -25.737999 -121.36414 -0.089294709 -29.666876 -0.086604021 -29.656538 -25.734182 -116.33902
147862000 -25.693966 -121.71736 -0.089492366 -29.866846 -0.087680258 -29.855125 -25.709417 -116.61141
148861000 -25.662655 -122.16532 -0.090823852 -30.061258 -0.088540643 -30.047287 -25.687445 -116.77509
149860000 -25.631166 -122.3681 -0.091983892 -30.259445 -0.089190602 -30.242729 -25.630449 -116.895
150859000 -25.608685 -122.81281 -0.091632247 -30.452713 -0.089393802 -30.442673 -25.609467 -117.23613
151858000 -25.595604 -123.13802 -0.090874076 -30.656874 -0.089299463 -30.638304 -25.597937 -117.59373
152857000 -25.578136 -123.44997 -0.090856105 -30.850487 -0.089431852 -30.842871 -25.582188 -117.76962
153856000 -25.577461 -123.71143 -0.09131448 -31.05101 -0.088827297 -31.041695 -25.599564 -118.07098
154855000 -25.575382 -123.84614 -0.091403566 -31.250954 -0.089418374 -31.239882 -25.589655 -118.31471
155854000 -25.593746 -124.05368 -0.091451153 -31.453878 -0.089410447 -31.441919 -25.579605 -118.56725
156853000 -25.576494 -124.78353 -0.089524604 -31.636719 -0.08827699 -31.630716 -25.57777 -118.87447
157852000 -25.582621 -124.97449 -0.090141408 -31.840338 -0.089939497 -31.83461 -25.566883 -119.22217
158851000 -25.581362 -125.22275 -0.091416255 -32.038456 -0.090497419 -32.030693 -25.550095 -119.50695
159850000 -25.576664 -125.31466 -0.091500066 -32.23872 -0.090462796 -32.232037 -25.546642 -119.68633
160849000 -25.554609 -125.41666 -0.091881834 -32.439972 -0.091159567 -32.432674 -25.520075 -120.00481
161848000 -25.536772 -125.51425 -0.092642829 -32.638615 -0.091303378 -32.631176 -25.48517 -120.11429
162847000 -25.497452 -125.68118 -0.092662133 -32.839211 -0.092242479 -32.832615 -25.453398 -120.35045
163846000 -25.458344 -125.8343 -0.093415327 -33.038177 -0.091660805 -33.032265 -25.378862 -120.38139
164845000 -25.403564 -125.87639 -0.093157195 -33.236683 -0.091744348 -33.234791 -25.313246 -120.48545
165844000 -25.345909 -125.9202 -0.093179144 -33.437244 -0.092641771 -33.429745 -25.23432 -120.61314
166843000 -25.285389 -125.96812 -0.093736693 -33.634979 -0.092397429 -33.634335 -25.167274 -120.76536
167842000 -25.228575 -126.0754 -0.09333016 -33.839806 -0.09274067 -33.82972 -25.090424 -120.6816
168841000 -25.153042 -126.23383 -0.094374202 -34.036907 -0.093402371 -34.031757 -25.020332 -120.7679
169840000 -25.079288 -126.47092 -0.094274737 -34.233276 -0.09387847 -34.230217 -24.932539 -120.9313
170839000 -25.023266 -126.7067 -0.095277458 -34.430351 -0.094124213 -34.425762 -24.85239 -121.13515
171838000 -24.969799 -127.05627 -0.094882689 -34.631172 -0.095202312 -34.626793 -24.789457 -121.32042
172837000 -24.892412 -127.42792 -0.096213192 -34.829742 -0.09599141 -34.820538 -24.720409 -121.55707
173836000 -24.832895 -127.82742 -0.097710885 -35.025341 -0.096873827 -35.026108 -24.681974 -121.76598
174835000 -24.776535 -128.21825 -0.097678058 -35.224945 -0.097850412 -35.225052 -24.640406 -122.07143
175834000 -24.726379 -128.58524 -0.099196911 -35.425903 -0.098330177 -35.420502 -24.58042 -122.32928
176833000 -24.677582 -128.92686 -0.1004127 -35.625454 -0.09890639 -35.622868 -24.526777 -122.46237
177832000 -24.62958 -129.36159 -0.10127985 -35.822708 -0.10019707 -35.824505 -24.505913 -122.54672
178831000 -24.584501 -129.56538 -0.10267248 -36.016468 -0.10135775 -36.019608 -24.463346 -122.66368
179830000 -24.51763 -129.95119 -0.10381978 -36.198532 -0.10268945 -36.20578 -24.399412 -122.72745
180829000 -24.462317 -130.33498 -0.10325086 -36.396187 -0.10223199 -36.393539 -24.362053 -123.05939
181828000 -24.443291 -130.7572 -0.10296935 -36.598965 -0.10125468 -36.593407 -24.342182 -123.25205
182827000 -24.416576 -131.11101 -0.10159703 -36.794785 -0.10128912 -36.791176 -24.333021 -123.38192
183826000 -24.375988 -131.44197 -0.10189621 -36.994144 -0.1017971 -36.986454 -24.323893 -123.52052
184825000 -24.378767 -131.79517 -0.102501 -37.189026 -0.10196538 -37.190388 -24.302046 -123.63942
185824000 -24.353733 -132.1368 -0.1025161 -37.384251 -0.10207589 -37.383648 -24.299662 -123.68857
186823000 -24.337315 -132.51097 -0.10226379 -37.586552 -0.1022447 -37.578899 -24.295914 -123.70245
187822000 -24.308468 -132.87749 -0.10315491 -37.784084 -0.10291952 -37.779396 -24.254845 -123.81016
188821000 -24.291088 -133.13281 -0.10285193 -37.973763 -0.10286438 -37.980103 -24.235138 -123.91779
189820000 -24.27125 -133.41228 -0.10318671 -38.178547 -0.1028999 -38.176708 -24.218065 -124.12306
190819000 -24.243212 -133.71475 -0.1042546 -38.37495 -0.10385159 -38.372894 -24.178915 -124.14306
191818000 -24.211796 -134.01096 -0.10391682 -38.570969 -0.10374343 -38.569706 -24.150675 -124.20963
192817000 -24.164436 -134.28693 -0.10447521 -38.772282 -0.10406157 -38.767189 -24.110876 -124.29182
193816000 -24.129803 -134.57021 -0.10423816 -38.964375 -0.10383569 -38.963806 -24.055031 -124.41737
194815000 -24.070629 -134.95419 -0.1047067 -39.160912 -0.10499841 -39.162895 -23.989353 -124.5116
195814000 -24.017004 -135.15154 -0.1061824 -39.355831 -0.10520367 -39.362148 -23.932951 -124.5936
196813000 -23.96323 -135.43637 -0.10586753 -39.553795 -0.10486289 -39.549026 -23.858728 -124.71941
197812000 -23.904961 -135.67938 -0.10563996 -39.753708 -0.10583358 -39.745979 -23.788357 -124.80354
198811000 -23.852806 -135.8698 -0.10573385 -39.948498 -0.10502148 -39.94886 -23.721441 -125.00179
199810000 -23.783411 -136.19408 -0.10629938 -40.13961 -0.10481463 -40.14386 -23.641394 -125.09515
200809000 -23.724474 -136.47992 -0.10621078 -40.337959 -0.10496525 -40.340141 -23.565748 -125.27346
201808000 -23.668028 -136.65675 -0.10706025 -40.537342 -0.10648746 -40.537842 -23.494987 -125.33559
202807000 -23.61068 -136.99214 -0.10776314 -40.739677 -0.10722741 -40.74321 -23.443975 -125.52135
