!Keysight Technologies,E5080B,MY59205177,A.15.75.32
!Date: Friday, February 23, 2024 02:56:37
!Correction: S11(Cdelta 2-Port  ) 
!S21(Cdelta 2-Port  ) 
!S12(Cdelta 2-Port  ) 
!S22(Cdelta 2-Port  ) 
!S2P File: Measurements: S11, S21, S12, S22:
# Hz S  dB   R 50
10000000 -43.922844 -3.9055402 -0.02945278 -2.0403512 -0.031656891 -2.09483 -48.357296 -149.19147
10999000 -43.307789 -5.2796426 -0.03045368 -2.2591007 -0.031239966 -2.3131804 -48.113766 -141.07481
11998000 -42.510742 -7.9445844 -0.030471928 -2.4837015 -0.031690791 -2.5251992 -48.216755 -136.12212
12997000 -41.91777 -12.279593 -0.029889604 -2.6652386 -0.030762339 -2.6911247 -47.566677 -129.07019
13996000 -41.67424 -15.774001 -0.029732697 -2.84006 -0.030804312 -2.8606822 -47.072308 -123.98584
14995000 -41.366657 -19.174553 -0.031761196 -3.0513563 -0.030802747 -3.073189 -46.678989 -120.20991
15994000 -41.252243 -23.013062 -0.032977026 -3.2697082 -0.033765335 -3.2910085 -46.378273 -116.51094
16993000 -41.213909 -26.860796 -0.031896792 -3.4634113 -0.032258492 -3.4730704 -45.417999 -117.64434
17992000 -41.290993 -31.371473 -0.032581884 -3.6628575 -0.034221377 -3.666656 -44.846653 -118.22683
18991000 -41.598595 -35.639549 -0.033134051 -3.869756 -0.034421235 -3.8722017 -44.088192 -117.9146
19990000 -41.470909 -40.894165 -0.036129553 -4.0810275 -0.036061686 -4.0751729 -43.416679 -119.98159
20989000 -41.371777 -43.563339 -0.037615545 -4.2847857 -0.038139626 -4.2750626 -42.826607 -119.41798
21988000 -41.309219 -48.373383 -0.038416184 -4.4817257 -0.03968874 -4.4709396 -42.518044 -118.88104
22987000 -41.123692 -52.854919 -0.039227422 -4.6780562 -0.039503008 -4.6725411 -42.269844 -118.59714
23986000 -41.137653 -56.110161 -0.038993124 -4.8723125 -0.037935939 -4.8715649 -42.144882 -118.69035
24985000 -40.799362 -59.017582 -0.039674375 -5.0798011 -0.039443709 -5.0798697 -41.902355 -116.47524
25984000 -40.596783 -61.209862 -0.041606117 -5.288794 -0.039460689 -5.2902627 -41.479992 -115.49789
26983000 -40.318924 -63.124111 -0.041808408 -5.4885721 -0.040263239 -5.5072241 -41.375313 -114.34376
27982000 -40.151165 -64.059723 -0.042842224 -5.6840925 -0.042269215 -5.7175994 -41.047527 -112.44199
28981000 -40.199837 -65.342766 -0.04114015 -5.881289 -0.042487483 -5.9076242 -40.837349 -112.0106
29980000 -39.791538 -67.147621 -0.041152693 -6.0722528 -0.043049015 -6.0857887 -40.493015 -111.43416
30979000 -39.431519 -66.352127 -0.038955774 -6.4309235 -0.036941405 -6.422307 -39.959888 -112.25348
31978000 -39.231625 -67.591621 -0.037897553 -6.6252527 -0.038339928 -6.6150231 -39.713818 -111.89495
32977000 -39.086647 -69.135841 -0.037830442 -6.8337851 -0.038946111 -6.8315949 -39.465508 -112.03835
33976000 -38.955925 -70.207329 -0.038509943 -7.0342836 -0.038962826 -7.0264072 -39.155609 -111.56679
34975000 -38.687744 -71.30954 -0.038387459 -7.2347445 -0.040169444 -7.2316566 -38.912022 -111.41496
35974000 -38.490887 -71.953308 -0.038391113 -7.4295263 -0.039849404 -7.4327965 -38.64653 -110.49377
36973000 -38.243351 -72.831818 -0.037704844 -7.6255188 -0.040359911 -7.6317172 -38.321587 -109.75114
37972000 -38.093185 -72.837921 -0.038015325 -7.8392158 -0.040166829 -7.8449712 -38.087925 -109.03257
38971000 -37.774761 -72.637817 -0.038959172 -8.0379877 -0.039747782 -8.0472298 -37.903164 -107.60723
39970000 -37.461224 -73.131653 -0.036762837 -8.233696 -0.039947897 -8.2504454 -37.564552 -107.24461
40969000 -37.173176 -73.069183 -0.036850814 -8.4276638 -0.039615072 -8.4460087 -37.322144 -106.04878
41968000 -36.831238 -73.1875 -0.038051099 -8.634531 -0.039428558 -8.6436691 -37.091541 -104.83378
42967000 -36.587212 -73.412994 -0.037854467 -8.8453302 -0.03980891 -8.8617887 -36.872753 -102.99303
43966000 -36.304535 -74.300117 -0.038319558 -9.0418768 -0.040919859 -9.0659237 -36.588127 -102.38401
44965000 -36.0798 -75.279556 -0.039308399 -9.2467155 -0.041280221 -9.2653322 -36.369312 -102.34358
45964000 -35.869732 -76.332443 -0.040361475 -9.4459906 -0.041929159 -9.4669428 -36.117767 -102.09069
46963000 -35.691872 -78.414948 -0.039885718 -9.637826 -0.042886142 -9.6607523 -35.937286 -102.55782
47962000 -35.555519 -79.857643 -0.041532155 -9.8405619 -0.044149548 -9.8587713 -35.737034 -102.83124
48961000 -35.358749 -81.441177 -0.044110846 -10.040276 -0.045372255 -10.059883 -35.511623 -103.11794
49960000 -35.141171 -82.786423 -0.045375131 -10.237597 -0.046318747 -10.260451 -35.354107 -103.32509
50959000 -34.949093 -84.218102 -0.04560376 -10.448129 -0.047781534 -10.457108 -35.168938 -103.63866
51958000 -34.75227 -85.284676 -0.047683913 -10.646428 -0.049503233 -10.656792 -35.020554 -104.18965
52957000 -34.565891 -86.441681 -0.048998721 -10.846695 -0.050682139 -10.852156 -34.851978 -104.02565
53956000 -34.394588 -87.257324 -0.050256051 -11.054377 -0.051428612 -11.05022 -34.717804 -104.10623
54955000 -34.236492 -87.811584 -0.051638957 -11.249582 -0.05232298 -11.241913 -34.548866 -104.19982
55954000 -34.095959 -88.642357 -0.052283678 -11.451553 -0.051906161 -11.444983 -34.444614 -103.85851
56953000 -33.967968 -88.720108 -0.051216181 -11.650526 -0.051525533 -11.633688 -34.379154 -104.1865
57952000 -33.816772 -89.338951 -0.052316166 -11.842854 -0.052036624 -11.837819 -34.274574 -104.34653
58951000 -33.700981 -89.747826 -0.053582583 -12.0473 -0.05301366 -12.029506 -34.113087 -104.37521
59950000 -33.580669 -90.117188 -0.054249872 -12.251159 -0.053615864 -12.223136 -34.05228 -104.74698
60949000 -33.465305 -90.68013 -0.054536633 -12.449724 -0.054017644 -12.429798 -33.953831 -104.96347
61948000 -33.405796 -91.046898 -0.055467561 -12.650607 -0.054737169 -12.630882 -33.87368 -105.05968
62947000 -33.326527 -91.272957 -0.055352725 -12.862545 -0.054730352 -12.84024 -33.731808 -105.36364
63946000 -33.262451 -92.050674 -0.056136712 -13.055901 -0.056207776 -13.038101 -33.626678 -105.55286
64945000 -33.1506 -92.21965 -0.057120703 -13.262529 -0.056475785 -13.240216 -33.523247 -106.09555
65944000 -33.04895 -92.435585 -0.057855953 -13.457468 -0.057021558 -13.441074 -33.435314 -106.56705
66943000 -32.913288 -92.969711 -0.055305008 -13.659382 -0.055442654 -13.64088 -33.332726 -106.73566
67942000 -32.860882 -92.865295 -0.057647143 -13.854851 -0.056871798 -13.843229 -33.214123 -107.13177
68941000 -32.743793 -92.949371 -0.057778303 -14.048914 -0.056661725 -14.038695 -33.102879 -107.08425
69940000 -32.658607 -92.983902 -0.0573106 -14.248466 -0.057091326 -14.237833 -32.972759 -107.4274
70939000 -32.545528 -92.985138 -0.057257354 -14.440653 -0.05653584 -14.440521 -32.828426 -107.39408
71938000 -32.399685 -92.608955 -0.057609107 -14.639735 -0.056502271 -14.636497 -32.690643 -107.19475
72937000 -32.246227 -92.471893 -0.056826688 -14.838533 -0.056815933 -14.830426 -32.553516 -106.93857
73936000 -32.106178 -92.139961 -0.055854827 -15.040786 -0.05523894 -15.030394 -32.432056 -106.76248
74935000 -31.977423 -92.415733 -0.056139074 -15.230379 -0.055200137 -15.228424 -32.275417 -106.44776
75934000 -31.853218 -92.718498 -0.05565634 -15.440845 -0.055176806 -15.434148 -32.191151 -106.38017
76933000 -31.731878 -93.115387 -0.056642842 -15.635178 -0.056070633 -15.631365 -32.0228 -106.85143
77932000 -31.632315 -93.951874 -0.058084186 -15.832646 -0.057946198 -15.823665 -31.930925 -106.81363
78931000 -31.571434 -94.680992 -0.057072964 -16.031097 -0.057023395 -16.023708 -31.832148 -106.73075
79930000 -31.459978 -95.531525 -0.059832808 -16.219965 -0.05975486 -16.220526 -31.731236 -107.00103
80929000 -31.329334 -96.502464 -0.061574254 -16.41704 -0.061178073 -16.412409 -31.620043 -107.37263
81928000 -31.250414 -97.302193 -0.061180964 -16.608604 -0.061431687 -16.60494 -31.503822 -107.49557
82927000 -31.158804 -98.009895 -0.063213699 -16.810982 -0.063224733 -16.803331 -31.404482 -107.74565
83926000 -31.049288 -98.740837 -0.064853765 -17.007471 -0.063845433 -17.00461 -31.289442 -108.03316
84925000 -30.955652 -99.243263 -0.065718047 -17.203403 -0.064110763 -17.199203 -31.203386 -108.13866
85924000 -30.864986 -99.689423 -0.066103339 -17.406622 -0.065887824 -17.398293 -31.117949 -108.21151
86923000 -30.765862 -100.27677 -0.066719458 -17.598747 -0.065747485 -17.595282 -31.009239 -108.07902
87922000 -30.657564 -100.68125 -0.066728398 -17.809076 -0.065179594 -17.798605 -30.918514 -108.12454
88921000 -30.589499 -101.02956 -0.067870446 -18.005598 -0.066368021 -17.999857 -30.840822 -108.15298
89920000 -30.485588 -101.52859 -0.067633808 -18.204979 -0.067131653 -18.192621 -30.78282 -108.29567
90919000 -30.395826 -101.86308 -0.068722971 -18.403822 -0.067792349 -18.393063 -30.697365 -108.54147
91918000 -30.293098 -102.20583 -0.069977075 -18.601151 -0.067948274 -18.592945 -30.630224 -108.56611
92917000 -30.211561 -102.5362 -0.070559278 -18.79652 -0.069366023 -18.794022 -30.564249 -108.70092
93916000 -30.127005 -102.96043 -0.070206739 -18.990591 -0.068673529 -18.988922 -30.474621 -109.34555
94915000 -30.053707 -103.61016 -0.071666017 -19.192163 -0.069801882 -19.189081 -30.417072 -109.18215
95914000 -29.990458 -103.83244 -0.07243453 -19.387968 -0.071385756 -19.381611 -30.33161 -109.4606
96913000 -29.911356 -104.03999 -0.073675759 -19.586536 -0.072320566 -19.584234 -30.26144 -109.83232
97912000 -29.838356 -104.5306 -0.074731678 -19.776823 -0.072356887 -19.783623 -30.186365 -110.11953
98911000 -29.732496 -104.74738 -0.075347699 -19.983978 -0.073780552 -19.98222 -30.149794 -110.26667
99910000 -29.664518 -104.84443 -0.075866081 -20.181805 -0.07477513 -20.178398 -30.044865 -110.59369
100909000 -29.579983 -105.17576 -0.075478874 -20.387928 -0.073416166 -20.383377 -29.947021 -110.74395
101908000 -29.491982 -105.43278 -0.076645881 -20.591103 -0.07436616 -20.586111 -29.838598 -110.57108
102907000 -29.353155 -105.42574 -0.077334903 -20.788891 -0.075008996 -20.785843 -29.76639 -110.48611
103906000 -29.266172 -105.5282 -0.077625565 -20.995846 -0.074848607 -20.992352 -29.621149 -110.43206
104905000 -29.112577 -105.41068 -0.077475622 -21.193661 -0.074457273 -21.191875 -29.491245 -110.12189
105904000 -28.982134 -105.53175 -0.077536233 -21.394817 -0.075734109 -21.386244 -29.376575 -109.97424
106903000 -28.866337 -105.61581 -0.077965006 -21.597921 -0.075242348 -21.596539 -29.252539 -109.91072
107902000 -28.705105 -106.01631 -0.07820642 -21.798601 -0.075616628 -21.793957 -29.110172 -109.83936
108901000 -28.59804 -106.25097 -0.079310104 -22.000961 -0.076206438 -21.9916 -28.977745 -109.84178
109900000 -28.475512 -106.72395 -0.080439642 -22.199966 -0.078540109 -22.188557 -28.822357 -109.9241
110899000 -28.354347 -107.38934 -0.081684746 -22.397964 -0.078788936 -22.392286 -28.702116 -110.2094
111898000 -28.265858 -108.08767 -0.083164506 -22.598654 -0.080117941 -22.593439 -28.587536 -110.3587
112897000 -28.142893 -108.62289 -0.084893689 -22.796459 -0.081294641 -22.78611 -28.450762 -110.55027
113896000 -28.036716 -109.23063 -0.085863099 -22.996735 -0.082451604 -22.984877 -28.337473 -110.73122
114895000 -27.939154 -109.90401 -0.086037621 -23.195606 -0.083570875 -23.181725 -28.222265 -110.8119
115894000 -27.808067 -110.22411 -0.087676026 -23.395678 -0.085106984 -23.385958 -28.158876 -111.00227
116893000 -27.732538 -110.86412 -0.088224679 -23.591177 -0.085738741 -23.573311 -28.027765 -111.15213
117892000 -27.649979 -111.38348 -0.088288344 -23.78828 -0.08584778 -23.7759 -27.95269 -111.34951
118891000 -27.587337 -111.7845 -0.089227594 -23.986593 -0.08686652 -23.975069 -27.86096 -111.52267
119890000 -27.498796 -112.15102 -0.090519883 -24.189816 -0.087931722 -24.174736 -27.842976 -111.68713
120889000 -27.443201 -112.68397 -0.091291212 -24.389507 -0.087488234 -24.37701 -27.776619 -111.65487
121888000 -27.410154 -112.97459 -0.091108814 -24.584669 -0.087452576 -24.571115 -27.714001 -111.98584
122887000 -27.362638 -113.20741 -0.09146437 -24.787277 -0.08858344 -24.773712 -27.667379 -111.98991
123886000 -27.310812 -113.67372 -0.092309378 -24.989761 -0.089109749 -24.969589 -27.648363 -112.12224
124885000 -27.274122 -114.12625 -0.09261585 -25.188871 -0.088481463 -25.173754 -27.61375 -112.23916
125884000 -27.218052 -114.32681 -0.093741983 -25.384943 -0.089264058 -25.372442 -27.591909 -112.39577
126883000 -27.200851 -114.74445 -0.09392079 -25.589153 -0.090175502 -25.574112 -27.543959 -112.45162
127882000 -27.143267 -115.01202 -0.094424732 -25.788143 -0.090494774 -25.774458 -27.503683 -112.63708
128881000 -27.116501 -115.35741 -0.094425522 -25.990391 -0.090176821 -25.972065 -27.467043 -112.71983
129880000 -27.058979 -115.67434 -0.094955713 -26.190561 -0.090639092 -26.170053 -27.420443 -112.6857
130879000 -27.002247 -115.83796 -0.094419174 -26.390205 -0.091325581 -26.374233 -27.346397 -112.77476
131878000 -26.933811 -116.03838 -0.094904646 -26.594223 -0.091384798 -26.57177 -27.279945 -112.65964
132877000 -26.862961 -116.10158 -0.094954655 -26.793652 -0.091800399 -26.777548 -27.196226 -112.682
133876000 -26.773378 -116.27261 -0.095822573 -26.995029 -0.091108017 -26.975599 -27.102505 -112.58981
134875000 -26.682596 -116.39943 -0.095263697 -27.193445 -0.09253943 -27.17614 -26.998917 -112.45108
135874000 -26.601419 -116.42764 -0.095085889 -27.393114 -0.092654459 -27.376934 -26.896013 -112.44769
136873000 -26.4848 -116.36285 -0.095787108 -27.595808 -0.092111863 -27.574562 -26.81115 -112.38074
137872000 -26.408966 -116.45205 -0.095428549 -27.798965 -0.092435509 -27.779547 -26.703724 -112.38143
138871000 -26.332481 -116.65002 -0.09615761 -27.994419 -0.092402987 -27.98011 -26.606112 -112.52088
139870000 -26.238726 -116.96524 -0.09680739 -28.194042 -0.094169974 -28.176558 -26.523518 -112.67043
140869000 -26.150671 -117.41167 -0.098846808 -28.395365 -0.095392562 -28.373287 -26.417612 -112.84325
141868000 -26.054802 -117.87611 -0.098878585 -28.583202 -0.096362725 -28.56757 -26.353279 -113.16215
142867000 -25.98061 -118.16285 -0.097629078 -28.783278 -0.095230885 -28.765741 -26.267071 -113.36942
143866000 -25.908222 -118.62503 -0.099613525 -28.979582 -0.096212924 -28.962423 -26.193151 -113.91596
144865000 -25.855608 -119.185 -0.10110895 -29.177504 -0.097810693 -29.159348 -26.138546 -114.19441
145864000 -25.79587 -119.47568 -0.1015965 -29.376225 -0.098347388 -29.366201 -26.111877 -114.46109
146863000 -25.756008 -119.89893 -0.10238093 -29.575792 -0.098897919 -29.566046 -26.056213 -114.74254
147862000 -25.713068 -120.2965 -0.10310083 -29.770735 -0.099515796 -29.761736 -26.021738 -115.13953
148861000 -25.682476 -120.77341 -0.10310984 -29.972858 -0.10046303 -29.954899 -25.996464 -115.3364
149860000 -25.667305 -121.00761 -0.10360636 -30.171545 -0.10067073 -30.159893 -25.965839 -115.5153
150859000 -25.648296 -121.3789 -0.10380228 -30.370659 -0.10099979 -30.355349 -25.960596 -115.74432
151858000 -25.633301 -121.66229 -0.1039534 -30.567993 -0.1009839 -30.556372 -25.952589 -116.08172
152857000 -25.612432 -122.00141 -0.1043071 -30.769669 -0.10160498 -30.751257 -25.939018 -116.21321
153856000 -25.60581 -122.19461 -0.10386565 -30.965176 -0.10089964 -30.955435 -25.949688 -116.5043
154855000 -25.602541 -122.36929 -0.1042774 -31.164 -0.10114605 -31.151659 -25.943014 -116.73212
155854000 -25.615044 -122.66126 -0.10469636 -31.364882 -0.10180266 -31.349834 -25.935043 -116.98419
156853000 -25.601934 -123.34757 -0.10254181 -31.549459 -0.10106736 -31.543821 -25.930502 -117.28101
157852000 -25.60743 -123.55798 -0.10388977 -31.750055 -0.10272125 -31.739769 -25.921839 -117.63475
158851000 -25.60306 -123.80862 -0.10503606 -31.948265 -0.10320871 -31.944212 -25.906441 -117.8875
159850000 -25.580894 -123.92268 -0.10551583 -32.147427 -0.10307061 -32.140053 -25.908192 -118.02327
160849000 -25.567034 -124.04926 -0.10520738 -32.344234 -0.10413581 -32.338745 -25.881588 -118.33042
161848000 -25.55002 -124.14273 -0.10515461 -32.546528 -0.1036334 -32.539513 -25.837622 -118.46148
162847000 -25.501377 -124.34604 -0.10582059 -32.74379 -0.10398097 -32.73925 -25.806053 -118.70986
163846000 -25.467056 -124.54933 -0.10536969 -32.948685 -0.10442907 -32.936783 -25.725544 -118.71451
164845000 -25.400928 -124.57167 -0.10683102 -33.144947 -0.10471121 -33.135319 -25.661669 -118.78564
165844000 -25.346786 -124.64194 -0.10708201 -33.344952 -0.105645 -33.335236 -25.580778 -118.89343
166843000 -25.280281 -124.70979 -0.10642353 -33.537197 -0.10471784 -33.529961 -25.507608 -119.06735
167842000 -25.225237 -124.86643 -0.10662144 -33.739162 -0.10527316 -33.730873 -25.424379 -119.015
168841000 -25.146032 -125.04977 -0.10761799 -33.937622 -0.10547604 -33.932251 -25.348896 -119.11743
169840000 -25.081596 -125.27406 -0.10811264 -34.136036 -0.10588027 -34.129631 -25.263477 -119.29388
170839000 -25.02397 -125.57762 -0.10813334 -34.330883 -0.1057991 -34.325386 -25.174114 -119.50063
171838000 -24.965164 -125.966 -0.10834698 -34.531898 -0.10707033 -34.523323 -25.107565 -119.76834
172837000 -24.8976 -126.34636 -0.10932747 -34.727833 -0.10858266 -34.722015 -25.045153 -119.95902
173836000 -24.829166 -126.80442 -0.11047945 -34.925869 -0.10891312 -34.919292 -24.994299 -120.19738
174835000 -24.775776 -127.21648 -0.11085387 -35.120838 -0.11008012 -35.118889 -24.955734 -120.52944
175834000 -24.725117 -127.59927 -0.11181713 -35.318275 -0.11045264 -35.313221 -24.889006 -120.85363
176833000 -24.678181 -128.01578 -0.11281887 -35.517811 -0.11079969 -35.514324 -24.835609 -121.0098
177832000 -24.628885 -128.47713 -0.11304177 -35.710949 -0.11142272 -35.712185 -24.81373 -121.19527
178831000 -24.589155 -128.84383 -0.11345812 -35.909664 -0.11196826 -35.905209 -24.778223 -121.41685
179830000 -24.547527 -129.28091 -0.11345334 -36.103962 -0.11223602 -36.109455 -24.752083 -121.55634
180829000 -24.511814 -129.49051 -0.11398027 -36.304058 -0.11323732 -36.299156 -24.724321 -121.72628
181828000 -24.486401 -129.87627 -0.11430822 -36.500221 -0.11231199 -36.494678 -24.702911 -121.83961
182827000 -24.461109 -130.19955 -0.11426941 -36.696213 -0.11398081 -36.695778 -24.689308 -121.92161
183826000 -24.421219 -130.53568 -0.11617188 -36.891659 -0.11358779 -36.891876 -24.680868 -122.06331
184825000 -24.425461 -130.85999 -0.11531637 -37.090088 -0.11416816 -37.092545 -24.667326 -122.14422
185824000 -24.398354 -131.21951 -0.1148629 -37.283356 -0.11441638 -37.286518 -24.664278 -122.21684
186823000 -24.387878 -131.58842 -0.11647659 -37.483356 -0.11513721 -37.480904 -24.660034 -122.20052
187822000 -24.363905 -131.88431 -0.11647286 -37.68034 -0.11533551 -37.677128 -24.630409 -122.26286
188821000 -24.342443 -132.12224 -0.11632343 -37.875416 -0.11531504 -37.876884 -24.609438 -122.34573
189820000 -24.326065 -132.40945 -0.11689592 -38.075886 -0.11537937 -38.076939 -24.598141 -122.52018
190819000 -24.296654 -132.62236 -0.11784032 -38.275307 -0.11632264 -38.27356 -24.568674 -122.47321
191818000 -24.266886 -132.82152 -0.11883838 -38.468746 -0.11819462 -38.469036 -24.536528 -122.36244
192817000 -24.193029 -133.08221 -0.11977229 -38.654308 -0.11861226 -38.656471 -24.462555 -122.45196
193816000 -24.153158 -133.42397 -0.11875432 -38.846382 -0.1169289 -38.846706 -24.406509 -122.70674
194815000 -24.100643 -133.84668 -0.11849015 -39.047825 -0.11735254 -39.041733 -24.341824 -122.82206
195814000 -24.048904 -134.08664 -0.11899669 -39.240978 -0.11739429 -39.241894 -24.28965 -122.90673
196813000 -23.992363 -134.45912 -0.11858033 -39.436985 -0.11754243 -39.441292 -24.210188 -123.08359
197812000 -23.937675 -134.69481 -0.11841274 -39.633865 -0.11803422 -39.633862 -24.143057 -123.19932
198811000 -23.884417 -134.83739 -0.11861172 -39.832245 -0.1176536 -39.829056 -24.074152 -123.35133
199810000 -23.814421 -135.21928 -0.11875645 -40.021484 -0.11784617 -40.026108 -23.992918 -123.47707
200809000 -23.754725 -135.49689 -0.11946842 -40.22023 -0.11784749 -40.221264 -23.91621 -123.6533
201808000 -23.699116 -135.73375 -0.11989789 -40.425217 -0.11933857 -40.425587 -23.847973 -123.73654
202807000 -23.646711 -136.0876 -0.12076814 -40.623585 -0.11916883 -40.628426 -23.791063 -123.97046
203806000 -23.58733 -136.541 -0.12185394 -40.821953 -0.11939977 -40.82444 -23.725964 -124.13694
