!Keysight Technologies,E5080B,MY59205177,A.15.75.32
!Date: Friday, February 23, 2024 02:56:43
!Correction: S11(Cdelta 2-Port  ) 
!S21(Cdelta 2-Port  ) 
!S12(Cdelta 2-Port  ) 
!S22(Cdelta 2-Port  ) 
!S2P File: Measurements: S11, S21, S12, S22:
# Hz S  dB   R 50
10000000 -43.949772 -3.6616554 -0.028587865 -2.0388312 -0.031684272 -2.0950596 -48.366169 -149.48112
10999000 -43.330925 -5.4001393 -0.029989172 -2.2563972 -0.03177762 -2.3142757 -48.102676 -141.57593
11998000 -42.511749 -7.8444161 -0.030497735 -2.4809871 -0.031477496 -2.5254228 -48.217365 -135.4314
12997000 -41.968071 -12.301958 -0.029579965 -2.6591918 -0.031329919 -2.695353 -47.565033 -129.40392
13996000 -41.677349 -15.7285 -0.02844247 -2.8355401 -0.031914003 -2.8630934 -47.134838 -123.67599
14995000 -41.389179 -19.24645 -0.030830381 -3.0484548 -0.031432912 -3.0742686 -46.568474 -120.46034
15994000 -41.252422 -23.256399 -0.032367241 -3.2640851 -0.033729333 -3.2927718 -46.322315 -116.429
16993000 -41.246067 -26.946316 -0.031202944 -3.4661169 -0.033363335 -3.4742868 -45.467892 -117.5697
17992000 -41.323143 -31.381466 -0.032048821 -3.660955 -0.033599678 -3.6672299 -44.827587 -118.65739
18991000 -41.595062 -35.569515 -0.03292121 -3.8709667 -0.03445385 -3.8738105 -44.091187 -118.15494
19990000 -41.446674 -40.908985 -0.034392796 -4.0778933 -0.036367349 -4.0767798 -43.399132 -119.88905
20989000 -41.399998 -43.715965 -0.037165932 -4.285368 -0.038314335 -4.272789 -42.795883 -119.79929
21988000 -41.285564 -48.176624 -0.037983727 -4.4822416 -0.038868014 -4.46908 -42.527695 -119.376
22987000 -41.108574 -52.879845 -0.039390944 -4.6778798 -0.039928824 -4.672399 -42.209686 -118.8419
23986000 -41.102337 -56.491539 -0.038592212 -4.8760529 -0.038835626 -4.8735185 -42.126961 -119.04948
24985000 -40.803936 -58.941833 -0.039712775 -5.081521 -0.038471814 -5.0781956 -41.824097 -116.22649
25984000 -40.603275 -61.297043 -0.040368792 -5.2907624 -0.039733674 -5.2907515 -41.487183 -114.96684
26983000 -40.312637 -63.19453 -0.041102 -5.4849062 -0.040655423 -5.5049071 -41.400249 -114.18998
27982000 -40.195278 -64.237244 -0.042663671 -5.6835165 -0.042215891 -5.7211528 -41.05579 -112.56856
28981000 -40.147606 -65.349083 -0.040665612 -5.8817782 -0.04160507 -5.904541 -40.775566 -112.11836
29980000 -39.751957 -67.103416 -0.040432807 -6.0729861 -0.041799519 -6.083147 -40.516895 -111.46603
30979000 -39.411423 -66.300987 -0.03797302 -6.429585 -0.036683738 -6.4194684 -39.962101 -112.38419
31978000 -39.229721 -67.465881 -0.037304047 -6.6212969 -0.038044311 -6.6143875 -39.716 -111.86462
32977000 -39.075615 -69.06826 -0.037328068 -6.831923 -0.039646421 -6.8304663 -39.476727 -112.02395
33976000 -38.94957 -70.165764 -0.038144849 -7.0329642 -0.038657766 -7.0280633 -39.149509 -111.42319
34975000 -38.655823 -71.105446 -0.038059719 -7.2338972 -0.04000929 -7.2297416 -38.907909 -111.39608
35974000 -38.488907 -72.02343 -0.037835926 -7.428822 -0.03978331 -7.4303117 -38.588638 -110.60647
36973000 -38.261013 -72.754913 -0.038013496 -7.6307344 -0.040646799 -7.6308284 -38.308365 -109.8644
37972000 -38.092121 -72.889069 -0.037472196 -7.8386998 -0.040349718 -7.8479428 -38.05901 -109.06911
38971000 -37.752724 -72.580101 -0.038449876 -8.0409546 -0.040433068 -8.0504875 -37.863651 -107.74928
39970000 -37.442142 -72.91832 -0.036229264 -8.2326756 -0.039954949 -8.2486944 -37.566334 -107.21034
40969000 -37.161346 -72.912285 -0.036608033 -8.4243155 -0.039559171 -8.4426727 -37.303703 -105.8446
41968000 -36.826519 -73.187813 -0.037298568 -8.6328773 -0.039964616 -8.6491966 -37.093052 -104.82835
42967000 -36.57592 -73.441261 -0.036801476 -8.8472757 -0.040511973 -8.8621998 -36.870388 -103.02458
43966000 -36.290016 -74.27739 -0.037592042 -9.042407 -0.041569527 -9.0601091 -36.574188 -102.47635
44965000 -36.078167 -75.303032 -0.039109096 -9.2439995 -0.04150027 -9.2618704 -36.359745 -102.39068
45964000 -35.855022 -76.358414 -0.040036198 -9.4423094 -0.042338222 -9.4623728 -36.101341 -102.25467
46963000 -35.684132 -78.404663 -0.039995443 -9.6384592 -0.0426872 -9.6603146 -35.941261 -102.66752
47962000 -35.545605 -79.978516 -0.041615002 -9.8393192 -0.043873932 -9.8571081 -35.742229 -102.79412
48961000 -35.35902 -81.342285 -0.04403998 -10.035717 -0.046160463 -10.056843 -35.502243 -103.05632
49960000 -35.159241 -82.743561 -0.044830039 -10.236706 -0.046875283 -10.257566 -35.356716 -103.36652
50959000 -34.946255 -84.13652 -0.045305815 -10.44844 -0.047967363 -10.459684 -35.176132 -103.73862
51958000 -34.757893 -85.278679 -0.047584202 -10.644981 -0.049758259 -10.656522 -35.006386 -104.18748
52957000 -34.563553 -86.445915 -0.048896883 -10.846856 -0.050569262 -10.856307 -34.839283 -104.13581
53956000 -34.397289 -87.277336 -0.050115429 -11.047312 -0.051763128 -11.049298 -34.696308 -104.15364
54955000 -34.223568 -87.773468 -0.05103074 -11.249039 -0.052577384 -11.24628 -34.563068 -104.21471
55954000 -34.084778 -88.727608 -0.052486993 -11.450022 -0.05263529 -11.446959 -34.434849 -103.92908
56953000 -33.962311 -88.773666 -0.051091503 -11.6508 -0.051594164 -11.633013 -34.382702 -104.17532
57952000 -33.816792 -89.35817 -0.052821327 -11.844855 -0.053028595 -11.834249 -34.269264 -104.30424
58951000 -33.694122 -89.834915 -0.053601451 -12.047446 -0.05398934 -12.028787 -34.117138 -104.4313
59950000 -33.578716 -90.168808 -0.054536894 -12.250001 -0.054135855 -12.229032 -34.046005 -104.75185
60949000 -33.465038 -90.778801 -0.05419771 -12.449042 -0.054502819 -12.432877 -33.957443 -105.00982
61948000 -33.408543 -91.093384 -0.055430856 -12.646761 -0.054648563 -12.630126 -33.87315 -105.15902
62947000 -33.330273 -91.266708 -0.05494374 -12.858393 -0.055411451 -12.84012 -33.729534 -105.40981
63946000 -33.253883 -92.008286 -0.056236099 -13.058159 -0.055813398 -13.039917 -33.626198 -105.59968
64945000 -33.158207 -92.220421 -0.056572556 -13.259836 -0.056775808 -13.239418 -33.521889 -106.03032
65944000 -33.054863 -92.539017 -0.057572909 -13.45904 -0.057278078 -13.440952 -33.421871 -106.5125
66943000 -32.911079 -92.978127 -0.055519212 -13.660528 -0.055393886 -13.642158 -33.328312 -106.79389
67942000 -32.862164 -92.956856 -0.057791159 -13.856977 -0.05799368 -13.844576 -33.212921 -107.09934
68941000 -32.747944 -93.044746 -0.056683753 -14.050497 -0.056206204 -14.039071 -33.107616 -107.09824
69940000 -32.65506 -93.04567 -0.056951791 -14.250164 -0.05773161 -14.24108 -32.956978 -107.38033
70939000 -32.547039 -92.990936 -0.057401095 -14.443369 -0.057154011 -14.435501 -32.826183 -107.34043
71938000 -32.404755 -92.546051 -0.056983791 -14.640092 -0.057446472 -14.634337 -32.697018 -107.19614
72937000 -32.249207 -92.458199 -0.056252617 -14.838717 -0.056955464 -14.831738 -32.563042 -106.98642
73936000 -32.104801 -92.178871 -0.056160837 -15.037678 -0.056307163 -15.02769 -32.437763 -106.77795
74935000 -31.978384 -92.493629 -0.055558279 -15.23337 -0.055683609 -15.229376 -32.278423 -106.52934
75934000 -31.862949 -92.767738 -0.055910416 -15.441518 -0.055344071 -15.437922 -32.191689 -106.43181
76933000 -31.723093 -93.087677 -0.057198338 -15.633478 -0.056969628 -15.625448 -32.027626 -106.82841
77932000 -31.635984 -93.975113 -0.058476936 -15.832276 -0.058385368 -15.824826 -31.916821 -106.89568
78931000 -31.568413 -94.699356 -0.057396635 -16.029131 -0.057871692 -16.02379 -31.840229 -106.74147
79930000 -31.46014 -95.50338 -0.05987611 -16.222675 -0.06007427 -16.219786 -31.734756 -107.05906
80929000 -31.333382 -96.509758 -0.061055738 -16.418999 -0.061621252 -16.415031 -31.628975 -107.40943
81928000 -31.259632 -97.352097 -0.060891401 -16.610567 -0.061193828 -16.604778 -31.50503 -107.56631
82927000 -31.163645 -98.007004 -0.063080013 -16.80835 -0.063452199 -16.804649 -31.407345 -107.87757
83926000 -31.053768 -98.849533 -0.064630695 -17.00289 -0.063864611 -17.005701 -31.283747 -108.10225
84925000 -30.944757 -99.283638 -0.065095507 -17.201122 -0.064822495 -17.200974 -31.198164 -108.10062
85924000 -30.866455 -99.690308 -0.065955371 -17.401085 -0.066197962 -17.400318 -31.111807 -108.20559
86923000 -30.758636 -100.29926 -0.066175617 -17.598499 -0.06572856 -17.601187 -31.008123 -108.06978
87922000 -30.650747 -100.70444 -0.06555932 -17.805372 -0.065710425 -17.79645 -30.925877 -108.1868
88921000 -30.577911 -100.98943 -0.067185283 -18.006289 -0.066694751 -18.000811 -30.83367 -108.19411
89920000 -30.483206 -101.47668 -0.06773898 -18.20701 -0.067031756 -18.196316 -30.783522 -108.3301
90919000 -30.389458 -101.81756 -0.068968609 -18.400539 -0.067684814 -18.394941 -30.690948 -108.55771
91918000 -30.297565 -102.23265 -0.068682209 -18.602894 -0.068342179 -18.592947 -30.634659 -108.56997
92917000 -30.211903 -102.62634 -0.070897378 -18.79772 -0.069475971 -18.794054 -30.569374 -108.68378
93916000 -30.133373 -102.94193 -0.069624849 -18.990194 -0.069919728 -18.986986 -30.477661 -109.31448
94915000 -30.051508 -103.62672 -0.071522854 -19.191805 -0.070052318 -19.184061 -30.417757 -109.20849
95914000 -29.989157 -103.8121 -0.072432689 -19.386946 -0.071096562 -19.381018 -30.330971 -109.47339
96913000 -29.907156 -104.09371 -0.073538586 -19.5874 -0.072851747 -19.581816 -30.267899 -109.79996
97912000 -29.832352 -104.51672 -0.074444629 -19.779631 -0.072693281 -19.78191 -30.184193 -110.05933
98911000 -29.733194 -104.77575 -0.074817002 -19.983452 -0.073538065 -19.979305 -30.150703 -110.28559
99910000 -29.665516 -104.86879 -0.075332165 -20.183453 -0.073743165 -20.177971 -30.0387 -110.5392
100909000 -29.585894 -105.1732 -0.075065091 -20.39019 -0.073457234 -20.382345 -29.953718 -110.81487
101908000 -29.493513 -105.44592 -0.075836316 -20.590702 -0.075303718 -20.585299 -29.839251 -110.55501
102907000 -29.361357 -105.48833 -0.07614743 -20.788141 -0.074785925 -20.786823 -29.776114 -110.51958
103906000 -29.262506 -105.52754 -0.077069826 -20.996124 -0.074373007 -20.988131 -29.623301 -110.44315
104905000 -29.117235 -105.46169 -0.076952308 -21.192478 -0.074542068 -21.188047 -29.489122 -110.14326
105904000 -28.985403 -105.60264 -0.077975281 -21.395023 -0.074894957 -21.387609 -29.373535 -110.01424
106903000 -28.868469 -105.70038 -0.077380754 -21.597908 -0.074987397 -21.59626 -29.239861 -109.91308
107902000 -28.705965 -106.00429 -0.07854037 -21.795198 -0.076330259 -21.787596 -29.105482 -109.87895
108901000 -28.594175 -106.28085 -0.079387613 -22.000662 -0.077503555 -21.997236 -28.977903 -109.84458
109900000 -28.472382 -106.8255 -0.079916231 -22.199373 -0.078980051 -22.188131 -28.822123 -109.92754
110899000 -28.352711 -107.42765 -0.081863061 -22.397575 -0.079069152 -22.389353 -28.689911 -110.23446
111898000 -28.262768 -108.11192 -0.082516767 -22.600609 -0.080323614 -22.591806 -28.580168 -110.41156
112897000 -28.142408 -108.67077 -0.08408048 -22.798079 -0.081208393 -22.786789 -28.440056 -110.62302
113896000 -28.031996 -109.27525 -0.085105397 -22.998539 -0.082905136 -22.987497 -28.33601 -110.74202
114895000 -27.93215 -109.95493 -0.086217962 -23.195734 -0.084162027 -23.182051 -28.215994 -110.84886
115894000 -27.799032 -110.2961 -0.08784429 -23.395485 -0.084918506 -23.385529 -28.149349 -111.00452
116893000 -27.721245 -110.88145 -0.088222034 -23.591311 -0.086349465 -23.574463 -28.018414 -111.1965
117892000 -27.64909 -111.36474 -0.088147543 -23.78664 -0.086359493 -23.773024 -27.948196 -111.382
118891000 -27.584715 -111.78183 -0.088753581 -23.988478 -0.08656124 -23.968672 -27.854773 -111.52592
119890000 -27.493517 -112.1737 -0.08923129 -24.187853 -0.087072514 -24.174412 -27.838066 -111.65615
120889000 -27.441362 -112.70256 -0.091276936 -24.393318 -0.087471858 -24.373365 -27.76358 -111.65179
121888000 -27.404625 -113.01705 -0.091638595 -24.588581 -0.08789289 -24.574461 -27.703733 -111.94772
122887000 -27.364437 -113.19958 -0.09165287 -24.789557 -0.088665873 -24.773926 -27.657251 -111.95441
123886000 -27.30348 -113.66492 -0.092698887 -24.993004 -0.089412823 -24.970791 -27.647293 -112.16035
124885000 -27.2624 -114.14072 -0.09268593 -25.188072 -0.089630567 -25.173618 -27.612339 -112.21483
125884000 -27.216629 -114.37288 -0.093028925 -25.387951 -0.09021911 -25.373426 -27.586573 -112.45742
126883000 -27.201395 -114.74287 -0.093279384 -25.587791 -0.091218516 -25.575733 -27.541908 -112.46114
127882000 -27.146938 -115.01193 -0.09383668 -25.787359 -0.090979815 -25.772215 -27.499577 -112.64165
128881000 -27.116388 -115.35525 -0.094437428 -25.98914 -0.090728693 -25.971991 -27.463095 -112.73013
129880000 -27.057669 -115.69634 -0.095101237 -26.190479 -0.091021046 -26.169964 -27.421362 -112.72639
130879000 -27.003925 -115.83882 -0.094227381 -26.390182 -0.09195745 -26.372288 -27.340176 -112.78616
131878000 -26.934538 -116.07275 -0.09522295 -26.591755 -0.092055805 -26.571777 -27.271889 -112.66303
132877000 -26.862164 -116.10777 -0.094949894 -26.793758 -0.092667684 -26.776344 -27.189384 -112.66357
133876000 -26.781157 -116.30736 -0.094604366 -26.9942 -0.091831595 -26.976128 -27.100294 -112.56425
134875000 -26.684385 -116.397 -0.095690519 -27.195854 -0.092793562 -27.173227 -26.993011 -112.46802
135874000 -26.600798 -116.4347 -0.09543252 -27.393196 -0.093365073 -27.378954 -26.89975 -112.41689
136873000 -26.48745 -116.3934 -0.09591043 -27.597353 -0.092814714 -27.578115 -26.810976 -112.42313
137872000 -26.405727 -116.499 -0.095721483 -27.799574 -0.092782453 -27.784395 -26.700848 -112.39008
138871000 -26.330276 -116.68994 -0.095915459 -27.993086 -0.092695713 -27.982199 -26.606651 -112.54626
139870000 -26.238663 -116.94724 -0.096767947 -28.199125 -0.094446421 -28.179749 -26.522213 -112.71175
140869000 -26.149408 -117.42204 -0.098585702 -28.389957 -0.095628597 -28.37167 -26.415405 -112.87707
141868000 -26.053473 -117.9123 -0.099292785 -28.584572 -0.096921735 -28.567703 -26.341469 -113.18433
142867000 -25.9776 -118.20831 -0.097234629 -28.782301 -0.095586523 -28.765387 -26.267942 -113.37705
143866000 -25.912302 -118.6722 -0.09928219 -28.978977 -0.096808709 -28.963823 -26.201912 -113.89373
144865000 -25.854239 -119.18505 -0.10051655 -29.178585 -0.098504409 -29.159472 -26.13858 -114.20909
145864000 -25.797157 -119.49821 -0.10138107 -29.376976 -0.099799469 -29.366526 -26.106985 -114.4623
146863000 -25.746376 -119.9121 -0.10216149 -29.576302 -0.099658288 -29.565765 -26.054443 -114.814
147862000 -25.709322 -120.29598 -0.10281587 -29.773676 -0.10007336 -29.757936 -26.022936 -115.11679
148861000 -25.675301 -120.80257 -0.10295583 -29.9704 -0.10048476 -29.953997 -25.998734 -115.37773
149860000 -25.666674 -120.97669 -0.10298393 -30.17065 -0.10098045 -30.158031 -25.965332 -115.52462
150859000 -25.647964 -121.35075 -0.10340144 -30.36792 -0.10158087 -30.354662 -25.958912 -115.79828
151858000 -25.635454 -121.69967 -0.10373653 -30.571541 -0.10187686 -30.552874 -25.950794 -116.07229
152857000 -25.614031 -121.99899 -0.10386909 -30.768879 -0.10136067 -30.753529 -25.938496 -116.21696
153856000 -25.603966 -122.21535 -0.10386962 -30.962484 -0.10040846 -30.949402 -25.948414 -116.49052
154855000 -25.601452 -122.40676 -0.10454123 -31.164791 -0.10161452 -31.152063 -25.940273 -116.74479
155854000 -25.618267 -122.64842 -0.10452188 -31.36301 -0.10201096 -31.34938 -25.934185 -116.98198
156853000 -25.596367 -123.32486 -0.10220813 -31.552872 -0.10110524 -31.543774 -25.926819 -117.28884
157852000 -25.606367 -123.58092 -0.10373706 -31.751804 -0.10315914 -31.742252 -25.915726 -117.64326
158851000 -25.595526 -123.83503 -0.10417002 -31.949713 -0.10353982 -31.939386 -25.90531 -117.88911
159850000 -25.587824 -123.92893 -0.10513021 -32.147137 -0.10296829 -32.139244 -25.905003 -118.05336
160849000 -25.570675 -124.07468 -0.10524265 -32.345234 -0.10407006 -32.339985 -25.875399 -118.33308
161848000 -25.553621 -124.133 -0.10557604 -32.546459 -0.10339136 -32.537128 -25.833828 -118.47784
162847000 -25.504065 -124.36794 -0.10629062 -32.743458 -0.10406582 -32.738487 -25.807528 -118.72142
163846000 -25.462637 -124.54793 -0.10624526 -32.943314 -0.10390621 -32.935436 -25.722925 -118.70138
164845000 -25.404251 -124.59996 -0.10657899 -33.141834 -0.10476557 -33.13842 -25.66083 -118.76377
165844000 -25.347572 -124.65443 -0.10606329 -33.342625 -0.10572802 -33.340729 -25.58271 -118.92046
166843000 -25.284714 -124.7465 -0.10620043 -33.540249 -0.10470829 -33.537285 -25.512644 -119.08961
167842000 -25.22913 -124.82932 -0.10658854 -33.737759 -0.1053575 -33.730675 -25.427631 -119.05784
168841000 -25.148216 -125.06528 -0.10747523 -33.936577 -0.10578213 -33.931465 -25.347115 -119.10648
169840000 -25.081982 -125.33167 -0.10728392 -34.134468 -0.10638215 -34.131218 -25.263611 -119.33731
170839000 -25.024408 -125.60925 -0.10812458 -34.330391 -0.106705 -34.328293 -25.179159 -119.53158
171838000 -24.964062 -126.01822 -0.10812166 -34.528961 -0.10731895 -34.522049 -25.109535 -119.76098
172837000 -24.895084 -126.3849 -0.10933252 -34.725693 -0.10768566 -34.721436 -25.043491 -119.99165
173836000 -24.8234 -126.77292 -0.11009552 -34.924576 -0.10885684 -34.92239 -24.996141 -120.213
174835000 -24.772694 -127.24648 -0.11110269 -35.11969 -0.10937313 -35.118633 -24.95162 -120.58265
175834000 -24.723526 -127.63783 -0.11181261 -35.320057 -0.11054584 -35.316948 -24.887505 -120.86613
176833000 -24.671101 -128.00603 -0.11246978 -35.515411 -0.11105409 -35.51263 -24.835554 -121.02656
177832000 -24.628914 -128.48166 -0.11294904 -35.711987 -0.11149177 -35.713173 -24.815954 -121.19999
178831000 -24.589838 -128.85199 -0.1135931 -35.906803 -0.11254576 -35.905014 -24.775234 -121.44071
179830000 -24.553244 -129.2865 -0.1137908 -36.102646 -0.11284968 -36.107288 -24.749781 -121.54471
180829000 -24.510094 -129.51581 -0.11455511 -36.301003 -0.1132615 -36.301067 -24.726498 -121.72253
181828000 -24.486387 -129.89978 -0.11460933 -36.499039 -0.1133986 -36.499252 -24.703913 -121.85796
182827000 -24.464386 -130.23387 -0.11478794 -36.695545 -0.11368664 -36.694267 -24.686974 -121.95508
183826000 -24.423347 -130.53555 -0.11579169 -36.893856 -0.11402252 -36.894051 -24.681623 -122.05662
184825000 -24.426939 -130.87047 -0.11506385 -37.090672 -0.11452269 -37.090477 -24.659966 -122.18137
185824000 -24.396463 -131.22458 -0.11527969 -37.283413 -0.11480416 -37.282333 -24.663654 -122.20496
186823000 -24.38348 -131.54185 -0.11531796 -37.484699 -0.11394121 -37.482929 -24.658873 -122.17595
187822000 -24.366554 -131.87154 -0.11602937 -37.675529 -0.11565877 -37.67387 -24.626152 -122.2633
188821000 -24.342674 -132.106 -0.1153379 -37.872032 -0.11590043 -37.877483 -24.610153 -122.3373
189820000 -24.327827 -132.39087 -0.11666219 -38.076168 -0.11567153 -38.075588 -24.60062 -122.53777
190819000 -24.297987 -132.62567 -0.11750546 -38.274799 -0.11633779 -38.272713 -24.570599 -122.50462
191818000 -24.261972 -132.79597 -0.11837869 -38.468292 -0.11808715 -38.470177 -24.533184 -122.3642
192817000 -24.19343 -133.08325 -0.1191619 -38.652592 -0.11812918 -38.65493 -24.460199 -122.43402
193816000 -24.153584 -133.43033 -0.11774829 -38.848335 -0.11693422 -38.845501 -24.404932 -122.73865
194815000 -24.10083 -133.88368 -0.11822999 -39.042999 -0.1172935 -39.044498 -24.341089 -122.80923
195814000 -24.043699 -134.10524 -0.11877268 -39.241501 -0.11721291 -39.243652 -24.290642 -122.93144
196813000 -23.993896 -134.44992 -0.11820419 -39.43565 -0.11751796 -39.43631 -24.209551 -123.11218
197812000 -23.939268 -134.67953 -0.11847286 -39.636669 -0.11706532 -39.629921 -24.139456 -123.20073
198811000 -23.883842 -134.86552 -0.11790149 -39.829426 -0.11693183 -39.829441 -24.070938 -123.36125
199810000 -23.814335 -135.22849 -0.11890756 -40.025497 -0.11685843 -40.022472 -23.996061 -123.48063
200809000 -23.75803 -135.5163 -0.11964616 -40.224419 -0.11688556 -40.220909 -23.913891 -123.6908
201808000 -23.695454 -135.73735 -0.12026114 -40.423298 -0.11908049 -40.427097 -23.847603 -123.76919
202807000 -23.641634 -136.13374 -0.12066115 -40.620907 -0.11880194 -40.626892 -23.788818 -123.9872
203806000 -23.58968 -136.58513 -0.12173255 -40.823009 -0.11955037 -40.825848 -23.727278 -124.14497
