!Keysight Technologies,E5080B,MY59205177,A.15.75.32
!Date: Friday, February 23, 2024 03:34:53
!Correction: S11(Cdelta 2-Port  ) 
!S21(Cdelta 2-Port  ) 
!S12(Cdelta 2-Port  ) 
!S22(Cdelta 2-Port  ) 
!S2P File: Measurements: S11, S21, S12, S22:
# Hz S  dB   R 50
10000000 -46.069977 -2.954016 -0.015293145 -2.0465446 -0.018793436 -2.0993145 -45.917221 -158.11952
10999000 -45.260075 -4.403326 -0.016038237 -2.2641404 -0.017816532 -2.3175471 -45.84634 -151.68559
11998000 -44.362968 -7.6385641 -0.01649346 -2.487231 -0.017961051 -2.5308945 -46.018791 -147.30815
12997000 -43.607281 -13.341075 -0.015762061 -2.6694186 -0.01833953 -2.7044559 -45.669304 -141.44952
13996000 -43.30114 -17.116507 -0.014672851 -2.8476975 -0.018036433 -2.8711727 -45.450474 -136.12495
14995000 -42.91317 -21.613367 -0.016971081 -3.056385 -0.017545439 -3.0823834 -45.127178 -132.91827
15994000 -42.758278 -25.988081 -0.018000301 -3.2765219 -0.020458682 -3.2983584 -45.00391 -129.42657
16993000 -42.679634 -30.577469 -0.01740925 -3.4739769 -0.019381035 -3.4836121 -44.172279 -129.04379
17992000 -42.743908 -36.20155 -0.01762913 -3.67342 -0.020244379 -3.6764073 -43.619606 -129.16527
18991000 -42.965012 -41.036228 -0.018798115 -3.8872209 -0.020949744 -3.8816316 -42.990234 -127.85972
19990000 -42.760742 -46.866871 -0.021295965 -4.0937753 -0.023175567 -4.0915956 -42.321911 -128.8204
20989000 -42.579865 -50.112019 -0.023664594 -4.3000302 -0.024965638 -4.288693 -41.803814 -128.3318
21988000 -42.397274 -55.598522 -0.023977976 -4.4966292 -0.025588445 -4.484725 -41.505768 -127.63483
22987000 -42.03318 -60.477554 -0.025770983 -4.692699 -0.026749676 -4.6876211 -41.251549 -127.04394
23986000 -41.944489 -64.251724 -0.025014324 -4.8883452 -0.025305932 -4.8861895 -41.103539 -126.92211
24985000 -41.574627 -67.15255 -0.025943892 -5.0985427 -0.026162382 -5.0925846 -40.968304 -124.43034
25984000 -41.242718 -69.091324 -0.027221395 -5.3044739 -0.026444951 -5.301909 -40.604477 -122.74725
26983000 -40.925785 -71.088799 -0.027593385 -5.5058146 -0.026970031 -5.521606 -40.49025 -122.16483
27982000 -40.766994 -71.871033 -0.029161677 -5.6987367 -0.029180439 -5.7335944 -40.239426 -120.71238
28981000 -40.727879 -73.277573 -0.026963258 -5.8982801 -0.028928181 -5.9242921 -40.01757 -120.0246
29980000 -40.288788 -74.923134 -0.027210193 -6.0982938 -0.029348012 -6.1018157 -39.769951 -119.01016
30979000 -39.948238 -73.798973 -0.024630578 -6.4488268 -0.024352813 -6.4408584 -39.220779 -119.63392
31978000 -39.704388 -74.802429 -0.023659909 -6.6432276 -0.025032289 -6.6395473 -38.976879 -118.75572
32977000 -39.541447 -76.294876 -0.024269773 -6.8581243 -0.025614485 -6.8512945 -38.738853 -118.75897
33976000 -39.361183 -77.395111 -0.024450954 -7.0548067 -0.026006911 -7.0531921 -38.44038 -118.1557
34975000 -39.085556 -78.083466 -0.024774805 -7.2595911 -0.026695501 -7.2548604 -38.227627 -117.72003
35974000 -38.876465 -78.880508 -0.023816857 -7.452352 -0.026742905 -7.4576726 -37.941933 -116.87073
36973000 -38.655788 -79.4198 -0.024551438 -7.6514878 -0.027938575 -7.6568394 -37.694477 -116.14008
37972000 -38.456444 -79.150841 -0.02448922 -7.8608904 -0.027166953 -7.8709779 -37.456299 -115.2548
38971000 -38.171589 -78.627899 -0.025051557 -8.0693493 -0.027368832 -8.0784388 -37.297554 -113.74233
39970000 -37.819389 -79.050079 -0.023289816 -8.254797 -0.026455108 -8.2726812 -37.052338 -113.17036
40969000 -37.538502 -78.614685 -0.023713786 -8.4574137 -0.02651475 -8.4761677 -36.805244 -111.74808
41968000 -37.187206 -78.535828 -0.023902232 -8.6589823 -0.027170599 -8.6751928 -36.623543 -110.55492
42967000 -36.936275 -78.724197 -0.023084743 -8.8736744 -0.026749417 -8.8894081 -36.425098 -108.6054
43966000 -36.656052 -79.439575 -0.023708321 -9.068965 -0.028235329 -9.0868406 -36.158253 -107.85355
44965000 -36.405113 -80.134949 -0.025545221 -9.2718353 -0.028738998 -9.290473 -35.945877 -107.55804
45964000 -36.155888 -81.181419 -0.026292074 -9.4700804 -0.029596906 -9.4932051 -35.709911 -107.34733
46963000 -35.976402 -83.040756 -0.026329577 -9.6690102 -0.030247226 -9.6905909 -35.550396 -107.58923
47962000 -35.804188 -84.435059 -0.028069884 -9.8724079 -0.031101784 -9.8884459 -35.330444 -107.52385
48961000 -35.596294 -85.926476 -0.030062156 -10.070287 -0.033143964 -10.088694 -35.100353 -107.72913
49960000 -35.361027 -87.175674 -0.031152884 -10.266828 -0.033895254 -10.289762 -34.970493 -107.82247
50959000 -35.140629 -88.513504 -0.031621952 -10.482474 -0.034906052 -10.492252 -34.798531 -108.07339
51958000 -34.922329 -89.509789 -0.033681072 -10.678826 -0.036705144 -10.691686 -34.612373 -108.54153
52957000 -34.701054 -90.525314 -0.035056621 -10.880465 -0.037558883 -10.88707 -34.453411 -108.31562
53956000 -34.533195 -91.183067 -0.036312532 -11.083353 -0.038528748 -11.085684 -34.318943 -108.24684
54955000 -34.374977 -91.73246 -0.036961507 -11.282773 -0.039388854 -11.280118 -34.164589 -108.25063
55954000 -34.19371 -92.568993 -0.038669519 -11.48355 -0.03961011 -11.48491 -34.054085 -107.89928
56953000 -34.084221 -92.567833 -0.037711635 -11.67995 -0.038980588 -11.672883 -33.994358 -108.0598
57952000 -33.91629 -93.089539 -0.039250411 -11.883554 -0.039767113 -11.871117 -33.876835 -108.20781
58951000 -33.812954 -93.401054 -0.039938491 -12.082174 -0.04083389 -12.064631 -33.731884 -108.28577
59950000 -33.665394 -93.766899 -0.041196857 -12.289953 -0.041161317 -12.261707 -33.662495 -108.51791
60949000 -33.556656 -94.336479 -0.041075341 -12.487062 -0.041732874 -12.461916 -33.565208 -108.7621
61948000 -33.499252 -94.718956 -0.042359918 -12.686674 -0.040936846 -12.670976 -33.485001 -108.8552
62947000 -33.403595 -94.833 -0.041575015 -12.898364 -0.042077359 -12.879535 -33.33279 -109.20683
63946000 -33.314476 -95.626656 -0.043233857 -13.098065 -0.043575585 -13.078863 -33.239979 -109.31886
64945000 -33.224209 -95.74131 -0.043228891 -13.297988 -0.043852229 -13.279857 -33.116367 -109.73489
65944000 -33.121365 -96.026855 -0.043944273 -13.497947 -0.044452645 -13.482615 -33.012928 -110.14982
66943000 -32.978313 -96.507668 -0.041764237 -13.702289 -0.042629428 -13.683651 -32.911388 -110.46796
67942000 -32.920601 -96.349007 -0.044496056 -13.895678 -0.04434542 -13.884425 -32.784485 -110.68526
68941000 -32.791302 -96.54644 -0.044041287 -14.091062 -0.043712858 -14.079769 -32.680466 -110.62008
69940000 -32.710732 -96.544167 -0.043987159 -14.289219 -0.044876069 -14.277289 -32.534313 -111.02225
70939000 -32.59341 -96.437393 -0.044140659 -14.486249 -0.044496316 -14.479123 -32.405769 -110.84
71938000 -32.456223 -96.072922 -0.043343667 -14.679645 -0.044260688 -14.678152 -32.269249 -110.7584
72937000 -32.298473 -95.936409 -0.043142613 -14.884352 -0.043792609 -14.878668 -32.128445 -110.37008
73936000 -32.161304 -95.519814 -0.043350466 -15.079668 -0.043228105 -15.075089 -32.022881 -110.27667
74935000 -32.039631 -95.71489 -0.043143921 -15.276799 -0.042338222 -15.274672 -31.872978 -109.90485
75934000 -31.913151 -95.947655 -0.042758044 -15.483583 -0.042683017 -15.48311 -31.789764 -109.80878
76933000 -31.785751 -96.40509 -0.044520639 -15.676343 -0.044011738 -15.6746 -31.616087 -110.05048
77932000 -31.68219 -97.090904 -0.045076419 -15.877671 -0.045828473 -15.86594 -31.517717 -110.1182
78931000 -31.606926 -97.870766 -0.043255035 -16.074963 -0.044411585 -16.070866 -31.410994 -109.95717
79930000 -31.484644 -98.715637 -0.046039071 -16.270498 -0.047258381 -16.265827 -31.316273 -110.27393
80929000 -31.375589 -99.472549 -0.04779698 -16.468689 -0.048314176 -16.464315 -31.218771 -110.52492
81928000 -31.277515 -100.23096 -0.047855079 -16.659548 -0.049618177 -16.653242 -31.090729 -110.52177
82927000 -31.183712 -101.02885 -0.049142972 -16.85663 -0.05030188 -16.857811 -30.984322 -110.78174
83926000 -31.057917 -101.6428 -0.050348494 -17.050411 -0.051028904 -17.054323 -30.862457 -110.97928
84925000 -30.963251 -102.00599 -0.051600974 -17.258841 -0.051380415 -17.251202 -30.775457 -111.00508
85924000 -30.861195 -102.45647 -0.052464984 -17.45579 -0.053244784 -17.449978 -30.686531 -110.96339
86923000 -30.753956 -102.91158 -0.052704986 -17.653439 -0.053078644 -17.649681 -30.579411 -110.81232
87922000 -30.641171 -103.27458 -0.052275296 -17.859892 -0.052715469 -17.85236 -30.493698 -110.8783
88921000 -30.569403 -103.55482 -0.053512346 -18.057133 -0.053893935 -18.051741 -30.404337 -110.86846
89920000 -30.467016 -104.04325 -0.054233357 -18.260075 -0.054726683 -18.250605 -30.337896 -110.98296
90919000 -30.368277 -104.2805 -0.054820005 -18.452887 -0.054765742 -18.451246 -30.258759 -111.17033
91918000 -30.274904 -104.64105 -0.05608584 -18.657759 -0.055288751 -18.650101 -30.195808 -111.15195
92917000 -30.180239 -104.94844 -0.057029426 -18.851416 -0.056229543 -18.847359 -30.131891 -111.28564
93916000 -30.095102 -105.31229 -0.056353319 -19.048166 -0.0561965 -19.041082 -30.040813 -111.86739
94915000 -30.00493 -105.89771 -0.057658684 -19.250689 -0.057220109 -19.243351 -29.974928 -111.72261
95914000 -29.947887 -106.13686 -0.059139993 -19.444321 -0.058292758 -19.438385 -29.893888 -112.05468
96913000 -29.87162 -106.32301 -0.060717355 -19.643206 -0.059485599 -19.640177 -29.827414 -112.38639
97912000 -29.785341 -106.80741 -0.061039723 -19.838379 -0.059632298 -19.839207 -29.743902 -112.56743
98911000 -29.683229 -106.94048 -0.061369464 -20.041485 -0.060720768 -20.039654 -29.695789 -112.76237
99910000 -29.609119 -107.11656 -0.062443137 -20.238323 -0.060820259 -20.240442 -29.598364 -113.07041
100909000 -29.514128 -107.3831 -0.061999355 -20.450897 -0.060486622 -20.445436 -29.515247 -113.345
101908000 -29.432783 -107.61215 -0.063200042 -20.650734 -0.06177669 -20.647491 -29.399637 -113.1059
102907000 -29.300863 -107.58517 -0.063454039 -20.851915 -0.062129859 -20.849546 -29.327105 -113.10159
103906000 -29.198595 -107.66202 -0.063662075 -21.058395 -0.060810547 -21.049215 -29.181648 -113.05717
104905000 -29.060347 -107.51156 -0.064574994 -21.257776 -0.062247235 -21.251829 -29.052177 -112.72542
105904000 -28.922342 -107.64333 -0.064412095 -21.459579 -0.062066574 -21.456791 -28.947281 -112.61793
106903000 -28.807114 -107.67585 -0.065090775 -21.660633 -0.062665045 -21.660322 -28.821905 -112.51643
107902000 -28.645309 -108.02033 -0.065411367 -21.86496 -0.062983885 -21.857079 -28.68401 -112.43295
108901000 -28.528416 -108.25958 -0.066873498 -22.065144 -0.065145172 -22.057634 -28.551287 -112.41803
109900000 -28.408863 -108.72376 -0.067074344 -22.26247 -0.065371156 -22.25774 -28.410145 -112.45705
110899000 -28.287062 -109.31521 -0.068649858 -22.463511 -0.066502072 -22.455711 -28.288321 -112.72075
111898000 -28.200441 -109.98818 -0.069595918 -22.662954 -0.06693843 -22.658493 -28.169605 -112.86905
112897000 -28.071394 -110.50753 -0.071306281 -22.865925 -0.068312727 -22.851076 -28.031258 -113.01802
113896000 -27.967337 -111.07379 -0.072208174 -23.06381 -0.069438353 -23.049698 -27.923704 -113.11051
114895000 -27.859728 -111.77254 -0.073223457 -23.260904 -0.070880532 -23.250107 -27.813061 -113.20578
115894000 -27.745567 -112.09711 -0.074474916 -23.464205 -0.072279237 -23.452055 -27.745502 -113.378
116893000 -27.664654 -112.53858 -0.075590551 -23.658779 -0.072815418 -23.643053 -27.61545 -113.48283
117892000 -27.579029 -113.07733 -0.075320832 -23.856005 -0.073341921 -23.840612 -27.548368 -113.65549
118891000 -27.522226 -113.4536 -0.075497046 -24.058304 -0.073426433 -24.042341 -27.453125 -113.76505
119890000 -27.440138 -113.76951 -0.076362401 -24.259214 -0.074685588 -24.246687 -27.437647 -113.96729
120889000 -27.389359 -114.32036 -0.077915192 -24.46069 -0.075329788 -24.443928 -27.365828 -113.89507
121888000 -27.348034 -114.60069 -0.077683806 -24.656607 -0.075371668 -24.645584 -27.303305 -114.12995
122887000 -27.317505 -114.81291 -0.07834664 -24.861547 -0.075549729 -24.846437 -27.260376 -114.145
123886000 -27.255901 -115.22421 -0.079157725 -25.062031 -0.076389007 -25.044003 -27.245466 -114.27633
124885000 -27.226927 -115.74749 -0.07990516 -25.259094 -0.076875634 -25.244646 -27.214922 -114.34713
125884000 -27.168295 -115.91702 -0.080098957 -25.456638 -0.077203944 -25.445068 -27.183327 -114.48672
126883000 -27.153906 -116.31876 -0.080421977 -25.662584 -0.077459812 -25.649315 -27.152792 -114.48518
127882000 -27.10066 -116.63155 -0.080756091 -25.864374 -0.077939965 -25.84617 -27.10577 -114.63447
128881000 -27.075417 -116.90628 -0.081318378 -26.066368 -0.077951565 -26.047937 -27.076969 -114.70975
129880000 -27.016996 -117.26765 -0.082189903 -26.266102 -0.078170843 -26.247589 -27.030626 -114.70012
130879000 -26.960171 -117.39874 -0.082170643 -26.466715 -0.079624891 -26.449057 -26.953623 -114.70911
131878000 -26.893627 -117.69363 -0.082002871 -26.670519 -0.079839505 -26.649101 -26.894985 -114.59911
132877000 -26.832983 -117.68922 -0.081980184 -26.868294 -0.079995595 -26.85305 -26.817076 -114.5452
133876000 -26.747948 -117.89941 -0.081840634 -27.07164 -0.079538412 -27.051344 -26.73159 -114.44009
134875000 -26.650696 -118.03814 -0.082565047 -27.271605 -0.080496602 -27.253948 -26.631535 -114.26022
135874000 -26.575565 -118.04593 -0.082120255 -27.473753 -0.080033563 -27.458532 -26.53878 -114.22858
136873000 -26.462328 -117.97891 -0.082944714 -27.672771 -0.079918079 -27.656103 -26.456444 -114.23261
137872000 -26.380966 -118.09229 -0.082871892 -27.873686 -0.080508731 -27.860983 -26.352987 -114.09217
138871000 -26.310268 -118.33086 -0.083218075 -28.075279 -0.080161452 -28.060558 -26.259741 -114.2963
139870000 -26.20413 -118.57025 -0.083779879 -28.277624 -0.081531756 -28.259384 -26.177778 -114.4501
140869000 -26.126827 -119.15584 -0.084836937 -28.473158 -0.081941143 -28.457859 -26.081537 -114.67198
141868000 -26.044714 -119.55645 -0.085821904 -28.673182 -0.083868816 -28.652941 -26.029127 -114.88675
142867000 -25.971083 -119.7337 -0.084713139 -28.870285 -0.082538135 -28.852823 -25.948471 -115.00087
143866000 -25.895275 -120.22261 -0.086373754 -29.06794 -0.084022418 -29.050915 -25.881079 -115.45422
144865000 -25.839327 -120.72813 -0.088080183 -29.263901 -0.085398696 -29.249462 -25.822475 -115.78635
145864000 -25.77865 -121.04821 -0.088118486 -29.465921 -0.087117411 -29.453476 -25.787472 -116.00993
146863000 -25.735395 -121.40903 -0.089069583 -29.666702 -0.087707199 -29.654387 -25.735254 -116.30521
147862000 -25.698477 -121.76015 -0.089932092 -29.860928 -0.087524153 -29.850769 -25.708115 -116.62088
148861000 -25.65938 -122.19005 -0.091268219 -30.060265 -0.08923658 -30.04949 -25.681665 -116.79786
149860000 -25.633507 -122.32961 -0.091989174 -30.253801 -0.088775776 -30.244692 -25.627731 -116.89784
150859000 -25.603853 -122.8278 -0.091674551 -30.451473 -0.089095481 -30.439472 -25.609554 -117.23241
151858000 -25.593786 -123.13586 -0.091125995 -30.65238 -0.089329585 -30.637552 -25.603067 -117.57217
152857000 -25.57914 -123.48322 -0.091448247 -30.85635 -0.089429997 -30.840227 -25.581747 -117.77215
153856000 -25.575026 -123.69045 -0.090171538 -31.052813 -0.088888861 -31.037064 -25.600315 -118.09363
154855000 -25.575802 -123.85197 -0.091789559 -31.252159 -0.089080684 -31.238346 -25.585846 -118.32729
155854000 -25.590124 -124.0777 -0.092117682 -31.452929 -0.089101821 -31.440226 -25.580942 -118.59551
156853000 -25.575037 -124.7783 -0.089487076 -31.641586 -0.088540114 -31.630388 -25.574112 -118.90071
157852000 -25.580948 -124.98484 -0.090653628 -31.842793 -0.090317428 -31.833681 -25.56601 -119.26154
158851000 -25.578794 -125.21629 -0.091273502 -32.042294 -0.090399362 -32.032417 -25.54738 -119.56599
159850000 -25.571268 -125.33514 -0.092193827 -32.238411 -0.091033205 -32.231785 -25.545912 -119.70999
160849000 -25.559372 -125.43158 -0.092580944 -32.43861 -0.091608986 -32.431873 -25.518721 -120.03222
161848000 -25.537144 -125.50027 -0.092628017 -32.638023 -0.091489486 -32.630417 -25.476851 -120.13364
162847000 -25.491703 -125.69508 -0.092585176 -32.840179 -0.09217003 -32.834862 -25.450796 -120.34604
163846000 -25.458227 -125.8736 -0.092764206 -33.039635 -0.091818646 -33.031902 -25.372356 -120.37381
164845000 -25.400257 -125.86423 -0.093079709 -33.235378 -0.092636481 -33.231144 -25.312656 -120.47974
165844000 -25.348129 -125.91731 -0.093256898 -33.43861 -0.092852004 -33.433922 -25.234619 -120.61272
166843000 -25.289429 -125.96188 -0.092685141 -33.637672 -0.09320242 -33.634495 -25.164997 -120.76955
167842000 -25.226048 -126.07493 -0.093424849 -33.836964 -0.093346827 -33.829399 -25.087484 -120.68041
168841000 -25.148474 -126.22783 -0.094929256 -34.033691 -0.093379095 -34.032623 -25.0121 -120.75995
169840000 -25.086189 -126.46484 -0.0941668 -34.229614 -0.094156221 -34.226051 -24.928648 -120.93869
170839000 -25.026489 -126.72158 -0.095522746 -34.428967 -0.094429754 -34.427704 -24.849855 -121.08917
171838000 -24.965488 -127.10437 -0.095046729 -34.631916 -0.096189901 -34.627384 -24.788982 -121.33472
172837000 -24.895744 -127.45738 -0.096537143 -34.827999 -0.09643551 -34.822571 -24.720457 -121.53192
173836000 -24.825788 -127.85139 -0.097714856 -35.024738 -0.097631194 -35.023262 -24.67837 -121.75934
174835000 -24.773952 -128.23648 -0.09790919 -35.223553 -0.098258421 -35.224552 -24.633606 -122.08149
175834000 -24.720009 -128.62486 -0.099017888 -35.42527 -0.098957501 -35.420059 -24.573315 -122.34834
176833000 -24.673677 -128.93243 -0.1003025 -35.619724 -0.099533007 -35.619896 -24.524488 -122.47141
177832000 -24.625845 -129.34531 -0.1004535 -35.822933 -0.10052503 -35.819027 -24.510393 -122.57642
178831000 -24.581984 -129.62978 -0.10288692 -36.021027 -0.10216467 -36.014488 -24.469669 -122.66636
179830000 -24.515326 -129.98953 -0.10365964 -36.202347 -0.10309791 -36.202568 -24.403315 -122.73112
180829000 -24.461605 -130.34589 -0.10208835 -36.396626 -0.10172635 -36.395058 -24.363007 -123.05865
181828000 -24.44372 -130.76741 -0.10181697 -36.598057 -0.10125521 -36.592438 -24.343031 -123.26286
182827000 -24.417522 -131.12674 -0.10167361 -36.793938 -0.10156576 -36.792515 -24.331797 -123.37041
183826000 -24.374262 -131.49414 -0.10291156 -36.989716 -0.10182413 -36.993259 -24.321625 -123.5304
184825000 -24.378897 -131.7964 -0.10275146 -37.187363 -0.10211325 -37.189857 -24.304228 -123.6412
185824000 -24.350491 -132.15512 -0.10229374 -37.385071 -0.10244507 -37.381691 -24.293751 -123.69731
186823000 -24.333517 -132.49773 -0.10232925 -37.582634 -0.10251981 -37.582382 -24.292723 -123.71584
187822000 -24.311945 -132.85631 -0.10291103 -37.77758 -0.10308889 -37.779343 -24.249029 -123.81845
188821000 -24.289795 -133.11908 -0.10282674 -37.975727 -0.10317611 -37.980247 -24.230869 -123.94923
189820000 -24.271091 -133.4231 -0.10329486 -38.176819 -0.10271436 -38.174229 -24.212238 -124.12182
190819000 -24.236475 -133.73196 -0.10357454 -38.371502 -0.10393272 -38.372982 -24.173958 -124.15911
191818000 -24.207794 -134.01315 -0.10350774 -38.570877 -0.10373812 -38.574272 -24.150143 -124.18303
192817000 -24.162493 -134.29652 -0.1042949 -38.768887 -0.10432672 -38.768085 -24.107124 -124.29074
193816000 -24.12804 -134.55539 -0.10411169 -38.963768 -0.10406979 -38.964344 -24.054995 -124.43882
194815000 -24.072649 -134.96774 -0.10475576 -39.158455 -0.10528668 -39.163136 -23.985239 -124.49137
195814000 -24.016115 -135.15202 -0.10551636 -39.353779 -0.1047547 -39.358723 -23.933275 -124.58593
196813000 -23.96167 -135.49043 -0.10498488 -39.549774 -0.10455768 -39.553246 -23.855509 -124.75151
197812000 -23.902424 -135.68352 -0.10564898 -39.744873 -0.10527501 -39.747768 -23.784967 -124.82406
198811000 -23.850981 -135.85028 -0.10574207 -39.942726 -0.1045659 -39.952538 -23.718601 -125.00122
199810000 -23.777035 -136.20573 -0.10596249 -40.138668 -0.10472314 -40.138107 -23.640575 -125.0812
200809000 -23.724409 -136.47406 -0.10620707 -40.335327 -0.10551955 -40.339478 -23.562761 -125.26704
201808000 -23.666622 -136.68507 -0.10641504 -40.54163 -0.10616727 -40.540234 -23.497612 -125.33702
202807000 -23.607832 -136.98792 -0.10797729 -40.73901 -0.10691274 -40.743359 -23.438908 -125.51686
