!Keysight Technologies,E5080B,MY59205177,A.15.75.32
!Date: Friday, February 23, 2024 02:56:49
!Correction: S11(Cdelta 2-Port  ) 
!S21(Cdelta 2-Port  ) 
!S12(Cdelta 2-Port  ) 
!S22(Cdelta 2-Port  ) 
!S2P File: Measurements: S11, S21, S12, S22:
# Hz S  dB   R 50
10000000 -43.952312 -3.752032 -0.028914891 -2.0418634 -0.031701218 -2.0962865 -48.416752 -148.92789
10999000 -43.375011 -5.3476081 -0.02943584 -2.2575583 -0.031998493 -2.3109677 -48.004158 -141.34247
11998000 -42.538403 -8.0078459 -0.029894033 -2.4836221 -0.031406574 -2.5261612 -48.246429 -134.99237
12997000 -41.931381 -12.201558 -0.029093919 -2.6612494 -0.031442817 -2.6929364 -47.480423 -128.87169
13996000 -41.697678 -15.616728 -0.02781222 -2.8399479 -0.031220412 -2.8587997 -47.093548 -123.48597
14995000 -41.402821 -19.404364 -0.030368699 -3.0505507 -0.031262912 -3.0748262 -46.584446 -120.05821
15994000 -41.254395 -23.10955 -0.031852461 -3.2693262 -0.033667766 -3.2906141 -46.317284 -116.95535
16993000 -41.306976 -27.165937 -0.030930493 -3.4624684 -0.032746717 -3.4743507 -45.461578 -117.68844
17992000 -41.359917 -31.528614 -0.031027479 -3.6623373 -0.033272561 -3.6643863 -44.817932 -118.39268
18991000 -41.635166 -35.967922 -0.031940863 -3.8725491 -0.034205724 -3.8732047 -44.101856 -118.03812
19990000 -41.481247 -40.914795 -0.034826204 -4.0806456 -0.03669418 -4.0782051 -43.411709 -120.09007
20989000 -41.432583 -43.686371 -0.036544595 -4.2805271 -0.038497146 -4.2764616 -42.82061 -119.9884
21988000 -41.314808 -48.493267 -0.037336424 -4.4789324 -0.039127905 -4.470881 -42.535851 -119.0045
22987000 -41.104839 -52.752319 -0.038770333 -4.6800318 -0.039629441 -4.669281 -42.236469 -118.93806
23986000 -41.16468 -56.463852 -0.037484206 -4.872046 -0.038787048 -4.8722243 -42.098148 -118.94061
24985000 -40.812561 -58.706909 -0.038854696 -5.0804124 -0.039313361 -5.0757957 -41.851986 -116.17372
25984000 -40.612511 -61.065872 -0.040706374 -5.2860804 -0.04000511 -5.2855611 -41.508114 -115.40285
26983000 -40.275234 -62.920845 -0.040716827 -5.4833493 -0.040566061 -5.5055194 -41.412895 -114.51212
27982000 -40.148655 -64.395363 -0.042018026 -5.6828184 -0.042433895 -5.7180395 -41.042736 -113.0022
28981000 -40.230946 -65.556213 -0.040253047 -5.8800201 -0.042256407 -5.907939 -40.780506 -112.4498
29980000 -39.80415 -67.229378 -0.040426012 -6.077981 -0.042398866 -6.0837584 -40.465164 -111.50984
30979000 -39.430195 -66.535812 -0.038102806 -6.4308343 -0.037489429 -6.4208002 -39.971634 -112.62802
31978000 -39.236954 -67.400993 -0.037050273 -6.6248088 -0.037973803 -6.6144686 -39.725574 -111.6816
32977000 -39.101418 -69.092155 -0.036626305 -6.8332839 -0.039141227 -6.8281631 -39.447468 -112.04791
33976000 -38.943703 -70.186554 -0.037321281 -7.0352831 -0.039107531 -7.0290036 -39.119507 -111.63206
34975000 -38.67469 -71.344414 -0.037425458 -7.2353749 -0.040091585 -7.232491 -38.920723 -111.42462
35974000 -38.488464 -71.902336 -0.036352992 -7.4279685 -0.039177012 -7.430943 -38.593079 -110.62366
36973000 -38.275421 -72.917458 -0.0375816 -7.6287341 -0.040767781 -7.6341324 -38.304035 -109.88564
37972000 -38.100834 -72.823196 -0.037006151 -7.8385978 -0.040297985 -7.8472214 -38.051807 -109.22714
38971000 -37.76823 -72.658592 -0.037327547 -8.0376749 -0.040450834 -8.0508432 -37.852787 -107.73344
39970000 -37.471725 -73.132614 -0.03642321 -8.2329035 -0.04044012 -8.2476759 -37.561214 -107.18627
40969000 -37.181271 -73.116714 -0.036881883 -8.424777 -0.038896486 -8.4497232 -37.295303 -105.8765
41968000 -36.830132 -73.252197 -0.036809307 -8.6308327 -0.039889116 -8.6487942 -37.086617 -104.77435
42967000 -36.563797 -73.478004 -0.036419034 -8.8404274 -0.039786708 -8.858036 -36.870525 -103.12062
43966000 -36.320049 -74.504433 -0.036372568 -9.045126 -0.041081354 -9.0601292 -36.58054 -102.51529
44965000 -36.090294 -75.303726 -0.037825223 -9.2478409 -0.041180395 -9.2613602 -36.354374 -102.4236
45964000 -35.884018 -76.501129 -0.039152458 -9.4450426 -0.04253532 -9.4644079 -36.11063 -102.25021
46963000 -35.705853 -78.498848 -0.039525472 -9.6369619 -0.042469446 -9.6623735 -35.932957 -102.65046
47962000 -35.573093 -79.97802 -0.041177258 -9.8423109 -0.044235323 -9.8585835 -35.733776 -102.82932
48961000 -35.363079 -81.523674 -0.04335491 -10.037311 -0.045545425 -10.057374 -35.507244 -103.1927
49960000 -35.144035 -82.928795 -0.044359803 -10.234639 -0.04662618 -10.254459 -35.361942 -103.27702
50959000 -34.941444 -84.31498 -0.044798389 -10.449697 -0.047323804 -10.458688 -35.179234 -103.77879
51958000 -34.748657 -85.456512 -0.046794165 -10.648124 -0.049117055 -10.655141 -35.007481 -104.283
52957000 -34.556572 -86.520119 -0.048714418 -10.844714 -0.0495103 -10.853823 -34.836411 -104.20357
53956000 -34.400341 -87.232574 -0.049283825 -11.049911 -0.050305285 -11.049146 -34.706547 -104.14745
54955000 -34.244331 -87.80114 -0.05045246 -11.246455 -0.051606737 -11.244143 -34.546703 -104.21661
55954000 -34.081715 -88.846703 -0.051806089 -11.448715 -0.051794562 -11.445712 -34.451897 -103.93297
56953000 -33.973671 -88.751595 -0.051005594 -11.647186 -0.051132102 -11.639926 -34.362396 -104.25642
57952000 -33.811314 -89.404472 -0.05200414 -11.843932 -0.052270319 -11.835256 -34.277393 -104.32099
58951000 -33.700085 -89.85244 -0.053413548 -12.050007 -0.053627133 -12.028556 -34.108395 -104.46236
59950000 -33.578472 -90.171745 -0.053909663 -12.249873 -0.053641286 -12.225616 -34.043743 -104.79815
60949000 -33.471867 -90.81559 -0.054167043 -12.450563 -0.054288402 -12.427829 -33.947739 -105.09869
61948000 -33.412346 -91.076797 -0.054580148 -12.64733 -0.054384075 -12.633056 -33.86882 -105.1431
62947000 -33.327412 -91.349167 -0.055522095 -12.860291 -0.055341188 -12.838725 -33.7379 -105.53333
63946000 -33.272896 -92.048515 -0.055906221 -13.057252 -0.056609798 -13.036718 -33.62698 -105.63956
64945000 -33.159363 -92.231277 -0.056398686 -13.258112 -0.056638382 -13.237506 -33.514538 -106.11024
65944000 -33.066105 -92.480515 -0.057302471 -13.459495 -0.05731139 -13.43664 -33.430325 -106.61408
66943000 -32.91288 -93.020363 -0.055459172 -13.660934 -0.055519473 -13.642311 -33.316296 -106.81448
67942000 -32.855919 -92.949745 -0.057320829 -13.852201 -0.057626158 -13.843868 -33.192814 -107.16978
68941000 -32.741474 -93.050041 -0.057019722 -14.048814 -0.056708932 -14.042197 -33.087528 -107.13888
69940000 -32.653976 -93.05864 -0.057423655 -14.246593 -0.058256026 -14.239343 -32.952644 -107.44371
70939000 -32.542698 -93.079475 -0.056999788 -14.441976 -0.056986675 -14.439336 -32.827812 -107.35966
71938000 -32.400146 -92.711327 -0.056684803 -14.641778 -0.057370931 -14.630689 -32.697681 -107.27438
72937000 -32.237213 -92.521461 -0.056051753 -14.839856 -0.056283563 -14.829619 -32.539436 -107.05302
73936000 -32.101704 -92.200424 -0.056500174 -15.037403 -0.056109704 -15.026338 -32.428822 -106.80235
74935000 -31.984163 -92.465973 -0.055516329 -15.230929 -0.055859286 -15.230098 -32.281288 -106.44553
75934000 -31.85977 -92.77256 -0.055887867 -15.441422 -0.054773081 -15.432188 -32.191795 -106.50141
76933000 -31.736822 -93.19873 -0.0572487 -15.633851 -0.056653332 -15.630363 -32.020462 -106.87383
77932000 -31.639915 -93.955879 -0.057690952 -15.82906 -0.058528099 -15.821906 -31.919737 -106.84328
78931000 -31.566433 -94.758659 -0.056907207 -16.027622 -0.057855953 -16.022617 -31.828207 -106.78338
79930000 -31.451473 -95.568771 -0.059462242 -16.222496 -0.060506571 -16.217932 -31.729849 -107.05636
80929000 -31.334927 -96.460075 -0.060844146 -16.415043 -0.061703172 -16.412579 -31.616224 -107.43688
81928000 -31.262413 -97.399712 -0.060879588 -16.610128 -0.061882507 -16.604773 -31.509569 -107.54149
82927000 -31.166395 -98.081375 -0.062797934 -16.805624 -0.063588791 -16.80456 -31.397484 -107.82546
83926000 -31.049385 -98.867783 -0.064090267 -17.00621 -0.064171448 -17.002632 -31.286163 -108.06149
84925000 -30.947655 -99.291107 -0.065723829 -17.200556 -0.064307272 -17.198626 -31.180122 -108.14397
85924000 -30.869028 -99.775688 -0.065672062 -17.405329 -0.064787552 -17.400835 -31.097019 -108.27072
86923000 -30.767845 -100.33245 -0.065668903 -17.600628 -0.065870747 -17.593548 -31.003471 -108.1042
87922000 -30.654291 -100.72742 -0.066384844 -17.804466 -0.065857343 -17.796844 -30.921043 -108.20499
88921000 -30.58712 -101.0192 -0.066949733 -18.004433 -0.06699995 -17.99761 -30.82872 -108.2165
89920000 -30.485792 -101.56476 -0.067706108 -18.203508 -0.067014672 -18.19763 -30.783865 -108.31979
90919000 -30.398232 -101.90492 -0.068469979 -18.397709 -0.067560717 -18.391163 -30.69339 -108.5518
91918000 -30.295311 -102.23337 -0.06905435 -18.601572 -0.067862555 -18.59128 -30.61834 -108.5832
92917000 -30.215918 -102.61343 -0.069439933 -18.799767 -0.069556721 -18.793415 -30.554893 -108.69999
93916000 -30.123426 -102.98141 -0.069182962 -18.990795 -0.069407322 -18.98592 -30.474043 -109.39472
94915000 -30.060619 -103.60973 -0.070600584 -19.189907 -0.07020779 -19.18648 -30.419264 -109.18534
95914000 -29.991949 -103.84194 -0.071484439 -19.384285 -0.070732139 -19.383253 -30.318356 -109.50954
96913000 -29.914429 -104.05725 -0.072869383 -19.58812 -0.071957089 -19.584074 -30.258078 -109.88919
97912000 -29.83741 -104.57568 -0.073689975 -19.781298 -0.071935773 -19.781803 -30.180128 -110.15378
98911000 -29.736053 -104.78979 -0.074254505 -19.981977 -0.073471457 -19.979391 -30.145363 -110.31506
99910000 -29.67021 -104.94252 -0.075179927 -20.180698 -0.073807403 -20.178818 -30.04563 -110.63621
100909000 -29.585087 -105.18722 -0.074908651 -20.39222 -0.073112622 -20.386095 -29.950338 -110.77236
101908000 -29.495928 -105.44828 -0.075673267 -20.590897 -0.074453585 -20.588572 -29.838842 -110.59396
102907000 -29.361784 -105.47466 -0.075461224 -20.790968 -0.074611329 -20.786831 -29.761869 -110.57563
103906000 -29.269901 -105.5472 -0.076322354 -20.995527 -0.074265569 -20.990171 -29.611076 -110.44364
104905000 -29.117565 -105.47642 -0.076668538 -21.191408 -0.074248977 -21.189272 -29.481026 -110.13613
105904000 -28.980469 -105.56801 -0.076838478 -21.394894 -0.075411178 -21.386211 -29.369621 -110.03934
106903000 -28.873404 -105.70702 -0.077272452 -21.599056 -0.07540749 -21.593262 -29.242451 -109.95095
107902000 -28.70854 -106.06636 -0.077279836 -21.802231 -0.075693019 -21.790665 -29.103867 -109.95255
108901000 -28.597425 -106.31878 -0.079350963 -21.996964 -0.077060074 -21.992764 -28.971725 -109.88263
109900000 -28.470354 -106.79296 -0.079483047 -22.198338 -0.078066997 -22.191135 -28.819132 -109.96143
110899000 -28.354538 -107.40562 -0.081388801 -22.396662 -0.078305788 -22.387884 -28.693665 -110.26075
111898000 -28.260723 -108.11096 -0.082567155 -22.59775 -0.079999022 -22.589909 -28.579065 -110.3931
112897000 -28.142189 -108.70709 -0.083835036 -22.797604 -0.081272222 -22.784491 -28.439604 -110.56434
113896000 -28.043322 -109.2784 -0.084704168 -22.998426 -0.082193591 -22.983921 -28.334599 -110.75996
114895000 -27.941477 -109.97361 -0.085561588 -23.195324 -0.083389327 -23.180269 -28.221609 -110.84982
115894000 -27.807325 -110.31636 -0.087188721 -23.392914 -0.084796287 -23.382998 -28.142912 -111.07109
116893000 -27.72777 -110.89426 -0.087624788 -23.591383 -0.085112788 -23.573082 -28.021128 -111.17335
117892000 -27.643705 -111.39172 -0.087270334 -23.786972 -0.085800782 -23.775492 -27.945726 -111.41519
118891000 -27.580971 -111.84079 -0.088413037 -23.986654 -0.085609637 -23.975502 -27.852558 -111.54734
119890000 -27.496075 -112.18863 -0.089215703 -24.190926 -0.086381413 -24.172003 -27.83938 -111.67101
120889000 -27.436518 -112.7063 -0.090758301 -24.390236 -0.086970575 -24.376017 -27.764946 -111.69315
121888000 -27.403374 -113.02989 -0.090008207 -24.588385 -0.087949157 -24.572577 -27.700441 -111.97382
122887000 -27.359777 -113.23241 -0.091593124 -24.791491 -0.088125087 -24.769798 -27.657663 -112.0195
123886000 -27.303162 -113.67255 -0.091716059 -24.989649 -0.089127451 -24.970764 -27.644182 -112.19869
124885000 -27.274281 -114.16884 -0.09185116 -25.184479 -0.089068525 -25.173347 -27.616533 -112.28017
125884000 -27.216574 -114.352 -0.093154818 -25.385984 -0.089169465 -25.368595 -27.58005 -112.44627
126883000 -27.196352 -114.78753 -0.09360338 -25.583298 -0.090658389 -25.572891 -27.538691 -112.49542
127882000 -27.13987 -115.01997 -0.093933225 -25.787552 -0.090896279 -25.772921 -27.492785 -112.63718
128881000 -27.109861 -115.35262 -0.093514509 -25.992851 -0.090585172 -25.970732 -27.456516 -112.75251
129880000 -27.057673 -115.68282 -0.094259389 -26.191532 -0.090636186 -26.170969 -27.413134 -112.76604
130879000 -26.993935 -115.86253 -0.094382934 -26.38995 -0.091324523 -26.373411 -27.339533 -112.79983
131878000 -26.926504 -116.04261 -0.094599605 -26.591501 -0.092085682 -26.573637 -27.27286 -112.67677
132877000 -26.859653 -116.12644 -0.094183736 -26.793373 -0.091721348 -26.775118 -27.1894 -112.69571
133876000 -26.776417 -116.32246 -0.094893008 -26.995369 -0.091722667 -26.975189 -27.098129 -112.61129
134875000 -26.679386 -116.43194 -0.09471336 -27.194094 -0.092595495 -27.174608 -26.984426 -112.47316
135874000 -26.595083 -116.46459 -0.094768927 -27.393024 -0.092579357 -27.37532 -26.885351 -112.46427
136873000 -26.483852 -116.35219 -0.095662206 -27.595469 -0.092461951 -27.57506 -26.800825 -112.41409
137872000 -26.409481 -116.4847 -0.095385946 -27.796076 -0.092668742 -27.783751 -26.700184 -112.40763
138871000 -26.33684 -116.72113 -0.095511898 -27.994274 -0.093270652 -27.978415 -26.595659 -112.58601
139870000 -26.234295 -116.93963 -0.096702568 -28.193731 -0.094934285 -28.181297 -26.517555 -112.69191
140869000 -26.150009 -117.40602 -0.098397702 -28.392311 -0.095489934 -28.371769 -26.413912 -112.87691
141868000 -26.055079 -117.8993 -0.098933667 -28.58341 -0.09612982 -28.567305 -26.344885 -113.20742
142867000 -25.978191 -118.1871 -0.097279102 -28.782452 -0.094585054 -28.765015 -26.269388 -113.42753
143866000 -25.912283 -118.66969 -0.099079326 -28.977873 -0.096158668 -28.959719 -26.188698 -113.88558
144865000 -25.853191 -119.2171 -0.1003372 -29.176714 -0.097562097 -29.161821 -26.132046 -114.23452
145864000 -25.798559 -119.535 -0.10074174 -29.376911 -0.09866409 -29.365252 -26.102444 -114.49146
146863000 -25.755203 -119.90723 -0.10150535 -29.573906 -0.098843634 -29.563282 -26.056187 -114.80769
147862000 -25.715761 -120.31123 -0.1023152 -29.771767 -0.099771656 -29.760811 -26.018234 -115.1524
148861000 -25.681232 -120.79429 -0.10241114 -29.970682 -0.10010991 -29.955008 -25.998201 -115.40512
149860000 -25.675486 -121.02141 -0.10361723 -30.16894 -0.10044502 -30.156952 -25.969139 -115.53587
150859000 -25.646194 -121.40268 -0.1040576 -30.372229 -0.10105755 -30.356756 -25.96105 -115.79985
151858000 -25.62611 -121.69083 -0.10407855 -30.56649 -0.10105517 -30.551256 -25.952742 -116.10173
152857000 -25.613014 -122.05928 -0.10404514 -30.761564 -0.10128648 -30.752504 -25.933651 -116.22472
153856000 -25.607038 -122.24557 -0.10343908 -30.967838 -0.10088003 -30.950617 -25.950991 -116.51115
154855000 -25.603456 -122.42881 -0.10348362 -31.159569 -0.10149845 -31.15078 -25.943321 -116.73886
155854000 -25.617365 -122.66637 -0.10446858 -31.364847 -0.10176504 -31.349731 -25.928541 -116.99572
156853000 -25.600002 -123.37345 -0.10249171 -31.552797 -0.10070041 -31.542046 -25.926651 -117.30206
157852000 -25.607546 -123.57386 -0.10318353 -31.749493 -0.10302342 -31.740122 -25.91403 -117.67024
158851000 -25.600477 -123.86606 -0.1045065 -31.949232 -0.10249702 -31.940376 -25.903955 -117.8949
159850000 -25.586098 -123.92104 -0.10444392 -32.145565 -0.10258555 -32.138214 -25.899302 -118.05228
160849000 -25.566919 -124.07317 -0.10492442 -32.344906 -0.10366786 -32.340496 -25.867361 -118.37637
161848000 -25.54686 -124.17005 -0.10480428 -32.546532 -0.10407165 -32.539047 -25.827419 -118.4849
162847000 -25.507732 -124.36695 -0.1050236 -32.744141 -0.10459984 -32.739712 -25.801725 -118.68563
163846000 -25.462191 -124.61098 -0.10525645 -32.941734 -0.10408862 -32.935081 -25.719528 -118.69842
164845000 -25.401756 -124.60081 -0.1057121 -33.141632 -0.10376357 -33.129902 -25.653391 -118.81569
165844000 -25.350773 -124.67736 -0.10575984 -33.342258 -0.10545536 -33.336079 -25.577824 -118.94033
166843000 -25.284914 -124.73282 -0.1057991 -33.541302 -0.1048263 -33.530712 -25.500137 -119.10312
167842000 -25.232021 -124.89391 -0.10592616 -33.741047 -0.10518219 -33.733768 -25.426199 -119.05949
168841000 -25.150185 -125.11144 -0.10572165 -33.939156 -0.10538056 -33.93174 -25.352234 -119.13103
169840000 -25.090805 -125.35503 -0.10624261 -34.137257 -0.10586011 -34.128548 -25.257648 -119.35323
170839000 -25.026718 -125.60619 -0.10729746 -34.329262 -0.10560017 -34.329189 -25.178757 -119.52747
171838000 -24.967491 -126.01362 -0.1067639 -34.527508 -0.10686657 -34.521503 -25.111727 -119.72694
172837000 -24.898613 -126.39802 -0.10889241 -34.724548 -0.10790776 -34.720009 -25.037483 -119.99084
173836000 -24.829557 -126.83546 -0.11027181 -34.924438 -0.10857231 -34.923149 -25.000317 -120.21928
174835000 -24.778473 -127.23442 -0.11080845 -35.119373 -0.10916661 -35.11829 -24.95084 -120.5938
175834000 -24.725653 -127.63869 -0.11165272 -35.316853 -0.11060319 -35.313633 -24.887873 -120.88068
176833000 -24.675806 -128.00958 -0.11191913 -35.513508 -0.11066692 -35.514187 -24.837791 -121.01871
177832000 -24.629564 -128.46672 -0.11250326 -35.713196 -0.11099063 -35.714302 -24.813198 -121.18665
178831000 -24.586714 -128.85947 -0.11338877 -35.905804 -0.11156826 -35.904591 -24.775244 -121.43705
179830000 -24.551058 -129.30869 -0.11375785 -36.102463 -0.11182085 -36.105503 -24.751558 -121.54861
180829000 -24.51115 -129.52255 -0.11330029 -36.304295 -0.11319826 -36.301991 -24.719217 -121.71508
181828000 -24.487173 -129.87764 -0.11398745 -36.505001 -0.11341454 -36.497902 -24.700506 -121.85511
182827000 -24.461554 -130.22922 -0.11390667 -36.692673 -0.11365369 -36.692429 -24.688196 -121.94813
183826000 -24.421354 -130.54242 -0.11530547 -36.891575 -0.11381791 -36.888489 -24.678164 -122.08849
184825000 -24.428843 -130.8912 -0.1155519 -37.087353 -0.11394626 -37.08448 -24.66305 -122.19127
185824000 -24.400328 -131.22757 -0.11454049 -37.283543 -0.11422795 -37.283489 -24.661116 -122.22893
186823000 -24.387108 -131.55643 -0.11540808 -37.483692 -0.11368318 -37.482994 -24.655762 -122.21044
187822000 -24.365538 -131.90195 -0.11536662 -37.675781 -0.11466754 -37.678593 -24.622517 -122.2774
188821000 -24.3473 -132.12851 -0.11572337 -37.87471 -0.11492589 -37.877945 -24.606359 -122.38811
189820000 -24.328468 -132.41037 -0.11564893 -38.073452 -0.11468375 -38.076176 -24.600794 -122.52384
190819000 -24.301605 -132.64937 -0.11711159 -38.273643 -0.11619687 -38.269852 -24.565626 -122.47668
191818000 -24.264622 -132.81458 -0.1180297 -38.469669 -0.1174286 -38.468147 -24.535965 -122.40322
192817000 -24.192717 -133.06883 -0.11832762 -38.651665 -0.11774243 -38.654037 -24.459633 -122.46429
193816000 -24.158596 -133.46219 -0.11807199 -38.847424 -0.11612668 -38.846199 -24.405479 -122.71635
194815000 -24.098022 -133.90417 -0.11723499 -39.042805 -0.11674249 -39.04734 -24.339508 -122.8673
195814000 -24.048222 -134.12932 -0.11824729 -39.241608 -0.11705495 -39.243523 -24.285259 -122.9659
196813000 -23.99325 -134.46776 -0.11746264 -39.435223 -0.11674675 -39.436718 -24.209337 -123.11839
197812000 -23.940519 -134.69539 -0.1174387 -39.634598 -0.11787596 -39.633022 -24.13866 -123.20301
198811000 -23.886309 -134.88431 -0.11777542 -39.830441 -0.11662709 -39.833012 -24.068621 -123.3931
199810000 -23.812761 -135.25412 -0.11825792 -40.024712 -0.11593791 -40.021168 -23.990578 -123.51063
200809000 -23.754614 -135.52779 -0.11882109 -40.221069 -0.11718924 -40.220688 -23.912165 -123.688
201808000 -23.696018 -135.76282 -0.11930931 -40.422691 -0.11829091 -40.423859 -23.844561 -123.78464
202807000 -23.640245 -136.13651 -0.11984334 -40.624199 -0.11905814 -40.623058 -23.785898 -123.96197
203806000 -23.588329 -136.57597 -0.12176529 -40.820023 -0.11958044 -40.823929 -23.726757 -124.15571
