!Keysight Technologies,E5080B,MY59205177,A.15.75.32
!Date: Friday, February 23, 2024 03:35:00
!Correction: S11(Cdelta 2-Port  ) 
!S21(Cdelta 2-Port  ) 
!S12(Cdelta 2-Port  ) 
!S22(Cdelta 2-Port  ) 
!S2P File: Measurements: S11, S21, S12, S22:
# Hz S  dB   R 50
10000000 -46.061028 -2.2601237 -0.015223007 -2.0432179 -0.018149506 -2.0953901 -45.90633 -157.55128
10999000 -45.260994 -4.2973747 -0.016425382 -2.2645478 -0.018071005 -2.3183584 -45.851913 -151.3501
11998000 -44.375946 -7.3949151 -0.017224725 -2.4879878 -0.017677994 -2.5331893 -46.065041 -147.10674
12997000 -43.625595 -12.915878 -0.015776349 -2.6682842 -0.017626012 -2.7010176 -45.661358 -141.34781
13996000 -43.3009 -17.277794 -0.015694253 -2.8440027 -0.017886452 -2.8711369 -45.484791 -136.22755
14995000 -42.885277 -21.560293 -0.01785578 -3.058825 -0.017485142 -3.0820587 -45.157635 -132.70439
15994000 -42.719929 -25.821993 -0.018705562 -3.2758036 -0.019836349 -3.3007944 -45.004391 -129.47874
16993000 -42.670303 -30.62789 -0.017665779 -3.4753489 -0.019751836 -3.482332 -44.180222 -128.90256
17992000 -42.740543 -36.089722 -0.018302877 -3.6756122 -0.02017468 -3.6764224 -43.619068 -129.12202
18991000 -43.001072 -41.601768 -0.019071365 -3.8852115 -0.021048326 -3.8821425 -42.955261 -128.1442
19990000 -42.8106 -46.949623 -0.021536594 -4.0952735 -0.02275295 -4.0917096 -42.308514 -128.87852
20989000 -42.577122 -50.269703 -0.023608115 -4.2978129 -0.024596997 -4.2901311 -41.772652 -128.21367
21988000 -42.341454 -55.681904 -0.02475502 -4.4932771 -0.025273645 -4.4825759 -41.531113 -127.53625
22987000 -42.037945 -60.52943 -0.02544914 -4.6936312 -0.026622314 -4.6893587 -41.231937 -126.87366
23986000 -41.972832 -64.281601 -0.024910184 -4.8856483 -0.02553064 -4.8865395 -41.132095 -126.9776
24985000 -41.575001 -67.407951 -0.026521521 -5.0970812 -0.025976444 -5.0928564 -40.932434 -124.48387
25984000 -41.215275 -69.339874 -0.027579058 -5.3025084 -0.026989045 -5.3013849 -40.605534 -122.96544
26983000 -40.921738 -71.196213 -0.027834624 -5.503798 -0.027006758 -5.519444 -40.46545 -122.20506
27982000 -40.748554 -71.9244 -0.028597506 -5.7031364 -0.028542265 -5.7361727 -40.218956 -120.66772
28981000 -40.727982 -73.655914 -0.027703844 -5.9040365 -0.029207803 -5.9256315 -39.977036 -120.12592
29980000 -40.31995 -74.771835 -0.027431091 -6.0900064 -0.029127277 -6.1036854 -39.687523 -119.11748
30979000 -39.959713 -73.717819 -0.024547273 -6.4529815 -0.023577923 -6.4449458 -39.227844 -119.51693
31978000 -39.739807 -74.647888 -0.023814514 -6.6425018 -0.024684988 -6.6341624 -38.976471 -118.61879
32977000 -39.550331 -76.319763 -0.023922533 -6.8533673 -0.02615509 -6.8510351 -38.729744 -118.8398
33976000 -39.375053 -77.533249 -0.025316607 -7.0549655 -0.026120454 -7.0514026 -38.443405 -118.11381
34975000 -39.083157 -78.147781 -0.024704775 -7.2559109 -0.026828596 -7.2562008 -38.235268 -117.81432
35974000 -38.877018 -78.847115 -0.024372337 -7.4490938 -0.027007017 -7.4535995 -37.95179 -116.93534
36973000 -38.636658 -79.493469 -0.024785219 -7.6510386 -0.027744744 -7.6587973 -37.696766 -115.99091
37972000 -38.496265 -79.175117 -0.024818802 -7.8605385 -0.027304491 -7.871829 -37.46048 -115.34383
38971000 -38.164017 -78.737503 -0.025078112 -8.066186 -0.027268281 -8.0722446 -37.306793 -113.766
39970000 -37.816513 -78.931099 -0.024020404 -8.2579889 -0.026136339 -8.2776213 -37.046001 -113.1511
40969000 -37.532158 -78.669609 -0.023967043 -8.4517622 -0.025959516 -8.4744234 -36.795483 -111.61799
41968000 -37.205433 -78.53772 -0.024042008 -8.6613102 -0.026669977 -8.6746416 -36.607216 -110.56026
42967000 -36.93549 -78.615173 -0.023605512 -8.8656836 -0.027064843 -8.8855867 -36.420841 -108.63362
43966000 -36.644073 -79.311211 -0.024953142 -9.0700779 -0.027992764 -9.0911932 -36.164909 -107.85015
44965000 -36.382179 -80.163994 -0.025573343 -9.2695637 -0.029030334 -9.2932024 -35.950111 -107.61176
45964000 -36.163822 -81.160751 -0.027147938 -9.4742708 -0.029666495 -9.4954882 -35.723549 -107.27358
46963000 -35.960869 -83.147545 -0.027235201 -9.6686592 -0.029847117 -9.6910944 -35.532959 -107.4953
47962000 -35.79599 -84.579674 -0.028091248 -9.8661613 -0.032027699 -9.8864851 -35.330204 -107.51625
48961000 -35.596004 -85.87603 -0.030742005 -10.066729 -0.03259049 -10.087623 -35.106037 -107.80442
49960000 -35.353149 -87.210747 -0.031609695 -10.264116 -0.033382118 -10.291795 -34.973904 -107.78941
50959000 -35.139267 -88.468224 -0.032593358 -10.481956 -0.034857254 -10.491524 -34.786873 -108.02042
51958000 -34.935066 -89.550285 -0.034818634 -10.67757 -0.036428433 -10.68897 -34.618061 -108.56786
52957000 -34.718586 -90.482262 -0.036217779 -10.877733 -0.037336685 -10.885751 -34.455597 -108.29608
53956000 -34.547325 -91.251762 -0.03699623 -11.07996 -0.038548596 -11.080585 -34.323334 -108.25306
54955000 -34.369114 -91.72757 -0.037557576 -11.284351 -0.038773987 -11.280067 -34.175964 -108.19611
55954000 -34.199123 -92.554688 -0.039090291 -11.480533 -0.039187197 -11.480745 -34.059963 -107.96916
56953000 -34.078312 -92.590149 -0.038548075 -11.681185 -0.03847364 -11.674824 -33.99229 -108.07762
57952000 -33.905811 -93.127449 -0.03986064 -11.879601 -0.040028624 -11.869596 -33.890205 -108.22755
58951000 -33.791775 -93.473877 -0.041105393 -12.084863 -0.040468078 -12.064858 -33.735989 -108.33009
59950000 -33.675503 -93.770157 -0.040992245 -12.288137 -0.04083807 -12.263927 -33.659359 -108.49278
60949000 -33.557396 -94.401443 -0.041510463 -12.484818 -0.041053131 -12.468018 -33.561947 -108.81955
61948000 -33.499031 -94.617813 -0.042284898 -12.681727 -0.041478839 -12.666971 -33.481731 -108.90111
62947000 -33.397106 -94.838562 -0.042159431 -12.896536 -0.042604856 -12.877124 -33.340706 -109.09662
63946000 -33.323444 -95.617867 -0.043334778 -13.096731 -0.043273598 -13.078538 -33.225979 -109.22271
64945000 -33.216488 -95.799454 -0.043495838 -13.298413 -0.043637291 -13.281922 -33.109665 -109.72989
65944000 -33.127506 -96.133614 -0.044811729 -13.496673 -0.043976437 -13.478937 -33.023632 -110.20174
66943000 -32.966019 -96.557358 -0.042645898 -13.701123 -0.042325936 -13.683095 -32.910667 -110.41364
67942000 -32.917915 -96.483337 -0.044631269 -13.893867 -0.044074759 -13.883928 -32.786251 -110.74378
68941000 -32.804001 -96.572723 -0.043708675 -14.084949 -0.042904705 -14.081403 -32.67638 -110.68457
69940000 -32.709114 -96.54789 -0.044900656 -14.291028 -0.044520117 -14.279199 -32.543678 -110.95805
70939000 -32.595589 -96.498535 -0.043947671 -14.486089 -0.043668408 -14.477843 -32.408428 -110.86978
71938000 -32.456894 -96.081314 -0.044636499 -14.684142 -0.044238724 -14.677021 -32.273098 -110.73564
72937000 -32.301666 -95.89164 -0.044382293 -14.882384 -0.043767508 -14.873164 -32.136936 -110.46818
73936000 -32.15831 -95.51432 -0.043769598 -15.081703 -0.042940259 -15.070539 -32.016727 -110.23444
74935000 -32.034698 -95.728943 -0.04342106 -15.275682 -0.042553619 -15.274106 -31.864998 -109.87866
75934000 -31.90519 -95.967117 -0.043474134 -15.484954 -0.0418646 -15.48074 -31.778372 -109.84083
76933000 -31.773949 -96.345787 -0.044845991 -15.673846 -0.043530613 -15.671554 -31.603079 -110.10957
77932000 -31.673275 -97.107986 -0.045646135 -15.875892 -0.045150179 -15.870757 -31.510292 -110.11388
78931000 -31.601898 -97.904388 -0.04422617 -16.076208 -0.044341236 -16.069147 -31.417515 -109.96384
79930000 -31.48527 -98.700867 -0.046510007 -16.266312 -0.046468146 -16.265957 -31.308819 -110.27745
80929000 -31.380745 -99.427971 -0.048640858 -16.466869 -0.047987517 -16.463276 -31.215134 -110.51936
81928000 -31.269503 -100.22315 -0.048564944 -16.655468 -0.048516519 -16.655216 -31.077021 -110.49284
82927000 -31.17886 -100.92343 -0.050568737 -16.855415 -0.049906202 -16.855759 -30.979902 -110.78713
83926000 -31.05275 -101.62053 -0.051935766 -17.054443 -0.051143102 -17.055502 -30.866022 -110.99271
84925000 -30.956219 -102.11781 -0.052678 -17.256844 -0.051265687 -17.249577 -30.768122 -111.00155
85924000 -30.867298 -102.52567 -0.053084932 -17.455256 -0.052863512 -17.45083 -30.677229 -110.97236
86923000 -30.757467 -102.97842 -0.053293526 -17.650728 -0.053593066 -17.646856 -30.582264 -110.85161
87922000 -30.640799 -103.27043 -0.053324971 -17.861193 -0.052432496 -17.854401 -30.493504 -110.89589
88921000 -30.569296 -103.51868 -0.054623138 -18.06016 -0.053999037 -18.054571 -30.394665 -110.87019
89920000 -30.464621 -104.09901 -0.054528508 -18.25672 -0.054938238 -18.250675 -30.349716 -111.02168
90919000 -30.35894 -104.36346 -0.056121241 -18.451715 -0.054808997 -18.450277 -30.255438 -111.18618
91918000 -30.270931 -104.67159 -0.056789972 -18.652708 -0.055058829 -18.646986 -30.19039 -111.14705
92917000 -30.17774 -104.97005 -0.057679933 -18.853256 -0.056755874 -18.852715 -30.126701 -111.34574
93916000 -30.096806 -105.34863 -0.057444114 -19.045275 -0.056734107 -19.043127 -30.037678 -111.90373
94915000 -30.011391 -105.96487 -0.058495302 -19.249338 -0.05733316 -19.241642 -29.977278 -111.71528
95914000 -29.951933 -106.1583 -0.059489533 -19.440861 -0.058203295 -19.439215 -29.887243 -112.04833
96913000 -29.855581 -106.38148 -0.060474284 -19.64175 -0.059068616 -19.640945 -29.819401 -112.3493
97912000 -29.784115 -106.77473 -0.061753582 -19.838099 -0.059124772 -19.837929 -29.743738 -112.60696
98911000 -29.680096 -106.96474 -0.062322341 -20.04166 -0.060721818 -20.03846 -29.697084 -112.83316
99910000 -29.609865 -107.10014 -0.06260097 -20.242985 -0.061138172 -20.239716 -29.588879 -113.07641
100909000 -29.522053 -107.37857 -0.062465459 -20.44907 -0.060398687 -20.439682 -29.502628 -113.31483
101908000 -29.430155 -107.59631 -0.06386172 -20.650198 -0.06192977 -20.645193 -29.398035 -113.07738
102907000 -29.293903 -107.60586 -0.064596534 -20.848541 -0.061915591 -20.847769 -29.322544 -113.04412
103906000 -29.200935 -107.66014 -0.06419877 -21.056171 -0.061039984 -21.048458 -29.171879 -113.02241
104905000 -29.05892 -107.51699 -0.064464115 -21.253233 -0.061844431 -21.251547 -29.052959 -112.72327
105904000 -28.919287 -107.60514 -0.065496244 -21.456196 -0.06227297 -21.446877 -28.941793 -112.5975
106903000 -28.80529 -107.63983 -0.064975947 -21.66223 -0.062041104 -21.655106 -28.814737 -112.48601
107902000 -28.637747 -108.00529 -0.065897286 -21.860966 -0.063882999 -21.850603 -28.680119 -112.45615
108901000 -28.529539 -108.2765 -0.066856675 -22.06365 -0.064267866 -22.053883 -28.552904 -112.38567
109900000 -28.396969 -108.67973 -0.068173885 -22.262104 -0.065589279 -22.255312 -28.400642 -112.46963
110899000 -28.284641 -109.31108 -0.069485173 -22.46022 -0.066388786 -22.452625 -28.27495 -112.69901
111898000 -28.190945 -109.97658 -0.070573486 -22.663708 -0.067487627 -22.658712 -28.155806 -112.85495
112897000 -28.073858 -110.51282 -0.071903661 -22.86503 -0.068223581 -22.853088 -28.026926 -112.98753
113896000 -27.963732 -111.06702 -0.073109992 -23.064018 -0.069637999 -23.05344 -27.918598 -113.16803
114895000 -27.857674 -111.68366 -0.073565178 -23.259392 -0.071162082 -23.2493 -27.809353 -113.2253
115894000 -27.737648 -112.0807 -0.075169653 -23.463709 -0.07185103 -23.450623 -27.737425 -113.42636
116893000 -27.664047 -112.56766 -0.075577386 -23.657568 -0.073052071 -23.640917 -27.617943 -113.45797
117892000 -27.576094 -113.05033 -0.075572118 -23.858133 -0.072898604 -23.841562 -27.542313 -113.65046
118891000 -27.521452 -113.43977 -0.076306283 -24.057655 -0.07381662 -24.043791 -27.44746 -113.79218
119890000 -27.433105 -113.83171 -0.076584227 -24.25709 -0.074496768 -24.243614 -27.43545 -113.94379
120889000 -27.384583 -114.293 -0.078739114 -24.46051 -0.074183673 -24.443604 -27.361734 -113.91252
121888000 -27.347116 -114.61639 -0.07790307 -24.653929 -0.075124614 -24.645414 -27.299049 -114.13658
122887000 -27.309963 -114.85597 -0.079420038 -24.857252 -0.075723313 -24.847063 -27.259771 -114.16132
123886000 -27.258039 -115.26884 -0.079828434 -25.0627 -0.075783104 -25.041868 -27.242434 -114.27879
124885000 -27.224154 -115.75843 -0.079616979 -25.258097 -0.07647305 -25.252094 -27.212996 -114.35593
125884000 -27.166615 -115.92186 -0.081130058 -25.457993 -0.076518364 -25.44486 -27.185032 -114.5014
126883000 -27.15226 -116.33595 -0.08109314 -25.665257 -0.077070616 -25.646967 -27.143106 -114.50568
127882000 -27.101397 -116.61463 -0.08095441 -25.861851 -0.077863015 -25.844419 -27.108938 -114.63699
128881000 -27.074232 -116.96249 -0.081946678 -26.064392 -0.077612653 -26.049566 -27.068548 -114.70509
129880000 -27.023153 -117.28229 -0.082558192 -26.2666 -0.078283124 -26.248669 -27.028765 -114.66499
130879000 -26.955658 -117.3961 -0.082113132 -26.466307 -0.079281367 -26.448536 -26.960684 -114.70869
131878000 -26.895857 -117.67039 -0.082740761 -26.665667 -0.079511523 -26.650234 -26.893681 -114.56499
132877000 -26.823582 -117.74312 -0.08237879 -26.865108 -0.079267658 -26.853226 -26.814934 -114.53097
133876000 -26.748346 -117.85967 -0.082659498 -27.071077 -0.079644397 -27.057076 -26.734192 -114.42938
134875000 -26.649315 -118.01331 -0.083005138 -27.270918 -0.079847418 -27.253624 -26.631809 -114.2543
135874000 -26.569515 -118.03397 -0.082993791 -27.472971 -0.079926513 -27.455206 -26.537487 -114.24421
136873000 -26.461914 -117.98913 -0.083664559 -27.675299 -0.079451941 -27.655594 -26.453571 -114.19307
137872000 -26.384581 -118.08839 -0.083072156 -27.876066 -0.079970814 -27.861256 -26.358248 -114.12794
138871000 -26.306494 -118.32665 -0.083914742 -28.075476 -0.07996659 -28.060684 -26.259981 -114.26375
139870000 -26.205301 -118.60935 -0.084741123 -28.27887 -0.081480056 -28.257904 -26.178112 -114.4565
140869000 -26.127802 -119.16573 -0.085417964 -28.471802 -0.08162909 -28.456303 -26.079672 -114.6463
141868000 -26.049282 -119.55367 -0.086386696 -28.670853 -0.083109096 -28.656651 -26.027639 -114.89968
142867000 -25.963787 -119.70777 -0.084892899 -28.866425 -0.08235056 -28.853891 -25.947447 -115.04371
143866000 -25.895443 -120.23109 -0.086526647 -29.067028 -0.0837432 -29.051554 -25.87685 -115.50122
144865000 -25.836666 -120.72854 -0.087982178 -29.263758 -0.084852509 -29.252745 -25.820059 -115.81914
145864000 -25.777245 -121.05452 -0.088173695 -29.464361 -0.086062178 -29.452776 -25.786827 -116.01006
146863000 -25.736811 -121.43755 -0.089950062 -29.668184 -0.086997509 -29.652489 -25.738932 -116.33556
147862000 -25.698475 -121.72697 -0.090759091 -29.865044 -0.087353528 -29.854197 -25.700283 -116.65119
148861000 -25.659935 -122.17104 -0.091649175 -30.060947 -0.089030482 -30.045835 -25.680891 -116.77319
149860000 -25.630312 -122.34585 -0.092058979 -30.25528 -0.088867195 -30.244112 -25.628534 -116.88666
150859000 -25.607412 -122.81882 -0.092660278 -30.453192 -0.089169465 -30.439739 -25.611195 -117.26875
151858000 -25.592329 -123.18497 -0.091754921 -30.655235 -0.088585027 -30.639795 -25.596828 -117.60246
152857000 -25.582071 -123.46504 -0.092038356 -30.850544 -0.088407755 -30.840452 -25.584585 -117.7804
153856000 -25.571501 -123.68283 -0.091835827 -31.053015 -0.088272229 -31.038292 -25.598717 -118.09708
154855000 -25.574247 -123.84316 -0.092711054 -31.251904 -0.088168144 -31.236813 -25.589117 -118.33002
155854000 -25.593052 -124.1156 -0.092494212 -31.450119 -0.089256659 -31.435772 -25.573954 -118.58839
156853000 -25.577007 -124.8066 -0.090412572 -31.638622 -0.087843761 -31.631828 -25.574585 -118.90299
157852000 -25.580591 -125.00443 -0.091766559 -31.842175 -0.089909367 -31.829119 -25.561235 -119.27721
158851000 -25.574768 -125.20798 -0.091621146 -32.039436 -0.089997634 -32.032837 -25.544245 -119.54247
159850000 -25.570162 -125.31638 -0.092451908 -32.23975 -0.090256639 -32.232235 -25.546324 -119.72409
160849000 -25.548607 -125.42756 -0.092729561 -32.438686 -0.090855047 -32.434502 -25.51428 -120.00591
161848000 -25.533466 -125.51256 -0.093146883 -32.640186 -0.090962894 -32.631886 -25.474808 -120.11583
162847000 -25.495045 -125.68568 -0.093029983 -32.839226 -0.09160158 -32.835011 -25.447779 -120.37103
163846000 -25.456528 -125.89407 -0.092971012 -33.037273 -0.091313422 -33.030933 -25.368456 -120.40363
164845000 -25.393061 -125.89426 -0.09366104 -33.238861 -0.091882892 -33.230034 -25.305811 -120.52251
165844000 -25.338449 -125.89708 -0.093381472 -33.434486 -0.092889555 -33.43084 -25.228464 -120.61775
166843000 -25.28097 -125.99522 -0.092485748 -33.634285 -0.092469089 -33.631783 -25.161177 -120.77967
167842000 -25.226917 -126.05689 -0.093870007 -33.840973 -0.092322335 -33.832829 -25.086969 -120.70258
168841000 -25.149107 -126.23669 -0.094316535 -34.034615 -0.093274884 -34.033585 -25.015499 -120.76123
169840000 -25.081699 -126.47826 -0.094327644 -34.233303 -0.093688555 -34.227043 -24.929371 -120.93684
170839000 -25.018366 -126.71351 -0.094785593 -34.430618 -0.093939312 -34.42897 -24.848539 -121.1514
171838000 -24.963974 -127.08414 -0.09538383 -34.629307 -0.095219247 -34.623894 -24.786798 -121.32758
172837000 -24.893208 -127.44494 -0.096925706 -34.826046 -0.095648706 -34.824818 -24.718836 -121.56059
173836000 -24.822664 -127.8467 -0.097799838 -35.028286 -0.096908763 -35.022659 -24.678301 -121.76727
174835000 -24.77408 -128.22643 -0.097928777 -35.223106 -0.097016498 -35.224472 -24.628681 -122.08944
175834000 -24.72089 -128.62219 -0.09940508 -35.423733 -0.098900832 -35.420513 -24.57082 -122.36381
176833000 -24.669292 -128.97594 -0.10051788 -35.625156 -0.098957501 -35.620384 -24.52416 -122.47281
177832000 -24.625534 -129.33781 -0.10146401 -35.821976 -0.099880524 -35.821663 -24.505093 -122.59499
178831000 -24.585667 -129.58536 -0.10233323 -36.019455 -0.10199559 -36.016811 -24.460571 -122.67547
179830000 -24.515188 -129.9892 -0.10406078 -36.202381 -0.10241909 -36.20612 -24.399881 -122.73506
180829000 -24.460129 -130.34113 -0.10345233 -36.393841 -0.10175496 -36.39603 -24.355417 -123.06848
181828000 -24.438608 -130.77626 -0.10227227 -36.599113 -0.10106894 -36.592682 -24.339691 -123.28893
182827000 -24.414518 -131.13773 -0.10178968 -36.792961 -0.10188375 -36.793476 -24.32888 -123.40083
183826000 -24.37627 -131.47408 -0.10306372 -36.989048 -0.10203004 -36.989365 -24.323029 -123.54016
184825000 -24.379276 -131.83815 -0.10268945 -37.187317 -0.10192775 -37.189796 -24.302755 -123.65107
185824000 -24.351063 -132.18857 -0.10257918 -37.383762 -0.10178836 -37.386356 -24.292608 -123.7094
186823000 -24.336113 -132.56633 -0.10263537 -37.584869 -0.10218481 -37.585007 -24.28615 -123.72038
187822000 -24.310951 -132.90376 -0.10352497 -37.779881 -0.10279705 -37.779491 -24.251408 -123.84299
188821000 -24.289442 -133.13589 -0.10346214 -37.975746 -0.10263537 -37.979038 -24.227045 -123.94792
189820000 -24.266806 -133.43483 -0.10364215 -38.176807 -0.10283443 -38.176392 -24.213549 -124.10573
190819000 -24.236366 -133.73773 -0.10451127 -38.371315 -0.10382111 -38.374004 -24.174881 -124.17464
191818000 -24.205936 -134.06305 -0.10462318 -38.571365 -0.10343695 -38.570019 -24.148787 -124.19113
192817000 -24.161617 -134.32574 -0.10426733 -38.769978 -0.1037527 -38.769794 -24.105516 -124.28394
193816000 -24.130533 -134.53441 -0.10477273 -38.964642 -0.10357799 -38.963303 -24.053827 -124.43452
194815000 -24.068811 -134.94966 -0.10544475 -39.156631 -0.10435748 -39.160866 -23.986771 -124.49956
195814000 -24.01512 -135.151 -0.10627922 -39.359795 -0.1053681 -39.358215 -23.935518 -124.56099
196813000 -23.96279 -135.48741 -0.10545297 -39.549896 -0.10480243 -39.557133 -23.850418 -124.73708
197812000 -23.899416 -135.69647 -0.10626648 -39.748295 -0.10498117 -39.747692 -23.786715 -124.82899
198811000 -23.847042 -135.87007 -0.1054177 -39.944973 -0.10471837 -39.946854 -23.7141 -124.97924
199810000 -23.778662 -136.2088 -0.10634686 -40.140697 -0.10469557 -40.142429 -23.638454 -125.0742
200809000 -23.722996 -136.45433 -0.10697854 -40.338924 -0.10560389 -40.340172 -23.561979 -125.27125
201808000 -23.663288 -136.67906 -0.10743012 -40.540443 -0.10622961 -40.54253 -23.49369 -125.35204
202807000 -23.605278 -137.00656 -0.10798313 -40.740715 -0.1074954 -40.74437 -23.442936 -125.52013
