!Keysight Technologies,E5080B,MY59205177,A.15.75.32
!Date: Friday, February 23, 2024 02:56:55
!Correction: S11(Cdelta 2-Port  ) 
!S21(Cdelta 2-Port  ) 
!S12(Cdelta 2-Port  ) 
!S22(Cdelta 2-Port  ) 
!S2P File: Measurements: S11, S21, S12, S22:
# Hz S  dB   R 50
10000000 -43.970142 -3.571748 -0.02928338 -2.04212 -0.031987801 -2.0974686 -48.281887 -149.52884
10999000 -43.280716 -5.5872321 -0.030248269 -2.2604635 -0.031680621 -2.3144953 -48.084141 -141.54985
11998000 -42.611923 -7.8910875 -0.029745989 -2.4816253 -0.031790137 -2.5240958 -48.180172 -135.80547
12997000 -41.944637 -12.584717 -0.029123889 -2.661725 -0.031228755 -2.6956699 -47.450752 -129.438
13996000 -41.693943 -15.696877 -0.028521942 -2.841758 -0.03195364 -2.8613267 -47.063335 -123.71725
14995000 -41.387642 -19.28764 -0.030051729 -3.048039 -0.031617779 -3.0722628 -46.578129 -120.71069
15994000 -41.262825 -23.201685 -0.031756502 -3.2648544 -0.033632807 -3.2899802 -46.298607 -116.65676
16993000 -41.250797 -26.931396 -0.031089529 -3.4647532 -0.033079796 -3.4747887 -45.399681 -118.04004
17992000 -41.351509 -31.400911 -0.030768074 -3.6617985 -0.033778898 -3.6668072 -44.800121 -118.56445
18991000 -41.632477 -35.857327 -0.031461593 -3.8717632 -0.034093793 -3.8665898 -44.047661 -118.24557
19990000 -41.527618 -40.820076 -0.034089621 -4.0795584 -0.035934571 -4.0768442 -43.353054 -120.08218
20989000 -41.41011 -43.901039 -0.036743518 -4.2846799 -0.037798587 -4.2762432 -42.789059 -119.72141
21988000 -41.338741 -48.434666 -0.037325457 -4.4850216 -0.039310228 -4.4736295 -42.5298 -119.23454
22987000 -41.144573 -52.816681 -0.03836526 -4.6798649 -0.040424969 -4.6711121 -42.246906 -119.12121
23986000 -41.12476 -56.41217 -0.038286131 -4.8699908 -0.039086632 -4.8702564 -42.115303 -118.91906
24985000 -40.853893 -59.110985 -0.039494649 -5.0786567 -0.038990773 -5.0787616 -41.828831 -116.62379
25984000 -40.600857 -61.309235 -0.040018171 -5.2876749 -0.039399039 -5.291822 -41.438778 -115.40035
26983000 -40.352356 -63.194324 -0.040980484 -5.4832578 -0.040131036 -5.5012455 -41.359074 -114.28426
27982000 -40.190075 -64.136246 -0.041519608 -5.6838861 -0.042675696 -5.7206283 -41.063145 -112.81774
28981000 -40.163273 -65.672356 -0.040239986 -5.8863583 -0.042006262 -5.9098611 -40.781872 -112.13428
29980000 -39.820076 -67.18074 -0.040173098 -6.0742502 -0.042929016 -6.082201 -40.482628 -111.61234
30979000 -39.456894 -66.541298 -0.037918184 -6.4292059 -0.036964379 -6.4178567 -39.977348 -112.52785
31978000 -39.275028 -67.625305 -0.037460968 -6.6246419 -0.037953958 -6.6152024 -39.686432 -111.83408
32977000 -39.109322 -69.277367 -0.037372977 -6.8344121 -0.039497782 -6.8276982 -39.432213 -112.07957
33976000 -38.950333 -70.375648 -0.037740879 -7.0347934 -0.039747261 -7.027442 -39.139385 -111.76545
34975000 -38.68185 -71.315254 -0.037865695 -7.2333694 -0.040198181 -7.2348762 -38.883163 -111.51246
35974000 -38.480042 -72.049049 -0.037405092 -7.4272647 -0.039849404 -7.4320107 -38.59087 -110.52744
36973000 -38.268806 -72.878624 -0.037334859 -7.6243362 -0.040250696 -7.633224 -38.298851 -109.88202
37972000 -38.098347 -72.889511 -0.037056278 -7.8396187 -0.040027838 -7.8490543 -38.058537 -109.35494
38971000 -37.774345 -72.631157 -0.037818953 -8.0367041 -0.040769611 -8.0491991 -37.839581 -107.75063
39970000 -37.47559 -73.101067 -0.035466082 -8.2300911 -0.039613243 -8.2507 -37.554306 -107.31501
40969000 -37.181282 -73.179169 -0.036121983 -8.4250135 -0.039396428 -8.4443226 -37.29044 -106.12713
41968000 -36.832771 -73.287437 -0.036443833 -8.6317682 -0.040042993 -8.6450195 -37.088516 -105.03424
42967000 -36.564575 -73.561943 -0.0367832 -8.8445282 -0.040154811 -8.8599377 -36.873898 -103.12631
43966000 -36.315853 -74.490143 -0.037438516 -9.0398254 -0.041503668 -9.0617981 -36.568722 -102.59224
44965000 -36.081829 -75.400696 -0.038430549 -9.2431059 -0.040338483 -9.2632446 -36.337776 -102.5217
45964000 -35.895412 -76.53537 -0.03950379 -9.4477644 -0.042000253 -9.4613075 -36.100883 -102.42167
46963000 -35.690933 -78.56459 -0.039757445 -9.6374807 -0.042601194 -9.6609688 -35.929333 -102.72903
47962000 -35.559616 -79.991997 -0.041042157 -9.8395815 -0.04388256 -9.8549271 -35.721447 -102.96903
48961000 -35.366676 -81.443993 -0.042915422 -10.036575 -0.046164647 -10.057958 -35.486813 -103.18591
49960000 -35.15313 -82.893394 -0.044068746 -10.237431 -0.04690145 -10.257308 -35.35685 -103.43957
50959000 -34.949821 -84.368988 -0.044514887 -10.450414 -0.048115246 -10.457564 -35.177238 -103.7341
51958000 -34.744907 -85.383766 -0.046726134 -10.64666 -0.049120195 -10.65661 -34.986736 -104.35622
52957000 -34.553997 -86.599869 -0.048489556 -10.847476 -0.050317854 -10.855152 -34.832867 -104.13359
53956000 -34.401329 -87.341911 -0.049292728 -11.051132 -0.05091602 -11.047962 -34.701893 -104.28056
54955000 -34.242874 -87.834389 -0.050241385 -11.248844 -0.052477822 -11.24451 -34.554554 -104.29515
55954000 -34.080334 -88.791389 -0.051438306 -11.449594 -0.053171147 -11.443926 -34.432491 -103.95636
56953000 -33.958775 -88.803925 -0.050263382 -11.647852 -0.051206492 -11.638528 -34.359997 -104.26397
57952000 -33.812954 -89.403381 -0.052294683 -11.843429 -0.052712061 -11.836463 -34.272091 -104.35468
58951000 -33.692417 -89.889076 -0.053192899 -12.04839 -0.053917788 -12.028728 -34.10289 -104.4732
59950000 -33.567303 -90.327171 -0.053624514 -12.250929 -0.054228116 -12.225083 -34.039215 -104.89452
60949000 -33.461067 -90.852776 -0.054230738 -12.44978 -0.054940596 -12.424787 -33.961163 -105.04243
61948000 -33.405823 -91.167671 -0.054766268 -12.651097 -0.054648302 -12.628437 -33.871479 -105.18684
62947000 -33.335396 -91.340385 -0.054399017 -12.857087 -0.056122553 -12.836823 -33.730564 -105.47649
63946000 -33.2584 -92.111206 -0.055897307 -13.057977 -0.056107868 -13.040918 -33.614891 -105.59307
64945000 -33.14777 -92.389053 -0.056185488 -13.258753 -0.056695029 -13.236676 -33.506207 -106.12143
65944000 -33.051567 -92.64872 -0.056874685 -13.457534 -0.057462212 -13.439903 -33.421883 -106.64532
66943000 -32.915234 -92.987862 -0.055281937 -13.658149 -0.055562209 -13.642233 -33.326157 -106.9126
67942000 -32.85614 -92.957413 -0.057047788 -13.854022 -0.057475589 -13.844229 -33.20253 -107.21627
68941000 -32.745373 -93.118706 -0.057043064 -14.04745 -0.056640219 -14.033027 -33.086468 -107.21047
69940000 -32.655815 -93.098495 -0.056957301 -14.250439 -0.057359651 -14.237747 -32.952263 -107.47343
70939000 -32.553852 -93.034164 -0.057046998 -14.44312 -0.057418671 -14.436375 -32.821571 -107.40062
71938000 -32.405201 -92.68074 -0.056907728 -14.641681 -0.057346273 -14.627895 -32.683552 -107.30419
72937000 -32.24445 -92.531441 -0.056123864 -14.835656 -0.056639954 -14.829128 -32.547153 -107.04655
73936000 -32.104092 -92.24913 -0.055968367 -15.035587 -0.056898024 -15.028167 -32.425495 -106.88725
74935000 -31.979612 -92.581764 -0.05564113 -15.23123 -0.055176016 -15.228659 -32.279087 -106.5546
75934000 -31.856531 -92.800201 -0.055728707 -15.440332 -0.055791374 -15.430405 -32.182545 -106.44186
76933000 -31.725618 -93.200745 -0.056846358 -15.627613 -0.056485228 -15.625009 -32.01775 -106.89409
77932000 -31.633377 -93.985847 -0.057591792 -15.831155 -0.058733277 -15.82452 -31.920212 -106.88217
78931000 -31.571117 -94.745049 -0.056342829 -16.028473 -0.057921011 -16.023987 -31.833853 -106.77209
79930000 -31.457302 -95.611137 -0.059002493 -16.22028 -0.060063247 -16.221989 -31.727602 -107.14259
80929000 -31.330339 -96.496735 -0.061192777 -16.414473 -0.061784565 -16.411003 -31.619612 -107.47867
81928000 -31.251926 -97.436211 -0.06041785 -16.607517 -0.061561387 -16.604065 -31.499399 -107.55801
82927000 -31.161167 -98.130196 -0.062247235 -16.806633 -0.062944487 -16.807047 -31.391649 -107.8662
83926000 -31.050827 -98.842865 -0.064219788 -17.002947 -0.063948147 -17.004604 -31.273975 -108.15545
84925000 -30.952785 -99.36216 -0.064673521 -17.204264 -0.064146228 -17.198292 -31.189156 -108.21562
85924000 -30.864126 -99.819473 -0.065533303 -17.402075 -0.065617919 -17.399141 -31.113432 -108.24838
86923000 -30.758638 -100.42464 -0.065444738 -17.600428 -0.065997683 -17.594986 -31.007366 -108.15472
87922000 -30.656796 -100.75333 -0.06569203 -17.80636 -0.065689668 -17.795801 -30.921856 -108.21092
88921000 -30.57819 -101.00909 -0.067077234 -18.003111 -0.066986538 -18.000725 -30.826584 -108.23016
89920000 -30.48971 -101.55271 -0.067267306 -18.201611 -0.066691332 -18.191887 -30.778658 -108.41038
90919000 -30.391596 -101.91897 -0.068265133 -18.398613 -0.068271175 -18.394274 -30.698666 -108.57496
91918000 -30.298513 -102.28785 -0.068441316 -18.600367 -0.068530202 -18.5937 -30.619873 -108.66928
92917000 -30.213926 -102.6247 -0.070586644 -18.796108 -0.069543831 -18.793163 -30.553846 -108.71038
93916000 -30.130096 -103.05864 -0.06957908 -18.989233 -0.069551989 -18.987192 -30.475634 -109.41687
94915000 -30.060381 -103.65315 -0.070879482 -19.191912 -0.070451409 -19.184721 -30.413425 -109.2438
95914000 -29.992836 -103.897 -0.071731023 -19.386395 -0.071171291 -19.38003 -30.318121 -109.5258
96913000 -29.908789 -104.11314 -0.073150791 -19.583826 -0.072539821 -19.582268 -30.260927 -109.90273
97912000 -29.842543 -104.58882 -0.073814251 -19.779556 -0.072388209 -19.78203 -30.173931 -110.13496
98911000 -29.729523 -104.80222 -0.074411713 -19.981079 -0.073922731 -19.977964 -30.140676 -110.29628
99910000 -29.666265 -104.91191 -0.075156488 -20.179205 -0.073692873 -20.178772 -30.039795 -110.62136
100909000 -29.575718 -105.24097 -0.075000569 -20.388084 -0.072824366 -20.38273 -29.940241 -110.83104
101908000 -29.491236 -105.43484 -0.075535238 -20.589819 -0.07446833 -20.584295 -29.831392 -110.6125
102907000 -29.358074 -105.51526 -0.076671176 -20.788338 -0.074566029 -20.786821 -29.758724 -110.59631
103906000 -29.264784 -105.5319 -0.076038629 -20.989777 -0.073924579 -20.988449 -29.607784 -110.52307
104905000 -29.118343 -105.43777 -0.076722816 -21.189112 -0.074858353 -21.187044 -29.481997 -110.25471
105904000 -28.976236 -105.58643 -0.077921785 -21.394299 -0.07523866 -21.385769 -29.370752 -110.08555
106903000 -28.873087 -105.73417 -0.077315144 -21.597839 -0.075421184 -21.59148 -29.233931 -109.97078
107902000 -28.702574 -106.06781 -0.078335568 -21.798689 -0.076181144 -21.789463 -29.098051 -109.94688
108901000 -28.59705 -106.34411 -0.078826629 -22.000076 -0.076993935 -21.990345 -28.968111 -109.905
109900000 -28.471191 -106.82305 -0.079343058 -22.199078 -0.078082815 -22.188902 -28.817863 -109.96733
110899000 -28.350218 -107.48251 -0.080629513 -22.397434 -0.079235762 -22.389566 -28.685806 -110.25972
111898000 -28.266451 -108.11987 -0.082531013 -22.596769 -0.080260068 -22.593405 -28.576399 -110.43398
112897000 -28.13913 -108.74509 -0.083751909 -22.795769 -0.081664167 -22.783171 -28.441824 -110.59078
113896000 -28.036963 -109.32647 -0.084667213 -22.997702 -0.082660288 -22.984808 -28.332468 -110.79515
114895000 -27.929466 -109.96338 -0.085378893 -23.195816 -0.083620749 -23.181908 -28.220814 -110.85304
115894000 -27.806795 -110.3612 -0.087169178 -23.397478 -0.084848292 -23.379684 -28.150782 -111.02839
116893000 -27.730621 -110.92232 -0.087786704 -23.586557 -0.086204499 -23.572332 -28.020336 -111.20872
117892000 -27.648087 -111.43739 -0.087306254 -23.787571 -0.086281866 -23.773779 -27.946629 -111.45318
118891000 -27.585764 -111.87022 -0.087686859 -23.987453 -0.086759038 -23.968935 -27.852598 -111.62268
119890000 -27.494461 -112.20847 -0.089176863 -24.185894 -0.087417446 -24.174023 -27.834929 -111.73904
120889000 -27.443275 -112.73775 -0.089773268 -24.390728 -0.087309159 -24.371204 -27.7605 -111.68079
121888000 -27.401348 -113.08235 -0.090218581 -24.586563 -0.088526905 -24.566822 -27.702347 -112.01372
122887000 -27.363272 -113.26361 -0.09107127 -24.781488 -0.088350691 -24.770693 -27.654987 -112.03835
123886000 -27.304426 -113.70438 -0.091562457 -24.986656 -0.088577367 -24.9685 -27.639048 -112.19411
124885000 -27.270777 -114.2043 -0.092420705 -25.186548 -0.089674167 -25.171162 -27.611227 -112.28719
125884000 -27.215752 -114.41824 -0.092930019 -25.385492 -0.089836694 -25.370661 -27.577187 -112.48129
126883000 -27.191471 -114.80936 -0.093105093 -25.588928 -0.090228625 -25.575684 -27.534477 -112.50979
127882000 -27.142334 -115.08909 -0.093511075 -25.786087 -0.090707816 -25.770765 -27.491726 -112.6685
128881000 -27.112818 -115.40711 -0.093350001 -25.990139 -0.089964338 -25.969454 -27.454191 -112.78065
129880000 -27.057369 -115.7449 -0.094251193 -26.19153 -0.09088359 -26.169815 -27.404573 -112.74486
130879000 -26.991205 -115.88476 -0.09421283 -26.384527 -0.091624849 -26.375999 -27.325254 -112.83049
131878000 -26.926964 -116.05485 -0.094401717 -26.590511 -0.091711566 -26.569998 -27.267893 -112.7436
132877000 -26.859354 -116.16232 -0.094601192 -26.793989 -0.091457762 -26.774376 -27.182503 -112.74776
133876000 -26.778507 -116.32431 -0.095173731 -26.993776 -0.091701515 -26.973629 -27.096855 -112.64268
134875000 -26.682718 -116.44315 -0.094768398 -27.194075 -0.092705764 -27.171198 -26.991451 -112.51875
135874000 -26.594076 -116.44922 -0.095396794 -27.391651 -0.092057131 -27.375353 -26.887833 -112.49219
136873000 -26.486586 -116.41018 -0.094974495 -27.593756 -0.092873693 -27.576483 -26.803797 -112.43359
137872000 -26.407244 -116.53925 -0.094932698 -27.795803 -0.09265314 -27.780888 -26.691521 -112.39467
138871000 -26.33803 -116.72642 -0.095587581 -28.001072 -0.093044266 -27.983744 -26.601357 -112.60138
139870000 -26.233032 -116.95971 -0.09649691 -28.193449 -0.094352506 -28.182528 -26.51918 -112.72328
140869000 -26.148792 -117.4303 -0.098591 -28.391821 -0.095952772 -28.369265 -26.410286 -112.85074
141868000 -26.051226 -117.95329 -0.098899245 -28.581747 -0.096526556 -28.565969 -26.342789 -113.23228
142867000 -25.978523 -118.21006 -0.097146213 -28.779966 -0.095172144 -28.762989 -26.267649 -113.40112
143866000 -25.905699 -118.67566 -0.099004641 -28.976109 -0.095876023 -28.965357 -26.188541 -113.89774
144865000 -25.848112 -119.2058 -0.10048714 -29.174084 -0.098083138 -29.159468 -26.135977 -114.23009
145864000 -25.794296 -119.5331 -0.1001727 -29.377678 -0.09908171 -29.364609 -26.105171 -114.48277
146863000 -25.751848 -119.95268 -0.1012054 -29.575945 -0.099584654 -29.563391 -26.053061 -114.79729
147862000 -25.709763 -120.32724 -0.1019243 -29.773106 -0.10025111 -29.76062 -26.019161 -115.15569
148861000 -25.681114 -120.83649 -0.10265552 -29.969675 -0.10021879 -29.955677 -25.991381 -115.3853
149860000 -25.666346 -121.03931 -0.10327684 -30.171982 -0.10081565 -30.154139 -25.961493 -115.58175
150859000 -25.649626 -121.41725 -0.10347062 -30.372786 -0.10096641 -30.352959 -25.954212 -115.82322
151858000 -25.631294 -121.71261 -0.10357852 -30.569721 -0.10221794 -30.55159 -25.950401 -116.11303
152857000 -25.616282 -122.04758 -0.10345711 -30.767548 -0.10177617 -30.750189 -25.932644 -116.25156
153856000 -25.606585 -122.24477 -0.10320977 -30.964722 -0.10093462 -30.950592 -25.947803 -116.52815
154855000 -25.600554 -122.42529 -0.10391522 -31.163609 -0.10110683 -31.147036 -25.937828 -116.76027
155854000 -25.616083 -122.69461 -0.10359178 -31.360731 -0.10201176 -31.345995 -25.931396 -116.99838
156853000 -25.598881 -123.39925 -0.10204461 -31.547548 -0.10103159 -31.540451 -25.924902 -117.31918
157852000 -25.607021 -123.58943 -0.10311567 -31.751034 -0.10254685 -31.738041 -25.917181 -117.65416
158851000 -25.599808 -123.84674 -0.10350907 -31.946981 -0.10248589 -31.937317 -25.901232 -117.92918
159850000 -25.58894 -123.96873 -0.10453142 -32.143978 -0.10297942 -32.13607 -25.900232 -118.0938
160849000 -25.570032 -124.06673 -0.10421324 -32.34396 -0.10400324 -32.338436 -25.866634 -118.38659
161848000 -25.548811 -124.2068 -0.10555774 -32.54253 -0.10394492 -32.538845 -25.82373 -118.4874
162847000 -25.506615 -124.37517 -0.10479023 -32.745224 -0.1041732 -32.739487 -25.800922 -118.71183
163846000 -25.462519 -124.60496 -0.10540762 -32.944897 -0.10436703 -32.939003 -25.719786 -118.73724
164845000 -25.401033 -124.63557 -0.10592721 -33.143475 -0.10453142 -33.137028 -25.652122 -118.82973
165844000 -25.350435 -124.71155 -0.10584844 -33.34293 -0.10522515 -33.336979 -25.575331 -118.97937
166843000 -25.284269 -124.76895 -0.10440733 -33.541779 -0.10492548 -33.531689 -25.501799 -119.14716
167842000 -25.22681 -124.90785 -0.1063466 -33.738777 -0.10502307 -33.729095 -25.421108 -119.07174
168841000 -25.146839 -125.09841 -0.10663045 -33.937496 -0.10540762 -33.935596 -25.347134 -119.13797
169840000 -25.083715 -125.35125 -0.10649675 -34.13184 -0.1059479 -34.127487 -25.2598 -119.35986
170839000 -25.02277 -125.65868 -0.10707086 -34.328064 -0.1064795 -34.324757 -25.170826 -119.51378
171838000 -24.963034 -126.01334 -0.10720698 -34.527885 -0.10747152 -34.522087 -25.106976 -119.78361
172837000 -24.895508 -126.42592 -0.10897257 -34.726257 -0.10802215 -34.718193 -25.036943 -120.00831
173836000 -24.828293 -126.83147 -0.1097063 -34.923939 -0.10843217 -34.921165 -24.992521 -120.24844
174835000 -24.776384 -127.25629 -0.11001294 -35.11935 -0.11011251 -35.119328 -24.95134 -120.57581
175834000 -24.724731 -127.66679 -0.11096593 -35.318241 -0.11077234 -35.316242 -24.886366 -120.8856
176833000 -24.673584 -128.05684 -0.11157623 -35.513607 -0.1111088 -35.513172 -24.833509 -121.0492
177832000 -24.629641 -128.54126 -0.11268762 -35.711559 -0.11107799 -35.709221 -24.809452 -121.2299
178831000 -24.589161 -128.88522 -0.1129432 -35.90699 -0.11177835 -35.903503 -24.776606 -121.46083
179830000 -24.550098 -129.31645 -0.11311696 -36.101112 -0.11223017 -36.109524 -24.749502 -121.61642
180829000 -24.510593 -129.5468 -0.11373845 -36.300217 -0.11314486 -36.301613 -24.719852 -121.75137
181828000 -24.487587 -129.91617 -0.1142261 -36.503708 -0.1130253 -36.495308 -24.700636 -121.89326
182827000 -24.462185 -130.27664 -0.11368398 -36.697018 -0.11409109 -36.693687 -24.683632 -121.974
183826000 -24.422941 -130.57112 -0.11501254 -36.891171 -0.11367069 -36.890438 -24.682983 -122.11066
184825000 -24.42831 -130.88539 -0.11424895 -37.089794 -0.11426914 -37.086391 -24.663633 -122.21481
185824000 -24.400366 -131.25392 -0.11460614 -37.282509 -0.11515714 -37.284176 -24.65543 -122.22394
186823000 -24.386503 -131.58427 -0.11489267 -37.48642 -0.114873 -37.47707 -24.655973 -122.23548
187822000 -24.363092 -131.8985 -0.11537804 -37.676033 -0.11547747 -37.675552 -24.623909 -122.29891
188821000 -24.342979 -132.13853 -0.11580551 -37.870541 -0.11510478 -37.875111 -24.606339 -122.37967
189820000 -24.327459 -132.42899 -0.11592914 -38.074848 -0.11548438 -38.074299 -24.597286 -122.56134
190819000 -24.300854 -132.6739 -0.11687519 -38.275043 -0.11631174 -38.273376 -24.560049 -122.5054
191818000 -24.266273 -132.82567 -0.11834598 -38.469875 -0.11741743 -38.468567 -24.529905 -122.42557
192817000 -24.191572 -133.11682 -0.11833187 -38.65292 -0.11778553 -38.655064 -24.461504 -122.46256
193816000 -24.15555 -133.4554 -0.11713074 -38.84663 -0.11774936 -38.844513 -24.398771 -122.73883
194815000 -24.09963 -133.91898 -0.11717436 -39.04353 -0.11735147 -39.042309 -24.339176 -122.83037
195814000 -24.045818 -134.13364 -0.11775653 -39.242031 -0.11748179 -39.24519 -24.284601 -122.95586
196813000 -23.994919 -134.47511 -0.11719244 -39.436497 -0.1176552 -39.436222 -24.205133 -123.14196
197812000 -23.938993 -134.69574 -0.11773445 -39.631519 -0.11768126 -39.630032 -24.136007 -123.23312
198811000 -23.883791 -134.88776 -0.11778978 -39.827576 -0.11764456 -39.831882 -24.065727 -123.41465
199810000 -23.810226 -135.28201 -0.11805311 -40.021687 -0.11695416 -40.022099 -23.987894 -123.51521
200809000 -23.752832 -135.54756 -0.11833587 -40.221622 -0.11785415 -40.219467 -23.90769 -123.70387
201808000 -23.698238 -135.78156 -0.11894587 -40.422012 -0.11868781 -40.42458 -23.841776 -123.79094
202807000 -23.640282 -136.13826 -0.11940935 -40.621632 -0.11923427 -40.622627 -23.785973 -123.98779
203806000 -23.585726 -136.58525 -0.12081578 -40.821499 -0.1201515 -40.825191 -23.725569 -124.18111
