!Keysight Technologies,E5080B,MY59205177,A.15.75.32
!Date: Friday, February 23, 2024 03:35:06
!Correction: S11(Cdelta 2-Port  ) 
!S21(Cdelta 2-Port  ) 
!S12(Cdelta 2-Port  ) 
!S22(Cdelta 2-Port  ) 
!S2P File: Measurements: S11, S21, S12, S22:
# Hz S  dB   R 50
10000000 -46.065205 -2.532958 -0.01518638 -2.0421138 -0.018416736 -2.0995436 -45.912388 -157.64166
10999000 -45.307587 -4.3606334 -0.015918722 -2.2644858 -0.017783262 -2.3152881 -45.822411 -151.44243
11998000 -44.330162 -7.5878654 -0.016285591 -2.4891186 -0.017474225 -2.5300632 -46.019833 -147.5208
12997000 -43.606232 -13.350066 -0.015645931 -2.6651282 -0.017405612 -2.7013643 -45.632011 -141.45119
13996000 -43.281502 -17.176996 -0.014881943 -2.8454523 -0.017548818 -2.8667767 -45.412746 -136.2095
14995000 -42.921749 -21.272728 -0.017709445 -3.0588109 -0.017015001 -3.082392 -45.133503 -133.18286
15994000 -42.774033 -26.077036 -0.018308336 -3.2786205 -0.019842591 -3.2980187 -44.992889 -129.49306
16993000 -42.665798 -30.340801 -0.017587285 -3.4771049 -0.018975947 -3.4831121 -44.197548 -129.08896
17992000 -42.734028 -36.108723 -0.018259984 -3.6714838 -0.019862354 -3.6782146 -43.555721 -128.9866
18991000 -42.95866 -41.430553 -0.018333811 -3.8846252 -0.02114119 -3.8801115 -42.960289 -127.86408
19990000 -42.728943 -46.995182 -0.020968212 -4.0937061 -0.022087879 -4.0856137 -42.258976 -128.97285
20989000 -42.576878 -50.583904 -0.02276388 -4.2987218 -0.025294997 -4.2868829 -41.798454 -128.47226
21988000 -42.38205 -55.535599 -0.024056586 -4.4953055 -0.025768118 -4.4861441 -41.503826 -127.65154
22987000 -42.059761 -60.468937 -0.02513409 -4.6954918 -0.026416562 -4.6857862 -41.27861 -127.10679
23986000 -41.955772 -64.514969 -0.025093995 -4.8897634 -0.025398366 -4.8872247 -41.118538 -126.94321
24985000 -41.607098 -67.066803 -0.026469953 -5.0996089 -0.026593404 -5.0943861 -40.926266 -124.55261
25984000 -41.239113 -69.284546 -0.026502248 -5.304049 -0.025878789 -5.3008981 -40.58744 -122.97249
26983000 -40.898014 -71.068024 -0.027776528 -5.5056019 -0.027336791 -5.5212379 -40.487278 -122.09924
27982000 -40.744625 -71.958694 -0.029312046 -5.7061257 -0.028531842 -5.7368665 -40.19891 -120.68765
28981000 -40.726994 -73.714806 -0.026471516 -5.8996835 -0.028781472 -5.9248977 -40.001522 -119.73098
29980000 -40.338879 -74.762177 -0.026736654 -6.0940557 -0.028839843 -6.0976133 -39.729801 -119.04428
30979000 -39.934044 -73.722107 -0.024337715 -6.4510469 -0.023265872 -6.4401093 -39.24622 -119.3334
31978000 -39.715248 -74.779411 -0.023757773 -6.6463294 -0.024606628 -6.632556 -38.97332 -118.63122
32977000 -39.516102 -76.400726 -0.023887135 -6.8540592 -0.025217146 -6.851881 -38.755199 -118.93943
33976000 -39.350872 -77.409317 -0.024745127 -7.0529571 -0.025282759 -7.0513616 -38.452572 -118.1814
34975000 -39.05595 -78.310364 -0.024636827 -7.2543225 -0.026454067 -7.2551928 -38.220829 -117.86906
35974000 -38.86517 -78.747086 -0.023401985 -7.4504309 -0.02650902 -7.456358 -37.956116 -116.81349
36973000 -38.626537 -79.575951 -0.024664422 -7.6519966 -0.027657211 -7.6522112 -37.677696 -115.92223
37972000 -38.470215 -79.158051 -0.023865269 -7.8610978 -0.026990088 -7.8695145 -37.467175 -115.24279
38971000 -38.136745 -78.729858 -0.02509764 -8.0624504 -0.027092194 -8.0756483 -37.303642 -113.80196
39970000 -37.822674 -79.136459 -0.023672402 -8.2612991 -0.026557462 -8.2761641 -37.053608 -113.04388
40969000 -37.543972 -78.707787 -0.024269514 -8.449193 -0.026549129 -8.471673 -36.812653 -111.59317
41968000 -37.192261 -78.581711 -0.023070689 -8.6615353 -0.026523344 -8.6733952 -36.633774 -110.41028
42967000 -36.929268 -78.558784 -0.024185434 -8.8706646 -0.026430886 -8.89009 -36.436127 -108.70954
43966000 -36.644779 -79.394745 -0.024487659 -9.0718184 -0.028032105 -9.0917044 -36.160988 -107.82632
44965000 -36.395069 -80.151367 -0.025104409 -9.2706556 -0.027758552 -9.2872477 -35.949814 -107.61323
45964000 -36.151524 -81.156334 -0.027048955 -9.4706926 -0.028839583 -9.4909735 -35.70768 -107.36089
46963000 -35.958622 -83.188461 -0.02611264 -9.6692533 -0.029690214 -9.6891737 -35.517326 -107.55736
47962000 -35.799076 -84.540657 -0.028344499 -9.8697052 -0.031411007 -9.8890953 -35.324509 -107.54911
48961000 -35.584316 -85.90657 -0.030227676 -10.066666 -0.032611877 -10.088376 -35.114273 -107.77141
49960000 -35.339111 -87.273499 -0.031463418 -10.265789 -0.034132931 -10.288335 -34.974041 -107.85448
50959000 -35.134537 -88.485802 -0.032026656 -10.47678 -0.034356527 -10.491433 -34.777466 -108.16173
51958000 -34.917553 -89.53167 -0.034369051 -10.676686 -0.035777967 -10.690166 -34.598679 -108.58013
52957000 -34.703369 -90.536301 -0.035208501 -10.879551 -0.037139043 -10.885182 -34.442345 -108.34637
53956000 -34.552917 -91.181198 -0.035846353 -11.082573 -0.037159666 -11.077862 -34.327911 -108.17452
54955000 -34.37151 -91.675934 -0.037135124 -11.28393 -0.038290307 -11.282808 -34.163734 -108.18774
55954000 -34.202068 -92.527328 -0.0384329 -11.482943 -0.038716529 -11.480092 -34.05843 -107.8773
56953000 -34.07592 -92.460358 -0.038020547 -11.68301 -0.038017936 -11.669481 -33.980286 -108.09689
57952000 -33.915298 -93.204491 -0.039014805 -11.881184 -0.039589994 -11.869138 -33.874798 -108.1325
58951000 -33.79364 -93.428505 -0.040274732 -12.082236 -0.039606191 -12.068178 -33.725227 -108.23702
59950000 -33.666969 -93.799126 -0.041241284 -12.283406 -0.040850352 -12.26344 -33.658958 -108.47677
60949000 -33.546906 -94.382591 -0.041333795 -12.488267 -0.041342158 -12.468508 -33.555412 -108.77597
61948000 -33.483791 -94.729103 -0.0424386 -12.684773 -0.041119244 -12.668612 -33.459164 -108.8976
62947000 -33.397488 -94.919388 -0.042295877 -12.894423 -0.042303458 -12.875412 -33.342621 -109.13947
63946000 -33.322895 -95.664406 -0.04348721 -13.094393 -0.042846143 -13.077691 -33.220516 -109.30377
64945000 -33.209663 -95.828033 -0.043893542 -13.300354 -0.043428119 -13.276625 -33.102833 -109.75641
65944000 -33.117928 -96.16465 -0.044616621 -13.497378 -0.043887269 -13.480051 -33.010368 -110.17825
66943000 -32.975735 -96.583397 -0.042752817 -13.699162 -0.042251963 -13.686074 -32.908657 -110.35415
67942000 -32.911728 -96.408905 -0.044031613 -13.897031 -0.043976698 -13.883825 -32.786705 -110.74129
68941000 -32.800949 -96.56694 -0.043721486 -14.089111 -0.0428234 -14.08285 -32.681572 -110.6678
69940000 -32.694717 -96.524963 -0.043933552 -14.286803 -0.044326592 -14.281787 -32.544651 -110.97597
70939000 -32.592396 -96.501175 -0.044164978 -14.486435 -0.044372357 -14.479656 -32.403728 -110.88486
71938000 -32.452785 -96.097748 -0.044162102 -14.68198 -0.044049654 -14.674146 -32.272236 -110.74566
72937000 -32.293053 -95.896645 -0.042670209 -14.883428 -0.04349976 -14.874601 -32.12701 -110.43732
73936000 -32.156425 -95.511635 -0.042815559 -15.082057 -0.042548388 -15.075616 -32.014065 -110.31429
74935000 -32.042118 -95.755409 -0.042704716 -15.27843 -0.042052265 -15.270103 -31.869318 -109.88204
75934000 -31.899996 -96.018715 -0.042640667 -15.48175 -0.041883942 -15.480243 -31.778568 -109.81916
76933000 -31.784544 -96.355705 -0.043549959 -15.679355 -0.043262877 -15.673657 -31.61693 -110.19804
77932000 -31.67944 -97.08445 -0.045209818 -15.877613 -0.044666573 -15.87261 -31.515594 -110.12849
78931000 -31.604876 -97.829948 -0.04390008 -16.07711 -0.044035535 -16.071363 -31.407667 -109.95144
79930000 -31.49239 -98.787964 -0.046081714 -16.268402 -0.045717552 -16.269037 -31.30666 -110.29787
80929000 -31.374561 -99.540192 -0.047304966 -16.46537 -0.048059497 -16.465164 -31.216202 -110.50933
81928000 -31.279957 -100.24205 -0.048431966 -16.656126 -0.048594002 -16.656946 -31.080938 -110.55093
82927000 -31.171684 -100.90572 -0.049786016 -16.855673 -0.049781825 -16.851267 -30.974339 -110.83604
83926000 -31.063805 -101.63368 -0.050783757 -17.052782 -0.051026285 -17.055849 -30.855961 -110.99435
84925000 -30.956793 -102.073 -0.052489351 -17.255842 -0.051240016 -17.249376 -30.756435 -111.04317
85924000 -30.864939 -102.44107 -0.052453455 -17.453876 -0.052245691 -17.451971 -30.684225 -111.02984
86923000 -30.753241 -102.90332 -0.053286448 -17.655048 -0.052216608 -17.647755 -30.572847 -110.83648
87922000 -30.644562 -103.31051 -0.053237185 -17.860577 -0.052710753 -17.851814 -30.493401 -110.93597
88921000 -30.563406 -103.55572 -0.053776782 -18.057806 -0.053743497 -18.049583 -30.391592 -110.87798
89920000 -30.46924 -104.09399 -0.054593254 -18.25745 -0.053790674 -18.248497 -30.340443 -111.01647
90919000 -30.366205 -104.29636 -0.055510558 -18.449717 -0.054733761 -18.448336 -30.255796 -111.14323
91918000 -30.265049 -104.68626 -0.056269925 -18.654627 -0.054937188 -18.647039 -30.188288 -111.18785
92917000 -30.180046 -104.97636 -0.056985103 -18.85342 -0.055681773 -18.850924 -30.122616 -111.28374
93916000 -30.08593 -105.3388 -0.056545019 -19.043251 -0.056063551 -19.043495 -30.03079 -111.86295
94915000 -30.015553 -105.92322 -0.057946458 -19.249006 -0.057008181 -19.241524 -29.981731 -111.7858
95914000 -29.943731 -106.15024 -0.059176467 -19.443256 -0.058335785 -19.439434 -29.887775 -111.99412
96913000 -29.865599 -106.33087 -0.059901308 -19.642015 -0.059175156 -19.639469 -29.822489 -112.3365
97912000 -29.776894 -106.85359 -0.061398607 -19.838549 -0.05890147 -19.841179 -29.73765 -112.59043
98911000 -29.678694 -106.99966 -0.062116466 -20.040777 -0.060045399 -20.038198 -29.706591 -112.75934
99910000 -29.60615 -107.14373 -0.062347025 -20.236809 -0.060409188 -20.237816 -29.594234 -113.08314
100909000 -29.516024 -107.40687 -0.062557898 -20.445366 -0.060118362 -20.441534 -29.501781 -113.31629
101908000 -29.432388 -107.63586 -0.063125715 -20.648798 -0.061192777 -20.645142 -29.395227 -113.1134
102907000 -29.294064 -107.64285 -0.063699111 -20.845354 -0.061429851 -20.847223 -29.321299 -113.12274
103906000 -29.200909 -107.70132 -0.063861452 -21.050804 -0.061030798 -21.049311 -29.175911 -113.05761
104905000 -29.053747 -107.52742 -0.064909205 -21.252346 -0.061472382 -21.248266 -29.048252 -112.74182
105904000 -28.910761 -107.63026 -0.064316466 -21.455454 -0.060786396 -21.45083 -28.946115 -112.64667
106903000 -28.804762 -107.71716 -0.064088427 -21.656973 -0.062443927 -21.657717 -28.8162 -112.52399
107902000 -28.63957 -107.99033 -0.065578237 -21.860147 -0.062950529 -21.850679 -28.680418 -112.50228
108901000 -28.53467 -108.24438 -0.066712096 -22.06432 -0.063933961 -22.058233 -28.553923 -112.41129
109900000 -28.406826 -108.70628 -0.067118771 -22.263718 -0.06456501 -22.256958 -28.403666 -112.48553
110899000 -28.280926 -109.30373 -0.068787135 -22.459284 -0.065463662 -22.456268 -28.27849 -112.75529
111898000 -28.196035 -109.96223 -0.069997862 -22.662958 -0.066866405 -22.657381 -28.160236 -112.86953
112897000 -28.067549 -110.5328 -0.071844451 -22.860544 -0.06800586 -22.848896 -28.026527 -113.03043
113896000 -27.964739 -111.09087 -0.072978631 -23.062601 -0.069225833 -23.052122 -27.916191 -113.18833
114895000 -27.864248 -111.7022 -0.073407739 -23.258629 -0.070191741 -23.246809 -27.799482 -113.2845
115894000 -27.743654 -112.07758 -0.074849658 -23.461981 -0.071508907 -23.451948 -27.737232 -113.43862
116893000 -27.660915 -112.57325 -0.076011755 -23.659431 -0.072738819 -23.643604 -27.617241 -113.49391
117892000 -27.581612 -113.08882 -0.075839475 -23.853125 -0.073041543 -23.842829 -27.541397 -113.70523
118891000 -27.523363 -113.50803 -0.076718599 -24.055367 -0.073529638 -24.045023 -27.448202 -113.7855
119890000 -27.436649 -113.84488 -0.077093013 -24.259361 -0.074283734 -24.24535 -27.437874 -113.92696
120889000 -27.388399 -114.30721 -0.077271134 -24.457336 -0.074178144 -24.442152 -27.360943 -113.84933
121888000 -27.343491 -114.62564 -0.078459449 -24.657116 -0.075025059 -24.645103 -27.299452 -114.13472
122887000 -27.306543 -114.81322 -0.078820303 -24.861572 -0.075629801 -24.844477 -27.253294 -114.13575
123886000 -27.255106 -115.2514 -0.079982676 -25.061541 -0.075599246 -25.043844 -27.245819 -114.31057
124885000 -27.216427 -115.75613 -0.080164351 -25.259274 -0.07664746 -25.245108 -27.21254 -114.33861
125884000 -27.168167 -115.93345 -0.080210492 -25.459633 -0.076495446 -25.445293 -27.185059 -114.49184
126883000 -27.151731 -116.35726 -0.080805406 -25.663689 -0.0775415 -25.64642 -27.147083 -114.53278
127882000 -27.103327 -116.61644 -0.080479987 -25.86393 -0.077848785 -25.845139 -27.106415 -114.6591
128881000 -27.070002 -116.92456 -0.080714427 -26.063869 -0.077508301 -26.047749 -27.064705 -114.70827
129880000 -27.014149 -117.29527 -0.081890225 -26.265366 -0.077809781 -26.246531 -27.028553 -114.70216
130879000 -26.957104 -117.45726 -0.081399612 -26.466084 -0.078763895 -26.449678 -26.957617 -114.72389
131878000 -26.893757 -117.67828 -0.081717186 -26.666971 -0.07930167 -26.647989 -26.897846 -114.56223
132877000 -26.833109 -117.72285 -0.080758996 -26.870472 -0.079765156 -26.8538 -26.81702 -114.59688
133876000 -26.743601 -117.91733 -0.081842221 -27.07312 -0.079335675 -27.051571 -26.730284 -114.44934
134875000 -26.649752 -118.04261 -0.082314156 -27.273121 -0.078925222 -27.249229 -26.631851 -114.32365
135874000 -26.566921 -118.05139 -0.082080163 -27.473894 -0.079435594 -27.454796 -26.537811 -114.24781
136873000 -26.455347 -117.96461 -0.082401745 -27.672611 -0.079447985 -27.658907 -26.454922 -114.19366
137872000 -26.374359 -118.08624 -0.083479308 -27.878124 -0.079108432 -27.858534 -26.357386 -114.16243
138871000 -26.303387 -118.33787 -0.08325211 -28.072069 -0.079709783 -28.064243 -26.254009 -114.29143
139870000 -26.203503 -118.57751 -0.083852723 -28.27232 -0.080866329 -28.253553 -26.180113 -114.45834
140869000 -26.131016 -119.15292 -0.084968656 -28.474182 -0.081625395 -28.455053 -26.075073 -114.67983
141868000 -26.045843 -119.5396 -0.085842237 -28.674334 -0.083264515 -28.657026 -26.028877 -114.93143
142867000 -25.965258 -119.76163 -0.084384523 -28.867788 -0.082293049 -28.850054 -25.9487 -115.00495
143866000 -25.891563 -120.24725 -0.086105481 -29.065102 -0.083538681 -29.051695 -25.877659 -115.4845
144865000 -25.834414 -120.73422 -0.087608941 -29.263577 -0.085099064 -29.249046 -25.819946 -115.81112
145864000 -25.784853 -121.04321 -0.088104747 -29.465597 -0.087134317 -29.452288 -25.784618 -116.03266
146863000 -25.729944 -121.41918 -0.088904709 -29.665899 -0.086998038 -29.651484 -25.733881 -116.34412
147862000 -25.693699 -121.73119 -0.0895098 -29.861799 -0.08718238 -29.846951 -25.699251 -116.65242
148861000 -25.657448 -122.13807 -0.090572216 -30.06097 -0.08823023 -30.050812 -25.678497 -116.80376
149860000 -25.624088 -122.35474 -0.09152174 -30.257622 -0.089700334 -30.242462 -25.629673 -116.92303
150859000 -25.607183 -122.81207 -0.091497421 -30.451416 -0.08918003 -30.439411 -25.607954 -117.24554
151858000 -25.597008 -123.14863 -0.0905746 -30.649305 -0.088924795 -30.639004 -25.60013 -117.60541
152857000 -25.575081 -123.4684 -0.091440313 -30.85202 -0.08887618 -30.841312 -25.584356 -117.75973
153856000 -25.578487 -123.70926 -0.090873547 -31.05056 -0.088293366 -31.035393 -25.596268 -118.08758
154855000 -25.567604 -123.86312 -0.091063343 -31.250862 -0.088682778 -31.241358 -25.585159 -118.32516
155854000 -25.586388 -124.08548 -0.091364704 -31.450857 -0.089528829 -31.436373 -25.576342 -118.60996
156853000 -25.572929 -124.8091 -0.089544684 -31.640009 -0.088595062 -31.631351 -25.57172 -118.91911
157852000 -25.578051 -125.02644 -0.090754069 -31.839603 -0.090089075 -31.8312 -25.561573 -119.27517
158851000 -25.580957 -125.23238 -0.091564305 -32.037357 -0.090147749 -32.031708 -25.546158 -119.52864
159850000 -25.569292 -125.32877 -0.092204407 -32.238003 -0.090389319 -32.231224 -25.545513 -119.71011
160849000 -25.551422 -125.43197 -0.092095993 -32.437721 -0.091047481 -32.432213 -25.512856 -120.00281
161848000 -25.533012 -125.53527 -0.092011124 -32.63715 -0.091125727 -32.634167 -25.476479 -120.15981
162847000 -25.494125 -125.69688 -0.092824504 -32.836468 -0.091895051 -32.829552 -25.448065 -120.39053
163846000 -25.449615 -125.88716 -0.092340581 -33.040977 -0.091417842 -33.028664 -25.371441 -120.3718
164845000 -25.394878 -125.86334 -0.09336587 -33.235832 -0.092170559 -33.231827 -25.307297 -120.47278
165844000 -25.343801 -125.90057 -0.093335718 -33.438805 -0.092580155 -33.430038 -25.232021 -120.61681
166843000 -25.280291 -125.95953 -0.093307421 -33.637276 -0.09262643 -33.633179 -25.163387 -120.78325
167842000 -25.222738 -126.08577 -0.09313339 -33.835796 -0.092861257 -33.826801 -25.087357 -120.7031
168841000 -25.146664 -126.26618 -0.09385784 -34.03664 -0.09214703 -34.030815 -25.013649 -120.78534
169840000 -25.083124 -126.49106 -0.09433452 -34.233788 -0.093522444 -34.226597 -24.931847 -120.95164
170839000 -25.019354 -126.71761 -0.095198609 -34.428391 -0.0941213 -34.425358 -24.84536 -121.1331
171838000 -24.962288 -127.10243 -0.094833478 -34.631767 -0.094763629 -34.622478 -24.779583 -121.34818
172837000 -24.893993 -127.4425 -0.096281469 -34.827724 -0.095791608 -34.818295 -24.714083 -121.57595
173836000 -24.825191 -127.80953 -0.09786921 -35.027256 -0.096458532 -35.027073 -24.673481 -121.79703
174835000 -24.76992 -128.25336 -0.098256834 -35.222805 -0.097332574 -35.224869 -24.62936 -122.09201
175834000 -24.719118 -128.6263 -0.099054165 -35.426136 -0.098186404 -35.420734 -24.570072 -122.38034
176833000 -24.66885 -128.9249 -0.099597633 -35.623558 -0.098442711 -35.618004 -24.519371 -122.46825
177832000 -24.627699 -129.35712 -0.1004535 -35.82431 -0.099589422 -35.821651 -24.501133 -122.60445
178831000 -24.582895 -129.59029 -0.10235867 -36.018257 -0.10162353 -36.017601 -24.461359 -122.6785
179830000 -24.507891 -130.00139 -0.10310136 -36.19706 -0.1023804 -36.205742 -24.397314 -122.74298
180829000 -24.459627 -130.37033 -0.10252379 -36.391735 -0.10154297 -36.395729 -24.352617 -123.08592
181828000 -24.43792 -130.76672 -0.10172767 -36.597935 -0.10061881 -36.59333 -24.334261 -123.24918
182827000 -24.417364 -131.12137 -0.10152654 -36.791313 -0.10113121 -36.79528 -24.323202 -123.36798
183826000 -24.376781 -131.48711 -0.10279069 -36.986599 -0.1009627 -36.987526 -24.315676 -123.50612
184825000 -24.378847 -131.80763 -0.10284583 -37.186489 -0.10153635 -37.188568 -24.296413 -123.66343
185824000 -24.353722 -132.1918 -0.10216971 -37.385319 -0.10233985 -37.385502 -24.291809 -123.73228
186823000 -24.33415 -132.55011 -0.10240266 -37.58638 -0.10139988 -37.579071 -24.285534 -123.72842
187822000 -24.310753 -132.88431 -0.10330123 -37.780712 -0.10295662 -37.777325 -24.250534 -123.78261
188821000 -24.291206 -133.12526 -0.10247369 -37.972786 -0.10239524 -37.979145 -24.230566 -123.91309
189820000 -24.269753 -133.41696 -0.10259111 -38.176636 -0.10245223 -38.173134 -24.215055 -124.14019
190819000 -24.233934 -133.7377 -0.10403214 -38.371147 -0.10248695 -38.369732 -24.176888 -124.14026
191818000 -24.204517 -134.03653 -0.1038797 -38.570282 -0.10361405 -38.570305 -24.145391 -124.19657
192817000 -24.159042 -134.31508 -0.10396348 -38.764572 -0.1033736 -38.768494 -24.101864 -124.28398
193816000 -24.126354 -134.58568 -0.10469662 -38.960541 -0.1035202 -38.962601 -24.0548 -124.4237
194815000 -24.066418 -134.95706 -0.10490532 -39.158512 -0.10442138 -39.158699 -23.987127 -124.47777
195814000 -24.012777 -135.15945 -0.10595401 -39.356674 -0.10482471 -39.356003 -23.93391 -124.59978
196813000 -23.96036 -135.51091 -0.10452241 -39.549297 -0.10437366 -39.55027 -23.851597 -124.75673
197812000 -23.901062 -135.72777 -0.10567444 -39.74826 -0.10489923 -39.74699 -23.783873 -124.83163
198811000 -23.844967 -135.85117 -0.10622086 -39.945919 -0.10422994 -39.944912 -23.714132 -125.00696
199810000 -23.775787 -136.21487 -0.10587443 -40.13876 -0.10434634 -40.137089 -23.635532 -125.09164
200809000 -23.721634 -136.46922 -0.10595984 -40.33577 -0.10432937 -40.337971 -23.561768 -125.27329
201808000 -23.661856 -136.65337 -0.10627232 -40.536217 -0.10608292 -40.544308 -23.492731 -125.34058
202807000 -23.604202 -137.00676 -0.10774695 -40.739956 -0.10602563 -40.743221 -23.441795 -125.54201
