!Keysight Technologies,E5080B,MY59205177,A.15.75.32
!Date: Friday, February 23, 2024 03:35:12
!Correction: S11(Cdelta 2-Port  ) 
!S21(Cdelta 2-Port  ) 
!S12(Cdelta 2-Port  ) 
!S22(Cdelta 2-Port  ) 
!S2P File: Measurements: S11, S21, S12, S22:
# Hz S  dB   R 50
10000000 -46.154476 -2.6801171 -0.01597666 -2.0454698 -0.019145725 -2.0986137 -45.888588 -157.62079
10999000 -45.294411 -4.6161418 -0.016939636 -2.2631853 -0.01839724 -2.3182964 -45.876232 -151.32542
11998000 -44.373829 -7.8125978 -0.017234601 -2.4894934 -0.018538401 -2.5328383 -45.975121 -146.69737
12997000 -43.604649 -13.127778 -0.016013036 -2.670192 -0.017774165 -2.7004068 -45.588127 -141.39577
13996000 -43.293552 -17.221371 -0.015730625 -2.8488564 -0.018704262 -2.8685992 -45.448669 -136.06567
14995000 -42.914825 -21.24766 -0.01796495 -3.0578215 -0.018259984 -3.0824144 -45.116886 -132.64481
15994000 -42.712784 -25.720146 -0.018649407 -3.2758048 -0.020558033 -3.2984073 -44.986546 -129.44644
16993000 -42.70636 -30.477873 -0.017962351 -3.4753909 -0.019872757 -3.4844024 -44.173058 -129.00639
17992000 -42.699005 -36.081493 -0.018910429 -3.6741257 -0.02060329 -3.675431 -43.673618 -129.2753
18991000 -42.955532 -41.334812 -0.019421859 -3.8842502 -0.020774953 -3.8857446 -42.986324 -127.9535
19990000 -42.736874 -46.928555 -0.021505376 -4.0966659 -0.02343582 -4.0876055 -42.334541 -129.02518
20989000 -42.557568 -50.331276 -0.023793692 -4.2958512 -0.025096858 -4.2869205 -41.757523 -128.23206
21988000 -42.363365 -55.299477 -0.024898469 -4.4936161 -0.025780616 -4.4800568 -41.505009 -127.56789
22987000 -42.04184 -60.215412 -0.026032953 -4.6934681 -0.026996339 -4.6818862 -41.259712 -127.01046
23986000 -41.976051 -64.69529 -0.025468146 -4.8895192 -0.02580796 -4.8862062 -41.127357 -126.72728
24985000 -41.605286 -67.022514 -0.026981752 -5.1004734 -0.026026182 -5.097312 -40.923233 -124.517
25984000 -41.255962 -69.166557 -0.027912522 -5.3042178 -0.026460057 -5.3013506 -40.563072 -122.65047
26983000 -40.918606 -70.977303 -0.028595682 -5.502707 -0.027680397 -5.5195003 -40.486137 -122.22359
27982000 -40.838295 -72.291885 -0.030253744 -5.7026858 -0.029470243 -5.7333469 -40.195717 -120.64006
28981000 -40.711975 -73.763802 -0.027554309 -5.8993812 -0.028821861 -5.9247818 -40.002796 -119.72517
29980000 -40.321835 -74.988228 -0.027506117 -6.0954471 -0.029170277 -6.1059909 -39.690681 -119.19514
30979000 -39.951706 -73.830315 -0.025066396 -6.4457169 -0.024130771 -6.4426799 -39.215553 -119.28683
31978000 -39.728733 -74.789619 -0.024221616 -6.6424713 -0.025400188 -6.6339164 -38.95779 -118.74545
32977000 -39.543716 -76.322632 -0.024507703 -6.8533287 -0.025349155 -6.8531809 -38.721851 -118.84738
33976000 -39.379055 -77.351685 -0.025113521 -7.0536571 -0.026564494 -7.0502419 -38.459385 -118.17282
34975000 -39.076637 -78.168373 -0.024961473 -7.253943 -0.027506117 -7.2526603 -38.21973 -117.91267
35974000 -38.888859 -78.782608 -0.024490522 -7.4465661 -0.027308919 -7.452538 -37.948528 -116.87395
36973000 -38.633366 -79.581924 -0.024602722 -7.6500211 -0.027345648 -7.6546922 -37.681503 -116.11781
37972000 -38.463257 -79.260384 -0.024574608 -7.8594332 -0.027550923 -7.8712544 -37.462215 -115.21251
38971000 -38.155243 -78.783081 -0.025235893 -8.0620518 -0.026758533 -8.0746698 -37.314819 -113.65327
39970000 -37.831585 -79.027878 -0.023510514 -8.2563934 -0.026281137 -8.2768583 -37.028458 -113.1661
40969000 -37.541435 -78.698257 -0.023352016 -8.4541264 -0.025978006 -8.4706354 -36.811359 -111.82025
41968000 -37.197613 -78.627609 -0.025029946 -8.6596098 -0.026888244 -8.6786013 -36.618294 -110.4883
42967000 -36.931828 -78.766556 -0.024741743 -8.8668146 -0.027002068 -8.8894415 -36.414562 -108.52619
43966000 -36.643559 -79.464821 -0.025330147 -9.070466 -0.028129809 -9.0888147 -36.147247 -107.89039
44965000 -36.398582 -80.20948 -0.025552772 -9.2728167 -0.027684044 -9.2904625 -35.940872 -107.63657
45964000 -36.183517 -81.171585 -0.026301451 -9.4751558 -0.029568497 -9.4945507 -35.721584 -107.27641
46963000 -35.963047 -83.145844 -0.027388891 -9.6691122 -0.029836692 -9.6883087 -35.529949 -107.51089
47962000 -35.817497 -84.551872 -0.028108705 -9.869153 -0.030363226 -9.8881378 -35.336334 -107.647
48961000 -35.592064 -85.923172 -0.030512596 -10.066761 -0.032512508 -10.087871 -35.104542 -107.69641
49960000 -35.357574 -87.052856 -0.03183838 -10.264481 -0.033370119 -10.28879 -34.94923 -107.82329
50959000 -35.126816 -88.53511 -0.032325514 -10.479311 -0.034715563 -10.490733 -34.784042 -108.09038
51958000 -34.917805 -89.580757 -0.034503687 -10.679185 -0.036027491 -10.687303 -34.611805 -108.46198
52957000 -34.690853 -90.672623 -0.035906121 -10.880195 -0.036770407 -10.886903 -34.447025 -108.33482
53956000 -34.54744 -91.25515 -0.037149224 -11.081707 -0.038096275 -11.084277 -34.298805 -108.25078
54955000 -34.37233 -91.72937 -0.038683619 -11.279486 -0.038972229 -11.282072 -34.165363 -108.27919
55954000 -34.199203 -92.546478 -0.039012976 -11.482487 -0.039267126 -11.479806 -34.053902 -107.87765
56953000 -34.086468 -92.588509 -0.03879201 -11.681347 -0.03792654 -11.670859 -33.977131 -108.07998
57952000 -33.91534 -93.216736 -0.040123459 -11.878112 -0.039638847 -11.868224 -33.883846 -108.21144
58951000 -33.792786 -93.43602 -0.040614922 -12.083163 -0.040029146 -12.06473 -33.722359 -108.25168
59950000 -33.670799 -93.79985 -0.041667532 -12.280917 -0.04066509 -12.261744 -33.642345 -108.57908
60949000 -33.546707 -94.383278 -0.041927066 -12.485328 -0.041091546 -12.465796 -33.565048 -108.80263
61948000 -33.487331 -94.758026 -0.042842224 -12.681488 -0.041387368 -12.667299 -33.468742 -108.88353
62947000 -33.407555 -94.924812 -0.042648509 -12.896256 -0.041808143 -12.874776 -33.330452 -109.17561
63946000 -33.31913 -95.6968 -0.04362997 -13.097646 -0.043310463 -13.078251 -33.22279 -109.26478
64945000 -33.210579 -95.804398 -0.043968853 -13.298791 -0.043658473 -13.28109 -33.10891 -109.76466
65944000 -33.116871 -96.126015 -0.044921841 -13.494935 -0.044537116 -13.480913 -33.016369 -110.13324
66943000 -32.967064 -96.515221 -0.04294784 -13.698618 -0.042437293 -13.680074 -32.912174 -110.39581
67942000 -32.911327 -96.523705 -0.045089498 -13.896196 -0.044467028 -13.884075 -32.790249 -110.71765
68941000 -32.790047 -96.61068 -0.044431984 -14.087874 -0.043824773 -14.078363 -32.681274 -110.75085
69940000 -32.694633 -96.572975 -0.044897515 -14.2883 -0.044353526 -14.285044 -32.526325 -111.03558
70939000 -32.590302 -96.496429 -0.043837324 -14.487404 -0.04426435 -14.477654 -32.401981 -110.95058
71938000 -32.449547 -96.026001 -0.044275858 -14.681954 -0.043846216 -14.674619 -32.258526 -110.7318
72937000 -32.289612 -95.845787 -0.044061422 -14.88158 -0.043639645 -14.878903 -32.138885 -110.43178
73936000 -32.157066 -95.497139 -0.043016858 -15.081077 -0.042932939 -15.068671 -32.017811 -110.27147
74935000 -32.02734 -95.681633 -0.043611929 -15.273777 -0.042233143 -15.271794 -31.86511 -109.91842
75934000 -31.896929 -95.983086 -0.04352643 -15.480585 -0.042473629 -15.477896 -31.769859 -109.8457
76933000 -31.777657 -96.380753 -0.043744497 -15.678596 -0.043660823 -15.672764 -31.602243 -110.15195
77932000 -31.66678 -97.167503 -0.045856465 -15.871418 -0.045708921 -15.866024 -31.510651 -110.12904
78931000 -31.600338 -97.909203 -0.044020366 -16.075123 -0.044680435 -16.066826 -31.404741 -109.96961
79930000 -31.484879 -98.71801 -0.046552658 -16.271927 -0.046935465 -16.268776 -31.306089 -110.29317
80929000 -31.372429 -99.479179 -0.048542693 -16.465906 -0.048180159 -16.460451 -31.201351 -110.54668
81928000 -31.273649 -100.24343 -0.048590597 -16.657202 -0.048736669 -16.652674 -31.085464 -110.53851
82927000 -31.173878 -100.95688 -0.050357398 -16.855947 -0.050050225 -16.852236 -30.971918 -110.81725
83926000 -31.052816 -101.66071 -0.051912185 -17.053093 -0.05115201 -17.053225 -30.857849 -110.97866
84925000 -30.942427 -102.0256 -0.052751627 -17.25572 -0.0515588 -17.25045 -30.759184 -111.03686
85924000 -30.857981 -102.50031 -0.053236134 -17.449471 -0.053107206 -17.45203 -30.675789 -110.96881
86923000 -30.7449 -102.98183 -0.053298242 -17.652279 -0.053379219 -17.648853 -30.574039 -110.89838
87922000 -30.641321 -103.30906 -0.053324185 -17.86039 -0.052596249 -17.850159 -30.483953 -110.92031
88921000 -30.566366 -103.56361 -0.054624971 -18.057606 -0.053657275 -18.051273 -30.399479 -110.88411
89920000 -30.465902 -104.03326 -0.055575058 -18.259531 -0.054125894 -18.247875 -30.344067 -111.00978
90919000 -30.364786 -104.31333 -0.05618706 -18.452528 -0.054851726 -18.450491 -30.24955 -111.15193
91918000 -30.266451 -104.68598 -0.056925301 -18.652502 -0.054862473 -18.648743 -30.182598 -111.17629
92917000 -30.171856 -104.99669 -0.05757894 -18.852371 -0.05684321 -18.849897 -30.117479 -111.30821
93916000 -30.094408 -105.34863 -0.057087127 -19.045223 -0.056612421 -19.040602 -30.036583 -111.9055
94915000 -30.007563 -105.97579 -0.058540169 -19.249969 -0.057972956 -19.243994 -29.972166 -111.75597
95914000 -29.950413 -106.14663 -0.059797376 -19.440866 -0.058514193 -19.440254 -29.881582 -112.02306
96913000 -29.85902 -106.3737 -0.061280463 -19.641321 -0.059580598 -19.640266 -29.815968 -112.3826
97912000 -29.777996 -106.87127 -0.062557898 -19.837847 -0.059640173 -19.839493 -29.735598 -112.6318
98911000 -29.682619 -106.99705 -0.062729917 -20.040787 -0.061071489 -20.037123 -29.692612 -112.84077
99910000 -29.61204 -107.14844 -0.063513398 -20.236347 -0.061309081 -20.23831 -29.586168 -113.07804
100909000 -29.518974 -107.38832 -0.062537417 -20.446457 -0.060817372 -20.443266 -29.498178 -113.30953
101908000 -29.43042 -107.61581 -0.06429939 -20.651491 -0.062423706 -20.645357 -29.392466 -113.09979
102907000 -29.298662 -107.60977 -0.064386614 -20.84618 -0.062098872 -20.844517 -29.322727 -113.06902
103906000 -29.204735 -107.6777 -0.06459076 -21.054298 -0.061940536 -21.05015 -29.176836 -112.99799
104905000 -29.05615 -107.54887 -0.065373786 -21.250891 -0.062595457 -21.254032 -29.048595 -112.72302
105904000 -28.915981 -107.65567 -0.064603366 -21.456059 -0.062564202 -21.454317 -28.946119 -112.63627
106903000 -28.80394 -107.73928 -0.06525632 -21.662283 -0.062767737 -21.655066 -28.823845 -112.49802
107902000 -28.641264 -108.06906 -0.066427685 -21.861797 -0.062948689 -21.85553 -28.684658 -112.4253
108901000 -28.532248 -108.24213 -0.066926077 -22.064484 -0.064598635 -22.056755 -28.549583 -112.39483
109900000 -28.400797 -108.70921 -0.067810491 -22.265097 -0.066095985 -22.253372 -28.401184 -112.44218
110899000 -28.285963 -109.38284 -0.069385484 -22.463135 -0.066488139 -22.453035 -28.277023 -112.75343
111898000 -28.195559 -109.96583 -0.070275404 -22.662542 -0.067308061 -22.657038 -28.160164 -112.86442
112897000 -28.072571 -110.5321 -0.07209684 -22.861248 -0.068809226 -22.848663 -28.02931 -113.03809
113896000 -27.960339 -111.12782 -0.072638787 -23.059294 -0.070157811 -23.050028 -27.919664 -113.17255
114895000 -27.865849 -111.76429 -0.074264511 -23.25918 -0.071431279 -23.247437 -27.811571 -113.26026
115894000 -27.74012 -112.08923 -0.074701652 -23.46393 -0.072863854 -23.452442 -27.744074 -113.44083
116893000 -27.664511 -112.54532 -0.075848438 -23.658779 -0.07384295 -23.641155 -27.621351 -113.52376
117892000 -27.580175 -113.04271 -0.076454341 -23.855213 -0.073461711 -23.844975 -27.544109 -113.7095
118891000 -27.517229 -113.45499 -0.076620854 -24.055679 -0.07403411 -24.047947 -27.446024 -113.81099
119890000 -27.435331 -113.84244 -0.077309608 -24.256735 -0.075053506 -24.244747 -27.434835 -113.93707
120889000 -27.378662 -114.32369 -0.078510851 -24.460676 -0.074870728 -24.444187 -27.36327 -113.8786
121888000 -27.347301 -114.67172 -0.078199573 -24.651854 -0.075415656 -24.638367 -27.301342 -114.1516
122887000 -27.307837 -114.87897 -0.079369418 -24.859875 -0.076252542 -24.845377 -27.253557 -114.20332
123886000 -27.250948 -115.26667 -0.0795421 -25.060547 -0.076804489 -25.043278 -27.241722 -114.31841
124885000 -27.218916 -115.74063 -0.079876415 -25.258093 -0.076929122 -25.245752 -27.214813 -114.32944
125884000 -27.168158 -115.9612 -0.080507942 -25.457222 -0.077185497 -25.444368 -27.181417 -114.50363
126883000 -27.149748 -116.36032 -0.081774428 -25.663277 -0.078388549 -25.648989 -27.145258 -114.52213
127882000 -27.100382 -116.65605 -0.081654675 -25.861755 -0.078532994 -25.845827 -27.106089 -114.63765
128881000 -27.064724 -116.98685 -0.081990205 -26.061646 -0.078509003 -26.047359 -27.066389 -114.71379
129880000 -27.018829 -117.28477 -0.082462423 -26.265219 -0.078324236 -26.245758 -27.026573 -114.67361
130879000 -26.959698 -117.43972 -0.082192801 -26.465242 -0.079539731 -26.449875 -26.950851 -114.75028
131878000 -26.892498 -117.64588 -0.082518615 -26.667408 -0.07957717 -26.649302 -26.893656 -114.56784
132877000 -26.825302 -117.72923 -0.082687199 -26.869583 -0.079853214 -26.850159 -26.815863 -114.54726
133876000 -26.74263 -117.90713 -0.082522571 -27.071037 -0.079620145 -27.050892 -26.731102 -114.46519
134875000 -26.645241 -118.03926 -0.082991682 -27.267807 -0.080602087 -27.252808 -26.625715 -114.28811
135874000 -26.564814 -118.0581 -0.08264789 -27.469675 -0.080494493 -27.455311 -26.533995 -114.24732
136873000 -26.459673 -117.95786 -0.084164403 -27.674572 -0.079671293 -27.65344 -26.454916 -114.18643
137872000 -26.376127 -118.12859 -0.083258972 -27.874077 -0.08017806 -27.861425 -26.351965 -114.10175
138871000 -26.30003 -118.31322 -0.083334439 -28.072069 -0.07967604 -28.062527 -26.259304 -114.2884
139870000 -26.198242 -118.5901 -0.084766984 -28.273554 -0.081572115 -28.255947 -26.172455 -114.43248
140869000 -26.127232 -119.12975 -0.086203441 -28.472525 -0.082023971 -28.453798 -26.083162 -114.6768
141868000 -26.044243 -119.53941 -0.085950226 -28.669685 -0.083992593 -28.653723 -26.030718 -114.90031
142867000 -25.962141 -119.74132 -0.084685422 -28.866108 -0.082780071 -28.851215 -25.947783 -115.0235
143866000 -25.891434 -120.22428 -0.086317778 -29.065891 -0.084333323 -29.050655 -25.875614 -115.47152
144865000 -25.834251 -120.74409 -0.087874927 -29.26368 -0.085854121 -29.250507 -25.820816 -115.79119
145864000 -25.778402 -121.07609 -0.088628881 -29.463999 -0.086562827 -29.454166 -25.782692 -116.04744
146863000 -25.731726 -121.43392 -0.089588553 -29.664881 -0.087008335 -29.651659 -25.735476 -116.3233
147862000 -25.693419 -121.76162 -0.090389848 -29.863403 -0.087818928 -29.848631 -25.70639 -116.67307
148861000 -25.6663 -122.1729 -0.091538928 -30.059708 -0.089080155 -30.044708 -25.682274 -116.81454
149860000 -25.631533 -122.36777 -0.092527531 -30.254587 -0.089171045 -30.239998 -25.631018 -116.88827
150859000 -25.605801 -122.82127 -0.092240363 -30.452856 -0.089332759 -30.435703 -25.610563 -117.2689
151858000 -25.591499 -123.1637 -0.09176074 -30.651083 -0.089533053 -30.637506 -25.603176 -117.61179
152857000 -25.578243 -123.48851 -0.091880776 -30.852163 -0.089313202 -30.836309 -25.579529 -117.78959
153856000 -25.577436 -123.69662 -0.091405421 -31.049273 -0.088763624 -31.035616 -25.602108 -118.11208
154855000 -25.570982 -123.88813 -0.091960624 -31.249434 -0.089156248 -31.241116 -25.588552 -118.35258
155854000 -25.58709 -124.11784 -0.092499234 -31.450275 -0.089551024 -31.43671 -25.580799 -118.63441
156853000 -25.574781 -124.82613 -0.08974658 -31.638044 -0.089129299 -31.632463 -25.571295 -118.92577
157852000 -25.575829 -125.01588 -0.09080112 -31.840279 -0.090227567 -31.827581 -25.555197 -119.28039
158851000 -25.582024 -125.24654 -0.092051573 -32.036907 -0.091002546 -32.029095 -25.54361 -119.55551
159850000 -25.566233 -125.36417 -0.092285581 -32.236855 -0.090676099 -32.229721 -25.542961 -119.73373
160849000 -25.549187 -125.41013 -0.092792504 -32.437599 -0.091862269 -32.432934 -25.510813 -120.0503
161848000 -25.531853 -125.51992 -0.093140535 -32.639687 -0.091415465 -32.63129 -25.477898 -120.15247
162847000 -25.495268 -125.68841 -0.093610525 -32.838707 -0.092401132 -32.832561 -25.444523 -120.36687
163846000 -25.452557 -125.89241 -0.093551539 -33.0369 -0.092162102 -33.028595 -25.368317 -120.39536
164845000 -25.392696 -125.86523 -0.093985602 -33.236942 -0.092568517 -33.232323 -25.304611 -120.4641
165844000 -25.339233 -125.9254 -0.093297631 -33.438419 -0.092715286 -33.429058 -25.222797 -120.63396
166843000 -25.280796 -125.97294 -0.09351927 -33.637062 -0.092939802 -33.629341 -25.163563 -120.76578
167842000 -25.221153 -126.07697 -0.093337305 -33.832848 -0.093069918 -33.826351 -25.082319 -120.70818
168841000 -25.139093 -126.24403 -0.094418913 -34.033722 -0.093600206 -34.026096 -25.009169 -120.76108
169840000 -25.081968 -126.50449 -0.094999634 -34.229279 -0.093604438 -34.229225 -24.924862 -120.93245
170839000 -25.01615 -126.69848 -0.095189877 -34.42979 -0.094815485 -34.425621 -24.846376 -121.10042
171838000 -24.956327 -127.12649 -0.095100969 -34.628586 -0.095186964 -34.623455 -24.77932 -121.32811
172837000 -24.889704 -127.44386 -0.096870117 -34.825203 -0.096203662 -34.822048 -24.715681 -121.5547
173836000 -24.822052 -127.84035 -0.098190635 -35.024925 -0.097155474 -35.023754 -24.671381 -121.77442
174835000 -24.770857 -128.24959 -0.098366454 -35.222866 -0.097693942 -35.222538 -24.631241 -122.07988
175834000 -24.722729 -128.6118 -0.099417269 -35.424747 -0.098675206 -35.41819 -24.567484 -122.35582
176833000 -24.671661 -128.95503 -0.10036819 -35.621578 -0.099154539 -35.617836 -24.525965 -122.49787
177832000 -24.624903 -129.36716 -0.10150375 -35.820831 -0.10041111 -35.822647 -24.503828 -122.60947
178831000 -24.582727 -129.60661 -0.1031443 -36.016529 -0.1021485 -36.013172 -24.462572 -122.66405
179830000 -24.510441 -129.97467 -0.10441846 -36.196934 -0.10305497 -36.202026 -24.399845 -122.75326
180829000 -24.458208 -130.37234 -0.10349236 -36.394707 -0.10164314 -36.398579 -24.35615 -123.08537
181828000 -24.437 -130.76064 -0.10214294 -36.594231 -0.10066649 -36.591221 -24.340336 -123.27557
182827000 -24.415056 -131.15498 -0.10216679 -36.792007 -0.10159173 -36.788666 -24.3283 -123.39611
183826000 -24.372663 -131.48087 -0.10277506 -36.988544 -0.10193941 -36.988991 -24.318289 -123.52393
184825000 -24.380266 -131.86964 -0.10259111 -37.187054 -0.10235655 -37.186794 -24.297272 -123.65398
185824000 -24.350496 -132.18509 -0.10265233 -37.380833 -0.10251557 -37.386021 -24.294981 -123.71746
186823000 -24.329145 -132.53719 -0.10288903 -37.583858 -0.1019251 -37.581627 -24.290176 -123.73592
187822000 -24.307741 -132.88927 -0.10337811 -37.778141 -0.10304781 -37.780754 -24.248875 -123.83366
188821000 -24.285479 -133.14859 -0.10326067 -37.972298 -0.10382164 -37.974205 -24.22834 -123.93681
189820000 -24.264816 -133.44716 -0.10366336 -38.172653 -0.10284371 -38.175579 -24.21176 -124.12343
190819000 -24.232405 -133.73343 -0.10385478 -38.372993 -0.10399423 -38.372795 -24.173967 -124.18445
191818000 -24.205185 -134.03006 -0.10404063 -38.567776 -0.10386458 -38.5704 -24.141201 -124.20551
192817000 -24.162411 -134.32675 -0.10448343 -38.762596 -0.10433415 -38.767349 -24.09738 -124.29912
193816000 -24.12775 -134.5769 -0.10441396 -38.961342 -0.10356978 -38.960548 -24.051071 -124.44724
194815000 -24.064684 -134.96771 -0.10527183 -39.158669 -0.10457862 -39.161186 -23.983063 -124.50424
195814000 -24.00827 -135.17957 -0.10604472 -39.355164 -0.10485812 -39.352196 -23.929949 -124.59187
196813000 -23.957865 -135.47636 -0.10553122 -39.550648 -0.1047897 -39.551624 -23.850914 -124.74766
197812000 -23.901115 -135.69868 -0.10578849 -39.748234 -0.10510581 -39.749725 -23.780945 -124.84348
198811000 -23.845526 -135.86559 -0.10592324 -39.942574 -0.1046184 -39.948635 -23.715233 -124.99913
199810000 -23.779072 -136.22049 -0.10587522 -40.136173 -0.105 -40.138554 -23.636602 -125.07904
200809000 -23.718699 -136.47302 -0.10605799 -40.339844 -0.10506285 -40.335163 -23.559599 -125.26586
201808000 -23.661917 -136.688 -0.10684057 -40.537598 -0.10620654 -40.539368 -23.493288 -125.35033
202807000 -23.605753 -137.00845 -0.10759676 -40.73856 -0.10696739 -40.741623 -23.438889 -125.54291
