!Keysight Technologies,E5080B,MY59205177,A.15.75.32
!Date: Friday, February 23, 2024 02:57:02
!Correction: S11(Cdelta 2-Port  ) 
!S21(Cdelta 2-Port  ) 
!S12(Cdelta 2-Port  ) 
!S22(Cdelta 2-Port  ) 
!S2P File: Measurements: S11, S21, S12, S22:
# Hz S  dB   R 50
10000000 -43.957809 -3.626497 -0.028325479 -2.0389357 -0.031846724 -2.0965238 -48.300098 -149.37096
10999000 -43.296284 -5.341825 -0.02989638 -2.2599859 -0.032081157 -2.3131952 -48.084751 -141.59053
11998000 -42.599079 -8.028162 -0.029812973 -2.4827471 -0.031363554 -2.5224013 -48.129929 -136.14975
12997000 -41.916206 -12.360926 -0.029336546 -2.6627662 -0.031471759 -2.697124 -47.486877 -129.823
13996000 -41.714203 -15.642194 -0.028501617 -2.8393915 -0.031575017 -2.8576262 -47.01968 -123.90081
14995000 -41.389362 -19.380678 -0.030386947 -3.0490198 -0.030604096 -3.071322 -46.513504 -120.7935
15994000 -41.290527 -23.129137 -0.031642288 -3.2666299 -0.033428028 -3.2880414 -46.333366 -116.65382
16993000 -41.223515 -27.283646 -0.030455505 -3.4615004 -0.03225771 -3.4748073 -45.431038 -118.01865
17992000 -41.35788 -31.815355 -0.031053029 -3.6627121 -0.033028409 -3.6643279 -44.765587 -118.95402
18991000 -41.631432 -36.170345 -0.03192991 -3.8731194 -0.034184851 -3.8682401 -44.13316 -118.47752
19990000 -41.515511 -40.686745 -0.034380011 -4.0839849 -0.036817923 -4.0770555 -43.36554 -119.93749
20989000 -41.414558 -43.593418 -0.036772758 -4.2840824 -0.038113773 -4.2734237 -42.766327 -119.78077
21988000 -41.377411 -48.36755 -0.036636487 -4.4762454 -0.039204959 -4.4680023 -42.526474 -119.67399
22987000 -41.105019 -52.858047 -0.038804024 -4.6755495 -0.040299814 -4.6699705 -42.23214 -118.80337
23986000 -41.166313 -56.588776 -0.038594563 -4.8717356 -0.039356984 -4.8729062 -42.107235 -119.20638
24985000 -40.809654 -59.310139 -0.038211178 -5.0787044 -0.039463561 -5.0753398 -41.835438 -116.44626
25984000 -40.604961 -61.335545 -0.039646681 -5.2854629 -0.03944423 -5.2903147 -41.540714 -115.424
26983000 -40.313004 -63.303917 -0.040600289 -5.4793563 -0.040271338 -5.5012646 -41.37125 -114.29048
27982000 -40.192078 -64.130753 -0.041836113 -5.6851373 -0.042320449 -5.7164326 -41.029037 -113.21164
28981000 -40.199524 -65.666931 -0.040122155 -5.8832655 -0.041847873 -5.9074745 -40.775463 -112.33639
29980000 -39.828197 -67.230171 -0.040194262 -6.0727668 -0.042725366 -6.0782967 -40.495319 -111.69869
30979000 -39.440536 -66.50135 -0.03829762 -6.4282608 -0.037319977 -6.4206123 -39.951202 -112.5162
31978000 -39.247589 -67.68454 -0.036889452 -6.6234655 -0.038152944 -6.6133332 -39.713551 -111.89364
32977000 -39.081863 -69.104164 -0.037516844 -6.8355694 -0.038088441 -6.8312407 -39.423164 -112.1532
33976000 -38.95282 -70.40316 -0.037653144 -7.0318556 -0.039102305 -7.0271277 -39.123886 -111.63878
34975000 -38.672241 -71.439133 -0.037721556 -7.2319179 -0.040414516 -7.2304025 -38.881855 -111.56758
35974000 -38.485123 -72.105141 -0.036643535 -7.4312034 -0.040148541 -7.432735 -38.582157 -110.82514
36973000 -38.268974 -73.15049 -0.036952112 -7.62957 -0.040547509 -7.6353893 -38.288433 -109.99778
37972000 -38.107224 -72.877739 -0.03715314 -7.8388972 -0.03987135 -7.8482032 -38.027874 -109.34483
38971000 -37.778408 -72.713387 -0.038243562 -8.0385904 -0.041010275 -8.0501823 -37.845284 -107.78185
39970000 -37.455879 -73.175011 -0.035663392 -8.2323065 -0.040169965 -8.2500067 -37.554691 -107.37164
40969000 -37.200203 -73.163795 -0.036710888 -8.4278765 -0.03900044 -8.44802 -37.297104 -105.94067
41968000 -36.834438 -73.240341 -0.036735687 -8.6300974 -0.039756142 -8.6476059 -37.065094 -104.85081
42967000 -36.572247 -73.609901 -0.036020186 -8.8405371 -0.039929084 -8.8612995 -36.864796 -103.22687
43966000 -36.298969 -74.562363 -0.037381593 -9.0482826 -0.041160796 -9.0597162 -36.562191 -102.56982
44965000 -36.072578 -75.377899 -0.038376749 -9.2431059 -0.041760579 -9.2634954 -36.349979 -102.47646
45964000 -35.885418 -76.51635 -0.039168391 -9.443058 -0.042482778 -9.4629965 -36.100323 -102.34682
46963000 -35.692532 -78.632126 -0.03890615 -9.638586 -0.042857386 -9.6570768 -35.915688 -102.72912
47962000 -35.554115 -80.023476 -0.04130923 -9.8392191 -0.044626299 -9.856391 -35.725803 -102.89393
48961000 -35.377548 -81.508133 -0.042537671 -10.037103 -0.046078052 -10.05616 -35.50042 -103.21744
49960000 -35.130917 -82.992928 -0.043368243 -10.235225 -0.046877638 -10.255598 -35.35677 -103.34155
50959000 -34.934097 -84.354851 -0.044695083 -10.448047 -0.048466783 -10.457946 -35.173752 -103.79362
51958000 -34.754017 -85.541061 -0.047036733 -10.647542 -0.04925267 -10.654765 -34.990711 -104.33604
52957000 -34.546631 -86.671799 -0.048492957 -10.844779 -0.051001929 -10.851721 -34.836391 -104.19953
53956000 -34.386509 -87.36956 -0.049529154 -11.048776 -0.051689517 -11.047702 -34.69899 -104.24592
54955000 -34.229923 -87.868141 -0.050839018 -11.247897 -0.052497473 -11.245514 -34.533611 -104.39635
55954000 -34.07692 -88.768349 -0.051025238 -11.450244 -0.05269739 -11.447702 -34.421024 -104.00368
56953000 -33.97427 -88.863029 -0.050750755 -11.646077 -0.050994594 -11.636595 -34.368244 -104.2224
57952000 -33.814392 -89.497292 -0.052142989 -11.842858 -0.053031739 -11.833645 -34.267338 -104.38464
58951000 -33.695305 -89.824074 -0.053374764 -12.049014 -0.053581011 -12.028648 -34.105278 -104.52068
59950000 -33.5854 -90.25824 -0.053495314 -12.246589 -0.053746119 -12.220406 -34.040234 -104.85049
60949000 -33.464554 -90.906242 -0.054778326 -12.452662 -0.054921195 -12.426279 -33.947784 -105.12004
61948000 -33.407204 -91.166466 -0.054438859 -12.649222 -0.054460879 -12.628447 -33.861645 -105.21358
62947000 -33.329769 -91.427948 -0.054848056 -12.857194 -0.055827819 -12.837313 -33.717587 -105.4563
63946000 -33.263035 -92.081314 -0.055560112 -13.056417 -0.056402355 -13.037251 -33.616974 -105.6712
64945000 -33.156441 -92.335884 -0.05622115 -13.258606 -0.05725342 -13.240908 -33.504841 -106.18184
65944000 -33.055347 -92.651558 -0.057260767 -13.455622 -0.057348371 -13.440618 -33.418751 -106.60994
66943000 -32.919273 -93.077553 -0.055006396 -13.657764 -0.055679675 -13.642262 -33.313889 -106.96213
67942000 -32.858723 -93.043709 -0.056572556 -13.853186 -0.057620913 -13.840504 -33.184467 -107.26005
68941000 -32.740917 -93.139442 -0.056420978 -14.047804 -0.056268614 -14.034847 -33.078323 -107.20071
69940000 -32.642986 -93.07753 -0.056919008 -14.24645 -0.057284635 -14.237839 -32.949577 -107.49381
70939000 -32.546436 -93.10614 -0.056748532 -14.445543 -0.057020508 -14.433143 -32.804947 -107.48142
71938000 -32.402382 -92.730774 -0.056797575 -14.635516 -0.056920845 -14.630226 -32.68578 -107.33202
72937000 -32.250286 -92.549683 -0.055518162 -14.837646 -0.056912713 -14.832075 -32.539505 -107.0639
73936000 -32.105869 -92.246071 -0.0561257 -15.030759 -0.055472016 -15.026987 -32.422455 -106.87135
74935000 -31.975996 -92.518272 -0.055220325 -15.232739 -0.055149801 -15.22398 -32.26342 -106.5383
75934000 -31.854929 -92.832397 -0.055882096 -15.443099 -0.055400703 -15.434829 -32.181244 -106.505
76933000 -31.720957 -93.223785 -0.056904845 -15.632527 -0.05675194 -15.624261 -32.008957 -106.87753
77932000 -31.635643 -94.015068 -0.057575792 -15.828641 -0.058259964 -15.822955 -31.919933 -106.93787
78931000 -31.559998 -94.834137 -0.056502271 -16.026758 -0.057637438 -16.022442 -31.818008 -106.78076
79930000 -31.455961 -95.659096 -0.059227899 -16.221161 -0.060266659 -16.216909 -31.714792 -107.15259
80929000 -31.336277 -96.56102 -0.060611304 -16.41515 -0.06097278 -16.412085 -31.617495 -107.51936
81928000 -31.253641 -97.390396 -0.060343567 -16.608898 -0.062154803 -16.604994 -31.498861 -107.61696
82927000 -31.162498 -98.109436 -0.062076028 -16.806675 -0.062950529 -16.802052 -31.400377 -107.94774
83926000 -31.052969 -98.868217 -0.063547283 -17.00815 -0.064001739 -17.001841 -31.275055 -108.15268
84925000 -30.949175 -99.360123 -0.064638577 -17.20348 -0.063574076 -17.197662 -31.17668 -108.30731
85924000 -30.870825 -99.823402 -0.06548363 -17.404339 -0.065225579 -17.39953 -31.104305 -108.21056
86923000 -30.760605 -100.39203 -0.065492302 -17.602198 -0.065660231 -17.593651 -31.004286 -108.16388
87922000 -30.653585 -100.71171 -0.065069228 -17.806267 -0.065406375 -17.797144 -30.914749 -108.21853
88921000 -30.587591 -101.01697 -0.066395879 -18.005182 -0.06682881 -18.000137 -30.822077 -108.24939
89920000 -30.490349 -101.61507 -0.067360111 -18.202999 -0.066698432 -18.196421 -30.773479 -108.38888
90919000 -30.386719 -101.91875 -0.068408445 -18.397472 -0.066753104 -18.392771 -30.681591 -108.56377
91918000 -30.302841 -102.2983 -0.069104843 -18.593155 -0.068086058 -18.591948 -30.627604 -108.5865
92917000 -30.2171 -102.66549 -0.069751635 -18.796741 -0.068555444 -18.789976 -30.556564 -108.76832
93916000 -30.130587 -103.04696 -0.069405213 -18.985811 -0.069134302 -18.986542 -30.471243 -109.37959
94915000 -30.053909 -103.69966 -0.070942894 -19.19249 -0.069916576 -19.183985 -30.400431 -109.27252
95914000 -29.989277 -103.92159 -0.071797073 -19.385458 -0.071222074 -19.382318 -30.32296 -109.51703
96913000 -29.90682 -104.13504 -0.07308998 -19.586699 -0.072121322 -19.580194 -30.257156 -109.95068
97912000 -29.835575 -104.62096 -0.074021205 -19.778917 -0.07239347 -19.781073 -30.176727 -110.17853
98911000 -29.727295 -104.83873 -0.074528106 -19.982901 -0.073493041 -19.981146 -30.141926 -110.30949
99910000 -29.66983 -104.9721 -0.075494938 -20.180841 -0.073875867 -20.179213 -30.028988 -110.66438
100909000 -29.574814 -105.24252 -0.074593678 -20.388447 -0.073074453 -20.381605 -29.940985 -110.83759
101908000 -29.489582 -105.51522 -0.075938262 -20.588442 -0.074310333 -20.58429 -29.827515 -110.60886
102907000 -29.357817 -105.51435 -0.075801283 -20.785467 -0.074376956 -20.785883 -29.752016 -110.60623
103906000 -29.264826 -105.57957 -0.076829523 -20.994143 -0.074043587 -20.985476 -29.61274 -110.53732
104905000 -29.121006 -105.49548 -0.077043474 -21.190924 -0.075001881 -21.189833 -29.480501 -110.21309
105904000 -28.978823 -105.62789 -0.077317782 -21.392752 -0.074324027 -21.385384 -29.366961 -110.11209
106903000 -28.867655 -105.71758 -0.076635078 -21.597347 -0.074821219 -21.592344 -29.231016 -109.97736
107902000 -28.710934 -106.08902 -0.077924155 -21.797844 -0.07605733 -21.788208 -29.09367 -109.90307
108901000 -28.596741 -106.31857 -0.079426631 -21.998522 -0.07717865 -21.992804 -28.962708 -109.87189
109900000 -28.470686 -106.79011 -0.080056503 -22.198177 -0.078195088 -22.189676 -28.816757 -109.99973
110899000 -28.356066 -107.46526 -0.081493251 -22.395601 -0.079102367 -22.387444 -28.689274 -110.27803
111898000 -28.258413 -108.1706 -0.082410976 -22.595745 -0.080170147 -22.589329 -28.564594 -110.45317
112897000 -28.133968 -108.75385 -0.083629198 -22.79788 -0.081217624 -22.785622 -28.440937 -110.66109
113896000 -28.033495 -109.34701 -0.085216537 -22.99748 -0.082428917 -22.983721 -28.320526 -110.77966
114895000 -27.929968 -109.99947 -0.086272098 -23.194262 -0.084215075 -23.181049 -28.20956 -110.89505
115894000 -27.807117 -110.38583 -0.087254748 -23.394531 -0.085113846 -23.382959 -28.14469 -111.09582
116893000 -27.722729 -110.93005 -0.087154388 -23.592777 -0.085702308 -23.572023 -28.019365 -111.26504
117892000 -27.640123 -111.47927 -0.087508835 -23.787685 -0.086632282 -23.771286 -27.941923 -111.46064
118891000 -27.58157 -111.82488 -0.088489391 -23.985167 -0.08660455 -23.970949 -27.843531 -111.56489
119890000 -27.493633 -112.2459 -0.088985033 -24.186432 -0.087818667 -24.170954 -27.83769 -111.77589
120889000 -27.444572 -112.73787 -0.090288617 -24.386496 -0.087546341 -24.372272 -27.758104 -111.69173
121888000 -27.397642 -113.07496 -0.090220168 -24.581972 -0.088033952 -24.571974 -27.698626 -112.03374
122887000 -27.359396 -113.27108 -0.091453537 -24.788805 -0.088678814 -24.771927 -27.650808 -112.01974
123886000 -27.298143 -113.70171 -0.091623262 -24.990826 -0.08899904 -24.970758 -27.633156 -112.23649
124885000 -27.263466 -114.18711 -0.091477327 -25.188457 -0.089825861 -25.171595 -27.606623 -112.30317
125884000 -27.212284 -114.37493 -0.092950121 -25.386616 -0.089235783 -25.36735 -27.576784 -112.44951
126883000 -27.196344 -114.78357 -0.093251348 -25.586916 -0.090242364 -25.569525 -27.532938 -112.50214
127882000 -27.141602 -115.07783 -0.093759969 -25.78536 -0.091583073 -25.768728 -27.498602 -112.63143
128881000 -27.11454 -115.38744 -0.093448654 -25.989899 -0.090869583 -25.972454 -27.450083 -112.82063
129880000 -27.056343 -115.72835 -0.094281346 -26.188663 -0.091097705 -26.169964 -27.409163 -112.76778
130879000 -26.993666 -115.86218 -0.093616605 -26.38744 -0.09196908 -26.37034 -27.329147 -112.8491
131878000 -26.931782 -116.11457 -0.094306476 -26.590275 -0.092509285 -26.571268 -27.263638 -112.71497
132877000 -26.863392 -116.16731 -0.093544401 -26.791208 -0.092665039 -26.774874 -27.180269 -112.7281
133876000 -26.777132 -116.33798 -0.094208069 -26.991947 -0.091886587 -26.968521 -27.086061 -112.62302
134875000 -26.683472 -116.43843 -0.094552778 -27.190798 -0.092965454 -27.173323 -26.989725 -112.50127
135874000 -26.597038 -116.45947 -0.094307534 -27.389305 -0.092709728 -27.376785 -26.882866 -112.48452
136873000 -26.486288 -116.42566 -0.094367586 -27.5954 -0.092362791 -27.577425 -26.800257 -112.45437
137872000 -26.40873 -116.54685 -0.095013656 -27.792686 -0.092355125 -27.77939 -26.692904 -112.44149
138871000 -26.336763 -116.71996 -0.095174789 -27.993992 -0.092782982 -27.980328 -26.593523 -112.57912
139870000 -26.236971 -116.96776 -0.095980294 -28.197809 -0.094527639 -28.177095 -26.518259 -112.74113
140869000 -26.143614 -117.46626 -0.097978815 -28.386541 -0.094877928 -28.371216 -26.4077 -112.89303
141868000 -26.053154 -117.95586 -0.097729944 -28.583258 -0.096223243 -28.570122 -26.339472 -113.2749
142867000 -25.972704 -118.22111 -0.096251301 -28.779839 -0.095066838 -28.765244 -26.265062 -113.42903
143866000 -25.90641 -118.71316 -0.098277748 -28.976978 -0.096489765 -28.961996 -26.189638 -113.93318
144865000 -25.852991 -119.22996 -0.099993892 -29.177963 -0.097944401 -29.160151 -26.13059 -114.22463
145864000 -25.794777 -119.56049 -0.10023759 -29.376303 -0.098891564 -29.363171 -26.101858 -114.49905
146863000 -25.748095 -119.93058 -0.10098548 -29.575369 -0.099516325 -29.562691 -26.052765 -114.8605
147862000 -25.715736 -120.28679 -0.1021106 -29.772385 -0.099184468 -29.75909 -26.019463 -115.16475
148861000 -25.684923 -120.83846 -0.10168209 -29.969194 -0.10012766 -29.955851 -25.98963 -115.4242
149860000 -25.668699 -121.03165 -0.1027239 -30.168373 -0.10049641 -30.157143 -25.958075 -115.57038
150859000 -25.650576 -121.43645 -0.10323257 -30.368603 -0.10082572 -30.35763 -25.954119 -115.83554
151858000 -25.632185 -121.72459 -0.10324344 -30.567125 -0.10160604 -30.550367 -25.94552 -116.13605
152857000 -25.613552 -122.04451 -0.10316604 -30.766861 -0.10145421 -30.752077 -25.929375 -116.26272
153856000 -25.608633 -122.24258 -0.10340992 -30.963764 -0.10097807 -30.950623 -25.945667 -116.55105
154855000 -25.601021 -122.40606 -0.10374607 -31.163038 -0.10101834 -31.150345 -25.934195 -116.74873
155854000 -25.614174 -122.71822 -0.10407086 -31.36137 -0.10175443 -31.348616 -25.923214 -117.04831
156853000 -25.597799 -123.40717 -0.10170674 -31.546551 -0.1011895 -31.538572 -25.925497 -117.32611
157852000 -25.605839 -123.61029 -0.10283496 -31.749302 -0.1023311 -31.738821 -25.910875 -117.68105
158851000 -25.596529 -123.85458 -0.10399847 -31.9478 -0.10259297 -31.93915 -25.896933 -117.92728
159850000 -25.582726 -123.9802 -0.10475443 -32.146461 -0.10292747 -32.136005 -25.895693 -118.09518
160849000 -25.565098 -124.09444 -0.10442138 -32.345795 -0.10367741 -32.341179 -25.86495 -118.35823
161848000 -25.545124 -124.21333 -0.10512596 -32.542969 -0.10376278 -32.537449 -25.829178 -118.47205
162847000 -25.503944 -124.38161 -0.10484301 -32.741787 -0.10467435 -32.740067 -25.799778 -118.74833
163846000 -25.46002 -124.6067 -0.10495863 -32.945709 -0.10390966 -32.933891 -25.71916 -118.71337
164845000 -25.40169 -124.6144 -0.10609141 -33.142353 -0.10477644 -33.137257 -25.649233 -118.86372
165844000 -25.350842 -124.67599 -0.10475045 -33.343941 -0.10522728 -33.331596 -25.571821 -118.98653
166843000 -25.288364 -124.76812 -0.10499018 -33.540966 -0.10481463 -33.53616 -25.505737 -119.15451
167842000 -25.224899 -124.90192 -0.10589194 -33.737419 -0.10494245 -33.733379 -25.420633 -119.04893
168841000 -25.1478 -125.1113 -0.10628214 -33.94009 -0.10542141 -33.93124 -25.342194 -119.15206
169840000 -25.081768 -125.36626 -0.10624474 -34.132187 -0.10578292 -34.126678 -25.255217 -119.31704
170839000 -25.021856 -125.60588 -0.10697747 -34.330341 -0.10645112 -34.324562 -25.16489 -119.5351
171838000 -24.961187 -126.06714 -0.10673817 -34.530342 -0.10701143 -34.520874 -25.102472 -119.77989
172837000 -24.892929 -126.40968 -0.10840882 -34.723167 -0.10795209 -34.720741 -25.039309 -120.00969
173836000 -24.824427 -126.86852 -0.10933172 -34.924938 -0.10894815 -34.91946 -24.991207 -120.22334
174835000 -24.776129 -127.27505 -0.10949578 -35.117836 -0.10987276 -35.117462 -24.946011 -120.61851
175834000 -24.729057 -127.67853 -0.11026225 -35.317799 -0.11053521 -35.31216 -24.887293 -120.89529
176833000 -24.668736 -128.04568 -0.11096593 -35.513397 -0.11095902 -35.511917 -24.829174 -121.04298
177832000 -24.632992 -128.54607 -0.11149947 -35.710377 -0.11119804 -35.71151 -24.806667 -121.24247
178831000 -24.586342 -128.88242 -0.11200333 -35.909359 -0.1117579 -35.903271 -24.770033 -121.46254
179830000 -24.55253 -129.3062 -0.11268762 -36.105095 -0.11186361 -36.107983 -24.744352 -121.58078
180829000 -24.51062 -129.5383 -0.11303805 -36.30526 -0.11259624 -36.302937 -24.715029 -121.77486
181828000 -24.487104 -129.89447 -0.11295914 -36.499821 -0.1129966 -36.495079 -24.697645 -121.89615
182827000 -24.46525 -130.2323 -0.11305054 -36.689842 -0.11394706 -36.690887 -24.689264 -121.98817
183826000 -24.422514 -130.58258 -0.11471538 -36.888187 -0.11315628 -36.891609 -24.676998 -122.09303
184825000 -24.422998 -130.8853 -0.11455245 -37.087494 -0.11362233 -37.086212 -24.657728 -122.20247
185824000 -24.401525 -131.24353 -0.11415327 -37.281384 -0.11409162 -37.286221 -24.653709 -122.27425
186823000 -24.386728 -131.58553 -0.11469252 -37.482346 -0.11426941 -37.479538 -24.654066 -122.24296
187822000 -24.362207 -131.9106 -0.11532435 -37.676929 -0.11446182 -37.67831 -24.620115 -122.34512
188821000 -24.343586 -132.16644 -0.11480017 -37.871956 -0.1147308 -37.876968 -24.60536 -122.41684
189820000 -24.328568 -132.43489 -0.11506119 -38.075172 -0.11514412 -38.075554 -24.589607 -122.54582
190819000 -24.298964 -132.67345 -0.11643139 -38.271511 -0.11594057 -38.272861 -24.556627 -122.49992
191818000 -24.261883 -132.82957 -0.11787649 -38.466846 -0.11742275 -38.465752 -24.529957 -122.39188
192817000 -24.191771 -133.10295 -0.11851356 -38.65237 -0.11809247 -38.652473 -24.45693 -122.48318
193816000 -24.154121 -133.47389 -0.11726637 -38.846664 -0.11682545 -38.845634 -24.398296 -122.75081
194815000 -24.095646 -133.9258 -0.11749429 -39.04026 -0.11748073 -39.042412 -24.336071 -122.85232
195814000 -24.045656 -134.14056 -0.11753046 -39.23959 -0.11725014 -39.241932 -24.280348 -122.97859
196813000 -23.990608 -134.48277 -0.11764935 -39.43671 -0.11720627 -39.434631 -24.206158 -123.15005
197812000 -23.934599 -134.68794 -0.11816721 -39.630638 -0.11800469 -39.631725 -24.135851 -123.22434
198811000 -23.883112 -134.88979 -0.11761051 -39.831463 -0.11660927 -39.83218 -24.066179 -123.41443
199810000 -23.814203 -135.24825 -0.118122 -40.022381 -0.11687811 -40.022327 -23.988297 -123.53027
200809000 -23.755602 -135.55853 -0.11802704 -40.218674 -0.1173552 -40.220394 -23.90867 -123.72137
201808000 -23.697721 -135.76079 -0.11926993 -40.422096 -0.11901052 -40.422413 -23.839506 -123.78989
202807000 -23.642776 -136.14149 -0.11951338 -40.622013 -0.11963099 -40.623051 -23.783833 -123.98418
203806000 -23.587492 -136.56046 -0.12137822 -40.819965 -0.11964855 -40.824203 -23.72266 -124.16802
