!Keysight Technologies,E5080B,MY59205177,A.15.75.32
!Date: Friday, February 23, 2024 02:57:08
!Correction: S11(Cdelta 2-Port  ) 
!S21(Cdelta 2-Port  ) 
!S12(Cdelta 2-Port  ) 
!S22(Cdelta 2-Port  ) 
!S2P File: Measurements: S11, S21, S12, S22:
# Hz S  dB   R 50
10000000 -43.973305 -3.9551947 -0.028518293 -2.044765 -0.031953901 -2.0964777 -48.309925 -149.48309
10999000 -43.342636 -5.4062333 -0.030041043 -2.2575133 -0.031768497 -2.3128805 -48.041168 -141.31023
11998000 -42.601852 -7.8363733 -0.030530062 -2.4825938 -0.031366944 -2.5249019 -48.185886 -136.46527
12997000 -41.960979 -12.478001 -0.029541913 -2.6580327 -0.031140892 -2.6941559 -47.451294 -129.54004
13996000 -41.708115 -15.826021 -0.028784599 -2.8398182 -0.030982375 -2.8589444 -46.991966 -123.74522
14995000 -41.408524 -19.226915 -0.030261563 -3.0512595 -0.031290289 -3.0756083 -46.575291 -120.62382
15994000 -41.307137 -23.154341 -0.032033958 -3.2670565 -0.033760898 -3.2892776 -46.295887 -116.91459
16993000 -41.289387 -26.945089 -0.030803008 -3.4619348 -0.032954596 -3.4741385 -45.410828 -117.911
17992000 -41.356949 -31.643566 -0.031153666 -3.6634054 -0.032835137 -3.6653984 -44.790199 -118.90192
18991000 -41.592854 -36.024891 -0.032056645 -3.8727229 -0.034038223 -3.8668058 -44.060287 -118.481
19990000 -41.520702 -40.932205 -0.034336962 -4.0790014 -0.03602149 -4.0764279 -43.420452 -120.18186
20989000 -41.424885 -43.642105 -0.036563653 -4.2831092 -0.038059194 -4.2743702 -42.772202 -119.81985
21988000 -41.35746 -48.627995 -0.037969887 -4.4774351 -0.038516734 -4.4691982 -42.487614 -119.5383
22987000 -41.162334 -52.792629 -0.03850707 -4.6770291 -0.039554469 -4.6688447 -42.201405 -119.22833
23986000 -41.150757 -56.620308 -0.038997043 -4.8744049 -0.038467634 -4.8709364 -42.059853 -119.39861
24985000 -40.8498 -59.257343 -0.04011327 -5.082449 -0.039415497 -5.0811496 -41.852116 -116.49783
25984000 -40.608948 -61.62883 -0.040151414 -5.2904758 -0.0393131 -5.288722 -41.505253 -115.1629
26983000 -40.339489 -63.114342 -0.041613694 -5.4834452 -0.040351026 -5.5027866 -41.371452 -114.4481
27982000 -40.168243 -64.336937 -0.042699486 -5.6859059 -0.04186251 -5.7185616 -41.047157 -113.15185
28981000 -40.173977 -65.750504 -0.040617798 -5.8778391 -0.04160507 -5.9031796 -40.748013 -112.45939
29980000 -39.802692 -67.225853 -0.040845126 -6.0736065 -0.042277057 -6.0826616 -40.497257 -111.75488
30979000 -39.443829 -66.585945 -0.038840592 -6.4306593 -0.037965707 -6.4190083 -39.944668 -112.63601
31978000 -39.254868 -67.723221 -0.037106145 -6.6188703 -0.038102806 -6.6113906 -39.710052 -111.95467
32977000 -39.093685 -69.25473 -0.037362535 -6.8348165 -0.039017677 -6.8288889 -39.466446 -112.20203
33976000 -38.982128 -70.529488 -0.038179059 -7.034193 -0.038723841 -7.0278945 -39.097042 -111.78162
34975000 -38.697632 -71.553482 -0.038184542 -7.2322755 -0.040308699 -7.2350368 -38.893349 -111.57344
35974000 -38.484554 -72.095657 -0.037174288 -7.4285402 -0.039502222 -7.4333324 -38.586296 -110.7599
36973000 -38.245735 -73.089272 -0.037813209 -7.6268215 -0.039649032 -7.6317854 -38.278633 -109.91322
37972000 -38.103264 -73.011887 -0.037329376 -7.8375072 -0.040663 -7.8483973 -38.046715 -109.41864
38971000 -37.776321 -72.754478 -0.037851073 -8.0351019 -0.040327251 -8.0477324 -37.85854 -107.94329
39970000 -37.465286 -73.330521 -0.036548775 -8.2340174 -0.039459903 -8.2472506 -37.561058 -107.39303
40969000 -37.157734 -73.137199 -0.036779806 -8.4246988 -0.038631648 -8.4439211 -37.294537 -106.15224
41968000 -36.812649 -73.351524 -0.036966469 -8.6301727 -0.038733244 -8.6476097 -37.087284 -105.01269
42967000 -36.581455 -73.545929 -0.037380029 -8.8405151 -0.039615072 -8.8615808 -36.847157 -103.12969
43966000 -36.310928 -74.411583 -0.037816603 -9.0402164 -0.041058358 -9.0634298 -36.564892 -102.62849
44965000 -36.083408 -75.405609 -0.038289785 -9.2422953 -0.041046858 -9.2658386 -36.351906 -102.54524
45964000 -35.881397 -76.519051 -0.039688218 -9.4450493 -0.042441215 -9.4625359 -36.098526 -102.29144
46963000 -35.707722 -78.546524 -0.039196078 -9.6363783 -0.04239599 -9.6548128 -35.927837 -102.72511
47962000 -35.541355 -80.018532 -0.041329876 -9.8385782 -0.044036318 -9.8506269 -35.718624 -103.0226
48961000 -35.359085 -81.58287 -0.043026272 -10.03709 -0.045518741 -10.056358 -35.482151 -103.27384
49960000 -35.159584 -82.927002 -0.044294424 -10.233965 -0.046182439 -10.257141 -35.340622 -103.36021
50959000 -34.942635 -84.405632 -0.044444799 -10.449358 -0.048217591 -10.456162 -35.176357 -103.85822
51958000 -34.757648 -85.50235 -0.04691872 -10.647742 -0.048684839 -10.656473 -34.990501 -104.35411
52957000 -34.55505 -86.568535 -0.048504736 -10.847514 -0.050591521 -10.853646 -34.829334 -104.17288
53956000 -34.401966 -87.361778 -0.049295347 -11.046091 -0.051649697 -11.048516 -34.69862 -104.33945
54955000 -34.233574 -87.921417 -0.05011595 -11.249291 -0.052168403 -11.24402 -34.546646 -104.28673
55954000 -34.075165 -88.878342 -0.051800851 -11.448727 -0.052623764 -11.444418 -34.436123 -104.09074
56953000 -33.9673 -88.855782 -0.05070335 -11.646913 -0.051268566 -11.636523 -34.357319 -104.32905
57952000 -33.809914 -89.545761 -0.051771246 -11.843875 -0.052626122 -11.8307 -34.270592 -104.43399
58951000 -33.689884 -89.809265 -0.052772064 -12.049122 -0.053642858 -12.028299 -34.106033 -104.61469
59950000 -33.577175 -90.302292 -0.053892627 -12.247967 -0.054718032 -12.22831 -34.051392 -104.8614
60949000 -33.467514 -90.926567 -0.054151844 -12.450391 -0.054549217 -12.424775 -33.949455 -105.17518
61948000 -33.395931 -91.143265 -0.054736905 -12.65094 -0.054048836 -12.627426 -33.856621 -105.26796
62947000 -33.325867 -91.355904 -0.054588534 -12.858066 -0.055534154 -12.83979 -33.71603 -105.47121
63946000 -33.256721 -92.116447 -0.055649258 -13.061853 -0.0558897 -13.037961 -33.598022 -105.67339
64945000 -33.153721 -92.336227 -0.056677461 -13.257078 -0.057229813 -13.237635 -33.502274 -106.29115
65944000 -33.051128 -92.622849 -0.057000313 -13.459148 -0.057109684 -13.442128 -33.421844 -106.67712
66943000 -32.916279 -93.009651 -0.054590371 -13.659763 -0.055228453 -13.642163 -33.311119 -106.95896
67942000 -32.858284 -93.039001 -0.056767415 -13.85517 -0.057260241 -13.843738 -33.192432 -107.32937
68941000 -32.745342 -93.122208 -0.056850817 -14.046852 -0.056132779 -14.037238 -33.081203 -107.22658
69940000 -32.648434 -93.105576 -0.05723637 -14.247369 -0.057363585 -14.237816 -32.941505 -107.57469
70939000 -32.540562 -93.110527 -0.057101816 -14.442766 -0.056884125 -14.436986 -32.809872 -107.52186
71938000 -32.409187 -92.735901 -0.056768466 -14.64266 -0.05699743 -14.633678 -32.678959 -107.32728
72937000 -32.235596 -92.574669 -0.056151398 -14.838574 -0.056595109 -14.83182 -32.537136 -107.08366
73936000 -32.099949 -92.336838 -0.0564611 -15.036246 -0.05517156 -15.027902 -32.422882 -106.92241
74935000 -31.976526 -92.564476 -0.055534154 -15.229217 -0.055199612 -15.227041 -32.2733 -106.58106
75934000 -31.85117 -92.863861 -0.055827033 -15.438375 -0.054831017 -15.432705 -32.181248 -106.5118
76933000 -31.730324 -93.209679 -0.057206731 -15.633098 -0.056160312 -15.62727 -32.003048 -106.94764
77932000 -31.63191 -94.045288 -0.057382472 -15.829153 -0.057970595 -15.827079 -31.91349 -106.8963
78931000 -31.561722 -94.813156 -0.056552362 -16.030006 -0.056522992 -16.024406 -31.814972 -106.82719
79930000 -31.451035 -95.654114 -0.059349399 -16.219833 -0.060110752 -16.218071 -31.721655 -107.10626
80929000 -31.339212 -96.522888 -0.061417513 -16.417549 -0.060957555 -16.411726 -31.614941 -107.49717
81928000 -31.255163 -97.478592 -0.06092789 -16.607822 -0.061731789 -16.603271 -31.495163 -107.58701
82927000 -31.159883 -98.168213 -0.062479116 -16.807222 -0.062826298 -16.803455 -31.382969 -107.93766
83926000 -31.050949 -98.953896 -0.064126 -17.00491 -0.063594043 -17.005327 -31.278355 -108.20076
84925000 -30.948338 -99.413857 -0.064783081 -17.203524 -0.06442786 -17.197254 -31.186443 -108.19631
85924000 -30.865446 -99.845268 -0.065537505 -17.403551 -0.065693609 -17.401886 -31.099766 -108.26952
86923000 -30.763203 -100.34635 -0.065495983 -17.597271 -0.06569019 -17.596239 -31.01343 -108.1991
87922000 -30.651823 -100.73121 -0.065788485 -17.807419 -0.065366164 -17.798515 -30.920767 -108.23904
88921000 -30.582853 -101.04524 -0.066168785 -18.005194 -0.066270769 -17.994595 -30.820337 -108.24118
89920000 -30.483889 -101.66952 -0.067446083 -18.200855 -0.067343287 -18.193388 -30.768921 -108.43721
90919000 -30.388256 -101.99919 -0.067879118 -18.40251 -0.067671932 -18.393219 -30.674032 -108.5929
91918000 -30.293425 -102.3419 -0.069030672 -18.598167 -0.067621715 -18.5958 -30.623598 -108.69067
92917000 -30.2087 -102.68285 -0.069936305 -18.796719 -0.06896361 -18.793724 -30.545938 -108.76035
93916000 -30.126822 -103.09254 -0.069099851 -18.992088 -0.068700351 -18.984005 -30.472132 -109.41703
94915000 -30.056494 -103.67821 -0.07096342 -19.19165 -0.070128344 -19.184505 -30.406237 -109.31396
95914000 -29.987267 -103.93076 -0.071673647 -19.385487 -0.070911057 -19.380768 -30.318295 -109.61327
96913000 -29.908897 -104.16829 -0.073175803 -19.586012 -0.071869716 -19.583523 -30.250896 -109.92002
97912000 -29.828968 -104.69543 -0.074348778 -19.78212 -0.072420582 -19.778465 -30.174936 -110.15623
98911000 -29.732513 -104.81924 -0.074392229 -19.983345 -0.073388256 -19.980261 -30.131058 -110.38052
99910000 -29.662745 -105.0087 -0.075358763 -20.182043 -0.073409587 -20.179653 -30.028042 -110.67415
100909000 -29.576954 -105.28517 -0.074403554 -20.38763 -0.072903864 -20.382545 -29.939236 -110.89144
101908000 -29.488361 -105.5321 -0.07624121 -20.588806 -0.074475706 -20.582577 -29.824163 -110.6599
102907000 -29.358816 -105.49192 -0.076911204 -20.789217 -0.074448057 -20.784578 -29.755346 -110.54824
103906000 -29.266106 -105.62032 -0.076787367 -20.992237 -0.073382206 -20.988445 -29.607109 -110.54305
104905000 -29.111691 -105.52619 -0.077259019 -21.187685 -0.074234232 -21.19309 -29.480394 -110.23856
105904000 -28.975927 -105.60769 -0.078011915 -21.392668 -0.074694015 -21.389633 -29.362814 -110.11787
106903000 -28.866974 -105.74526 -0.077492751 -21.602171 -0.074890219 -21.588669 -29.22559 -109.98099
107902000 -28.706743 -106.08694 -0.078051187 -21.799692 -0.07538642 -21.789089 -29.096848 -109.96365
108901000 -28.592085 -106.36795 -0.079282686 -21.997494 -0.076564468 -21.988752 -28.953709 -109.91203
109900000 -28.46508 -106.82671 -0.080134816 -22.197531 -0.077738099 -22.186783 -28.809551 -110.00941
110899000 -28.350695 -107.49075 -0.080933578 -22.397337 -0.078138158 -22.388266 -28.687853 -110.31586
111898000 -28.265703 -108.1755 -0.082928091 -22.597042 -0.07923945 -22.592411 -28.567308 -110.47256
112897000 -28.137543 -108.78665 -0.084699944 -22.795891 -0.080796704 -22.784428 -28.438492 -110.67361
113896000 -28.036491 -109.3449 -0.084895805 -22.995014 -0.082050614 -22.984341 -28.325321 -110.78367
114895000 -27.939022 -109.97695 -0.085860193 -23.193319 -0.083418615 -23.183369 -28.210583 -110.96098
115894000 -27.80599 -110.36317 -0.087375186 -23.393066 -0.085193835 -23.384825 -28.140154 -111.11633
116893000 -27.728073 -110.95531 -0.088438138 -23.587841 -0.085606202 -23.570114 -28.016069 -111.20914
117892000 -27.642242 -111.4173 -0.087750778 -23.785376 -0.086231165 -23.773666 -27.942934 -111.47041
118891000 -27.58493 -111.87701 -0.088410661 -23.989231 -0.086705431 -23.971388 -27.843988 -111.59544
119890000 -27.496187 -112.2945 -0.089241333 -24.188669 -0.086442411 -24.172337 -27.831192 -111.75153
120889000 -27.439114 -112.73013 -0.090229154 -24.38706 -0.08668483 -24.378845 -27.754002 -111.72881
121888000 -27.399879 -113.1038 -0.090373196 -24.582747 -0.087315761 -24.572969 -27.701611 -112.02032
122887000 -27.358776 -113.31689 -0.091260023 -24.78433 -0.087850362 -24.771456 -27.651941 -112.08162
123886000 -27.302675 -113.7387 -0.092172146 -24.990068 -0.088839717 -24.964804 -27.630714 -112.26824
124885000 -27.269354 -114.22879 -0.092237718 -25.184385 -0.089591987 -25.173975 -27.608957 -112.32015
125884000 -27.214973 -114.41259 -0.093060665 -25.387325 -0.089049503 -25.372921 -27.57206 -112.50571
126883000 -27.195929 -114.78435 -0.093706541 -25.588224 -0.089962222 -25.571413 -27.527864 -112.53651
127882000 -27.139656 -115.08761 -0.093791708 -25.786491 -0.090711512 -25.768713 -27.493704 -112.70932
128881000 -27.112061 -115.43088 -0.093703896 -25.986084 -0.090168364 -25.969614 -27.44993 -112.82857
129880000 -27.058676 -115.73721 -0.094603039 -26.189659 -0.090448521 -26.170666 -27.403257 -112.786
130879000 -26.992098 -115.86317 -0.094043531 -26.389347 -0.091461733 -26.370218 -27.333839 -112.85616
131878000 -26.926441 -116.12685 -0.094718128 -26.593309 -0.091959298 -26.571575 -27.263428 -112.74574
132877000 -26.862396 -116.18204 -0.093919732 -26.794279 -0.092174262 -26.774031 -27.179089 -112.76254
133876000 -26.775175 -116.35011 -0.094773419 -26.992785 -0.091608457 -26.974068 -27.089457 -112.65196
134875000 -26.677645 -116.47099 -0.094319709 -27.193945 -0.09257143 -27.168901 -26.983358 -112.54469
135874000 -26.593882 -116.47578 -0.094576582 -27.391062 -0.092881888 -27.374899 -26.882572 -112.46578
136873000 -26.488014 -116.43178 -0.095413461 -27.593061 -0.092227407 -27.578964 -26.801291 -112.46597
137872000 -26.406822 -116.54411 -0.095661938 -27.79637 -0.092056073 -27.780737 -26.69335 -112.39506
138871000 -26.334921 -116.76504 -0.096165024 -27.997776 -0.092851475 -27.975676 -26.592422 -112.60559
139870000 -26.237513 -116.97983 -0.097023651 -28.19397 -0.094572879 -28.176891 -26.514517 -112.73797
140869000 -26.144989 -117.4471 -0.09865085 -28.390713 -0.095279306 -28.369188 -26.413046 -112.88087
141868000 -26.056849 -117.97477 -0.098581202 -28.583099 -0.095877618 -28.56744 -26.337137 -113.23119
142867000 -25.977642 -118.22993 -0.096470974 -28.780737 -0.095193841 -28.764969 -26.265684 -113.41656
143866000 -25.910721 -118.72701 -0.098601595 -28.976715 -0.096051753 -28.96133 -26.185722 -113.94275
144865000 -25.85141 -119.24795 -0.1000964 -29.173927 -0.098452508 -29.161684 -26.140581 -114.26273
145864000 -25.796394 -119.58608 -0.10025243 -29.375685 -0.098972864 -29.365944 -26.095757 -114.54459
146863000 -25.753635 -119.95354 -0.10158299 -29.576967 -0.099510498 -29.566103 -26.050541 -114.82018
147862000 -25.711374 -120.32422 -0.10165983 -29.772497 -0.099943295 -29.758223 -26.014685 -115.19012
148861000 -25.680456 -120.85596 -0.10191131 -29.970673 -0.10073379 -29.953302 -25.989433 -115.43555
149860000 -25.6651 -121.06538 -0.10264385 -30.168837 -0.10109147 -30.158636 -25.965187 -115.57695
150859000 -25.648937 -121.39404 -0.10301812 -30.370054 -0.10089037 -30.357115 -25.956099 -115.83118
151858000 -25.631773 -121.71337 -0.10266215 -30.570948 -0.10102761 -30.552872 -25.946892 -116.10807
152857000 -25.613165 -122.08232 -0.10359814 -30.764101 -0.10101251 -30.75358 -25.92618 -116.25443
153856000 -25.605251 -122.29347 -0.10368669 -30.965305 -0.10145977 -30.947805 -25.944965 -116.57976
154855000 -25.604536 -122.46464 -0.10374687 -31.162479 -0.10090653 -31.14913 -25.933821 -116.80143
155854000 -25.619936 -122.73313 -0.10430021 -31.36175 -0.10186574 -31.34675 -25.925959 -117.05351
156853000 -25.596718 -123.39661 -0.10152443 -31.545691 -0.10102946 -31.540636 -25.917295 -117.37718
157852000 -25.602034 -123.65025 -0.10311408 -31.74999 -0.1025389 -31.741945 -25.912294 -117.69528
158851000 -25.598215 -123.88509 -0.10348706 -31.947514 -0.10233667 -31.936787 -25.893118 -117.94442
159850000 -25.58522 -123.98283 -0.10423975 -32.144932 -0.1027846 -32.138149 -25.893021 -118.12238
160849000 -25.56315 -124.08931 -0.10408464 -32.344883 -0.10336379 -32.339634 -25.861717 -118.38764
161848000 -25.543858 -124.21841 -0.10431293 -32.54541 -0.10293171 -32.536373 -25.826061 -118.50714
162847000 -25.501968 -124.39227 -0.10530949 -32.741192 -0.1036782 -32.740303 -25.794926 -118.73326
163846000 -25.457611 -124.63808 -0.10476822 -32.9412 -0.10344067 -32.934502 -25.718378 -118.74532
164845000 -25.399019 -124.63461 -0.10517609 -33.144264 -0.10408571 -33.135403 -25.648941 -118.8502
165844000 -25.345552 -124.69879 -0.10530552 -33.340115 -0.10424877 -33.3312 -25.568285 -119.02095
166843000 -25.28285 -124.77036 -0.10558532 -33.53793 -0.10466401 -33.53381 -25.495359 -119.17246
167842000 -25.223835 -124.93524 -0.10625269 -33.73671 -0.10426097 -33.729973 -25.415127 -119.07139
168841000 -25.148422 -125.11139 -0.1058617 -33.939049 -0.10469477 -33.932739 -25.34141 -119.1665
169840000 -25.078058 -125.37051 -0.10654238 -34.132969 -0.10577364 -34.128609 -25.255844 -119.34566
170839000 -25.023312 -125.63624 -0.10739828 -34.328655 -0.10598371 -34.325871 -25.165632 -119.57008
171838000 -24.963661 -126.05476 -0.10744817 -34.528629 -0.1068931 -34.520744 -25.096834 -119.79506
172837000 -24.89559 -126.41788 -0.10896912 -34.723335 -0.10795182 -34.719749 -25.036036 -119.99496
173836000 -24.829788 -126.86069 -0.10969037 -34.922535 -0.10860522 -34.921646 -24.995121 -120.24846
174835000 -24.773138 -127.28521 -0.11035944 -35.118343 -0.10937234 -35.11787 -24.943213 -120.61718
175834000 -24.721815 -127.67923 -0.11083554 -35.316353 -0.11075747 -35.311768 -24.882727 -120.87741
176833000 -24.675625 -128.05841 -0.11257552 -35.511745 -0.11049751 -35.51437 -24.831556 -121.07125
177832000 -24.624012 -128.51843 -0.11274873 -35.710247 -0.11150479 -35.709873 -24.812019 -121.23267
178831000 -24.58396 -128.90938 -0.11312174 -35.910118 -0.11195286 -35.904781 -24.769413 -121.4968
179830000 -24.550911 -129.36267 -0.1136133 -36.104858 -0.11200678 -36.103283 -24.74247 -121.59372
180829000 -24.507397 -129.56935 -0.11401429 -36.301907 -0.11247642 -36.301785 -24.718018 -121.80282
181828000 -24.489021 -129.91313 -0.11385565 -36.496883 -0.11281461 -36.498352 -24.695633 -121.9231
182827000 -24.463028 -130.27277 -0.11369859 -36.69194 -0.11320092 -36.690933 -24.683851 -121.98563
183826000 -24.422106 -130.57726 -0.1148124 -36.891323 -0.11319826 -36.8881 -24.672497 -122.09769
184825000 -24.427559 -130.8987 -0.11461837 -37.088745 -0.11324077 -37.088261 -24.658823 -122.20665
185824000 -24.401138 -131.25966 -0.11458009 -37.281227 -0.11355271 -37.283615 -24.653511 -122.25665
186823000 -24.386036 -131.60344 -0.11463857 -37.481335 -0.11402891 -37.483006 -24.649239 -122.25809
187822000 -24.36413 -131.92622 -0.11534189 -37.678093 -0.11420456 -37.676762 -24.61792 -122.32038
188821000 -24.347084 -132.17873 -0.11510425 -37.868244 -0.11492722 -37.875301 -24.605522 -122.4268
189820000 -24.332651 -132.42857 -0.11503301 -38.074863 -0.11462847 -38.072556 -24.589943 -122.57748
190819000 -24.299759 -132.68471 -0.11704564 -38.272087 -0.11611844 -38.273067 -24.560947 -122.55547
191818000 -24.263044 -132.86263 -0.11801906 -38.468147 -0.11739004 -38.468052 -24.522453 -122.43121
192817000 -24.19483 -133.12088 -0.11842711 -38.652214 -0.1176544 -38.654232 -24.455963 -122.48846
193816000 -24.156586 -133.49657 -0.11773526 -38.845016 -0.11668372 -38.843658 -24.399323 -122.73007
194815000 -24.102226 -133.94502 -0.11786292 -39.040359 -0.11690417 -39.045765 -24.334997 -122.88216
195814000 -24.047573 -134.16273 -0.11789112 -39.240047 -0.11722834 -39.241341 -24.280495 -122.96452
196813000 -23.997166 -134.5157 -0.11766583 -39.435074 -0.11638086 -39.442204 -24.20381 -123.15148
197812000 -23.941319 -134.73358 -0.11754084 -39.636032 -0.11725946 -39.62764 -24.131365 -123.2425
198811000 -23.884802 -134.91968 -0.11782542 -39.826225 -0.11696746 -39.829868 -24.064766 -123.40235
199810000 -23.811117 -135.27757 -0.11754801 -40.019962 -0.11722754 -40.020241 -23.985439 -123.55032
200809000 -23.752798 -135.55142 -0.1181345 -40.21978 -0.1173903 -40.220261 -23.904886 -123.72726
201808000 -23.702732 -135.80638 -0.1187905 -40.423988 -0.11872319 -40.422298 -23.837433 -123.79341
202807000 -23.641817 -136.17072 -0.11945325 -40.618496 -0.1187873 -40.622898 -23.782345 -124.01412
203806000 -23.587456 -136.58929 -0.12118231 -40.820126 -0.11952961 -40.822868 -23.720812 -124.18855
