!Keysight Technologies,E5080B,MY59205177,A.15.75.32
!Date: Friday, February 23, 2024 03:35:19
!Correction: S11(Cdelta 2-Port  ) 
!S21(Cdelta 2-Port  ) 
!S12(Cdelta 2-Port  ) 
!S22(Cdelta 2-Port  ) 
!S2P File: Measurements: S11, S21, S12, S22:
# Hz S  dB   R 50
10000000 -46.066341 -2.4759281 -0.015220149 -2.0438554 -0.017602099 -2.0992832 -45.943817 -157.67166
10999000 -45.317017 -4.5245094 -0.016499698 -2.2623703 -0.017726598 -2.3178897 -45.845531 -151.55862
11998000 -44.388004 -7.5906796 -0.016875189 -2.4903073 -0.017264228 -2.5332038 -46.058994 -147.29094
12997000 -43.554546 -13.47479 -0.016159054 -2.6690218 -0.017184444 -2.7010379 -45.628223 -141.48459
13996000 -43.30188 -17.088329 -0.015267167 -2.8494391 -0.017119732 -2.8639743 -45.389343 -136.464
14995000 -42.892479 -21.601055 -0.017524388 -3.0580242 -0.017308671 -3.0829351 -45.129585 -132.7287
15994000 -42.733967 -25.830446 -0.018606773 -3.2786527 -0.019647041 -3.2968206 -44.951355 -129.79993
16993000 -42.70359 -30.843639 -0.017953513 -3.47631 -0.019225808 -3.4848146 -44.189297 -129.3812
17992000 -42.727318 -36.354023 -0.018852191 -3.6737134 -0.019702429 -3.676054 -43.579136 -129.48671
18991000 -42.95536 -41.175415 -0.020011622 -3.8857336 -0.020527083 -3.8813345 -42.9575 -127.97382
19990000 -42.727581 -47.174248 -0.021947125 -4.0947137 -0.022487273 -4.0903764 -42.302956 -128.64146
20989000 -42.533596 -50.292919 -0.023930343 -4.2991095 -0.024485577 -4.2879634 -41.770206 -128.42651
21988000 -42.405834 -55.694996 -0.024729505 -4.4974222 -0.024992976 -4.482029 -41.506775 -127.7327
22987000 -42.022881 -60.340759 -0.025673073 -4.6923814 -0.026499383 -4.6862574 -41.258774 -126.85239
23986000 -41.982391 -64.359459 -0.025997275 -4.8902593 -0.025449401 -4.8867822 -41.129929 -126.76589
24985000 -41.603638 -67.11515 -0.026464485 -5.0990295 -0.025360871 -5.0935855 -40.911774 -124.4177
25984000 -41.218426 -69.038406 -0.026998684 -5.3020945 -0.025762388 -5.3047915 -40.574383 -123.00484
26983000 -40.917809 -71.053024 -0.02809255 -5.5042939 -0.027010664 -5.521317 -40.459541 -122.07822
27982000 -40.77861 -72.03154 -0.029919056 -5.7025986 -0.028376548 -5.7356925 -40.170959 -120.67125
28981000 -40.710491 -73.69265 -0.027722601 -5.8970976 -0.028243927 -5.9248495 -39.975163 -119.84573
29980000 -40.320438 -75.247887 -0.027265938 -6.0956039 -0.028885705 -6.1001678 -39.739216 -119.12641
30979000 -39.92807 -73.781342 -0.025132008 -6.4512753 -0.023217987 -6.4390984 -39.210911 -119.48055
31978000 -39.744423 -74.666496 -0.024095109 -6.644753 -0.024509266 -6.6341152 -38.959057 -118.71011
32977000 -39.532825 -76.414886 -0.024337715 -6.8538857 -0.025202306 -6.8542657 -38.724548 -118.76355
33976000 -39.356152 -77.302673 -0.024809951 -7.0571394 -0.025471793 -7.0509415 -38.457535 -118.12464
34975000 -39.087822 -78.167366 -0.025053117 -7.2561779 -0.02664341 -7.2544522 -38.211567 -117.81148
35974000 -38.877998 -78.843781 -0.023794213 -7.4495764 -0.026175402 -7.4541006 -37.961052 -116.93881
36973000 -38.644138 -79.450989 -0.025194233 -7.6498427 -0.027347993 -7.6554289 -37.687752 -116.01247
37972000 -38.482513 -79.311287 -0.024193503 -7.8580022 -0.02707891 -7.8717384 -37.448883 -115.41187
38971000 -38.152321 -78.795174 -0.024896646 -8.0585642 -0.027063802 -8.0736904 -37.299725 -113.81728
39970000 -37.837414 -78.986771 -0.023056116 -8.2582159 -0.025822282 -8.2729769 -37.032211 -113.16193
40969000 -37.565105 -78.782051 -0.023866832 -8.4502916 -0.025263753 -8.4747763 -36.810619 -111.6468
41968000 -37.199665 -78.567802 -0.02368854 -8.6572418 -0.026490789 -8.6739378 -36.63353 -110.58695
42967000 -36.918995 -78.85009 -0.024418933 -8.8695393 -0.026622836 -8.887702 -36.422173 -108.61156
43966000 -36.639328 -79.406403 -0.024520719 -9.072154 -0.027722601 -9.0876722 -36.130737 -107.86601
44965000 -36.385582 -80.158821 -0.024832081 -9.2707882 -0.028080305 -9.2943277 -35.927418 -107.61452
45964000 -36.158882 -81.27198 -0.026536366 -9.4736691 -0.028909158 -9.4923878 -35.715469 -107.34192
46963000 -35.969891 -83.070747 -0.027020302 -9.6669493 -0.029547647 -9.6860323 -35.529213 -107.55239
47962000 -35.804104 -84.663765 -0.028238976 -9.8683901 -0.030916415 -9.8865767 -35.323711 -107.57419
48961000 -35.569923 -85.925758 -0.030359054 -10.061961 -0.032674991 -10.088887 -35.104549 -107.80308
49960000 -35.351166 -87.198898 -0.032423314 -10.268021 -0.032981981 -10.286885 -34.966908 -107.79773
50959000 -35.120518 -88.486176 -0.031995364 -10.477538 -0.034192678 -10.49168 -34.775982 -108.17461
51958000 -34.909733 -89.565262 -0.035084024 -10.678799 -0.035460342 -10.68922 -34.592342 -108.54633
52957000 -34.703747 -90.676666 -0.035316542 -10.880039 -0.036978219 -10.884449 -34.447872 -108.31327
53956000 -34.529617 -91.270935 -0.03712938 -11.082336 -0.03712938 -11.082772 -34.315109 -108.24202
54955000 -34.369572 -91.714928 -0.037854988 -11.283966 -0.037813731 -11.27716 -34.16095 -108.1218
55954000 -34.188908 -92.501106 -0.039183278 -11.479651 -0.038550947 -11.483158 -34.04578 -107.92519
56953000 -34.079853 -92.587959 -0.037862562 -11.681948 -0.037996523 -11.669451 -33.984219 -108.17651
57952000 -33.928596 -93.181404 -0.040443778 -11.874268 -0.038973276 -11.871765 -33.87442 -108.26795
58951000 -33.805256 -93.435547 -0.040571287 -12.08373 -0.040159252 -12.060054 -33.720276 -108.25318
59950000 -33.65366 -93.806908 -0.041143287 -12.286049 -0.04014802 -12.259699 -33.660362 -108.58931
60949000 -33.535187 -94.305946 -0.041652899 -12.486061 -0.040556654 -12.466333 -33.552887 -108.74957
61948000 -33.484772 -94.607666 -0.041934647 -12.687107 -0.041489031 -12.667659 -33.462574 -108.89896
62947000 -33.391388 -94.880737 -0.042288296 -12.896006 -0.042115781 -12.874187 -33.339588 -109.16922
63946000 -33.324081 -95.677986 -0.043122742 -13.093699 -0.043128755 -13.076614 -33.225063 -109.21603
64945000 -33.209652 -95.880745 -0.043742143 -13.296865 -0.043511264 -13.278046 -33.104164 -109.7623
65944000 -33.119823 -95.989052 -0.044282395 -13.496111 -0.043399096 -13.4807 -33.019478 -110.16751
66943000 -32.976906 -96.420052 -0.042978168 -13.700434 -0.04162075 -13.68124 -32.910568 -110.48781
67942000 -32.917629 -96.46196 -0.044368695 -13.894855 -0.043894589 -13.8841 -32.78875 -110.73063
68941000 -32.801128 -96.617897 -0.044305146 -14.088219 -0.042937383 -14.079613 -32.678978 -110.64715
69940000 -32.700771 -96.515152 -0.044616882 -14.290473 -0.044065606 -14.279719 -32.532532 -111.0451
70939000 -32.600128 -96.518181 -0.044765174 -14.483207 -0.043798625 -14.481794 -32.411484 -110.89204
71938000 -32.451981 -96.065407 -0.044465981 -14.681639 -0.043739527 -14.671715 -32.270638 -110.72564
72937000 -32.29171 -95.891129 -0.0438857 -14.879092 -0.042626813 -14.874352 -32.131016 -110.52674
73936000 -32.15609 -95.614571 -0.043799408 -15.074877 -0.042147409 -15.07016 -32.008633 -110.22369
74935000 -32.044781 -95.763733 -0.043001957 -15.275866 -0.04230947 -15.271393 -31.86799 -109.91565
75934000 -31.917686 -96.063118 -0.042925358 -15.481804 -0.041325957 -15.477957 -31.779932 -109.83715
76933000 -31.787052 -96.41098 -0.04395264 -15.678047 -0.043019474 -15.674147 -31.611135 -110.17317
77932000 -31.673954 -97.131851 -0.045358915 -15.873264 -0.045173723 -15.869588 -31.512693 -110.1272
78931000 -31.592304 -97.932838 -0.043838631 -16.072334 -0.043244053 -16.069937 -31.40659 -109.97403
79930000 -31.480505 -98.796074 -0.046424713 -16.267502 -0.045515604 -16.263714 -31.310507 -110.26169
80929000 -31.370632 -99.517288 -0.048601594 -16.466005 -0.047465384 -16.463793 -31.204641 -110.51855
81928000 -31.266443 -100.2208 -0.048611015 -16.654499 -0.048084624 -16.652712 -31.07028 -110.56306
82927000 -31.166788 -101.00471 -0.050333302 -16.857746 -0.049249005 -16.853949 -30.976963 -110.81313
83926000 -31.058628 -101.67294 -0.051603332 -17.052813 -0.049967475 -17.055449 -30.852552 -111.00224
84925000 -30.951237 -102.10239 -0.05275844 -17.252876 -0.049955692 -17.248825 -30.756538 -111.05121
85924000 -30.862864 -102.42863 -0.052828662 -17.455956 -0.05119025 -17.453108 -30.669094 -110.97298
86923000 -30.738625 -102.94602 -0.053079955 -17.652533 -0.052104477 -17.643734 -30.57255 -110.90778
87922000 -30.636173 -103.26144 -0.052901506 -17.85729 -0.052035052 -17.850479 -30.481325 -110.89333
88921000 -30.568972 -103.55711 -0.054785404 -18.057142 -0.052648917 -18.050282 -30.391117 -110.83652
89920000 -30.463964 -104.04778 -0.055790063 -18.255121 -0.053567644 -18.246159 -30.343069 -111.03153
90919000 -30.363859 -104.37041 -0.056296937 -18.452866 -0.054511469 -18.446913 -30.253529 -111.20989
91918000 -30.257656 -104.68273 -0.057376962 -18.65395 -0.054192208 -18.650427 -30.188923 -111.17612
92917000 -30.179016 -104.95999 -0.057956167 -18.853516 -0.056103408 -18.8486 -30.118711 -111.28323
93916000 -30.095232 -105.27299 -0.057203323 -19.043827 -0.055524979 -19.039721 -30.038824 -111.85435
94915000 -30.013708 -105.93031 -0.059105616 -19.245316 -0.056537416 -19.24188 -29.979498 -111.77948
95914000 -29.946377 -106.17087 -0.060292121 -19.440111 -0.057001889 -19.440237 -29.886019 -111.99445
96913000 -29.858057 -106.33287 -0.060954142 -19.641462 -0.057969809 -19.641888 -29.82238 -112.35078
97912000 -29.7848 -106.85178 -0.062301595 -19.83646 -0.05878523 -19.839819 -29.736593 -112.59125
98911000 -29.680487 -107.01318 -0.062718883 -20.039663 -0.060299732 -20.037382 -29.699106 -112.8221
99910000 -29.61701 -107.12295 -0.063514188 -20.240814 -0.060713418 -20.23797 -29.588518 -113.11571
100909000 -29.52129 -107.43123 -0.062627494 -20.445539 -0.060163509 -20.440998 -29.504551 -113.30871
101908000 -29.430601 -107.62562 -0.063968375 -20.64963 -0.06179323 -20.644087 -29.399597 -113.08886
102907000 -29.290098 -107.57172 -0.06467168 -20.841284 -0.060962804 -20.847736 -29.324354 -113.11523
103906000 -29.19416 -107.70613 -0.064922079 -21.053719 -0.060048021 -21.048254 -29.180271 -113.03892
104905000 -29.058266 -107.5732 -0.06486506 -21.250788 -0.061333235 -21.249441 -29.05533 -112.75207
105904000 -28.91646 -107.69004 -0.065052152 -21.457363 -0.060711842 -21.447281 -28.940155 -112.63467
106903000 -28.806097 -107.74669 -0.065309145 -21.659466 -0.061533559 -21.65719 -28.814667 -112.52001
107902000 -28.638418 -108.06545 -0.066478677 -21.860714 -0.062598079 -21.849152 -28.678602 -112.43324
108901000 -28.529448 -108.26955 -0.067417428 -22.063292 -0.06405323 -22.056492 -28.549166 -112.42338
109900000 -28.40551 -108.79607 -0.067134023 -22.263422 -0.064635687 -22.254667 -28.399397 -112.48972
110899000 -28.28797 -109.37131 -0.068543613 -22.458776 -0.065109961 -22.453007 -28.274652 -112.74603
111898000 -28.188772 -110.02994 -0.070282243 -22.662636 -0.066334635 -22.656332 -28.16048 -112.89833
112897000 -28.067024 -110.54178 -0.071832865 -22.859495 -0.06764432 -22.848709 -28.021509 -113.07439
113896000 -27.967304 -111.13368 -0.07250534 -23.06262 -0.069298424 -23.052019 -27.917391 -113.19661
114895000 -27.856512 -111.78126 -0.073996454 -23.260344 -0.070328549 -23.247938 -27.804016 -113.25256
115894000 -27.739223 -112.08021 -0.075060353 -23.460983 -0.071684703 -23.44829 -27.736656 -113.46225
116893000 -27.661205 -112.56602 -0.075924039 -23.657738 -0.073157907 -23.642012 -27.615404 -113.49288
117892000 -27.577244 -113.06242 -0.076157704 -23.856434 -0.073108673 -23.840727 -27.538664 -113.70093
118891000 -27.523441 -113.5071 -0.076655626 -24.054716 -0.073196337 -24.045877 -27.443409 -113.81418
119890000 -27.432476 -113.852 -0.077269554 -24.257671 -0.073860593 -24.241892 -27.426945 -113.94142
120889000 -27.379904 -114.33888 -0.078484491 -24.456728 -0.074396968 -24.444485 -27.359535 -113.89989
121888000 -27.343113 -114.6246 -0.078365885 -24.652752 -0.074463591 -24.642895 -27.29925 -114.14037
122887000 -27.303335 -114.80683 -0.078706168 -24.856779 -0.075091697 -24.842993 -27.249199 -114.13837
123886000 -27.249434 -115.22674 -0.080163293 -25.063961 -0.075294495 -25.038937 -27.237551 -114.29385
124885000 -27.212429 -115.72482 -0.079999551 -25.261271 -0.076042317 -25.246313 -27.209974 -114.32891
125884000 -27.162912 -115.94507 -0.080810152 -25.456659 -0.076027304 -25.44191 -27.180096 -114.49404
126883000 -27.157419 -116.31453 -0.080990016 -25.659111 -0.076679341 -25.644493 -27.142097 -114.48678
127882000 -27.100859 -116.61684 -0.081599548 -25.860548 -0.077791065 -25.843439 -27.102953 -114.65701
128881000 -27.068762 -116.92845 -0.081164345 -26.062922 -0.077771828 -26.043316 -27.060196 -114.72729
129880000 -27.015802 -117.26488 -0.081962772 -26.264158 -0.07752648 -26.244337 -27.024899 -114.70947
130879000 -26.955925 -117.46383 -0.082105748 -26.463766 -0.078495301 -26.447493 -26.954609 -114.72877
131878000 -26.89473 -117.68851 -0.082640506 -26.666134 -0.078617334 -26.64765 -26.897675 -114.58882
132877000 -26.825571 -117.72613 -0.081976227 -26.869621 -0.079071522 -26.848782 -26.813078 -114.54388
133876000 -26.741436 -117.9313 -0.082479306 -27.069763 -0.078697473 -27.051159 -26.72554 -114.45457
134875000 -26.647604 -118.03162 -0.083005667 -27.265026 -0.079143226 -27.250713 -26.631777 -114.27934
135874000 -26.568005 -118.03515 -0.08313258 -27.46879 -0.079545528 -27.452063 -26.533854 -114.27097
136873000 -26.455973 -117.99742 -0.083466113 -27.674862 -0.078933127 -27.656672 -26.457378 -114.19585
137872000 -26.380451 -118.12016 -0.083109625 -27.875872 -0.079126619 -27.859549 -26.349689 -114.16439
138871000 -26.308207 -118.34247 -0.08367274 -28.071327 -0.079483837 -28.062527 -26.254335 -114.31824
139870000 -26.199455 -118.64798 -0.084352851 -28.272461 -0.080048069 -28.25828 -26.17087 -114.47684
140869000 -26.123459 -119.1787 -0.085512482 -28.468788 -0.080880038 -28.4503 -26.076141 -114.70378
141868000 -26.044271 -119.56809 -0.086480439 -28.67013 -0.08248432 -28.655588 -26.02463 -114.93082
142867000 -25.958746 -119.76615 -0.084908471 -28.867989 -0.081969626 -28.849968 -25.943293 -115.05814
143866000 -25.890814 -120.27023 -0.086600855 -29.064119 -0.083014898 -29.049595 -25.87587 -115.50603
144865000 -25.830309 -120.75489 -0.088137507 -29.261925 -0.084783614 -29.249493 -25.817747 -115.78897
145864000 -25.776983 -121.0713 -0.088468254 -29.463713 -0.086203702 -29.45443 -25.778856 -116.03475
146863000 -25.728222 -121.42443 -0.089179501 -29.665527 -0.086122118 -29.651461 -25.73035 -116.3099
147862000 -25.693285 -121.73881 -0.09017127 -29.861317 -0.086696446 -29.851284 -25.699654 -116.64716
148861000 -25.658136 -122.18349 -0.09125156 -30.057444 -0.088997185 -30.045101 -25.676767 -116.85528
149860000 -25.626158 -122.3463 -0.092619024 -30.249624 -0.089092307 -30.243784 -25.625479 -116.91813
150859000 -25.603422 -122.8144 -0.091729015 -30.445463 -0.088866137 -30.438301 -25.604736 -117.27794
151858000 -25.58983 -123.18796 -0.09107022 -30.64971 -0.088248983 -30.636452 -25.595453 -117.60404
152857000 -25.578119 -123.46324 -0.092186689 -30.850483 -0.08932589 -30.837437 -25.580862 -117.80315
153856000 -25.572474 -123.70393 -0.091846406 -31.049955 -0.087752365 -31.035583 -25.596592 -118.08858
154855000 -25.566483 -123.87643 -0.092123494 -31.252155 -0.088917397 -31.237595 -25.583193 -118.36761
155854000 -25.590115 -124.11887 -0.092282936 -31.45075 -0.088609599 -31.433064 -25.576984 -118.59095
156853000 -25.574562 -124.7971 -0.089589611 -31.638786 -0.088387415 -31.629875 -25.570837 -118.90224
157852000 -25.582893 -125.03391 -0.091306016 -31.83988 -0.08962819 -31.830587 -25.559683 -119.27209
158851000 -25.578779 -125.25164 -0.092509285 -32.036358 -0.089547329 -32.027901 -25.548782 -119.52607
159850000 -25.569653 -125.35885 -0.092795677 -32.238876 -0.090092778 -32.23106 -25.542931 -119.72623
160849000 -25.551235 -125.40884 -0.092317574 -32.434528 -0.091190234 -32.432667 -25.513548 -120.01999
161848000 -25.532907 -125.51559 -0.093174651 -32.636379 -0.091507465 -32.630753 -25.473633 -120.155
162847000 -25.491116 -125.71475 -0.093516365 -32.834698 -0.091249444 -32.831085 -25.447567 -120.37721
163846000 -25.455988 -125.89136 -0.09348727 -33.038536 -0.091316067 -33.030613 -25.370365 -120.37082
164845000 -25.396568 -125.91806 -0.093269065 -33.23621 -0.091465697 -33.229313 -25.308113 -120.49523
165844000 -25.343439 -125.94992 -0.093180202 -33.435497 -0.09202408 -33.431969 -25.227337 -120.63602
166843000 -25.276369 -125.96145 -0.094034798 -33.631866 -0.091650754 -33.629623 -25.163284 -120.78466
167842000 -25.223118 -126.10956 -0.093899898 -33.835312 -0.091662392 -33.826832 -25.087282 -120.71262
168841000 -25.144415 -126.27795 -0.094788499 -34.031307 -0.092148349 -34.026478 -25.013041 -120.80495
169840000 -25.079386 -126.45969 -0.094813637 -34.229282 -0.093246587 -34.230824 -24.929152 -120.96489
170839000 -25.026897 -126.73775 -0.095749535 -34.42881 -0.093841441 -34.423595 -24.849657 -121.13441
171838000 -24.964319 -127.12808 -0.095216073 -34.628952 -0.094111778 -34.625206 -24.779982 -121.38146
172837000 -24.892191 -127.43916 -0.096797064 -34.825718 -0.09522374 -34.820198 -24.713467 -121.58268
173836000 -24.824915 -127.8373 -0.098102733 -35.023754 -0.096376747 -35.024345 -24.673292 -121.75974
174835000 -24.773371 -128.24825 -0.098744057 -35.219589 -0.097203389 -35.222519 -24.629776 -122.11166
175834000 -24.718752 -128.62639 -0.099256769 -35.42202 -0.098090284 -35.419239 -24.568745 -122.35594
176833000 -24.669643 -128.96802 -0.10045986 -35.619682 -0.098710962 -35.619202 -24.519434 -122.48605
177832000 -24.627527 -129.38309 -0.10114817 -35.817234 -0.099523209 -35.816746 -24.501701 -122.59903
178831000 -24.579472 -129.60075 -0.1026306 -36.015388 -0.1015541 -36.00959 -24.459431 -122.67483
179830000 -24.510719 -129.99606 -0.10415066 -36.202072 -0.10187607 -36.201908 -24.398912 -122.73002
180829000 -24.45738 -130.34865 -0.10276657 -36.393818 -0.10180531 -36.39682 -24.353222 -123.07818
181828000 -24.433678 -130.77696 -0.10277161 -36.598515 -0.10056079 -36.590763 -24.333099 -123.26751
182827000 -24.414551 -131.15967 -0.101623 -36.789257 -0.10123561 -36.787495 -24.324944 -123.37679
183826000 -24.370657 -131.48248 -0.10335796 -36.994301 -0.10113015 -36.986515 -24.313524 -123.54881
184825000 -24.379868 -131.81866 -0.10340408 -37.18507 -0.1014497 -37.187923 -24.293901 -123.66253
185824000 -24.348467 -132.18874 -0.10290176 -37.381001 -0.10166804 -37.383144 -24.290638 -123.73553
186823000 -24.330725 -132.55957 -0.10331528 -37.586506 -0.10148177 -37.582104 -24.28488 -123.73208
187822000 -24.308758 -132.89612 -0.10356951 -37.778793 -0.10201361 -37.778069 -24.244827 -123.80591
188821000 -24.286123 -133.17484 -0.103227 -37.972649 -0.10200619 -37.977276 -24.228907 -123.91714
189820000 -24.26528 -133.43391 -0.1039656 -38.175453 -0.10215804 -38.173557 -24.213493 -124.1251
190819000 -24.235151 -133.76273 -0.10492282 -38.370392 -0.10268892 -38.369274 -24.170149 -124.18863
191818000 -24.203297 -134.04007 -0.10501246 -38.566032 -0.10322038 -38.570702 -24.146774 -124.21461
192817000 -24.156361 -134.3118 -0.10554978 -38.766628 -0.1035255 -38.766495 -24.105242 -124.28564
193816000 -24.127981 -134.58534 -0.10498064 -38.962158 -0.10303561 -38.958801 -24.052797 -124.46427
194815000 -24.065962 -134.9761 -0.10556781 -39.15596 -0.10462503 -39.156532 -23.983324 -124.50809
195814000 -24.010332 -135.173 -0.10639541 -39.354294 -0.10480641 -39.353535 -23.930307 -124.58709
196813000 -23.957417 -135.50409 -0.10652434 -39.549603 -0.10396931 -39.548687 -23.852079 -124.73964
197812000 -23.899563 -135.72397 -0.10633944 -39.746853 -0.10435323 -39.747982 -23.782606 -124.86334
198811000 -23.846357 -135.84663 -0.10684349 -39.940712 -0.10480428 -39.946476 -23.716421 -125.00741
199810000 -23.777102 -136.22786 -0.10624659 -40.138088 -0.10452029 -40.134548 -23.633165 -125.10209
200809000 -23.719753 -136.47459 -0.10702788 -40.336876 -0.10553678 -40.337749 -23.557625 -125.2904
201808000 -23.664873 -136.67456 -0.10763232 -40.539577 -0.10552379 -40.540028 -23.491785 -125.35289
202807000 -23.602861 -137.01851 -0.10853834 -40.738834 -0.10664 -40.740276 -23.438185 -125.54246
