!Keysight Technologies,E5080B,MY59205177,A.15.75.32
!Date: Friday, February 23, 2024 02:57:15
!Correction: S11(Cdelta 2-Port  ) 
!S21(Cdelta 2-Port  ) 
!S12(Cdelta 2-Port  ) 
!S22(Cdelta 2-Port  ) 
!S2P File: Measurements: S11, S21, S12, S22:
# Hz S  dB   R 50
10000000 -44.001347 -3.7136738 -0.027740056 -2.0445218 -0.031329658 -2.0994654 -48.266514 -149.51486
10999000 -43.339722 -5.2590227 -0.029491873 -2.2619298 -0.030972468 -2.3090446 -48.029182 -142.02505
11998000 -42.597305 -7.8817396 -0.029428542 -2.479198 -0.031384151 -2.5231972 -48.07608 -136.27844
12997000 -41.938065 -12.443989 -0.028944599 -2.6595511 -0.031037124 -2.6940715 -47.505001 -130.05762
13996000 -41.736557 -15.783322 -0.027926851 -2.8390799 -0.031049639 -2.8617032 -46.977242 -124.11237
14995000 -41.430069 -19.522568 -0.029492656 -3.0480604 -0.03111534 -3.0747995 -46.542625 -121.36744
15994000 -41.306686 -23.11108 -0.0313586 -3.2673836 -0.03295929 -3.2922366 -46.332111 -117.40258
16993000 -41.306484 -26.983652 -0.030950308 -3.4588301 -0.032695595 -3.4751565 -45.383812 -117.85738
17992000 -41.399521 -31.717861 -0.031496532 -3.6619151 -0.032925643 -3.6657937 -44.769146 -118.97726
18991000 -41.649109 -36.064682 -0.031178435 -3.8698094 -0.033620287 -3.8704057 -43.99741 -118.72398
19990000 -41.530258 -41.148041 -0.034395143 -4.078927 -0.035828341 -4.0748725 -43.380512 -119.97227
20989000 -41.441444 -43.924049 -0.035911866 -4.2835841 -0.037048448 -4.2751408 -42.769962 -120.00749
21988000 -41.362633 -48.576294 -0.036813222 -4.4783525 -0.038364217 -4.4685192 -42.511387 -119.52219
22987000 -41.168568 -53.039921 -0.038434729 -4.6792459 -0.039480019 -4.6704431 -42.227081 -119.26725
23986000 -41.143787 -56.625015 -0.037464622 -4.873632 -0.038257666 -4.8756738 -42.082443 -119.1984
24985000 -40.868629 -59.325527 -0.0389704 -5.0790267 -0.038827531 -5.0782361 -41.832016 -117.00999
25984000 -40.640633 -61.605194 -0.039513979 -5.2912188 -0.038867753 -5.2915816 -41.456345 -115.43308
26983000 -40.31852 -63.191471 -0.040084794 -5.4850683 -0.039875008 -5.5049038 -41.324509 -114.65002
27982000 -40.179951 -64.452263 -0.041863553 -5.6861777 -0.041649763 -5.7192163 -41.022018 -113.24039
28981000 -40.205006 -65.932983 -0.039730277 -5.8815026 -0.041660476 -5.9096947 -40.78009 -112.32035
29980000 -39.785686 -67.524399 -0.039356984 -6.0760288 -0.041977249 -6.085382 -40.46769 -111.83158
30979000 -39.462368 -66.739288 -0.038013235 -6.4279909 -0.036380924 -6.418694 -39.937511 -112.61691
31978000 -39.262043 -67.606674 -0.036078654 -6.6226788 -0.037829399 -6.6153183 -39.660831 -112.0158
32977000 -39.108662 -69.46685 -0.036697313 -6.8344173 -0.038114294 -6.8290095 -39.443771 -112.29433
33976000 -38.94952 -70.550522 -0.03741397 -7.0322542 -0.038318776 -7.0254812 -39.112942 -111.83022
34975000 -38.673382 -71.583122 -0.037483163 -7.2328629 -0.03959522 -7.2315946 -38.880726 -111.576
35974000 -38.490948 -72.349922 -0.036979001 -7.4280248 -0.039117195 -7.4318213 -38.574272 -110.86542
36973000 -38.263268 -72.975311 -0.037104055 -7.6292691 -0.040113531 -7.6299677 -38.283768 -110.06242
37972000 -38.104843 -72.825241 -0.036685042 -7.8393097 -0.039916806 -7.8491869 -38.046173 -109.42093
38971000 -37.793972 -72.776665 -0.037836712 -8.0393047 -0.040137831 -8.0470276 -37.839458 -107.97438
39970000 -37.464714 -73.434006 -0.035845306 -8.2290373 -0.038950291 -8.2485209 -37.538368 -107.50992
40969000 -37.170216 -73.180046 -0.03657775 -8.4254456 -0.039487071 -8.4462337 -37.282162 -106.10836
41968000 -36.844292 -73.450027 -0.035894636 -8.6241398 -0.039224289 -8.6485806 -37.059685 -105.17525
42967000 -36.607265 -73.689041 -0.036868569 -8.8415031 -0.03939721 -8.8674088 -36.850494 -103.27096
43966000 -36.307869 -74.556358 -0.037353136 -9.040925 -0.040904704 -9.0587568 -36.547901 -102.76109
44965000 -36.092274 -75.450706 -0.037754197 -9.2430801 -0.041019682 -9.2638044 -36.3354 -102.58282
45964000 -35.874088 -76.645828 -0.038730372 -9.4467316 -0.041919228 -9.4601202 -36.114868 -102.47194
46963000 -35.702972 -78.61602 -0.038533185 -9.6407509 -0.042556755 -9.6608629 -35.916245 -102.76343
47962000 -35.560402 -80.169899 -0.040869951 -9.8382072 -0.043748159 -9.8563366 -35.714447 -102.98901
48961000 -35.36879 -81.637459 -0.042889018 -10.034939 -0.045099437 -10.055306 -35.473431 -103.35114
49960000 -35.160275 -82.975876 -0.044258859 -10.234259 -0.046246275 -10.25671 -35.343132 -103.45691
50959000 -34.940697 -84.376846 -0.044736404 -10.449143 -0.047047988 -10.457614 -35.174465 -103.90993
51958000 -34.751644 -85.533791 -0.046268776 -10.645351 -0.04874688 -10.656013 -34.99332 -104.41628
52957000 -34.558842 -86.653809 -0.047771327 -10.849586 -0.050035037 -10.854087 -34.827663 -104.25043
53956000 -34.3951 -87.42202 -0.048866779 -11.046249 -0.050677162 -11.04736 -34.690201 -104.32677
54955000 -34.227592 -87.86097 -0.049793083 -11.250329 -0.051823903 -11.243937 -34.542839 -104.36233
55954000 -34.081131 -88.833405 -0.051165368 -11.448419 -0.051684014 -11.44667 -34.434662 -104.09092
56953000 -33.97633 -88.957932 -0.050479434 -11.645021 -0.051686633 -11.637728 -34.360672 -104.39558
57952000 -33.8237 -89.56266 -0.051708639 -11.83978 -0.05252577 -11.836912 -34.250549 -104.45416
58951000 -33.697319 -89.942322 -0.05248018 -12.048645 -0.053153329 -12.023359 -34.090797 -104.53405
59950000 -33.593079 -90.297783 -0.053166166 -12.244881 -0.053643908 -12.224076 -34.028816 -104.95957
60949000 -33.464817 -90.923668 -0.05378281 -12.44958 -0.054035991 -12.425435 -33.933384 -105.11945
61948000 -33.408703 -91.174721 -0.053983834 -12.643388 -0.053965226 -12.628634 -33.856895 -105.29139
62947000 -33.325642 -91.484596 -0.054041497 -12.860577 -0.054464024 -12.83561 -33.710026 -105.52834
63946000 -33.263714 -92.181252 -0.055157404 -13.058538 -0.055786654 -13.035407 -33.60355 -105.70682
64945000 -33.156193 -92.328911 -0.055412501 -13.256793 -0.056228492 -13.239328 -33.500214 -106.24384
65944000 -33.053993 -92.642853 -0.056792855 -13.455905 -0.056423075 -13.439605 -33.418999 -106.69342
66943000 -32.90707 -93.047356 -0.054661933 -13.658135 -0.055070363 -13.640407 -33.303825 -106.98317
67942000 -32.859745 -93.093735 -0.056932908 -13.853012 -0.057310864 -13.841791 -33.196556 -107.2923
68941000 -32.744141 -93.226028 -0.056203056 -14.04991 -0.055605996 -14.038234 -33.079136 -107.27779
69940000 -32.651306 -93.234039 -0.05662081 -14.245404 -0.056506995 -14.24101 -32.941078 -107.55863
70939000 -32.541832 -93.213905 -0.05619178 -14.438493 -0.055657912 -14.434171 -32.807415 -107.51771
71938000 -32.407578 -92.757622 -0.055859547 -14.639648 -0.056170803 -14.633587 -32.66835 -107.38004
72937000 -32.240559 -92.614349 -0.055766463 -14.83345 -0.05502842 -14.826249 -32.536945 -107.00951
73936000 -32.098095 -92.34668 -0.055375535 -15.033876 -0.055342499 -15.026855 -32.422749 -106.91
74935000 -31.982479 -92.580368 -0.054983065 -15.230804 -0.054687887 -15.229199 -32.260693 -106.63669
75934000 -31.85639 -92.921272 -0.055022649 -15.441525 -0.054570187 -15.43249 -32.173927 -106.59286
76933000 -31.731701 -93.342346 -0.055001415 -15.633787 -0.056503583 -15.623892 -32.010113 -106.95001
77932000 -31.631529 -94.152603 -0.05654056 -15.829271 -0.057708263 -15.818923 -31.912432 -106.98099
78931000 -31.571821 -94.813675 -0.055939261 -16.028658 -0.056743287 -16.022694 -31.818506 -106.82499
79930000 -31.458611 -95.669472 -0.058379862 -16.21867 -0.05970867 -16.21863 -31.718302 -107.16072
80929000 -31.330317 -96.613998 -0.060168758 -16.412449 -0.060826298 -16.410805 -31.609735 -107.56886
81928000 -31.256369 -97.494835 -0.060121775 -16.609266 -0.060940228 -16.601885 -31.486986 -107.67898
82927000 -31.167957 -98.197632 -0.062071301 -16.804815 -0.062419504 -16.805552 -31.382227 -108.00708
83926000 -31.049906 -98.938454 -0.06336841 -17.000881 -0.063590623 -17.006474 -31.270121 -108.19503
84925000 -30.954433 -99.373573 -0.064815931 -17.20089 -0.06374009 -17.198729 -31.178949 -108.23093
85924000 -30.869942 -99.820908 -0.064944945 -17.403282 -0.064530328 -17.398586 -31.093002 -108.26488
86923000 -30.756346 -100.47784 -0.065188266 -17.597673 -0.065061606 -17.590675 -30.992861 -108.19366
87922000 -30.656145 -100.77297 -0.065216906 -17.806831 -0.064963602 -17.795135 -30.919329 -108.28338
88921000 -30.582886 -101.0825 -0.066340685 -18.001104 -0.066188499 -17.999149 -30.816465 -108.24145
89920000 -30.484266 -101.63496 -0.066724718 -18.201952 -0.066022389 -18.194378 -30.763781 -108.39191
90919000 -30.383667 -101.93279 -0.067784466 -18.396805 -0.06765458 -18.395031 -30.68129 -108.60744
91918000 -30.287323 -102.31984 -0.068156794 -18.596704 -0.067034125 -18.595116 -30.610228 -108.65547
92917000 -30.209208 -102.74716 -0.069157712 -18.792828 -0.068605937 -18.792976 -30.549524 -108.8148
93916000 -30.126152 -103.08401 -0.068400554 -18.988853 -0.068791345 -18.983042 -30.463011 -109.40981
94915000 -30.05117 -103.73139 -0.070273824 -19.189478 -0.069278434 -19.183357 -30.404772 -109.30305
95914000 -29.988762 -103.89222 -0.071788393 -19.38187 -0.070298292 -19.381697 -30.314026 -109.60787
96913000 -29.911825 -104.16032 -0.072633788 -19.584595 -0.071681283 -19.580833 -30.254261 -109.9435
97912000 -29.839401 -104.72874 -0.073992245 -19.777239 -0.071757339 -19.779217 -30.174879 -110.18665
98911000 -29.730282 -104.85324 -0.07434167 -19.981657 -0.073147632 -19.978613 -30.129915 -110.44054
99910000 -29.663361 -105.03207 -0.074847288 -20.181208 -0.073758699 -20.17935 -30.025665 -110.6757
100909000 -29.585279 -105.28963 -0.073855855 -20.387369 -0.073301114 -20.381655 -29.937387 -110.90269
101908000 -29.491781 -105.53871 -0.075664572 -20.587603 -0.073788188 -20.582905 -29.821121 -110.6982
102907000 -29.365355 -105.51309 -0.075726211 -20.788761 -0.074291639 -20.786978 -29.752567 -110.60693
103906000 -29.261456 -105.62975 -0.076121345 -20.99507 -0.073890083 -20.983892 -29.611378 -110.59484
104905000 -29.116959 -105.5372 -0.076538123 -21.190123 -0.074097566 -21.190556 -29.470264 -110.25266
105904000 -28.980492 -105.71712 -0.076595031 -21.395704 -0.073992774 -21.385258 -29.356909 -110.16356
106903000 -28.869413 -105.75558 -0.076980233 -21.594875 -0.074889429 -21.59087 -29.230045 -110.02068
107902000 -28.698835 -106.12583 -0.077165738 -21.798021 -0.075397484 -21.789417 -29.093178 -109.99683
108901000 -28.597944 -106.35524 -0.078773908 -22.002333 -0.076789476 -21.993086 -28.9613 -109.93049
109900000 -28.470228 -106.87614 -0.079500973 -22.198063 -0.07755705 -22.187008 -28.806734 -110.06785
110899000 -28.35865 -107.48481 -0.080821492 -22.397873 -0.077674583 -22.385593 -28.67824 -110.33121
111898000 -28.261736 -108.1796 -0.082437359 -22.596781 -0.079140857 -22.590593 -28.563829 -110.48696
112897000 -28.146095 -108.78194 -0.084015816 -22.793608 -0.081111602 -22.783302 -28.42285 -110.68366
113896000 -28.034964 -109.35792 -0.084698886 -22.995245 -0.081525691 -22.981165 -28.314344 -110.84074
114895000 -27.935682 -110.01625 -0.085256137 -23.194044 -0.083362937 -23.180153 -28.2089 -110.93024
115894000 -27.803644 -110.35381 -0.086541705 -23.394106 -0.084056988 -23.380539 -28.13973 -111.10233
116893000 -27.722078 -110.97676 -0.087596521 -23.58856 -0.084639497 -23.569506 -28.012827 -111.24665
117892000 -27.644638 -111.46434 -0.087647237 -23.784269 -0.085378632 -23.772623 -27.935453 -111.45034
118891000 -27.58061 -111.86506 -0.088232338 -23.98917 -0.085567921 -23.969975 -27.841436 -111.60997
119890000 -27.494883 -112.27163 -0.089304224 -24.190046 -0.086355269 -24.170912 -27.82411 -111.74594
120889000 -27.441992 -112.79196 -0.090066351 -24.386763 -0.086997509 -24.370514 -27.74769 -111.73451
121888000 -27.398397 -113.10706 -0.090039395 -24.586895 -0.087762929 -24.571175 -27.690119 -112.05919
122887000 -27.355408 -113.30402 -0.090182632 -24.787458 -0.087696634 -24.770844 -27.648613 -112.04583
123886000 -27.306679 -113.72883 -0.091612689 -24.989094 -0.088457689 -24.969019 -27.627312 -112.27952
124885000 -27.268513 -114.22795 -0.091201596 -25.186687 -0.088983975 -25.168612 -27.603025 -112.32882
125884000 -27.215918 -114.45856 -0.092510343 -25.382383 -0.088970765 -25.368597 -27.578972 -112.48997
126883000 -27.200228 -114.79048 -0.092604749 -25.587715 -0.090428695 -25.573238 -27.527624 -112.55768
127882000 -27.144402 -115.12531 -0.092712112 -25.785259 -0.090619795 -25.769855 -27.490519 -112.69064
128881000 -27.116138 -115.44921 -0.092980534 -25.98601 -0.090158589 -25.971066 -27.443563 -112.8558
129880000 -27.05298 -115.75448 -0.094214946 -26.190319 -0.090175763 -26.169794 -27.406849 -112.79523
130879000 -26.994123 -115.90746 -0.094000675 -26.388338 -0.091192871 -26.373592 -27.323763 -112.86447
131878000 -26.927294 -116.12264 -0.09420304 -26.58849 -0.091802247 -26.56992 -27.262434 -112.7566
132877000 -26.857424 -116.19608 -0.09438505 -26.79121 -0.092095464 -26.772253 -27.181637 -112.74503
133876000 -26.773455 -116.35905 -0.094391659 -26.990406 -0.091391675 -26.969503 -27.089731 -112.67669
134875000 -26.681734 -116.49802 -0.094594307 -27.192896 -0.092628285 -27.174732 -26.97933 -112.5085
135874000 -26.595001 -116.52863 -0.094951481 -27.390057 -0.091527291 -27.372272 -26.877111 -112.54189
136873000 -26.489311 -116.45336 -0.095272698 -27.592091 -0.09144745 -27.577074 -26.797134 -112.5298
137872000 -26.40761 -116.55803 -0.094921052 -27.793394 -0.092251733 -27.777767 -26.691475 -112.45135
138871000 -26.339624 -116.73815 -0.096132733 -27.994165 -0.092496067 -27.981398 -26.59593 -112.59995
139870000 -26.233309 -117.0392 -0.095895872 -28.194551 -0.093705483 -28.17725 -26.512918 -112.79063
140869000 -26.149292 -117.46759 -0.098600537 -28.389952 -0.095243059 -28.369934 -26.401976 -112.90616
141868000 -26.054338 -118.02328 -0.098228768 -28.581816 -0.095705606 -28.56547 -26.337112 -113.27222
142867000 -25.975849 -118.18117 -0.096891031 -28.779129 -0.094750404 -28.762173 -26.256376 -113.47311
143866000 -25.90752 -118.74303 -0.098722078 -28.975893 -0.095990352 -28.959991 -26.19038 -113.93201
144865000 -25.857393 -119.27177 -0.099914953 -29.174057 -0.097494587 -29.158751 -26.130066 -114.27786
145864000 -25.799303 -119.59324 -0.10038383 -29.377172 -0.098696657 -29.364227 -26.095221 -114.53322
146863000 -25.751528 -119.9837 -0.10176928 -29.577158 -0.098238565 -29.559549 -26.050291 -114.81317
147862000 -25.711494 -120.35688 -0.10181326 -29.772778 -0.099266306 -29.757116 -26.014122 -115.18689
148861000 -25.678028 -120.89303 -0.10204992 -29.970478 -0.099514998 -29.953709 -25.987646 -115.4148
149860000 -25.669237 -121.01958 -0.10236556 -30.164913 -0.10033667 -30.154079 -25.960241 -115.60161
150859000 -25.645164 -121.44478 -0.10269925 -30.370699 -0.10058596 -30.355194 -25.954235 -115.86787
151858000 -25.632959 -121.74677 -0.10254022 -30.565254 -0.10037032 -30.554705 -25.936836 -116.13988
152857000 -25.614786 -122.07416 -0.10328744 -30.760204 -0.10073591 -30.752951 -25.928177 -116.27325
153856000 -25.608959 -122.27374 -0.10247634 -30.961248 -0.099928997 -30.94854 -25.948709 -116.58276
154855000 -25.601379 -122.46827 -0.10326915 -31.160812 -0.10065325 -31.152534 -25.937447 -116.81935
155854000 -25.61548 -122.7074 -0.1033288 -31.358738 -0.10147991 -31.349321 -25.92602 -117.05731
156853000 -25.598938 -123.396 -0.10102469 -31.548426 -0.10070518 -31.540684 -25.921095 -117.36423
157852000 -25.606329 -123.65784 -0.10267778 -31.749241 -0.1020523 -31.737499 -25.913687 -117.68689
158851000 -25.598381 -123.88014 -0.10332455 -31.946878 -0.10228261 -31.936848 -25.893635 -117.92767
159850000 -25.587851 -124.00951 -0.10360132 -32.145771 -0.10202898 -32.135273 -25.893122 -118.09711
160849000 -25.566757 -124.06856 -0.10373149 -32.344151 -0.10285033 -32.338398 -25.868464 -118.40894
161848000 -25.546547 -124.22892 -0.10423392 -32.543449 -0.10328744 -32.536724 -25.825581 -118.51945
162847000 -25.506041 -124.41193 -0.10444498 -32.743317 -0.10324742 -32.735672 -25.796913 -118.77599
163846000 -25.465731 -124.61797 -0.10412415 -32.940739 -0.10380016 -32.933647 -25.711758 -118.76258
164845000 -25.403238 -124.66057 -0.10479766 -33.142433 -0.10340408 -33.132763 -25.649323 -118.89037
165844000 -25.348305 -124.6967 -0.10425911 -33.336533 -0.10409074 -33.332108 -25.562855 -119.03906
166843000 -25.282217 -124.79741 -0.10453991 -33.540298 -0.10465287 -33.533733 -25.493107 -119.19177
167842000 -25.22237 -124.91933 -0.10564791 -33.738586 -0.10469186 -33.728867 -25.415701 -119.1246
168841000 -25.146257 -125.12424 -0.10521985 -33.934635 -0.10564739 -33.933098 -25.338158 -119.20167
169840000 -25.08639 -125.39671 -0.10560071 -34.132553 -0.10501299 -34.131718 -25.250042 -119.4088
170839000 -25.019678 -125.67146 -0.10619009 -34.324299 -0.10528615 -34.32719 -25.164316 -119.58513
171838000 -24.961977 -126.09615 -0.10599433 -34.528782 -0.10708519 -34.521595 -25.101063 -119.84018
172837000 -24.890408 -126.43432 -0.10778013 -34.723621 -0.10735662 -34.719704 -25.03581 -120.04943
173836000 -24.825136 -126.85488 -0.10926934 -34.922279 -0.10833557 -34.920685 -24.991322 -120.28905
174835000 -24.776796 -127.2997 -0.10977001 -35.118633 -0.10916581 -35.116817 -24.943068 -120.6077
175834000 -24.720324 -127.69566 -0.11024924 -35.317032 -0.10986029 -35.310619 -24.879841 -120.88285
176833000 -24.667534 -128.06932 -0.11128222 -35.514904 -0.11051928 -35.509499 -24.824657 -121.12484
177832000 -24.62668 -128.52974 -0.11117785 -35.707642 -0.11072003 -35.711426 -24.807676 -121.24012
178831000 -24.583145 -128.89287 -0.11163306 -35.90509 -0.11164156 -35.902863 -24.770535 -121.49068
179830000 -24.547411 -129.3365 -0.11221609 -36.101444 -0.11115554 -36.103233 -24.737936 -121.61432
180829000 -24.508625 -129.56918 -0.11316558 -36.299217 -0.11288448 -36.299305 -24.712969 -121.79536
181828000 -24.488512 -129.93933 -0.11296764 -36.49855 -0.11246978 -36.494675 -24.694216 -121.87224
182827000 -24.463539 -130.28253 -0.11317355 -36.694405 -0.11410066 -36.692894 -24.680542 -122.03984
183826000 -24.425661 -130.58942 -0.11405867 -36.890507 -0.11317488 -36.886864 -24.673176 -122.13331
184825000 -24.4233 -130.91124 -0.1143223 -37.08617 -0.11371959 -37.090012 -24.651049 -122.24464
185824000 -24.402796 -131.27899 -0.1133901 -37.278141 -0.11461252 -37.280979 -24.652805 -122.28857
186823000 -24.383474 -131.59949 -0.11337947 -37.480824 -0.11388116 -37.478878 -24.651011 -122.27891
187822000 -24.367048 -131.93236 -0.11446794 -37.67606 -0.11466461 -37.676178 -24.614635 -122.34312
188821000 -24.340887 -132.18892 -0.11466834 -37.875153 -0.11460987 -37.876698 -24.599831 -122.43162
189820000 -24.329096 -132.4503 -0.11494264 -38.074512 -0.11504391 -38.071224 -24.593271 -122.59027
190819000 -24.301998 -132.68541 -0.11601608 -38.271534 -0.11623516 -38.269958 -24.562401 -122.55224
191818000 -24.267178 -132.86708 -0.11703634 -38.467133 -0.11729669 -38.467293 -24.522409 -122.43542
192817000 -24.193478 -133.12328 -0.11771531 -38.650505 -0.11807492 -38.65131 -24.451555 -122.51062
193816000 -24.151838 -133.48933 -0.11674967 -38.844223 -0.11669037 -38.844658 -24.396204 -122.77668
194815000 -24.1036 -133.91457 -0.11666963 -39.040619 -0.11697277 -39.043461 -24.333824 -122.89415
195814000 -24.049345 -134.17415 -0.11756105 -39.238804 -0.11644734 -39.24073 -24.280136 -122.99886
196813000 -23.993898 -134.52408 -0.11670367 -39.435486 -0.11671165 -39.431709 -24.202946 -123.16838
197812000 -23.938368 -134.7514 -0.11721425 -39.632294 -0.11704352 -39.63261 -24.136257 -123.24455
198811000 -23.883896 -134.92578 -0.11676217 -39.830189 -0.11660794 -39.82909 -24.064295 -123.43077
199810000 -23.816881 -135.30795 -0.11712064 -40.021351 -0.11682094 -40.022926 -23.984629 -123.5552
200809000 -23.758215 -135.58377 -0.1176403 -40.219299 -0.11675419 -40.220531 -23.908957 -123.7461
201808000 -23.697403 -135.80902 -0.1185931 -40.419163 -0.11768366 -40.41972 -23.837605 -123.81318
202807000 -23.640619 -136.16777 -0.11944341 -40.619667 -0.1186479 -40.624813 -23.781534 -124.03386
203806000 -23.587391 -136.62202 -0.12079156 -40.818398 -0.11904484 -40.82056 -23.715918 -124.19998
