!Keysight Technologies,E5080B,MY59205177,A.15.75.32
!Date: Friday, February 23, 2024 03:35:25
!Correction: S11(Cdelta 2-Port  ) 
!S21(Cdelta 2-Port  ) 
!S12(Cdelta 2-Port  ) 
!S22(Cdelta 2-Port  ) 
!S2P File: Measurements: S11, S21, S12, S22:
# Hz S  dB   R 50
10000000 -46.100533 -2.6792765 -0.014436238 -2.0412972 -0.017907767 -2.0958967 -45.932995 -157.41945
10999000 -45.328987 -4.3667412 -0.016088123 -2.264364 -0.017501255 -2.3151102 -45.820515 -151.21432
11998000 -44.383659 -7.5818481 -0.016594281 -2.4902217 -0.017731538 -2.5284109 -46.037743 -147.18022
12997000 -43.621117 -13.135608 -0.015902614 -2.669807 -0.01679723 -2.7004445 -45.642727 -141.59265
13996000 -43.271549 -16.910566 -0.015061433 -2.8465698 -0.017376242 -2.8707829 -45.428402 -136.34923
14995000 -42.916233 -21.464027 -0.017537382 -3.0585327 -0.016684191 -3.081531 -45.132992 -132.90018
15994000 -42.740856 -26.315914 -0.018579734 -3.2795005 -0.019579172 -3.2997794 -45.006607 -129.45665
16993000 -42.705505 -30.676937 -0.017471366 -3.4718504 -0.018913548 -3.4801345 -44.170948 -129.27728
17992000 -42.727047 -36.413006 -0.018517343 -3.6705654 -0.019432519 -3.671783 -43.549145 -129.32211
18991000 -42.959671 -41.492203 -0.018806174 -3.8840034 -0.020443076 -3.8799348 -42.92033 -128.00269
19990000 -42.726643 -46.927486 -0.021643516 -4.0942516 -0.022330634 -4.0871291 -42.323059 -128.95978
20989000 -42.585526 -50.439445 -0.024051899 -4.2969384 -0.024631619 -4.2863865 -41.73167 -128.31972
21988000 -42.365582 -55.688618 -0.024216671 -4.4944043 -0.024721436 -4.4813905 -41.469467 -127.53204
22987000 -42.056988 -60.316772 -0.024935178 -4.6917911 -0.025960818 -4.6879249 -41.235771 -127.04611
23986000 -41.960495 -64.608871 -0.024746688 -4.8867316 -0.025390293 -4.8864465 -41.097801 -126.76102
24985000 -41.577251 -67.289848 -0.026067588 -5.0979238 -0.025707966 -5.0931926 -40.927872 -124.4842
25984000 -41.224483 -69.33033 -0.026938515 -5.2997408 -0.026010036 -5.3021603 -40.592045 -122.78699
26983000 -40.901363 -71.292023 -0.028501095 -5.5002408 -0.026052745 -5.5191784 -40.468914 -122.0438
27982000 -40.755886 -71.872772 -0.0295281 -5.7003608 -0.028275974 -5.7304196 -40.201462 -120.57804
28981000 -40.727638 -73.493721 -0.027412334 -5.9008155 -0.027883602 -5.9243407 -39.977726 -119.87476
29980000 -40.314209 -74.671364 -0.027071355 -6.0908384 -0.028600633 -6.0979762 -39.731339 -118.85703
30979000 -39.934906 -73.917793 -0.024488701 -6.447844 -0.02379239 -6.4410253 -39.227131 -119.28643
31978000 -39.729099 -74.764503 -0.024057627 -6.6415453 -0.024516555 -6.6362138 -38.985176 -118.82455
32977000 -39.531544 -76.214005 -0.023652362 -6.8541331 -0.024602983 -6.8481884 -38.729622 -118.68104
33976000 -39.34058 -77.424957 -0.02423411 -7.0534558 -0.025181737 -7.052186 -38.426479 -118.21223
34975000 -39.073029 -78.202248 -0.024972407 -7.256084 -0.026560066 -7.2569685 -38.221516 -117.77548
35974000 -38.855896 -78.650841 -0.022858601 -7.45119 -0.02591785 -7.4575138 -37.960735 -116.83328
36973000 -38.643208 -79.414406 -0.024596475 -7.6507435 -0.026398592 -7.6524696 -37.675442 -116.02001
37972000 -38.469433 -79.263779 -0.024648281 -7.859796 -0.026902569 -7.8685541 -37.478195 -115.24911
38971000 -38.163788 -78.647339 -0.02553116 -8.0627623 -0.027021345 -8.076539 -37.309761 -113.67709
39970000 -37.82983 -78.99012 -0.023329634 -8.2573223 -0.026182434 -8.2765532 -37.034538 -113.15279
40969000 -37.559025 -78.742134 -0.023615923 -8.4504576 -0.025316607 -8.4720774 -36.819809 -111.81585
41968000 -37.18182 -78.640656 -0.02384679 -8.6574783 -0.026070453 -8.6765165 -36.609612 -110.51624
42967000 -36.943264 -78.599228 -0.02315839 -8.8719358 -0.025337959 -8.8965254 -36.423809 -108.75771
43966000 -36.644161 -79.397842 -0.02459934 -9.0643034 -0.026868969 -9.0880394 -36.15543 -107.98067
44965000 -36.399651 -80.263023 -0.024989592 -9.2709417 -0.026371507 -9.2908707 -35.924591 -107.6848
45964000 -36.153393 -81.236938 -0.027191177 -9.4704952 -0.028252004 -9.4877434 -35.709145 -107.42451
46963000 -35.9823 -83.131058 -0.027000766 -9.6702099 -0.029181743 -9.6906471 -35.506844 -107.53132
47962000 -35.814121 -84.606438 -0.027979478 -9.8680763 -0.030463848 -9.8845434 -35.326954 -107.66213
48961000 -35.589581 -85.867287 -0.030448467 -10.06695 -0.031795353 -10.086789 -35.093304 -107.86217
49960000 -35.368137 -87.172867 -0.031531733 -10.265282 -0.032585796 -10.292249 -34.961628 -107.90784
50959000 -35.119667 -88.514946 -0.032447569 -10.480453 -0.033954997 -10.490201 -34.765099 -108.14172
51958000 -34.920635 -89.540909 -0.034204941 -10.676549 -0.035005212 -10.689636 -34.5853 -108.53912
52957000 -34.703308 -90.539459 -0.035285227 -10.876265 -0.036451142 -10.886323 -34.442932 -108.35462
53956000 -34.536713 -91.237633 -0.036210731 -11.078383 -0.037336163 -11.083579 -34.309872 -108.30667
54955000 -34.360001 -91.708961 -0.037639827 -11.28531 -0.038132835 -11.282791 -34.159351 -108.19948
55954000 -34.186295 -92.557472 -0.038729064 -11.480929 -0.038379364 -11.479551 -34.042294 -107.91394
56953000 -34.071712 -92.624962 -0.03830415 -11.678823 -0.037332248 -11.66805 -33.97718 -108.125
57952000 -33.910133 -93.166397 -0.039223243 -11.880605 -0.038287956 -11.868361 -33.861904 -108.18161
58951000 -33.785275 -93.433762 -0.040215425 -12.084621 -0.03985646 -12.067743 -33.713249 -108.23161
59950000 -33.662075 -93.822823 -0.040779017 -12.286953 -0.040453445 -12.264741 -33.649559 -108.51526
60949000 -33.548504 -94.403336 -0.041382927 -12.486301 -0.041097816 -12.463095 -33.54829 -108.74883
61948000 -33.482292 -94.652313 -0.042072915 -12.685192 -0.040379506 -12.66918 -33.469017 -108.85064
62947000 -33.3853 -94.894455 -0.042393114 -12.89884 -0.041316546 -12.879609 -33.327526 -109.12531
63946000 -33.32513 -95.643791 -0.043160912 -13.093317 -0.042302672 -13.075899 -33.215462 -109.27537
64945000 -33.213959 -95.88485 -0.043717828 -13.296928 -0.042953331 -13.275666 -33.110111 -109.72784
65944000 -33.096909 -96.075912 -0.044334698 -13.495601 -0.042925619 -13.481327 -33.005157 -110.20111
66943000 -32.960564 -96.511742 -0.041779917 -13.699722 -0.041505758 -13.682006 -32.89777 -110.39924
67942000 -32.90686 -96.506622 -0.044060376 -13.893336 -0.043596502 -13.886554 -32.781166 -110.73096
68941000 -32.791283 -96.622215 -0.04356068 -14.089243 -0.042362008 -14.08227 -32.672607 -110.69691
69940000 -32.695736 -96.54483 -0.044327639 -14.289555 -0.043457925 -14.280157 -32.543701 -110.99535
70939000 -32.593269 -96.535873 -0.043866348 -14.483276 -0.043275166 -14.476528 -32.397327 -110.91221
71938000 -32.456474 -96.064621 -0.044504426 -14.67988 -0.043057382 -14.676947 -32.270718 -110.78721
72937000 -32.29137 -95.91494 -0.042949408 -14.876916 -0.042849805 -14.870577 -32.130119 -110.48318
73936000 -32.154728 -95.623421 -0.04301738 -15.080689 -0.042545777 -15.068733 -32.006821 -110.26884
74935000 -32.037395 -95.763565 -0.042439383 -15.272711 -0.04124599 -15.27576 -31.86714 -109.94408
75934000 -31.90353 -96.030365 -0.043199085 -15.484548 -0.040945992 -15.480704 -31.77644 -109.89268
76933000 -31.771765 -96.410469 -0.04380307 -15.676702 -0.042599365 -15.673658 -31.605101 -110.1543
77932000 -31.673532 -97.190254 -0.045165092 -15.873871 -0.044476181 -15.868167 -31.502102 -110.12323
78931000 -31.590214 -97.903412 -0.043047186 -16.074389 -0.043457139 -16.071413 -31.408564 -110.01356
79930000 -31.475554 -98.777168 -0.046122789 -16.266516 -0.046120435 -16.266258 -31.29707 -110.28825
80929000 -31.371801 -99.575684 -0.047859792 -16.466047 -0.047515895 -16.463884 -31.206081 -110.56609
81928000 -31.273581 -100.25252 -0.04824324 -16.655909 -0.047861885 -16.654793 -31.076868 -110.53783
82927000 -31.168655 -100.98922 -0.049560312 -16.856102 -0.049201619 -16.85397 -30.969742 -110.87259
83926000 -31.055862 -101.64328 -0.050942212 -17.052855 -0.049873732 -17.052883 -30.851225 -110.99467
84925000 -30.947828 -102.06783 -0.052538872 -17.254675 -0.050225936 -17.252308 -30.743454 -111.0192
85924000 -30.85689 -102.46339 -0.052536249 -17.45483 -0.051302094 -17.451303 -30.667706 -111.00787
86923000 -30.745605 -102.98318 -0.052319836 -17.649208 -0.051826786 -17.644089 -30.568003 -110.86149
87922000 -30.636251 -103.31158 -0.052858535 -17.856876 -0.051913235 -17.850208 -30.484201 -110.89481
88921000 -30.557812 -103.51607 -0.054827083 -18.057875 -0.052833118 -18.052765 -30.383053 -110.87785
89920000 -30.453733 -104.08256 -0.054525886 -18.255056 -0.053127907 -18.250729 -30.332352 -110.99537
90919000 -30.367092 -104.36343 -0.055361114 -18.455862 -0.053826578 -18.445326 -30.243639 -111.20634
91918000 -30.268276 -104.62675 -0.056473162 -18.653017 -0.054510158 -18.649565 -30.185032 -111.24422
92917000 -30.179884 -104.9446 -0.056910876 -18.851856 -0.055735525 -18.845062 -30.116867 -111.27611
93916000 -30.088671 -105.34041 -0.056824852 -19.045456 -0.055861384 -19.036001 -30.028839 -111.91208
94915000 -30.010157 -105.94467 -0.058242124 -19.246508 -0.05688937 -19.240732 -29.971119 -111.75166
95914000 -29.940178 -106.15639 -0.05941553 -19.44228 -0.057495788 -19.437944 -29.888477 -112.03355
96913000 -29.8606 -106.31976 -0.060455386 -19.641272 -0.058738787 -19.640263 -29.818438 -112.36819
97912000 -29.783127 -106.82442 -0.061248958 -19.83329 -0.058585819 -19.838705 -29.735981 -112.62055
98911000 -29.678648 -106.98684 -0.061621513 -20.036942 -0.059635185 -20.0375 -29.691788 -112.86436
99910000 -29.605375 -107.14731 -0.062452067 -20.240747 -0.059806298 -20.237297 -29.592144 -113.15428
100909000 -29.521448 -107.39576 -0.062044781 -20.44582 -0.059723891 -20.441362 -29.505531 -113.34598
101908000 -29.429302 -107.64797 -0.063358165 -20.647816 -0.060849659 -20.64275 -29.392494 -113.11652
102907000 -29.292265 -107.6603 -0.063243903 -20.845371 -0.061394934 -20.846464 -29.323631 -113.08536
103906000 -29.197704 -107.67054 -0.06336499 -21.056667 -0.060075842 -21.050087 -29.177048 -113.0736
104905000 -29.055586 -107.58468 -0.064410523 -21.249552 -0.060719982 -21.249643 -29.052538 -112.74804
105904000 -28.914009 -107.64081 -0.064592861 -21.456701 -0.060432024 -21.450911 -28.937551 -112.64232
106903000 -28.798595 -107.72462 -0.065027714 -21.659937 -0.061069652 -21.652714 -28.813251 -112.55734
107902000 -28.64093 -108.09585 -0.066028699 -21.860628 -0.06165066 -21.850941 -28.678991 -112.4549
108901000 -28.526554 -108.32263 -0.066175885 -22.060585 -0.063391261 -22.055571 -28.54488 -112.45488
109900000 -28.401087 -108.76698 -0.067542307 -22.260851 -0.064858235 -22.254021 -28.396688 -112.51792
110899000 -28.281109 -109.36776 -0.069262654 -22.460733 -0.065191939 -22.454601 -28.274782 -112.7811
111898000 -28.195969 -110.02687 -0.069821611 -22.661772 -0.066406921 -22.658449 -28.15959 -112.91074
112897000 -28.066366 -110.54095 -0.071515225 -22.861221 -0.067043319 -22.849503 -28.027214 -113.07967
113896000 -27.962193 -111.13509 -0.072483756 -23.060579 -0.068410024 -23.052065 -27.914116 -113.18808
114895000 -27.862295 -111.79229 -0.07349541 -23.260809 -0.070521653 -23.245457 -27.807522 -113.2581
115894000 -27.734581 -112.10524 -0.074330084 -23.462721 -0.07118313 -23.449461 -27.734251 -113.49456
116893000 -27.659786 -112.56374 -0.075321622 -23.657507 -0.072200015 -23.642637 -27.609793 -113.51564
117892000 -27.570993 -113.06963 -0.074949473 -23.856636 -0.07266748 -23.842182 -27.538034 -113.7175
118891000 -27.51733 -113.48119 -0.075719625 -24.058399 -0.072602205 -24.043316 -27.437609 -113.82739
119890000 -27.433374 -113.83384 -0.076081038 -24.253872 -0.073887452 -24.24044 -27.430437 -113.9521
120889000 -27.377722 -114.34 -0.078029051 -24.457054 -0.073873758 -24.443623 -27.36124 -113.92104
121888000 -27.337164 -114.6442 -0.077850625 -24.653484 -0.074622385 -24.64271 -27.29776 -114.14627
122887000 -27.302563 -114.83721 -0.078994289 -24.858114 -0.075894266 -24.845728 -27.250301 -114.16779
123886000 -27.251696 -115.24519 -0.079341739 -25.060881 -0.075754918 -25.043545 -27.237415 -114.30193
124885000 -27.222685 -115.76213 -0.080137454 -25.256756 -0.076085523 -25.243326 -27.213732 -114.40331
125884000 -27.169022 -115.94415 -0.080534838 -25.456095 -0.076070242 -25.443722 -27.176525 -114.5243
126883000 -27.14484 -116.34946 -0.080804884 -25.659203 -0.076803438 -25.644545 -27.141644 -114.48458
127882000 -27.090014 -116.62937 -0.081471622 -25.856583 -0.077218436 -25.842409 -27.109827 -114.6612
128881000 -27.069937 -116.97905 -0.081399612 -26.063986 -0.077869073 -26.045723 -27.064526 -114.77332
129880000 -27.0158 -117.26846 -0.082084909 -26.267452 -0.077255324 -26.244452 -27.025122 -114.70307
130879000 -26.957998 -117.44401 -0.081404626 -26.463276 -0.078781292 -26.446966 -26.953794 -114.73125
131878000 -26.894394 -117.65172 -0.082015529 -26.666035 -0.078999296 -26.647699 -26.893917 -114.58887
132877000 -26.827461 -117.76102 -0.081626713 -26.871063 -0.078714602 -26.853983 -26.812403 -114.59522
133876000 -26.741581 -117.92673 -0.081863321 -27.068632 -0.078576744 -27.052147 -26.728752 -114.49134
134875000 -26.647116 -118.00523 -0.082322598 -27.270967 -0.079548433 -27.251184 -26.625803 -114.31316
135874000 -26.568367 -118.07211 -0.082539983 -27.469866 -0.07914982 -27.455412 -26.533676 -114.24332
136873000 -26.44945 -118.03762 -0.082369559 -27.670795 -0.078886732 -27.651609 -26.451757 -114.23842
137872000 -26.375889 -118.11217 -0.08308588 -27.874758 -0.079223372 -27.861092 -26.350494 -114.13523
138871000 -26.299686 -118.32883 -0.083744518 -28.070349 -0.080044903 -28.056849 -26.253283 -114.30456
139870000 -26.199799 -118.6235 -0.084252819 -28.271912 -0.080782726 -28.254108 -26.175293 -114.45981
140869000 -26.120249 -119.18755 -0.084955461 -28.471809 -0.081599548 -28.449652 -26.071932 -114.69872
141868000 -26.042109 -119.56517 -0.085982703 -28.668022 -0.082913846 -28.653473 -26.018723 -114.93391
142867000 -25.961218 -119.76178 -0.084959686 -28.866985 -0.082007349 -28.849091 -25.945322 -115.03803
143866000 -25.885317 -120.25169 -0.086320415 -29.063801 -0.083488807 -29.047604 -25.873598 -115.47569
144865000 -25.829475 -120.7475 -0.088134594 -29.263296 -0.084687799 -29.248257 -25.812494 -115.82125
145864000 -25.774557 -121.04291 -0.088827036 -29.463234 -0.08584778 -29.453934 -25.780987 -116.05643
146863000 -25.728971 -121.45213 -0.088755436 -29.662746 -0.086411253 -29.6527 -25.735006 -116.36831
147862000 -25.688108 -121.77199 -0.090572216 -29.864344 -0.086400956 -29.84943 -25.698732 -116.65733
148861000 -25.658308 -122.20583 -0.091690943 -30.060442 -0.087829232 -30.043394 -25.6745 -116.827
149860000 -25.623201 -122.36213 -0.092311233 -30.252174 -0.088604838 -30.238409 -25.618309 -116.88112
150859000 -25.603176 -122.82866 -0.091763914 -30.451775 -0.088032365 -30.438906 -25.602228 -117.26862
151858000 -25.591887 -123.1861 -0.091506675 -30.649111 -0.088264309 -30.633535 -25.595636 -117.62737
152857000 -25.57571 -123.51391 -0.091336153 -30.848581 -0.089285992 -30.840923 -25.575619 -117.7923
153856000 -25.570641 -123.7165 -0.090856366 -31.047493 -0.087931983 -31.036707 -25.595848 -118.11181
154855000 -25.56941 -123.83644 -0.091493979 -31.250086 -0.088032365 -31.237106 -25.583519 -118.34133
155854000 -25.585953 -124.16241 -0.092403248 -31.452505 -0.088233136 -31.43321 -25.578148 -118.60455
156853000 -25.56809 -124.78088 -0.089576133 -31.63657 -0.087339267 -31.628881 -25.572514 -118.90272
157852000 -25.579889 -125.03435 -0.091097973 -31.838127 -0.089553669 -31.829119 -25.560776 -119.26594
158851000 -25.574816 -125.22273 -0.091711827 -32.037018 -0.08998812 -32.02737 -25.540613 -119.56735
159850000 -25.566198 -125.3502 -0.092364118 -32.235126 -0.090118147 -32.230438 -25.542137 -119.73651
160849000 -25.552387 -125.42339 -0.091583341 -32.435596 -0.090796895 -32.432194 -25.51438 -120.01805
161848000 -25.531408 -125.51579 -0.093248174 -32.636753 -0.090092778 -32.630592 -25.475061 -120.145
162847000 -25.489223 -125.72731 -0.092342429 -32.835003 -0.090443231 -32.832001 -25.447798 -120.40388
163846000 -25.448563 -125.92892 -0.092814982 -33.034 -0.091069952 -33.028751 -25.373402 -120.38529
164845000 -25.398319 -125.90458 -0.093273826 -33.237 -0.091125466 -33.228771 -25.308523 -120.50166
165844000 -25.335939 -125.90663 -0.093393378 -33.430492 -0.092253588 -33.428246 -25.230547 -120.64455
166843000 -25.277428 -125.98198 -0.093241036 -33.635712 -0.091966443 -33.630146 -25.164883 -120.78727
167842000 -25.221451 -126.11974 -0.093457907 -33.836075 -0.091693059 -33.828476 -25.0851 -120.72691
168841000 -25.144846 -126.30767 -0.094435051 -34.032391 -0.092090182 -34.029976 -25.011675 -120.80841
169840000 -25.08098 -126.50963 -0.093899101 -34.22839 -0.093013592 -34.227303 -24.926912 -120.98082
170839000 -25.019444 -126.76608 -0.094972119 -34.426014 -0.093136303 -34.425308 -24.8423 -121.15064
171838000 -24.962576 -127.11214 -0.094337694 -34.630623 -0.094004385 -34.623024 -24.78021 -121.3797
172837000 -24.888676 -127.47105 -0.096123204 -34.827278 -0.095021598 -34.819962 -24.714676 -121.56654
173836000 -24.820568 -127.85882 -0.097302392 -35.025299 -0.095814101 -35.022022 -24.671476 -121.81059
174835000 -24.771734 -128.26595 -0.09795393 -35.22139 -0.096825123 -35.224072 -24.62595 -122.12218
175834000 -24.716314 -128.64439 -0.099041194 -35.422733 -0.097881913 -35.418415 -24.56144 -122.38039
176833000 -24.66744 -128.96774 -0.10004581 -35.619839 -0.098405115 -35.620441 -24.518738 -122.50895
177832000 -24.625317 -129.36653 -0.10094521 -35.818733 -0.099405877 -35.81918 -24.500042 -122.60031
178831000 -24.579145 -129.5816 -0.10247449 -36.012863 -0.10128568 -36.013058 -24.451941 -122.67699
179830000 -24.50528 -130.03145 -0.10347937 -36.199482 -0.10225584 -36.200127 -24.394188 -122.7457
180829000 -24.462492 -130.39157 -0.10302395 -36.394382 -0.10134 -36.395229 -24.349466 -123.06738
181828000 -24.436462 -130.80463 -0.10245726 -36.595055 -0.10028978 -36.589264 -24.336687 -123.27625
182827000 -24.41259 -131.14897 -0.10128064 -36.788513 -0.10059073 -36.787758 -24.323357 -123.36092
183826000 -24.371334 -131.49583 -0.1027345 -36.987373 -0.10053457 -36.988827 -24.31599 -123.55029
184825000 -24.374025 -131.82455 -0.10263113 -37.18758 -0.10131244 -37.189159 -24.298204 -123.66265
185824000 -24.350765 -132.1545 -0.10217024 -37.379517 -0.10168447 -37.383411 -24.294037 -123.71254
186823000 -24.33046 -132.53528 -0.10207403 -37.580742 -0.10074227 -37.581844 -24.286926 -123.72769
187822000 -24.30813 -132.90166 -0.10336167 -37.77882 -0.10184082 -37.779018 -24.247753 -123.83484
188821000 -24.286713 -133.16098 -0.1023963 -37.973743 -0.10173032 -37.976543 -24.22698 -123.92813
189820000 -24.269615 -133.42642 -0.1030115 -38.171856 -0.10152654 -38.172131 -24.211674 -124.14945
190819000 -24.234606 -133.76384 -0.1039481 -38.371693 -0.10207324 -38.367382 -24.170135 -124.15866
191818000 -24.202951 -134.04669 -0.10377152 -38.566696 -0.10251106 -38.570484 -24.146761 -124.21142
192817000 -24.158432 -134.32274 -0.10443835 -38.765923 -0.10288426 -38.765327 -24.103012 -124.29774
193816000 -24.128771 -134.60088 -0.10442801 -38.961998 -0.10270216 -38.960705 -24.053879 -124.45374
194815000 -24.06662 -134.99266 -0.1049329 -39.155132 -0.10356421 -39.158234 -23.984377 -124.51774
195814000 -24.013611 -135.17975 -0.10579512 -39.352028 -0.10401862 -39.358929 -23.933048 -124.60844
196813000 -23.955915 -135.50822 -0.10555562 -39.545788 -0.10401703 -39.54842 -23.852413 -124.72692
197812000 -23.90151 -135.71587 -0.10572112 -39.746719 -0.104738 -39.746399 -23.784302 -124.8466
198811000 -23.848761 -135.89413 -0.10579485 -39.941212 -0.10396612 -39.947163 -23.713764 -125.01572
199810000 -23.777637 -136.21794 -0.10683394 -40.132408 -0.1043824 -40.14003 -23.638283 -125.09579
200809000 -23.720913 -136.50552 -0.1064368 -40.332825 -0.10402923 -40.339596 -23.561436 -125.31221
201808000 -23.662468 -136.66418 -0.10758084 -40.53648 -0.1050045 -40.538757 -23.490828 -125.35959
202807000 -23.605453 -137.03505 -0.10760101 -40.735287 -0.10645536 -40.735508 -23.438902 -125.55148
