!Keysight Technologies,E5080B,MY59205177,A.15.75.32
!Date: Friday, February 23, 2024 02:57:21
!Correction: S11(Cdelta 2-Port  ) 
!S21(Cdelta 2-Port  ) 
!S12(Cdelta 2-Port  ) 
!S22(Cdelta 2-Port  ) 
!S2P File: Measurements: S11, S21, S12, S22:
# Hz S  dB   R 50
10000000 -44.009071 -3.73945 -0.027343303 -2.0400593 -0.032122362 -2.0972233 -48.254395 -150.00955
10999000 -43.382103 -5.2160354 -0.02864076 -2.2579532 -0.032123145 -2.313318 -48.018688 -141.65569
11998000 -42.612537 -7.8450761 -0.029221354 -2.4821854 -0.031514522 -2.5234711 -48.01614 -136.23671
12997000 -41.982765 -12.388855 -0.028411463 -2.6599562 -0.031239966 -2.6922071 -47.394112 -129.59468
13996000 -41.728291 -15.68555 -0.027990421 -2.840308 -0.031403184 -2.8629525 -47.010715 -124.37697
14995000 -41.409748 -19.270906 -0.03011168 -3.0498514 -0.031262912 -3.0744264 -46.530777 -120.45219
15994000 -41.29969 -23.241718 -0.031166963 -3.2683265 -0.033386555 -3.290494 -46.310661 -116.91768
16993000 -41.340611 -27.106869 -0.029858846 -3.4622121 -0.032578751 -3.4751298 -45.394852 -118.01759
17992000 -41.366615 -31.745111 -0.030783195 -3.6585917 -0.033627331 -3.6643901 -44.797337 -118.98955
18991000 -41.633446 -36.071255 -0.032742023 -3.8725548 -0.033736899 -3.8705094 -44.046749 -118.29959
19990000 -41.498688 -40.960571 -0.03417911 -4.0793962 -0.035842698 -4.0783105 -43.32729 -120.11877
20989000 -41.430355 -44.192944 -0.03636552 -4.2857485 -0.037707455 -4.2739005 -42.781979 -120.23434
21988000 -41.345982 -48.526573 -0.036723938 -4.4783306 -0.038968574 -4.4720974 -42.525791 -119.53089
22987000 -41.180859 -52.814884 -0.038543373 -4.6775532 -0.039702065 -4.6701117 -42.206535 -119.47485
23986000 -41.180702 -56.715019 -0.037742708 -4.8712587 -0.038390331 -4.8718634 -42.108791 -119.26461
24985000 -40.814945 -59.201603 -0.038676046 -5.0792255 -0.038815256 -5.0778108 -41.830261 -116.84023
25984000 -40.612072 -61.625465 -0.039394077 -5.2831659 -0.039448671 -5.2899261 -41.495201 -115.37939
26983000 -40.334576 -63.646927 -0.040081918 -5.4864039 -0.040318366 -5.5032969 -41.336636 -114.76789
27982000 -40.211044 -64.616264 -0.042083632 -5.6844807 -0.042050175 -5.7187686 -41.025276 -113.22443
28981000 -40.196033 -65.847321 -0.039877359 -5.8838506 -0.041644011 -5.9082561 -40.77029 -112.57299
29980000 -39.804089 -67.555779 -0.039575629 -6.0734019 -0.041861985 -6.0851016 -40.430599 -111.77388
30979000 -39.428402 -66.74617 -0.036618996 -6.4331894 -0.036879271 -6.4249187 -39.954102 -112.63133
31978000 -39.258476 -67.85247 -0.03606534 -6.6214118 -0.038728803 -6.6121159 -39.663872 -112.05547
32977000 -39.113544 -69.267746 -0.0361875 -6.8306036 -0.038688585 -6.8290725 -39.437401 -112.21043
33976000 -38.957035 -70.579514 -0.037453398 -7.0326238 -0.039317541 -7.0270739 -39.111454 -111.6995
34975000 -38.674633 -71.537827 -0.037723385 -7.233232 -0.039625 -7.2327838 -38.84235 -111.62004
35974000 -38.493793 -72.16806 -0.036653195 -7.4269352 -0.039502483 -7.4316635 -38.525322 -110.85379
36973000 -38.273418 -73.137024 -0.037157316 -7.6294341 -0.040083487 -7.6315804 -38.25436 -110.11077
37972000 -38.111736 -73.044006 -0.036243357 -7.8388333 -0.040970296 -7.8459649 -38.033039 -109.40388
38971000 -37.77623 -72.79081 -0.037236426 -8.0395613 -0.040132605 -8.0475273 -37.816254 -107.88656
39970000 -37.468109 -73.347504 -0.03627703 -8.2309065 -0.038924169 -8.2485552 -37.549046 -107.50447
40969000 -37.179516 -73.337692 -0.035621632 -8.4250116 -0.038498975 -8.4422283 -37.276997 -106.28439
41968000 -36.856491 -73.484924 -0.036093269 -8.629241 -0.040291194 -8.6480846 -37.059822 -105.02187
42967000 -36.58326 -73.718925 -0.035908733 -8.8426571 -0.039785139 -8.8580809 -36.852131 -103.28583
43966000 -36.31987 -74.650177 -0.036506485 -9.0382118 -0.040522166 -9.0628567 -36.547367 -102.68719
44965000 -36.088524 -75.513283 -0.03767534 -9.2446117 -0.040872041 -9.2667513 -36.333805 -102.54605
45964000 -35.881306 -76.615974 -0.03860971 -9.4431181 -0.041877929 -9.4628143 -36.094505 -102.49737
46963000 -35.699375 -78.593552 -0.038915552 -9.6375008 -0.042723015 -9.6573086 -35.929424 -102.85588
47962000 -35.544495 -80.157158 -0.040722836 -9.8353872 -0.043903481 -9.8555346 -35.709435 -102.99678
48961000 -35.363247 -81.663071 -0.042209879 -10.034397 -0.045622595 -10.055261 -35.479347 -103.26443
49960000 -35.15292 -83.008293 -0.043702137 -10.234194 -0.046495881 -10.258725 -35.352188 -103.47282
50959000 -34.944462 -84.412239 -0.044547576 -10.449753 -0.047843304 -10.457667 -35.156948 -103.89532
51958000 -34.757793 -85.52581 -0.046817455 -10.642618 -0.049338024 -10.659261 -34.991398 -104.56493
52957000 -34.554935 -86.686264 -0.047660623 -10.848295 -0.050340373 -10.852653 -34.828598 -104.24148
53956000 -34.393414 -87.471207 -0.048910234 -11.04598 -0.051344007 -11.049116 -34.704868 -104.32187
54955000 -34.239292 -88.029648 -0.05019189 -11.247126 -0.051859267 -11.238602 -34.548325 -104.39742
55954000 -34.093628 -88.833885 -0.050588381 -11.445657 -0.052096356 -11.443495 -34.426716 -104.07005
56953000 -33.960571 -88.939072 -0.049991306 -11.645874 -0.051648911 -11.637849 -34.356201 -104.37489
57952000 -33.802097 -89.600952 -0.051199418 -11.844636 -0.053238492 -11.83258 -34.25819 -104.46941
58951000 -33.691727 -89.889511 -0.052112076 -12.04811 -0.053314228 -12.030589 -34.09901 -104.69393
59950000 -33.577568 -90.372894 -0.053103801 -12.244596 -0.053854886 -12.226837 -34.029099 -104.87285
60949000 -33.468311 -90.933281 -0.053360086 -12.449395 -0.053941898 -12.427186 -33.937725 -105.24284
61948000 -33.409149 -91.3022 -0.054259833 -12.646119 -0.054241486 -12.626406 -33.849445 -105.30816
62947000 -33.324062 -91.479485 -0.054200072 -12.855978 -0.055444486 -12.838429 -33.716164 -105.55685
63946000 -33.256439 -92.185059 -0.054971792 -13.05748 -0.055862956 -13.034608 -33.607933 -105.76613
64945000 -33.154976 -92.401512 -0.05527984 -13.259482 -0.056344401 -13.238749 -33.502438 -106.25587
65944000 -33.053604 -92.690826 -0.056577802 -13.455936 -0.056786824 -13.439892 -33.4025 -106.66919
66943000 -32.918686 -93.10331 -0.054229166 -13.660334 -0.055268563 -13.641148 -33.306683 -106.98861
67942000 -32.853951 -93.105553 -0.056288019 -13.853854 -0.05715847 -13.840672 -33.177929 -107.38084
68941000 -32.754112 -93.106773 -0.055712976 -14.045834 -0.055819429 -14.036357 -33.069588 -107.27006
69940000 -32.658386 -93.25811 -0.055480931 -14.246812 -0.057029691 -14.235871 -32.926682 -107.52683
70939000 -32.543209 -93.200073 -0.05699297 -14.440997 -0.0566452 -14.434769 -32.790188 -107.55045
71938000 -32.414547 -92.773056 -0.055993538 -14.640096 -0.056813836 -14.631203 -32.66103 -107.41669
72937000 -32.249832 -92.615234 -0.055505052 -14.831068 -0.056652807 -14.82447 -32.515976 -107.10705
73936000 -32.111576 -92.346024 -0.055415124 -15.037623 -0.056460313 -15.026184 -32.416603 -106.96297
74935000 -31.981497 -92.586243 -0.055189911 -15.229555 -0.055378679 -15.226808 -32.255707 -106.62983
75934000 -31.855986 -92.929344 -0.054625496 -15.437362 -0.055043362 -15.430104 -32.165878 -106.57114
76933000 -31.735434 -93.342926 -0.055353772 -15.63605 -0.056418356 -15.622866 -32.013676 -106.97897
77932000 -31.640697 -94.168892 -0.056817509 -15.827455 -0.057010543 -15.820707 -31.91861 -106.95629
78931000 -31.565866 -94.836143 -0.056017403 -16.027544 -0.056913763 -16.020771 -31.807728 -106.87428
79930000 -31.456682 -95.664505 -0.058873393 -16.221333 -0.059983194 -16.218189 -31.717279 -107.1811
80929000 -31.333427 -96.6408 -0.059893698 -16.413012 -0.061234783 -16.412626 -31.618187 -107.55827
81928000 -31.256189 -97.520439 -0.059509479 -16.609701 -0.061681904 -16.601652 -31.495916 -107.6453
82927000 -31.163292 -98.240105 -0.061210103 -16.804506 -0.062114101 -16.803164 -31.381372 -107.97016
83926000 -31.049459 -98.953796 -0.063771881 -17.003069 -0.063669696 -17.002001 -31.283381 -108.17534
84925000 -30.949881 -99.473518 -0.064530589 -17.201897 -0.064503789 -17.19928 -31.185446 -108.29318
85924000 -30.859358 -99.886101 -0.065040328 -17.401222 -0.065545656 -17.401037 -31.095407 -108.31963
86923000 -30.761452 -100.46467 -0.064876102 -17.599459 -0.06595327 -17.588636 -30.999664 -108.22968
87922000 -30.65362 -100.74577 -0.064768896 -17.80386 -0.065055043 -17.795811 -30.905863 -108.30103
88921000 -30.590174 -101.11449 -0.066475525 -18.000227 -0.065905437 -17.998383 -30.815315 -108.34393
89920000 -30.477537 -101.69264 -0.0673007 -18.203478 -0.066400349 -18.195742 -30.762674 -108.4703
90919000 -30.389652 -101.98844 -0.067793138 -18.398369 -0.066838801 -18.391468 -30.680866 -108.6709
91918000 -30.292221 -102.37763 -0.068754792 -18.599174 -0.067523383 -18.59124 -30.615068 -108.73754
92917000 -30.215406 -102.77827 -0.070014171 -18.795191 -0.068635397 -18.792673 -30.553381 -108.85529
93916000 -30.127794 -103.1394 -0.069476761 -18.987993 -0.0685068 -18.985811 -30.463524 -109.43723
94915000 -30.055098 -103.7748 -0.070218317 -19.191143 -0.069704287 -19.185959 -30.400166 -109.35991
95914000 -29.997606 -103.96497 -0.071540229 -19.386168 -0.070650578 -19.375769 -30.314434 -109.59021
96913000 -29.914911 -104.1767 -0.072172903 -19.585411 -0.072033942 -19.581066 -30.251762 -109.94643
97912000 -29.835928 -104.65123 -0.073360085 -19.780098 -0.0721379 -19.780207 -30.169083 -110.22216
98911000 -29.736622 -104.85662 -0.073834524 -19.979027 -0.072930455 -19.978115 -30.126684 -110.44201
99910000 -29.659527 -105.01816 -0.074551284 -20.179232 -0.073111303 -20.177198 -30.021156 -110.69985
100909000 -29.576025 -105.30405 -0.074066497 -20.386362 -0.073175013 -20.379059 -29.932388 -110.92245
101908000 -29.490686 -105.55048 -0.075316623 -20.587486 -0.074273996 -20.583046 -29.817875 -110.66511
102907000 -29.358982 -105.59827 -0.075330578 -20.784094 -0.074145228 -20.786758 -29.748934 -110.62896
103906000 -29.270494 -105.6563 -0.075693019 -20.993687 -0.074089937 -20.98625 -29.600086 -110.61265
104905000 -29.119102 -105.58678 -0.076915421 -21.188564 -0.074181832 -21.189907 -29.474548 -110.29676
105904000 -28.980669 -105.66793 -0.076477528 -21.391243 -0.074123375 -21.385822 -29.359793 -110.13643
106903000 -28.871784 -105.78236 -0.076469623 -21.599039 -0.074992932 -21.589203 -29.228651 -110.03028
107902000 -28.703297 -106.12229 -0.07729248 -21.799618 -0.075363502 -21.785608 -29.09581 -110.00325
108901000 -28.598328 -106.38078 -0.078850359 -21.998167 -0.076507561 -21.992235 -28.960527 -109.94354
109900000 -28.471966 -106.90299 -0.07923919 -22.199932 -0.077577345 -22.186459 -28.804092 -110.02682
110899000 -28.350065 -107.53782 -0.080311485 -22.394583 -0.078670844 -22.391724 -28.689524 -110.33661
111898000 -28.268763 -108.25224 -0.081781022 -22.596508 -0.079282157 -22.591305 -28.5592 -110.46212
112897000 -28.138868 -108.78336 -0.083252639 -22.795513 -0.080618963 -22.783838 -28.431217 -110.67352
113896000 -28.035114 -109.37487 -0.084094726 -22.997614 -0.082102843 -22.983522 -28.32102 -110.8252
114895000 -27.934011 -110.04448 -0.085170344 -23.192396 -0.083703086 -23.178358 -28.208363 -110.89766
115894000 -27.797056 -110.37844 -0.086874709 -23.393974 -0.084134318 -23.381018 -28.146708 -111.07959
116893000 -27.719126 -110.98359 -0.086602703 -23.590124 -0.084918767 -23.571035 -28.012074 -111.30434
117892000 -27.643314 -111.52757 -0.086839058 -23.783136 -0.085244521 -23.771158 -27.940107 -111.50044
118891000 -27.579643 -111.89005 -0.086940728 -23.985586 -0.086191557 -23.971573 -27.839172 -111.64465
119890000 -27.490486 -112.25368 -0.088257968 -24.18841 -0.086025208 -24.173878 -27.829739 -111.82996
120889000 -27.438757 -112.78563 -0.089844093 -24.388357 -0.086800501 -24.370483 -27.756329 -111.74371
121888000 -27.395742 -113.1196 -0.089705884 -24.582884 -0.087378882 -24.569643 -27.693785 -112.07462
122887000 -27.359793 -113.31261 -0.090477861 -24.782001 -0.088317141 -24.773674 -27.643141 -112.07977
123886000 -27.302238 -113.72617 -0.090583846 -24.989214 -0.088578686 -24.968925 -27.625753 -112.25439
124885000 -27.269533 -114.2411 -0.091272444 -25.185177 -0.08864817 -25.167469 -27.600073 -112.34851
125884000 -27.212679 -114.42234 -0.092099696 -25.383972 -0.088237099 -25.368729 -27.566244 -112.53098
126883000 -27.196222 -114.82115 -0.092441589 -25.585682 -0.089680515 -25.574909 -27.522884 -112.57457
127882000 -27.146345 -115.13168 -0.09256614 -25.787262 -0.090373985 -25.767363 -27.485752 -112.73671
128881000 -27.110149 -115.46158 -0.093203209 -25.987297 -0.089926809 -25.970598 -27.442177 -112.86057
129880000 -27.053215 -115.7805 -0.093630888 -26.18947 -0.090453282 -26.170025 -27.395653 -112.83832
130879000 -26.995113 -115.88845 -0.09360259 -26.388533 -0.091322936 -26.370651 -27.325798 -112.8774
131878000 -26.926176 -116.14059 -0.094057553 -26.587687 -0.091693848 -26.567892 -27.258829 -112.76308
132877000 -26.863478 -116.20248 -0.093359783 -26.791101 -0.09149795 -26.773262 -27.172415 -112.80576
133876000 -26.77615 -116.38905 -0.093789592 -26.990368 -0.091628022 -26.971167 -27.085073 -112.70483
134875000 -26.678019 -116.48544 -0.094348542 -27.192713 -0.092210755 -27.172314 -26.980017 -112.55852
135874000 -26.601007 -116.50925 -0.094900154 -27.395054 -0.091393255 -27.373859 -26.879387 -112.51478
136873000 -26.483145 -116.45411 -0.094036125 -27.592894 -0.092220537 -27.571472 -26.796789 -112.52209
137872000 -26.410124 -116.57581 -0.095131397 -27.794952 -0.091752812 -27.780167 -26.684967 -112.46709
138871000 -26.339478 -116.80684 -0.095353663 -27.997536 -0.091979392 -27.977018 -26.590296 -112.65073
139870000 -26.233528 -117.01382 -0.09643048 -28.19454 -0.093936138 -28.176157 -26.512867 -112.79904
140869000 -26.153223 -117.50758 -0.09793143 -28.387552 -0.09475331 -28.37108 -26.40218 -112.94977
141868000 -26.050499 -118.01766 -0.097980939 -28.579792 -0.095737092 -28.566412 -26.33959 -113.27679
142867000 -25.978214 -118.25779 -0.096272737 -28.779449 -0.094413355 -28.760626 -26.259272 -113.47009
143866000 -25.907066 -118.75608 -0.097768337 -28.976648 -0.096413538 -28.96311 -26.183872 -113.94186
144865000 -25.856445 -119.29375 -0.099227898 -29.175583 -0.097302921 -29.157553 -26.127325 -114.30647
145864000 -25.796377 -119.60877 -0.099605583 -29.374336 -0.098226644 -29.362698 -26.102554 -114.54167
146863000 -25.747946 -119.97719 -0.10076823 -29.574751 -0.098370165 -29.562954 -26.047096 -114.87975
147862000 -25.706858 -120.34975 -0.10147858 -29.772518 -0.099001996 -29.75853 -26.01412 -115.19464
148861000 -25.678957 -120.8883 -0.10162273 -29.966616 -0.099839993 -29.955536 -25.992079 -115.47846
149860000 -25.665607 -121.06079 -0.10221184 -30.167398 -0.10002886 -30.15299 -25.959526 -115.58401
150859000 -25.648829 -121.4338 -0.10275491 -30.365622 -0.10056265 -30.357832 -25.954048 -115.85173
151858000 -25.629227 -121.74799 -0.10227519 -30.565531 -0.10093832 -30.552998 -25.944799 -116.14359
152857000 -25.611353 -122.05492 -0.10255957 -30.763803 -0.10044714 -30.753222 -25.922731 -116.2804
153856000 -25.607143 -122.31567 -0.10256355 -30.958782 -0.099806353 -30.949322 -25.941177 -116.61528
154855000 -25.599392 -122.4455 -0.10278698 -31.161421 -0.10004608 -31.14665 -25.935944 -116.79644
155854000 -25.61871 -122.74269 -0.10331873 -31.358437 -0.10087951 -31.343267 -25.929073 -117.07853
156853000 -25.601479 -123.41508 -0.10073538 -31.545519 -0.10072929 -31.53994 -25.915689 -117.43716
157852000 -25.603197 -123.62641 -0.1024607 -31.749636 -0.10196564 -31.736519 -25.912685 -117.73038
158851000 -25.595242 -123.87415 -0.10316444 -31.946619 -0.10225796 -31.932671 -25.891695 -117.99442
159850000 -25.589069 -124.01208 -0.10401836 -32.146023 -0.10217739 -32.136436 -25.887257 -118.14908
160849000 -25.563526 -124.13497 -0.103736 -32.344261 -0.10303032 -32.338699 -25.862839 -118.43845
161848000 -25.544874 -124.20714 -0.10359178 -32.543716 -0.10319784 -32.536835 -25.819679 -118.55539
162847000 -25.509731 -124.43377 -0.10432884 -32.742191 -0.10312787 -32.73418 -25.790691 -118.80621
163846000 -25.461901 -124.64697 -0.10403904 -32.942955 -0.10355042 -32.930901 -25.710072 -118.78228
164845000 -25.406576 -124.6708 -0.10388314 -33.13678 -0.10372964 -33.131218 -25.644815 -118.86324
165844000 -25.352163 -124.69927 -0.10512596 -33.340992 -0.10440043 -33.334991 -25.564865 -119.00368
166843000 -25.284319 -124.81841 -0.10415862 -33.539551 -0.1044829 -33.532726 -25.491459 -119.19963
167842000 -25.226791 -124.95949 -0.10450438 -33.741131 -0.10476054 -33.730293 -25.413902 -119.10255
168841000 -25.147011 -125.15929 -0.10532965 -33.934219 -0.10453991 -33.929024 -25.335388 -119.20319
169840000 -25.08222 -125.41293 -0.10504349 -34.130219 -0.10505755 -34.124382 -25.246294 -119.39411
170839000 -25.020645 -125.68928 -0.10622616 -34.328964 -0.10557498 -34.323135 -25.160677 -119.57853
171838000 -24.963013 -126.07723 -0.10592589 -34.527664 -0.10662117 -34.519218 -25.094166 -119.83771
172837000 -24.893002 -126.44557 -0.1077443 -34.720768 -0.10744737 -34.719841 -25.034367 -120.06599
173836000 -24.826151 -126.84934 -0.10909308 -34.921242 -0.10797331 -34.919392 -24.986595 -120.29152
174835000 -24.773481 -127.27731 -0.10892002 -35.114651 -0.10906627 -35.115936 -24.942081 -120.62367
175834000 -24.723774 -127.68848 -0.10995533 -35.31612 -0.10986878 -35.312046 -24.881773 -120.92046
176833000 -24.672594 -128.07014 -0.11074552 -35.5131 -0.10987993 -35.508369 -24.831562 -121.08405
177832000 -24.626183 -128.53604 -0.11100868 -35.709618 -0.11012737 -35.711838 -24.803183 -121.26142
178831000 -24.579632 -128.93103 -0.11180783 -35.908333 -0.1110371 -35.904251 -24.76782 -121.48225
179830000 -24.55064 -129.381 -0.11240098 -36.105942 -0.1116668 -36.100681 -24.742815 -121.6349
180829000 -24.510941 -129.56206 -0.11287147 -36.301811 -0.11262015 -36.299671 -24.716114 -121.82098
181828000 -24.483648 -129.92384 -0.11257605 -36.497551 -0.11239965 -36.49342 -24.69244 -121.9129
182827000 -24.459282 -130.27995 -0.11234254 -36.694305 -0.11232103 -36.691238 -24.678474 -122.00017
183826000 -24.424576 -130.60022 -0.1140685 -36.888695 -0.1124565 -36.889332 -24.669014 -122.12817
184825000 -24.42609 -130.90448 -0.1135947 -37.08437 -0.11320677 -37.086491 -24.658472 -122.25581
185824000 -24.398031 -131.26096 -0.11350249 -37.279823 -0.11367123 -37.281216 -24.649979 -122.2761
186823000 -24.383259 -131.62611 -0.11403582 -37.48172 -0.11401748 -37.479259 -24.649559 -122.27683
187822000 -24.362555 -131.92528 -0.11459976 -37.678226 -0.11428349 -37.677601 -24.611881 -122.33876
188821000 -24.345053 -132.18373 -0.11388753 -37.871563 -0.11403103 -37.874962 -24.595442 -122.44453
189820000 -24.322931 -132.4547 -0.11438077 -38.074902 -0.11447432 -38.072372 -24.589651 -122.604
190819000 -24.297682 -132.70334 -0.11607616 -38.272293 -0.11559363 -38.268688 -24.555927 -122.54847
191818000 -24.265087 -132.85799 -0.11670952 -38.462822 -0.11674675 -38.46714 -24.51903 -122.4496
192817000 -24.194784 -133.14748 -0.11770999 -38.650612 -0.11665075 -38.650864 -24.447674 -122.51465
193816000 -24.155256 -133.50511 -0.11742701 -38.844234 -0.11590521 -38.846806 -24.392677 -122.7674
194815000 -24.09553 -133.94888 -0.11657018 -39.041145 -0.11614396 -39.041401 -24.327314 -122.90069
195814000 -24.04701 -134.17067 -0.11693342 -39.234505 -0.11644654 -39.239578 -24.27669 -123.00185
196813000 -23.994507 -134.51537 -0.11717861 -39.433823 -0.1162208 -39.44035 -24.200373 -123.17068
197812000 -23.94162 -134.74228 -0.11710893 -39.634747 -0.11659358 -39.631256 -24.129673 -123.28664
198811000 -23.886633 -134.91948 -0.11663294 -39.827148 -0.1167026 -39.830177 -24.057417 -123.44489
199810000 -23.814068 -135.31206 -0.1174802 -40.022243 -0.11652737 -40.02113 -23.982672 -123.54162
200809000 -23.753178 -135.59328 -0.1178068 -40.216961 -0.11689407 -40.222267 -23.904642 -123.74437
201808000 -23.698652 -135.83061 -0.11828559 -40.419453 -0.11775228 -40.418926 -23.833134 -123.81928
202807000 -23.638453 -136.2106 -0.118832 -40.622063 -0.11821962 -40.620903 -23.782106 -124.00504
203806000 -23.591253 -136.62648 -0.12039714 -40.821434 -0.11857528 -40.821758 -23.717199 -124.22536
