!Keysight Technologies,E5080B,MY59205177,A.15.75.32
!Date: Friday, February 23, 2024 03:35:32
!Correction: S11(Cdelta 2-Port  ) 
!S21(Cdelta 2-Port  ) 
!S12(Cdelta 2-Port  ) 
!S22(Cdelta 2-Port  ) 
!S2P File: Measurements: S11, S21, S12, S22:
# Hz S  dB   R 50
10000000 -46.147499 -2.9020698 -0.015321201 -2.0461078 -0.01808868 -2.1008308 -45.9706 -157.69
10999000 -45.254337 -4.7995372 -0.016971601 -2.2636456 -0.017920502 -2.3189516 -45.863171 -151.47893
11998000 -44.342663 -7.5887842 -0.017290998 -2.4888682 -0.018486667 -2.534358 -46.079823 -146.99921
12997000 -43.647194 -13.268386 -0.01597744 -2.6687784 -0.017320365 -2.7031739 -45.655167 -141.64659
13996000 -43.316456 -17.187485 -0.015487978 -2.8483229 -0.017644465 -2.8698885 -45.456902 -136.22646
14995000 -42.900249 -21.279116 -0.017639266 -3.058769 -0.017334139 -3.0847654 -45.112873 -132.89717
15994000 -42.733761 -26.031704 -0.018836593 -3.2761505 -0.020233195 -3.300539 -44.96804 -129.4942
16993000 -42.672985 -30.652014 -0.017838625 -3.4717162 -0.019601796 -3.483849 -44.126553 -129.09538
17992000 -42.695618 -36.148235 -0.018109476 -3.6734812 -0.020230856 -3.6768835 -43.628128 -129.17122
18991000 -42.97702 -41.576996 -0.019577092 -3.8839884 -0.020564275 -3.8803594 -42.944801 -128.21086
19990000 -42.685654 -46.973747 -0.021509539 -4.0918117 -0.023064964 -4.0899978 -42.315178 -128.90878
20989000 -42.530262 -50.568733 -0.023823885 -4.2976484 -0.024991414 -4.2857876 -41.759411 -128.28249
21988000 -42.400917 -55.704372 -0.024345264 -4.4965806 -0.025560062 -4.4808259 -41.513512 -127.53936
22987000 -42.039078 -60.373928 -0.025549127 -4.6922078 -0.026909081 -4.6864119 -41.239914 -127.01836
23986000 -41.971737 -64.537567 -0.025191631 -4.886085 -0.025095556 -4.8858147 -41.147976 -126.86078
24985000 -41.582039 -67.382423 -0.026436877 -5.1014543 -0.025894674 -5.0965533 -40.919914 -124.39024
25984000 -41.21669 -69.329254 -0.026787443 -5.3018742 -0.026734831 -5.3062439 -40.572906 -123.11395
26983000 -40.881504 -71.229599 -0.027866669 -5.5007515 -0.027199773 -5.521699 -40.501286 -122.06609
27982000 -40.754841 -72.013107 -0.029662585 -5.7045507 -0.028260341 -5.7358084 -40.224735 -120.52866
28981000 -40.713352 -73.553108 -0.027226344 -5.9006481 -0.028603759 -5.925179 -39.948929 -120.016
29980000 -40.279411 -74.983864 -0.02697498 -6.0984941 -0.028919581 -6.0988617 -39.740971 -119.01721
30979000 -39.950806 -73.787407 -0.025078373 -6.4484334 -0.023814775 -6.4374905 -39.207668 -119.52603
31978000 -39.715702 -74.797592 -0.024338756 -6.6431751 -0.024438718 -6.6353784 -38.962456 -118.87828
32977000 -39.538773 -76.260475 -0.024448872 -6.8549008 -0.025052598 -6.8527579 -38.721714 -118.88889
33976000 -39.37291 -77.369034 -0.025061188 -7.0542388 -0.025696509 -7.0483656 -38.436707 -118.36956
34975000 -39.046364 -78.160713 -0.025387689 -7.2567472 -0.026356662 -7.2531881 -38.211674 -117.84862
35974000 -38.876606 -78.89328 -0.024743304 -7.4488449 -0.02604311 -7.450057 -37.961445 -116.9949
36973000 -38.651485 -79.366455 -0.024738358 -7.6534209 -0.027792159 -7.6553078 -37.662266 -116.04318
37972000 -38.467999 -79.330116 -0.024776628 -7.8581462 -0.027171642 -7.8685212 -37.447235 -115.25249
38971000 -38.146496 -78.700508 -0.025202306 -8.0594501 -0.028149089 -8.074398 -37.279705 -113.62638
39970000 -37.82365 -79.247795 -0.024228904 -8.2566013 -0.026218895 -8.277441 -37.047794 -113.06668
40969000 -37.538197 -78.652603 -0.024475424 -8.4549875 -0.025577769 -8.4705038 -36.794788 -111.562
41968000 -37.183929 -78.692429 -0.024719873 -8.6559248 -0.026212905 -8.6728535 -36.596615 -110.64329
42967000 -36.930382 -78.659363 -0.024108384 -8.8670721 -0.02665982 -8.8886099 -36.413017 -108.63422
43966000 -36.629471 -79.529816 -0.02512758 -9.0688829 -0.027768973 -9.0868902 -36.150394 -107.79253
44965000 -36.387009 -80.146278 -0.024939604 -9.2690754 -0.027881259 -9.2914486 -35.929569 -107.71803
45964000 -36.168602 -81.224556 -0.027545974 -9.4711828 -0.028981604 -9.491581 -35.702072 -107.35226
46963000 -35.966534 -83.102417 -0.026628565 -9.6677952 -0.029899247 -9.6865864 -35.514027 -107.57991
47962000 -35.796124 -84.63401 -0.027563166 -9.8705063 -0.030922933 -9.8855753 -35.320168 -107.57494
48961000 -35.577412 -85.890495 -0.030535014 -10.065075 -0.03280462 -10.085034 -35.084419 -107.74374
49960000 -35.336758 -87.250465 -0.031473063 -10.265596 -0.033860035 -10.287021 -34.944546 -107.77206
50959000 -35.130836 -88.610428 -0.032762889 -10.478855 -0.034837686 -10.488121 -34.776997 -108.11815
51958000 -34.916687 -89.652557 -0.034375835 -10.677665 -0.036155391 -10.687842 -34.592957 -108.50586
52957000 -34.69735 -90.59552 -0.035668612 -10.87723 -0.037093613 -10.886815 -34.429241 -108.23526
53956000 -34.530144 -91.288292 -0.036729421 -11.079822 -0.037848201 -11.079925 -34.291302 -108.26672
54955000 -34.357594 -91.755661 -0.037419192 -11.28035 -0.03857889 -11.277425 -34.151413 -108.22631
55954000 -34.181046 -92.52887 -0.039381016 -11.482344 -0.039030999 -11.480304 -34.037441 -107.91116
56953000 -34.085369 -92.605919 -0.038532924 -11.680315 -0.037467495 -11.673222 -33.964958 -108.1263
57952000 -33.912739 -93.149261 -0.039359335 -11.877589 -0.038907453 -11.867745 -33.881233 -108.10083
58951000 -33.789268 -93.464363 -0.040394399 -12.081378 -0.040002499 -12.066401 -33.73159 -108.26997
59950000 -33.661816 -93.852219 -0.041648716 -12.284315 -0.041495305 -12.263916 -33.649132 -108.58021
60949000 -33.536316 -94.444405 -0.042165965 -12.486493 -0.041457411 -12.462883 -33.551468 -108.8454
61948000 -33.489819 -94.754272 -0.042350248 -12.685269 -0.041338239 -12.668066 -33.462563 -108.8371
62947000 -33.393082 -94.940514 -0.042406708 -12.89495 -0.041667532 -12.877699 -33.31839 -109.16872
63946000 -33.315754 -95.688156 -0.042918038 -13.094067 -0.043352034 -13.073425 -33.214016 -109.31625
64945000 -33.209389 -95.844933 -0.043867134 -13.291927 -0.043693248 -13.279579 -33.100346 -109.70406
65944000 -33.101593 -96.170502 -0.045015737 -13.496636 -0.043763585 -13.478432 -33.003883 -110.19669
66943000 -32.957127 -96.494362 -0.042559631 -13.69788 -0.042584464 -13.682096 -32.894302 -110.47157
67942000 -32.905384 -96.453598 -0.043979835 -13.895355 -0.044579484 -13.881987 -32.780434 -110.74638
68941000 -32.796124 -96.673027 -0.043850921 -14.087092 -0.042980779 -14.078315 -32.659309 -110.77192
69940000 -32.694832 -96.551704 -0.044320054 -14.28317 -0.044950612 -14.280105 -32.525539 -110.98641
70939000 -32.592171 -96.50946 -0.044345945 -14.478814 -0.04407502 -14.474848 -32.388035 -110.86902
71938000 -32.443672 -96.062477 -0.044408709 -14.679774 -0.043993171 -14.677464 -32.259586 -110.74877
72937000 -32.293995 -95.935753 -0.043807253 -14.877608 -0.043250326 -14.875052 -32.121166 -110.47968
73936000 -32.150654 -95.615112 -0.043959178 -15.078237 -0.042739484 -15.071868 -31.998373 -110.24346
74935000 -32.020512 -95.804497 -0.043290328 -15.275479 -0.041660476 -15.271097 -31.858824 -109.89323
75934000 -31.898878 -96.09269 -0.043107316 -15.484502 -0.041823044 -15.479354 -31.770727 -109.84463
76933000 -31.763628 -96.402443 -0.044337053 -15.677142 -0.043746326 -15.670524 -31.601192 -110.12726
77932000 -31.665432 -97.184685 -0.045644566 -15.874483 -0.045235191 -15.866957 -31.49287 -110.0888
78931000 -31.589556 -97.890701 -0.043844644 -16.073997 -0.044254676 -16.068962 -31.395428 -109.97801
79930000 -31.475315 -98.771378 -0.046622779 -16.269386 -0.046214357 -16.262964 -31.297262 -110.30737
80929000 -31.370005 -99.541481 -0.047975477 -16.465336 -0.047549918 -16.464752 -31.204975 -110.55513
81928000 -31.263224 -100.25238 -0.048813634 -16.654026 -0.048830651 -16.65443 -31.078726 -110.54571
82927000 -31.167599 -100.97026 -0.050217032 -16.854254 -0.050189011 -16.852453 -30.964434 -110.85472
83926000 -31.051708 -101.70171 -0.052157663 -17.052002 -0.050558787 -17.052197 -30.84668 -111.00184
84925000 -30.941957 -102.10381 -0.052297041 -17.253384 -0.051721737 -17.251116 -30.750113 -111.0873
85924000 -30.846924 -102.50588 -0.053330474 -17.453058 -0.052523151 -17.45104 -30.671089 -111.02851
86923000 -30.746815 -102.97215 -0.05257922 -17.648411 -0.052047368 -17.64489 -30.566841 -110.8618
87922000 -30.627199 -103.35497 -0.053078644 -17.857204 -0.052109193 -17.845934 -30.482512 -110.91783
88921000 -30.551918 -103.54491 -0.054557342 -18.057701 -0.053271249 -18.05308 -30.383205 -110.86121
89920000 -30.456108 -104.07021 -0.055178378 -18.253923 -0.054020267 -18.248848 -30.338142 -111.0294
90919000 -30.346004 -104.32703 -0.05616346 -18.454802 -0.054542139 -18.450907 -30.245897 -111.19982
91918000 -30.253466 -104.68742 -0.057277028 -18.654991 -0.054747652 -18.649719 -30.180826 -111.15972
92917000 -30.168734 -105.00818 -0.058116194 -18.852942 -0.055924837 -18.84968 -30.110682 -111.32425
93916000 -30.08222 -105.33933 -0.057049099 -19.046431 -0.055691212 -19.037895 -30.025238 -111.89854
94915000 -30.01108 -105.97633 -0.058726195 -19.244949 -0.056892779 -19.238323 -29.965897 -111.75677
95914000 -29.938406 -106.19872 -0.059839368 -19.440359 -0.057961937 -19.438238 -29.877577 -112.00884
96913000 -29.850763 -106.39757 -0.060865935 -19.641939 -0.058901731 -19.638439 -29.810247 -112.40619
97912000 -29.778326 -106.84545 -0.062115151 -19.837994 -0.058918789 -19.836569 -29.735506 -112.58721
98911000 -29.674105 -107.02697 -0.062072352 -20.036877 -0.05994435 -20.037691 -29.69809 -112.81
99910000 -29.606752 -107.13581 -0.062724665 -20.239103 -0.060866985 -20.239738 -29.585913 -113.14808
100909000 -29.514101 -107.3513 -0.062525861 -20.449833 -0.060207076 -20.439596 -29.498751 -113.36797
101908000 -29.426325 -107.63773 -0.063160382 -20.646965 -0.061159171 -20.646492 -29.379501 -113.09008
102907000 -29.29438 -107.63341 -0.064129941 -20.848127 -0.061654333 -20.845308 -29.312847 -113.0927
103906000 -29.19503 -107.69074 -0.064498536 -21.051552 -0.061809774 -21.050467 -29.17429 -113.0478
104905000 -29.05047 -107.55855 -0.064371109 -21.25387 -0.062066313 -21.254541 -29.043083 -112.76422
105904000 -28.908045 -107.65634 -0.064693227 -21.455996 -0.061564013 -21.447491 -28.935566 -112.58361
106903000 -28.796772 -107.73153 -0.064883985 -21.66044 -0.06238379 -21.654242 -28.809841 -112.50083
107902000 -28.635748 -108.05155 -0.065760627 -21.859241 -0.062920325 -21.854445 -28.671743 -112.46082
108901000 -28.524998 -108.28014 -0.066704214 -22.058882 -0.063993327 -22.056746 -28.544975 -112.45757
109900000 -28.392454 -108.76488 -0.067608044 -22.259504 -0.065703332 -22.256495 -28.401461 -112.49286
110899000 -28.279736 -109.34069 -0.069400482 -22.457605 -0.065645516 -22.451488 -28.270697 -112.77784
111898000 -28.187475 -110.02874 -0.070221469 -22.662292 -0.066894002 -22.65406 -28.15361 -112.89729
112897000 -28.063423 -110.5074 -0.071883664 -22.860001 -0.067532055 -22.849083 -28.020378 -113.05997
113896000 -27.960833 -111.10543 -0.072775409 -23.060694 -0.069253184 -23.048662 -27.91275 -113.17895
114895000 -27.851332 -111.78244 -0.073688924 -23.260456 -0.070754766 -23.247009 -27.801468 -113.26237
115894000 -27.737019 -112.09232 -0.075157799 -23.458214 -0.071627855 -23.44738 -27.735535 -113.41597
116893000 -27.659212 -112.56758 -0.075475447 -23.655445 -0.072704338 -23.642344 -27.609783 -113.47842
117892000 -27.575489 -113.08111 -0.075678006 -23.853025 -0.072822265 -23.84026 -27.536844 -113.72979
118891000 -27.513824 -113.48363 -0.075676158 -24.056299 -0.072083421 -24.041893 -27.437855 -113.79517
119890000 -27.428635 -113.83804 -0.076466992 -24.260954 -0.074113369 -24.243382 -27.422302 -113.95937
120889000 -27.37467 -114.33006 -0.078295507 -24.454111 -0.074228436 -24.44273 -27.358324 -113.91042
121888000 -27.34416 -114.66025 -0.078223027 -24.653841 -0.074127063 -24.639357 -27.297806 -114.15741
122887000 -27.301577 -114.86263 -0.078958437 -24.856413 -0.075509161 -24.844622 -27.251263 -114.18616
123886000 -27.246922 -115.24663 -0.078934707 -25.06036 -0.075379312 -25.041197 -27.23324 -114.29146
124885000 -27.216705 -115.77464 -0.079488054 -25.260939 -0.076104224 -25.243862 -27.207478 -114.33529
125884000 -27.158268 -115.96233 -0.080469705 -25.455494 -0.076520212 -25.444778 -27.179098 -114.50901
126883000 -27.145376 -116.35785 -0.081508808 -25.658834 -0.077471934 -25.643585 -27.140797 -114.5133
127882000 -27.095955 -116.63469 -0.081367962 -25.860889 -0.077885941 -25.842211 -27.105267 -114.63727
128881000 -27.068792 -116.98936 -0.081184655 -26.063421 -0.077798449 -26.044077 -27.062223 -114.73656
129880000 -27.013248 -117.28465 -0.081919774 -26.26499 -0.077649288 -26.245951 -27.018517 -114.69732
130879000 -26.955702 -117.43329 -0.081758335 -26.462908 -0.078605473 -26.446533 -26.953836 -114.71852
131878000 -26.888247 -117.6952 -0.081799753 -26.664429 -0.07904622 -26.646475 -26.891346 -114.6106
132877000 -26.821445 -117.72269 -0.081788935 -26.869686 -0.079556338 -26.845957 -26.807501 -114.56121
133876000 -26.735819 -117.90908 -0.082126856 -27.070824 -0.079107642 -27.048143 -26.727081 -114.47552
134875000 -26.641945 -118.01524 -0.082136616 -27.270622 -0.080140091 -27.249523 -26.63312 -114.2782
135874000 -26.566271 -118.07609 -0.082687996 -27.466702 -0.079895929 -27.451412 -26.534313 -114.24649
136873000 -26.453911 -118.00117 -0.083290108 -27.671946 -0.079650462 -27.654753 -26.448179 -114.20853
137872000 -26.372061 -118.13673 -0.083141811 -27.873299 -0.079752758 -27.857132 -26.349125 -114.16933
138871000 -26.299591 -118.3383 -0.083410434 -28.07308 -0.079864286 -28.057604 -26.252115 -114.30362
139870000 -26.196657 -118.64198 -0.084440477 -28.272354 -0.08159823 -28.25568 -26.170401 -114.47513
140869000 -26.121803 -119.19396 -0.085308671 -28.4702 -0.081260875 -28.449976 -26.075644 -114.67437
141868000 -26.043282 -119.56593 -0.085617289 -28.670425 -0.08348538 -28.656359 -26.021582 -114.9454
142867000 -25.95997 -119.7403 -0.084593304 -28.867788 -0.082488008 -28.849916 -25.942869 -115.06842
143866000 -25.889479 -120.24581 -0.086625151 -29.062017 -0.083640277 -29.044317 -25.871546 -115.51734
144865000 -25.832127 -120.7636 -0.087785117 -29.261976 -0.08514183 -29.248512 -25.811562 -115.7852
145864000 -25.776358 -121.07009 -0.088325858 -29.463404 -0.086119473 -29.450438 -25.780289 -116.07381
146863000 -25.728601 -121.42758 -0.089587495 -29.663563 -0.086245164 -29.653284 -25.73197 -116.3745
147862000 -25.690872 -121.78448 -0.090198494 -29.861868 -0.087520719 -29.846964 -25.697966 -116.67217
148861000 -25.653921 -122.18478 -0.090890728 -30.058372 -0.088791102 -30.050589 -25.677002 -116.83276
149860000 -25.621733 -122.3805 -0.092070617 -30.249491 -0.08916761 -30.239618 -25.622105 -116.92339
150859000 -25.597853 -122.83989 -0.091559812 -30.450302 -0.089323774 -30.435043 -25.601688 -117.26749
151858000 -25.585169 -123.17947 -0.091277204 -30.651796 -0.088937476 -30.63459 -25.594748 -117.6479
152857000 -25.576553 -123.49672 -0.091689356 -30.84762 -0.088954911 -30.837809 -25.578991 -117.80949
153856000 -25.571674 -123.70586 -0.091539718 -31.046629 -0.087656744 -31.036594 -25.589407 -118.11336
154855000 -25.566374 -123.89388 -0.091156922 -31.250784 -0.087815762 -31.237547 -25.584057 -118.33827
155854000 -25.581833 -124.11748 -0.091747254 -31.450819 -0.089308977 -31.439383 -25.573093 -118.60543
156853000 -25.571062 -124.8092 -0.08982718 -31.633957 -0.088193245 -31.628599 -25.572821 -118.94068
157852000 -25.578138 -125.02574 -0.090938576 -31.837183 -0.089629248 -31.831495 -25.556698 -119.30778
158851000 -25.573952 -125.25558 -0.091841117 -32.037552 -0.089939497 -32.030128 -25.547569 -119.56004
159850000 -25.56419 -125.37699 -0.092150994 -32.234303 -0.089990765 -32.226505 -25.53883 -119.7186
160849000 -25.546169 -125.46618 -0.092156813 -32.437042 -0.091323994 -32.429279 -25.508907 -120.03585
161848000 -25.532944 -125.55804 -0.092877656 -32.638996 -0.090712309 -32.631516 -25.471289 -120.13922
162847000 -25.490089 -125.7194 -0.092656046 -32.834759 -0.091536015 -32.829956 -25.447222 -120.39279
163846000 -25.452658 -125.93587 -0.093033426 -33.034195 -0.091596298 -33.02787 -25.369005 -120.38477
164845000 -25.392805 -125.89059 -0.093269594 -33.236366 -0.091877334 -33.228413 -25.301191 -120.49794
165844000 -25.34034 -125.96059 -0.094119981 -33.434509 -0.092765793 -33.428417 -25.225136 -120.64714
166843000 -25.279081 -126.00433 -0.092808373 -33.635525 -0.092090711 -33.627014 -25.157429 -120.77872
167842000 -25.216581 -126.12534 -0.093668975 -33.835613 -0.092761301 -33.82589 -25.07757 -120.7238
168841000 -25.141766 -126.2752 -0.094421819 -34.033504 -0.092822649 -34.025883 -25.004679 -120.78349
169840000 -25.073059 -126.48206 -0.094407536 -34.229851 -0.094062574 -34.225441 -24.922565 -120.95274
170839000 -25.018436 -126.74161 -0.095373772 -34.429546 -0.094386369 -34.423241 -24.839787 -121.14246
171838000 -24.960413 -127.11451 -0.095315561 -34.631382 -0.094698548 -34.621353 -24.776949 -121.35801
172837000 -24.888346 -127.47375 -0.096310318 -34.826714 -0.095703751 -34.81773 -24.711462 -121.56756
173836000 -24.821383 -127.85953 -0.097563155 -35.025585 -0.09685 -35.021828 -24.670795 -121.78806
174835000 -24.768894 -128.25731 -0.098181896 -35.219711 -0.097389489 -35.221462 -24.621998 -122.08411
175834000 -24.717255 -128.64697 -0.098894477 -35.420811 -0.098583587 -35.41774 -24.565578 -122.35719
176833000 -24.664942 -128.99263 -0.10063311 -35.619667 -0.099142887 -35.618153 -24.520809 -122.50999
177832000 -24.619595 -129.38617 -0.10122395 -35.819256 -0.09961538 -35.818378 -24.495823 -122.60444
178831000 -24.573675 -129.63548 -0.10230222 -36.016388 -0.10172502 -36.012352 -24.46059 -122.69864
179830000 -24.506573 -130.02415 -0.1038394 -36.198166 -0.10211723 -36.202003 -24.396008 -122.75786
180829000 -24.458017 -130.38499 -0.10316815 -36.395256 -0.10156258 -36.395081 -24.352484 -123.09513
181828000 -24.435818 -130.77448 -0.10192404 -36.594952 -0.10127985 -36.587769 -24.335196 -123.26483
182827000 -24.407732 -131.157 -0.10180744 -36.789696 -0.10109571 -36.78743 -24.322065 -123.4206
183826000 -24.373226 -131.48262 -0.10273185 -36.986931 -0.10134954 -36.982464 -24.312271 -123.55281
184825000 -24.376453 -131.86473 -0.10291209 -37.184658 -0.10193092 -37.187084 -24.294857 -123.68245
185824000 -24.348873 -132.19691 -0.10296351 -37.377453 -0.1019243 -37.381992 -24.287895 -123.71149
186823000 -24.332342 -132.59763 -0.10331422 -37.581432 -0.10187422 -37.577343 -24.282911 -123.74883
187822000 -24.30332 -132.90166 -0.10370392 -37.777107 -0.1023971 -37.777962 -24.245886 -123.817
188821000 -24.286409 -133.16736 -0.10325828 -37.972836 -0.10259932 -37.979046 -24.225994 -123.97009
189820000 -24.268156 -133.45798 -0.1032832 -38.17416 -0.10269501 -38.173126 -24.20808 -124.15475
190819000 -24.234449 -133.76013 -0.10370975 -38.366974 -0.10345737 -38.37009 -24.168936 -124.19638
191818000 -24.204395 -134.07867 -0.10405681 -38.567829 -0.10352073 -38.570087 -24.145594 -124.22512
192817000 -24.155321 -134.36293 -0.10480508 -38.762733 -0.10360821 -38.765823 -24.099039 -124.29152
193816000 -24.127123 -134.57526 -0.10403135 -38.960796 -0.10313211 -38.960377 -24.0509 -124.46532
194815000 -24.063595 -134.96851 -0.10503554 -39.158791 -0.10444392 -39.16048 -23.984993 -124.52676
195814000 -24.010387 -135.18944 -0.10561503 -39.353157 -0.10458764 -39.357468 -23.931805 -124.58888
196813000 -23.958244 -135.4875 -0.10541054 -39.548 -0.1044007 -39.551704 -23.849619 -124.75234
197812000 -23.901308 -135.73819 -0.10575826 -39.747169 -0.10483797 -39.749371 -23.780054 -124.83012
198811000 -23.845448 -135.88713 -0.10540126 -39.941387 -0.10467329 -39.943886 -23.713556 -125.01349
199810000 -23.774031 -136.23396 -0.10546332 -40.133381 -0.10515832 -40.135769 -23.631283 -125.10458
200809000 -23.720282 -136.51337 -0.10673286 -40.336781 -0.10523921 -40.338196 -23.556896 -125.29947
201808000 -23.665249 -136.70047 -0.10748479 -40.533596 -0.10621237 -40.53878 -23.492569 -125.35508
202807000 -23.602533 -137.01662 -0.10746992 -40.733345 -0.10676973 -40.739681 -23.43652 -125.5718
